!Keysight	Technologies	PLTS	"2017U1,"	Build	20170704.1			
!Deembedding/AFR	applied							
!FILE:	I:\CONE\04_Data\MLF\05_frequency	characteristic\190225_MLF_GRR\#5	(Sheet2_Address3-4)\Pin1\mating_5_pin1_n1.s2p					
!$DUT_CFG_DESC:	Default	2-Port	Configuration					
!$NUMBER_PORTS:	2							
!$DIFF_PORT_MAP:	1|1P|2|1P|							
!$PORT_MAP:	1|1|<<<<<<|2|2|>>>>>>|							
!Date:	"Friday,"	March	"29,"	"2019,"	12:45:22			
!S2P	File:	Measurements:	"S11,S21,S12,S22:"					
#	MHz	S	RI	R	50			
10	-0.032119408	0.0041856	0.999348528	-0.003852597	0.999299532	-0.002791268	-0.028589158	0.00482728
20	-0.030853112	0.00480578	0.99919121	-0.008732682	0.999031753	-0.00832769	-0.026784899	0.005887299
30	-0.029967404	0.005928552	0.998653154	-0.012679579	0.998460004	-0.013140037	-0.026035497	0.006624159
40	-0.028671797	0.007211046	0.998969238	-0.016961869	0.998619274	-0.016663351	-0.025609222	0.007304994
50	-0.028133369	0.008262756	0.99874738	-0.021035683	0.998577339	-0.021023471	-0.024660984	0.009040693
60	-0.027219662	0.009227529	0.998612241	-0.025205266	0.998151585	-0.02513688	-0.023699616	0.010068301
70	-0.026165595	0.010176172	0.998302368	-0.029324481	0.998029404	-0.029486409	-0.022353818	0.010629252
80	-0.025211295	0.010826283	0.997990381	-0.033364823	0.997881493	-0.033408904	-0.021780975	0.011024162
90	-0.024636232	0.011065061	0.998021155	-0.037565175	0.997771787	-0.037652018	-0.021102699	0.011489587
100	-0.023846852	0.011618515	0.997674566	-0.041752636	0.997531629	-0.04182826	-0.02047992	0.011771716
110	-0.023109851	0.012342788	0.997480183	-0.045876986	0.997287882	-0.045832175	-0.019805442	0.012308817
120	-0.022157984	0.012807379	0.997140895	-0.049923236	0.99700334	-0.049993175	-0.019186345	0.012592959
130	-0.021237538	0.013120526	0.996887854	-0.054076418	0.996900151	-0.054013583	-0.018325228	0.012598843
140	-0.020521705	0.013313736	0.996540178	-0.058069789	0.996690255	-0.057924987	-0.017642425	0.01273671
150	-0.019826098	0.013237455	0.996229763	-0.062198605	0.996338324	-0.062256725	-0.016998741	0.012912813
160	-0.01926026	0.013684444	0.995971787	-0.066291852	0.995964091	-0.066204233	-0.016392648	0.013195502
170	-0.018642512	0.014034455	0.995659608	-0.070472666	0.995540041	-0.070392119	-0.015648622	0.013586943
180	-0.017917777	0.014328764	0.995455694	-0.074410019	0.995270896	-0.074433639	-0.01485995	0.013625807
190	-0.017263626	0.014210994	0.994844467	-0.078809598	0.994555909	-0.078631615	-0.01439093	0.013865465
200	-0.016674785	0.014328769	0.994629399	-0.08257618	0.994622455	-0.082607468	-0.014004437	0.013966385
210	-0.016182948	0.014495912	0.994101551	-0.086733454	0.994001036	-0.086631058	-0.013672312	0.014216151
220	-0.015867191	0.014354022	0.993833784	-0.090800037	0.993581961	-0.090630009	-0.013113303	0.01429356
230	-0.015137303	0.014495669	0.993220568	-0.094817878	0.993107906	-0.094738261	-0.012828404	0.014186479
240	-0.014609861	0.014458938	0.992674359	-0.098914288	0.992605533	-0.098839825	-0.0119118	0.014080037
250	-0.013963563	0.014348916	0.992259704	-0.102932457	0.992164414	-0.102964771	-0.011985835	0.013704755
260	-0.013438131	0.013861402	0.991777133	-0.107155789	0.991429901	-0.107190992	-0.011215754	0.014020258
270	-0.013108265	0.014037268	0.991471039	-0.110878808	0.99136116	-0.111172271	-0.010653368	0.013884578
280	-0.012451048	0.014410432	0.990590866	-0.115064426	0.990510146	-0.115085326	-0.010343585	0.013787987
290	-0.012472238	0.014143107	0.989963403	-0.119226277	0.98975253	-0.119254367	-0.009825302	0.01376844
300	-0.011885847	0.013822785	0.989557073	-0.123490803	0.989088588	-0.123338457	-0.009660818	0.013785949
310	-0.01180221	0.01383683	0.988898851	-0.127395939	0.988540075	-0.127065097	-0.009686825	0.013643613
320	-0.011507396	0.013920177	0.988583927	-0.131372999	0.988314909	-0.131260241	-0.009194699	0.013476736
330	-0.011039481	0.01354046	0.987779241	-0.135368592	0.987606461	-0.135456531	-0.009012915	0.013398364
340	-0.010723531	0.013591693	0.987110092	-0.139391936	0.986928192	-0.139579381	-0.008864841	0.013283953
350	-0.01074594	0.013300461	0.986597078	-0.143499844	0.986483473	-0.143384583	-0.008472453	0.012931514
360	-0.010262751	0.013257868	0.985807148	-0.147475854	0.985728909	-0.147397452	-0.008151285	0.013209273
370	-0.010257866	0.013510887	0.985151365	-0.151443876	0.98508674	-0.15137259	-0.007944128	0.013030595
380	-0.009770651	0.013551163	0.984400062	-0.155278245	0.984290652	-0.155178237	-0.007348174	0.012966028
390	-0.009666385	0.013159413	0.984037631	-0.159518257	0.983783145	-0.159460863	-0.006907073	0.01304034
400	-0.009446084	0.013222344	0.983144164	-0.163418789	0.983103363	-0.163158022	-0.00655799	0.012771474
410	-0.009216387	0.013108387	0.982366339	-0.167367491	0.982330637	-0.167082934	-0.006562153	0.01285562
420	-0.009013986	0.013208194	0.981532257	-0.171337034	0.981400546	-0.171284284	-0.006505374	0.012924977
430	-0.008604383	0.01332853	0.980881254	-0.175533503	0.980847471	-0.175276364	-0.006192782	0.012893984
440	-0.008454255	0.012880579	0.979898584	-0.179284982	0.980050792	-0.179264818	-0.005981849	0.012869631
450	-0.00835116	0.012775854	0.979264403	-0.183376343	0.979255218	-0.18322684	-0.005946031	0.012697472
460	-0.008099329	0.012873329	0.978405167	-0.18723693	0.978527037	-0.187317118	-0.005684082	0.012622824
470	-0.007946461	0.012699541	0.977363923	-0.191209653	0.977478297	-0.191062307	-0.005642852	0.012344785
480	-0.007637727	0.012715156	0.976638006	-0.195201251	0.976585367	-0.195207906	-0.005393145	0.012426306
490	-0.007540262	0.012569327	0.975861973	-0.199062107	0.975856971	-0.199003785	-0.005113083	0.012321592
500	-0.007180687	0.012587532	0.974903179	-0.203033536	0.974914066	-0.20290958	-0.004644437	0.012209494
510	-0.007091573	0.012477752	0.974059255	-0.207243924	0.97393476	-0.207137305	-0.00450925	0.012004165
520	-0.007017502	0.012497928	0.973035872	-0.211022067	0.973091624	-0.210965163	-0.004315695	0.012248778
530	-0.006815169	0.01255106	0.972278931	-0.214988861	0.972279452	-0.214940741	-0.004326604	0.012295422
540	-0.006873807	0.012709928	0.97117836	-0.219149305	0.971093423	-0.218806344	-0.004042113	0.012055857
550	-0.006355772	0.012860263	0.970301741	-0.222766376	0.969995297	-0.222833255	-0.003778391	0.012242886
560	-0.006317587	0.012345855	0.96931829	-0.226927637	0.96918916	-0.226746284	-0.003792663	0.012104613
570	-0.006293189	0.012557468	0.968267412	-0.230587135	0.968246399	-0.23051213	-0.003529162	0.011936432
580	-0.006117318	0.012258381	0.967247679	-0.234473096	0.966988473	-0.234441532	-0.003622352	0.011787101
590	-0.006209344	0.012211797	0.966315625	-0.2385179	0.966130365	-0.238322264	-0.003554679	0.012035964
600	-0.005984604	0.012322366	0.965328074	-0.242381632	0.96507844	-0.242295496	-0.003153934	0.011827019
610	-0.005357772	0.012261306	0.964136097	-0.246181547	0.964233452	-0.246452727	-0.002826863	0.011655998
620	-0.005014425	0.012008608	0.963243919	-0.250235837	0.963021691	-0.250137377	-0.002497595	0.011623293
630	-0.004935142	0.012295202	0.962114063	-0.254092094	0.961945527	-0.253981312	-0.002619785	0.011681759
640	-0.004943306	0.012131004	0.961100226	-0.257975568	0.960843908	-0.258039092	-0.002451914	0.011677114
650	-0.00472458	0.012388788	0.960078048	-0.261841601	0.960071788	-0.261791647	-0.002208371	0.011974199
660	-0.004461348	0.012346291	0.958817516	-0.265727141	0.958562951	-0.265603807	-0.001837256	0.01177724
670	-0.004355897	0.012371018	0.957670982	-0.269543782	0.957429115	-0.269526203	-0.001877427	0.011793881
680	-0.004196994	0.012401611	0.956432133	-0.273306622	0.956565185	-0.273322792	-0.001943445	0.011798404
690	-0.004020116	0.012178378	0.955450661	-0.277366407	0.955576561	-0.277288852	-0.001718594	0.011717804
700	-0.003956941	0.011973335	0.954157511	-0.281142776	0.954149744	-0.280945573	-0.001597363	0.011475547
710	-0.003849757	0.012044135	0.952890692	-0.284879319	0.952922102	-0.284893782	-0.001400015	0.011606881
720	-0.003752769	0.012030267	0.951835043	-0.288837505	0.951913885	-0.288785953	-0.001096338	0.011387048
730	-0.003433429	0.012156928	0.95048571	-0.292575427	0.950492235	-0.292683499	-0.000829236	0.011286312
740	-0.002919269	0.011903162	0.949381539	-0.296467691	0.949426513	-0.29649974	-0.00066378	0.011100405
750	-0.002857745	0.011864007	0.948234821	-0.300427612	0.948228887	-0.300276773	-0.000607168	0.011183432
760	-0.002705647	0.011982463	0.946837233	-0.304115197	0.946688947	-0.304093998	-0.000528139	0.011288471
770	-0.002590099	0.011844828	0.945510853	-0.307904782	0.945490096	-0.307866083	-0.000398187	0.011473975
780	-0.002573805	0.011904581	0.944319629	-0.311702252	0.94406866	-0.311662352	-0.000316346	0.011398789
790	-0.002356403	0.012028189	0.942934185	-0.315531699	0.942895005	-0.315544756	-0.000336673	0.011275989
800	-0.002087118	0.011992901	0.941538866	-0.319259713	0.941546865	-0.319322524	-0.000208192	0.01116196
810	-0.00178959	0.011972396	0.939935492	-0.323062312	0.940046066	-0.322950261	-3.34E-05	0.011205523
820	-0.001874194	0.011826504	0.938732385	-0.326886957	0.938589392	-0.326845613	0.000108985	0.011155751
830	-0.001750348	0.011548535	0.937518675	-0.330742862	0.937441713	-0.330665118	0.000427813	0.010936609
840	-0.001696045	0.011600882	0.935878529	-0.334518687	0.935717467	-0.334408259	0.000566766	0.010715346
850	-0.001262462	0.011696839	0.934379033	-0.338049393	0.934174403	-0.337915621	0.000796809	0.01062768
860	-0.001055236	0.011448824	0.933013066	-0.341847047	0.933017623	-0.341805313	0.001095572	0.010694414
870	-0.000902632	0.011323406	0.931579611	-0.345675704	0.931399263	-0.345551453	0.00122971	0.010668009
880	-0.000969495	0.011089358	0.930140181	-0.349385455	0.929863904	-0.349304827	0.001449251	0.010610436
890	-0.000877407	0.011521518	0.928746821	-0.353038465	0.928463118	-0.352890007	0.001610315	0.010598433
900	-0.000649342	0.011501596	0.927159097	-0.356866544	0.927267246	-0.356780151	0.001687845	0.010400952
910	-0.000477146	0.011658523	0.925679375	-0.360536451	0.925669103	-0.360506587	0.001825439	0.010465851
920	-0.000287181	0.011350832	0.924280674	-0.36436503	0.924316452	-0.364248851	0.001826789	0.010293001
930	-0.00021091	0.011251458	0.922602499	-0.36802206	0.92269222	-0.367963027	0.001959962	0.010126273
940	-2.59E-05	0.010939776	0.921109693	-0.371572465	0.921146285	-0.371603677	0.002106788	0.010038996
950	-9.04E-05	0.010826	0.919609178	-0.375363109	0.91977446	-0.37548039	0.002400117	0.009704549
960	0.000121302	0.01066339	0.917906474	-0.378974157	0.918125618	-0.378908033	0.002460584	0.009548535
970	0.000244657	0.010532613	0.916430768	-0.382738738	0.916384712	-0.382607933	0.002615307	0.009399825
980	0.000500782	0.010419153	0.914821906	-0.386443855	0.914814029	-0.386504503	0.002764545	0.009400125
990	0.000743829	0.010288939	0.913039545	-0.390020877	0.913115115	-0.390015468	0.003182696	0.009180486
1000	0.000890169	0.010183918	0.911523209	-0.393764201	0.911788088	-0.393734552	0.003277893	0.009194904
1010	0.000890649	0.010081193	0.9098452	-0.397302952	0.909832731	-0.397213182	0.003250893	0.009137172
1020	0.000992752	0.009867214	0.908132444	-0.401027302	0.908455726	-0.401104127	0.003152141	0.009079442
1030	0.00103137	0.009955608	0.906659323	-0.404734209	0.906630126	-0.40456102	0.003265037	0.009264676
1040	0.001205277	0.010141718	0.904978716	-0.408312016	0.90490059	-0.408363069	0.003540237	0.009324856
1050	0.001584557	0.009930319	0.903197701	-0.412002342	0.90330943	-0.411986458	0.003876374	0.009000867
1060	0.001801849	0.00974102	0.901604538	-0.415500344	0.901390133	-0.415315328	0.003875091	0.008532769
1070	0.001958222	0.009591004	0.899800253	-0.419121707	0.899708423	-0.4189767	0.004057394	0.008511904
1080	0.002118725	0.009444129	0.898084792	-0.42284447	0.898034506	-0.422753394	0.003941171	0.008488855
1090	0.002024447	0.009401124	0.896319997	-0.426380289	0.89635511	-0.426378	0.0040297	0.008398881
1100	0.002275917	0.009287288	0.894397771	-0.429957332	0.894568177	-0.429838405	0.004426273	0.008283517
1110	0.002537517	0.009330003	0.8927072	-0.43346633	0.892815847	-0.433435129	0.00445461	0.008217882
1120	0.002837518	0.009439527	0.890796568	-0.437107238	0.891185524	-0.437130591	0.00446386	0.008114403
1130	0.002896362	0.009182012	0.889056191	-0.440601767	0.889466148	-0.440552424	0.004609772	0.008206776
1140	0.002980475	0.009014288	0.887150678	-0.444162664	0.887403772	-0.444232237	0.004739987	0.008235468
1150	0.003061697	0.009110177	0.885170007	-0.447660836	0.885390622	-0.447636773	0.00489768	0.008201845
1160	0.003316276	0.008811794	0.883543949	-0.451335932	0.883414743	-0.451260209	0.005081254	0.008014726
1170	0.003406125	0.008622815	0.881646925	-0.454789352	0.881676567	-0.454739962	0.0051214	0.007609572
1180	0.003471416	0.008293041	0.87976797	-0.458322707	0.880036379	-0.458223345	0.004910981	0.007432366
1190	0.003666403	0.008122205	0.877860873	-0.461788799	0.877807263	-0.461590048	0.005108609	0.00746985
1200	0.003661535	0.007883796	0.875902347	-0.465378391	0.875896562	-0.465234383	0.00539583	0.007348201
1210	0.003562371	0.007877777	0.873911239	-0.468772935	0.87414425	-0.468636461	0.005383202	0.007023437
1220	0.003838692	0.007778992	0.872156833	-0.472189767	0.872383917	-0.472065447	0.00550851	0.006786227
1230	0.003884216	0.007873961	0.870340976	-0.4758549	0.870348775	-0.475890142	0.005456589	0.006737946
1240	0.004242245	0.007691455	0.868283004	-0.479127522	0.868346375	-0.479181075	0.005560957	0.006810096
1250	0.00451237	0.007709131	0.866293454	-0.482744008	0.866383592	-0.482754208	0.005720865	0.006776745
1260	0.004526871	0.007393233	0.864291738	-0.486231384	0.864613226	-0.486249753	0.005665254	0.006443135
1270	0.004699258	0.007491619	0.862336451	-0.489559228	0.862447185	-0.489574265	0.005733474	0.006503798
1280	0.004632955	0.007303966	0.860211144	-0.493040045	0.860482411	-0.492963111	0.005764457	0.006423946
1290	0.00463961	0.007030307	0.858378532	-0.496523178	0.858481517	-0.496424708	0.00585928	0.006325834
1300	0.00466913	0.007046365	0.856194198	-0.499993962	0.856200521	-0.499796477	0.006110687	0.006202077
1310	0.004738013	0.007017346	0.854313775	-0.50333652	0.854373836	-0.503090256	0.006151294	0.006052709
1320	0.004770959	0.006902144	0.852092749	-0.506654188	0.85223983	-0.506586045	0.006195527	0.005750013
1330	0.004829054	0.006825819	0.850182013	-0.510030683	0.850303212	-0.509957893	0.006430551	0.005641921
1340	0.004847209	0.006741483	0.848002204	-0.513537292	0.84818314	-0.513433717	0.006340522	0.005660647
1350	0.004902316	0.00681546	0.846026113	-0.516829313	0.846141706	-0.516775077	0.006555652	0.005715
1360	0.00494671	0.006758913	0.843926375	-0.5203163	0.843943371	-0.519918037	0.006527999	0.005714401
1370	0.005050535	0.006464673	0.841580294	-0.523635086	0.841773339	-0.523462474	0.006808349	0.005328383
1380	0.005259274	0.006334075	0.839579763	-0.526935947	0.839485072	-0.526683171	0.006666596	0.005276556
1390	0.005189856	0.00605185	0.837394829	-0.530322234	0.837264601	-0.530159936	0.006568467	0.005015197
1400	0.005230555	0.005998887	0.835167768	-0.533733011	0.835280706	-0.533636487	0.00637817	0.004915172
1410	0.00536334	0.005857419	0.832894614	-0.53691115	0.833007098	-0.536885045	0.006552338	0.004844714
1420	0.005583368	0.005810366	0.830810474	-0.540414288	0.830809317	-0.54014688	0.006727329	0.004805468
1430	0.005574814	0.005572266	0.828533845	-0.543667614	0.828627988	-0.543580541	0.006697565	0.004590031
1440	0.005492225	0.005440345	0.82637287	-0.546831049	0.826363436	-0.546725434	0.00671605	0.004477536
1450	0.005601471	0.005285601	0.824209724	-0.550226665	0.82420348	-0.550214719	0.006713138	0.0044581
1460	0.005568857	0.005410972	0.821884664	-0.553551931	0.822021694	-0.553440597	0.00689078	0.004520753
1470	0.005688007	0.005569582	0.819666887	-0.556788824	0.819836489	-0.556670985	0.007082176	0.004411891
1480	0.005918963	0.005437177	0.817293416	-0.56008458	0.817498601	-0.559979578	0.007082058	0.004205234
1490	0.005964454	0.005204344	0.814882462	-0.563212425	0.815068739	-0.563349685	0.00694234	0.004009184
1500	0.005960461	0.005073916	0.812819395	-0.566551224	0.81298966	-0.566506651	0.006920025	0.003923775
1510	0.006144354	0.004872479	0.81052646	-0.569820416	0.810788171	-0.569782369	0.006810981	0.004052025
1520	0.0060655	0.004869173	0.808167938	-0.573093365	0.808154465	-0.572979821	0.006795762	0.004079983
1530	0.006201353	0.004877251	0.805791049	-0.576319364	0.805771742	-0.576213686	0.006947621	0.003988973
1540	0.006224421	0.004751152	0.803504042	-0.579500569	0.803639821	-0.57942005	0.006854333	0.003824425
1550	0.00635175	0.004633228	0.800966129	-0.582664155	0.801080908	-0.582527976	0.00696644	0.003595209
1560	0.006064246	0.004585452	0.798838659	-0.58598584	0.798828864	-0.585743422	0.007108185	0.003583123
1570	0.006320871	0.004598968	0.796248425	-0.589057277	0.796265122	-0.588984739	0.007093558	0.003462306
1580	0.006470594	0.004459557	0.793754238	-0.592071856	0.793897237	-0.592061471	0.007377159	0.003475448
1590	0.006567465	0.004411436	0.791513706	-0.595365067	0.791486437	-0.595192015	0.007432791	0.003195609
1600	0.006504557	0.004142104	0.7890116	-0.598568748	0.788967	-0.598342436	0.0074258	0.003035159
1610	0.006690763	0.00413462	0.78662367	-0.601655576	0.786671166	-0.60164479	0.007344653	0.002929717
1620	0.006588747	0.003897059	0.784197921	-0.604706803	0.78415892	-0.604584374	0.007383894	0.002708903
1630	0.006634869	0.00377257	0.781584688	-0.607870966	0.78179617	-0.607954073	0.007442042	0.002767493
1640	0.00665059	0.003505956	0.779309974	-0.610986265	0.779324652	-0.611060434	0.007516858	0.002653014
1650	0.006670116	0.003421953	0.776722523	-0.614035997	0.776793988	-0.614062862	0.007467526	0.002588428
1660	0.006925459	0.003459401	0.774285482	-0.617181111	0.774252859	-0.616991723	0.007443263	0.002489079
1670	0.007091739	0.003504128	0.771816018	-0.620440585	0.771784619	-0.620273017	0.007359023	0.002513229
1680	0.007142935	0.003483389	0.769284956	-0.623478721	0.769295205	-0.623191432	0.007496925	0.00242867
1690	0.007561986	0.003242257	0.766598321	-0.626429516	0.766612957	-0.626204713	0.007513312	0.002450069
1700	0.007612843	0.00308844	0.764116366	-0.629388985	0.764284768	-0.629324314	0.007618223	0.002377395
1710	0.007546146	0.003066222	0.761509887	-0.632399	0.761593574	-0.632339654	0.007640496	0.00197019
1720	0.00728048	0.002985374	0.758816105	-0.635432839	0.759003256	-0.635409561	0.007673105	0.002018685
1730	0.007424551	0.002881438	0.756393432	-0.6384561	0.756314274	-0.638455381	0.007669272	0.001983543
1740	0.007455437	0.002867791	0.75380718	-0.641569849	0.753751994	-0.641595283	0.00785556	0.001868483
1750	0.007414278	0.002701057	0.75125165	-0.644507469	0.751206546	-0.644580943	0.007936826	0.001600404
1760	0.007484072	0.002556459	0.748576859	-0.647467737	0.748533523	-0.64758541	0.007809971	0.001467783
1770	0.007369805	0.002293514	0.746011605	-0.650445119	0.746002114	-0.65033583	0.007886502	0.00150649
1780	0.007320619	0.002167274	0.743297793	-0.653549757	0.743152739	-0.653408025	0.007885234	0.001357665
1790	0.00752365	0.002043465	0.740712898	-0.656530353	0.740529034	-0.656366066	0.008005848	0.001550326
1800	0.007677828	0.001955596	0.737828793	-0.659368496	0.737820003	-0.659288259	0.008156224	0.00122234
1810	0.008040459	0.001828044	0.735081669	-0.662156869	0.734972046	-0.662154001	0.008065203	0.001044074
1820	0.008203263	0.001539126	0.732350959	-0.665086847	0.732145518	-0.664968061	0.008065147	0.001105835
1830	0.008282995	0.001419213	0.729688927	-0.668129814	0.729587737	-0.668090607	0.008060273	0.000939823
1840	0.008417862	0.001352173	0.727073205	-0.670912796	0.726989227	-0.670927799	0.008127023	0.000771658
1850	0.008370289	0.001302633	0.724356743	-0.673998363	0.724315877	-0.673867484	0.00816053	0.000747634
1860	0.008385229	0.00128833	0.72161179	-0.676773803	0.721626519	-0.676733029	0.008304332	0.000407218
1870	0.008348798	0.0011358	0.718878372	-0.679756044	0.718801842	-0.6797145	0.00835335	0.000514874
1880	0.008386058	0.001043363	0.716238088	-0.68253607	0.716188929	-0.682498407	0.008228368	0.000356781
1890	0.008494231	0.000901338	0.713281458	-0.685341042	0.713175816	-0.685415484	0.008329596	0.00046603
1900	0.008526893	0.000747998	0.710419332	-0.688144967	0.710663061	-0.688081972	0.008400505	0.000407727
