! Touchstone file exported from HFSS 3D Layout Design 2025.1.0
!        File:           C:/Users/pricewu/Documents/Ansoft/ASK_SLB_0403.aedt
!        Generated:      06:32:06 AM Apr  7, 2026
!        Design:         ASK_SLB_0403_ANT6_7
!        Project:        ASK_SLB_0403
!        Setup:          Setup1
!        Solution:       Sweep1
!
# GHz S MA R 50.000000
! Terminal data exported
! Port[1] = ANT6_UHB0_C10960
! Port[2] = ANT6_UHB0_C10961
! Port[3] = ANT6_UHB0_L10960
! Port[4] = ANT6_UHB0_PAout
! Port[5] = ANT6_UHB0_SLB_CONN
! Port[6] = ANT7_C10970
! Port[7] = ANT7_C10971
! Port[8] = ANT7_L10970
! Port[9] = ANT7_UHB0_PAout
! Port[10] = ANT7_UHB0_SLB_CONN
0.5                            0.249101645084045 -179.994682390524 0.250569030896149 -0.764951868450323 0.500051784181528 179.360714508627 0.249357837546073 -5.12045104502624 
                               0.748488777112293 -3.54777946478555 1.3944436314756E-06 83.0373090358137 2.22310037263628E-07 137.931703216199 1.99000139830908E-06 -103.940931559553 
                               5.55088488019714E-06 81.4082508869459 1.463444865209E-06 -107.649663103642 
                               0.250569030896149 -0.764951868450323 0.248601202707508 179.546089169846 0.500570017997633 -0.400378398498962 0.747618978331518 -4.56441266282753 
                               0.249820727387227 -3.93728322866841 2.81131748522815E-07 -146.270404548052 2.11091433008333E-06 -113.101415959889 3.85944118126452E-06 -102.256751362232 
                               1.41461783517648E-05 82.2888884875204 1.70702754415588E-06 -113.694390719764 
                               0.500051784181528 179.360714508627 0.500570017997632 -0.400378398498962 0.00345582036439521 73.0384830046651 0.498179305055399 -4.6966465480078 
                               0.498590897379428 176.247525367925 2.24386488434755E-06 -101.372533463933 2.38913312097593E-06 -106.16136710575 1.90474142180933E-06 -99.7620555349508 
                               8.84105329867889E-06 82.3158586798045 4.44936764589351E-07 99.4520823366906 
                               0.249357837546073 -5.12045104502624 0.747618978331518 -4.56441266282753 0.498179305055399 -4.6966465480078 0.246614378372506 170.878229128017 
                               0.248648094847954 -8.17428017867734 6.56921641530062E-06 83.6236871255133 1.2818560155209E-05 84.252109613983  1.0032999637452E-05 84.8368962511262 
                               1.45703647924402E-05 -98.0181800762916 5.41410971048097E-06 77.5841995026532 
                               0.748488777112293 -3.54777946478555 0.249820727387227 -3.93728322866841 0.498590897379428 176.247525367925 0.248648094847954 -8.17428017867734 
                               0.24738017957731 173.750022289712 1.88630115431327E-06 -106.768982197214 9.98975469424851E-07 -116.402763398281 1.69722577589429E-07 -125.414084655462 
                               4.80846571881973E-06 79.5539412903354 3.64419303636758E-06 85.3064403564041 
                               1.39444363147561E-06 83.0373090358135 2.81131748522847E-07 -146.27040454806 2.24386488434758E-06 -101.372533463936 6.56921641530062E-06 83.6236871255113 
                               1.88630115431327E-06 -106.768982197215 0.248170768879727 -179.469479459092 0.250502925083478 -1.23504304343141 0.500966910193196 179.41455933535  
                               0.250393484770902 -1.75434235504293 0.746058685359855 -8.04608688273201 
                               2.22310037263621E-07 137.931703216197 2.11091433008335E-06 -113.101415959891 2.38913312097596E-06 -106.161367105753 1.28185601552089E-05 84.2521096139812 
                               9.98975469424861E-07 -116.402763398283 0.250502925083478 -1.23504304343141 0.249638586322339 -179.290315996786 0.49949435215043 -0.715540901917806 
                               0.749834827786426 -1.1414245017225 0.248638765022109 -8.77204581588408 
                               1.99000139830909E-06 -103.940931559554 3.85944118126454E-06 -102.256751362233 1.90474142180933E-06 -99.762055534952 1.0032999637452E-05 84.8368962511243 
                               1.69722577589437E-07 -125.414084655469 0.500966910193196 179.41455933535  0.49949435215043 -0.715540901917808 0.00126694939013464 30.7212003569212 
                               0.499278802461167 -1.23123218680891 0.497240851555259 171.881182078732 
                               5.55088488019715E-06 81.4082508869453 1.41461783517648E-05 82.2888884875204 8.84105329867889E-06 82.315858679805  1.45703647924402E-05 -98.0181800762921 
                               4.80846571881973E-06 79.5539412903352 0.250393484770902 -1.75434235504293 0.749834827786426 -1.1414245017225 0.499278802461167 -1.23123218680891 
                               0.249419442760226 179.677557946363 0.248532692456226 -9.28410555092726 
                               1.463444865209E-06 -107.649663103641 1.70702754415587E-06 -113.694390719763 4.44936764589365E-07 99.4520823366985 5.41410971048097E-06 77.5841995026524 
                               3.64419303636759E-06 85.3064403564043 0.746058685359855 -8.04608688273201 0.248638765022109 -8.77204581588408 0.497240851555259 171.881182078732 
                               0.248532692456226 -9.28410555092726 0.244432656085499 165.273101808473 
! Gamma         0                10.4792251097584 0                10.4792251097584 0                10.4792251097584 0                10.4792251097584 0                10.4792251097584 0                10.4792251097584 0                10.4792251097584 0                10.4792251097584 0                10.4792251097584 0                10.4792251097584 
! Port Impedance         50               0                50               0                50               0                50               0                50               0                50               0                50               0                50               0                50               0                50               0                
0.51                           0.249094635092365 -179.992349406701 0.250575086122633 -0.781466419457864 0.500049660738973 179.34782331079  0.249347732366195 -5.22144271886197 
                               0.748469110031436 -3.61755270552085 1.42220320004108E-06 82.8950521614302 2.26851888646134E-07 137.575416306457 2.02822718327E-06 -104.09082397062 
                               5.65921172351489E-06 81.3251472563465 1.49105373751439E-06 -107.828664525953 
                               0.250575086122633 -0.781466419457865 0.248583714492263 179.540032589266 0.500577887255424 -0.40882173158018 0.747585787641962 -4.65394412675999 
                               0.249818760722672 -4.01545110289531 2.86242592856029E-07 -146.46335101994 2.14743956025362E-06 -113.213807411457 3.93323845996273E-06 -102.33334252345 
                               1.44191667216792E-05 82.2337665630645 1.73885467677595E-06 -113.941081376757 
                               0.500049660738973 179.34782331079  0.500577887255423 -0.40882173158018 0.00351343046935249 73.1236286996583 0.498155527784168 -4.7885380102846 
                               0.498572518521723 176.174069951465 2.28662118578165E-06 -101.465497906236 2.43377391431664E-06 -106.259885803107 1.94050700763762E-06 -99.7632574606504 
                               9.01130421071005E-06 82.268551551204  4.54755199791916E-07 99.4357413637421 
                               0.249347732366194 -5.22144271886198 0.747585787641961 -4.65394412675999 0.498155527784168 -4.7885380102846 0.246589660507299 170.702300744474 
                               0.248631678029225 -8.33428423487167 6.69660482318757E-06 83.5781282079979 1.30665264893455E-05 84.2374617578959 1.02274413620156E-05 84.8338122912765 
                               1.48468348708596E-05 -98.0226630622376 5.51973355463039E-06 77.4243820362523 
                               0.748469110031436 -3.61755270552085 0.249818760722672 -4.01545110289531 0.498572518521723 176.174069951465 0.248631678029225 -8.33428423487166 
                               0.247345104057418 173.630370420071 1.92232473401772E-06 -106.94573679999 1.0172757727664E-06 -116.619191499529 1.72054314450633E-07 -125.492527021219 
                               4.90229965536029E-06 79.4391291538163 3.71510979677094E-06 85.2660571207979 
                               1.42220320004109E-06 82.89505216143   2.86242592856061E-07 -146.463351019947 2.28662118578168E-06 -101.465497906239 6.69660482318757E-06 83.578128207996  
                               1.92232473401772E-06 -106.945736799992 0.248155441895422 -179.454621043311 0.250507028774921 -1.26084827010396 0.500975385257969 179.401773168175 
                               0.250396297805951 -1.79029288115357 0.746012633804649 -8.20354232650515 
                               2.26851888646128E-07 137.575416306454 2.14743956025365E-06 -113.21380741146 2.43377391431666E-06 -106.25988580311 1.30665264893455E-05 84.2374617578942 
                               1.01727577276641E-06 -116.619191499531 0.25050702877492 -1.26084827010396 0.249637650792208 -179.27515107262 0.499488721743334 -0.729290553669442 
                               0.74983073812987 -1.16414936136118 0.248626728470346 -8.94455178592898 
                               2.02822718327001E-06 -104.090823970621 3.93323845996275E-06 -102.333342523451 1.94050700763761E-06 -99.7632574606515 1.02274413620156E-05 84.8338122912746 
                               1.72054314450642E-07 -125.492527021227 0.500975385257969 179.401773168175 0.499488721743334 -0.729290553669444 0.00127756744864212 30.5780804268716 
                               0.49927061842023 -1.25505633368013 0.497210127518003 171.722469015172 
                               5.65921172351489E-06 81.3251472563459 1.44191667216793E-05 82.2337665630645 9.01130421071005E-06 82.2685515512046 1.48468348708596E-05 -98.0226630622382 
                               4.9022996553603E-06 79.4391291538162 0.250396297805951 -1.79029288115357 0.74983073812987 -1.16414936136118 0.49927061842023 -1.25505633368013 
                               0.249415847272067 179.672604470792 0.248517587621193 -9.46740502428633 
                               1.49105373751438E-06 -107.828664525952 1.73885467677594E-06 -113.941081376757 4.54755199791932E-07 99.4357413637497 5.5197335546304E-06 77.4243820362515 
                               3.71510979677095E-06 85.2660571207981 0.746012633804649 -8.20354232650515 0.248626728470346 -8.94455178592898 0.497210127518003 171.722469015172 
                               0.248517587621193 -9.46740502428632 0.244365194805812 164.988368426449 
! Gamma         0                10.6888096119536 0                10.6888096119536 0                10.6888096119536 0                10.6888096119536 0                10.6888096119536 0                10.6888096119536 0                10.6888096119536 0                10.6888096119536 0                10.6888096119536 0                10.6888096119536 
! Port Impedance         50               0                50               0                50               0                50               0                50               0                50               0                50               0                50               0                50               0                50               0                
0.52                           0.249087859673456 -179.989974004121 0.250581058124688 -0.798012883386315 0.50004745292879 179.334930537498 0.249337655713866 -5.32239658216432 
                               0.748449639642718 -3.68729717837505 1.44995495965623E-06 82.7527772619969 2.31440244261036E-07 137.22678048319  2.06641222219494E-06 -104.241553544717 
                               5.76744597346259E-06 81.2412050790991 1.51859504619108E-06 -108.009593031847 
                               0.250581058124688 -0.798012883386316 0.248566375690384 179.534050600418 0.500585789887488 -0.41728184489694 0.747552801204846 -4.7434289845513 
                               0.249816840527097 -4.09361367326539 2.91382236297611E-07 -146.664926781231 2.18398528548149E-06 -113.32771639431 4.00692578365774E-06 -102.411695243527 
                               1.46919829317099E-05 82.1781673126596 1.77061206602246E-06 -114.189735007047 
                               0.50004745292879 179.334930537498 0.500585789887488 -0.417281844896942 0.00357078785000231 73.2069340433528 0.498131951496425 -4.88037703825784 
                               0.498554301331878 176.100654529976 2.32930927580848E-06 -101.559441776733 2.47832755223773E-06 -106.360301699482 1.97621443225836E-06 -99.7657276351453 
                               9.18145635174371E-06 82.2207498784596 4.64611632531346E-07 99.4198382910008 
                               0.249337655713866 -5.32239658216433 0.747552801204845 -4.7434289845513 0.498131951496425 -4.88037703825784 0.246564730093486 170.526531185202 
                               0.248615445597396 -8.49424731830558 6.82386499940062E-06 83.5320509826199 1.33142519754939E-05 84.2221330348487 1.0421735991517E-05 84.8301268102121 
                               1.5122864203453E-05 -98.0282581845144 5.62527662059059E-06 77.2638710601846 
                               0.748449639642718 -3.68729717837505 0.249816840527097 -4.09361367326538 0.498554301331878 176.100654529976 0.248615445597396 -8.49424731830557 
                               0.247310229005525 173.510841809547 1.95828929738948E-06 -107.12400583811 1.03553707260783E-06 -116.83821236452 1.74390417140785E-07 -125.571496419652 
                               4.99605986071878E-06 79.3234637085263 3.78600948920405E-06 85.2254187785333 
                               1.44995495965624E-06 82.7527772619967 2.91382236297644E-07 -146.664926781238 2.32930927580851E-06 -101.559441776735 6.82386499940061E-06 83.532050982618  
                               1.95828929738948E-06 -107.124005838111 0.248140543211412 -179.439650017098 0.250511020812123 -1.28668211465826 0.500983653280721 179.388958477248 
                               0.250399014238622 -1.8262661527749 0.745967032548013 -8.36097207069109 
                               2.3144024426103E-07 137.226780483187 2.18398528548152E-06 -113.327716394313 2.47832755223775E-06 -106.360301699485 1.33142519754939E-05 84.2221330348469 
                               1.03553707260784E-06 -116.838212364522 0.250511020812122 -1.28668211465826 0.249636866605659 -179.259964848926 0.499483170237281 -0.743024430012927 
                               0.749826613652722 -1.18687084863963 0.248614500828877 -9.11701221063372 
                               2.06641222219494E-06 -104.241553544718 4.00692578365776E-06 -102.411695243528 1.97621443225835E-06 -99.7657276351465 1.0421735991517E-05 84.8301268102102 
                               1.74390417140795E-07 -125.571496419661 0.500983653280721 179.388958477248 0.499483170237281 -0.743024430012929 0.0012878901121147 30.4310452380874 
                               0.499262543257276 -1.2788589192362 0.497179711574038 171.563778088925 
                               5.76744597346259E-06 81.2412050790985 1.46919829317099E-05 82.1781673126596 9.18145635174373E-06 82.22074987846   1.5122864203453E-05 -98.0282581845149 
                               4.99605986071878E-06 79.3234637085261 0.250399014238622 -1.82626615277491 0.749826613652722 -1.18687084863963 0.499262543257276 -1.2788589192362 
                               0.249412437715817 179.667681574783 0.248502400530084 -9.65061115055841 
                               1.51859504619108E-06 -108.009593031846 1.77061206602245E-06 -114.189735007047 4.64611632531363E-07 99.4198382910083 5.62527662059059E-06 77.2638710601838 
                               3.78600948920406E-06 85.2254187785334 0.745967032548013 -8.36097207069109 0.248614500828878 -9.11701221063371 0.497179711574038 171.563778088925 
                               0.248502400530084 -9.6506111505584 0.244298020524432 164.703937918389 
! Gamma         0                10.8983941141487 0                10.8983941141487 0                10.8983941141487 0                10.8983941141487 0                10.8983941141487 0                10.8983941141487 0                10.8983941141487 0                10.8983941141487 0                10.8983941141487 0                10.8983941141487 
! Port Impedance         50               0                50               0                50               0                50               0                50               0                50               0                50               0                50               0                50               0                50               0                
0.53                           0.249081318196161 -179.987558499043 0.250586945125894 -0.814590009469844 0.500045160650701 179.322036352747 0.249327609331519 -5.42331397190939 
                               0.748430368940953 -3.75701407732529 1.47769874470083E-06 82.6104810642987 2.36073829658955E-07 136.885458555588 2.10455798953969E-06 -104.39305146589 
                               5.87558916322866E-06 81.1564906295863 1.54606874339519E-06 -108.192295335427 
                               0.250586945125894 -0.814590009469845 0.248549188938334 179.528140181275 0.500593722811536 -0.425758483015853 0.747520026002329 -4.83286895465571 
                               0.249814965308741 -4.1717712634986 2.96550323135521E-07 -146.874490904949 2.22055315000783E-06 -113.443174887045 4.08050476505703E-06 -102.491675298137 
                               1.49646358628056E-05 82.1221119910847 1.80230099235548E-06 -114.440187497587 
                               0.500045160650701 179.322036352747 0.500593722811535 -0.425758483015856 0.00362790120499888 73.2885814487829 0.498108580947443 -4.97216567086203 
                               0.498536249064314 176.027277500436 2.37193038048832E-06 -101.654284973178 2.52279612498511E-06 -106.462463276651 2.01186576075721E-06 -99.7693613825118 
                               9.35151592817403E-06 82.1724730156014 4.7450579932061E-07 99.4042925257861 
                               0.249327609331519 -5.42331397190941 0.747520026002329 -4.83286895465571 0.498108580947443 -4.97216567086202 0.246539615922393 170.35091807282  
                               0.248599389996774 -8.65417137114289 6.95099926309922E-06 83.4854977835307 1.35617430774247E-05 84.2061766647527 1.06158900737868E-05 84.8258858965387 
                               1.53984632406395E-05 -98.0348736229938 5.73074120878652E-06 77.1027256133218 
                               0.748430368940953 -3.75701407732529 0.249814965308741 -4.1717712634986 0.498536249064314 176.027277500436 0.248599389996774 -8.65417137114287 
                               0.247275557922146 173.391430822574 1.99419556046734E-06 -107.303663455862 1.05376059568044E-06 -117.059610013294 1.76730951670946E-07 -125.65120730336 
                               5.08974809953491E-06 79.2070133303156 3.85689223001221E-06 85.1845150008797 
                               1.47769874470084E-06 82.6104810642985 2.96550323135552E-07 -146.874490904956 2.37193038048834E-06 -101.654284973181 6.9509992630992E-06 83.4854977835289 
                               1.99419556046734E-06 -107.303663455863 0.248126080997504 -179.424571132205 0.25051489913889 -1.31254332024926 0.500991709994091 179.376116471743 
                               0.250401632254218 -1.86226117183922 0.745921854745999 -8.51837684839971 
                               2.3607382965895E-07 136.885458555586 2.22055315000788E-06 -113.443174887049 2.52279612498512E-06 -106.462463276654 1.35617430774247E-05 84.206176664751  
                               1.05376059568045E-06 -117.059610013296 0.25051489913889 -1.31254332024926 0.249636234525772 -179.244758464738 0.49947770008186 -0.756743122312205 
