! Created Tue May  6 11:27:54 2025
# mhz S ma R 50
! 4 Port Network Data from SP1.SP block
! freq  magS11  angS11  magS12  angS12  magS13  angS13  magS14  angS14  
!       magS21  angS21  magS22  angS22  magS23  angS23  magS24  angS24  
!       magS31  angS31  magS32  angS32  magS33  angS33  magS34  angS34  
!       magS41  angS41  magS42  angS42  magS43  angS43  magS44  angS44  
!     
500      0.0672626372        -165.295577        0.973173155        -89.0850931     4.96907201e-05         63.9106992     0.000449793127         -177.46775
                      0.973173155        -89.0850931       0.0661557281        -170.138756     0.000449747167        -177.631434     4.21994966e-05         60.2440034
                   4.96907201e-05         63.9106992     0.000449747167        -177.631434       0.0635291098        -161.530961        0.975160395        -83.4062675
                   0.000449793127         -177.46775     4.21994966e-05         60.2440034        0.975160395        -83.4062675       0.0633934063        -162.102862

520      0.0673283538        -168.815413        0.972488764        -92.6161207     4.61771423e-05         92.2225986     0.000467837574         178.932196
                      0.972488764        -92.6161207       0.0661706018         -173.92861     0.000467881736         178.764414     3.80652863e-05         94.6629283
                   4.61771423e-05         92.2225986     0.000467881736         178.764414       0.0641106046        -165.006017        0.974498014        -86.7131615
                   0.000467837574         178.932196     3.80652863e-05         94.6629283        0.974498014        -86.7131615       0.0639704249         -165.60302

540      0.0671506633         -172.30666        0.971824162        -96.1453818     5.74049323e-05         118.118245     0.000485664864         175.323294
                      0.971824162        -96.1453818       0.0659436277         -177.70214     0.000485769691         175.148852     5.11271322e-05         124.240309
                   5.74049323e-05         118.118245     0.000485769691         175.148852        0.064498014        -168.462103        0.973848722        -90.0182945
                   0.000485664864         175.323294     5.11271322e-05         124.240309        0.973848722        -90.0182945       0.0643538553        -169.084264

560      0.0667293224        -175.770305         0.97118076        -99.6730704      7.9202673e-05         132.545971     0.000503245726         171.709115
                       0.97118076        -99.6730704       0.0654747314         178.537844      0.00050337794         171.526275     7.47589682e-05         138.147575
                    7.9202673e-05         132.545971      0.00050337794         171.526275        0.064688886        -171.901176         0.97321425        -93.3217927
                   0.000503245726         171.709115     7.47589682e-05         138.147575         0.97321425        -93.3217927       0.0645412955        -172.548564

580        0.06606497        -179.206787         0.97055957        -103.199383     0.000106645966           139.3175     0.000520554242         168.093238
                       0.97055957        -103.199383       0.0647646878         174.788779     0.000520677818         167.901032     0.000103342205         143.826247
                   0.000106645966           139.3175     0.000520677818         167.901032       0.0646813937         -175.32485        0.972596077        -96.6237895
                   0.000520554242         168.093238     0.000103342205         143.826247        0.972596077        -96.6237895       0.0645309659         -175.99755

600      0.0651591361         177.384015        0.969961212        -106.724518     0.000137438844         142.172052     0.000537568601         164.479195
                      0.969961212        -106.724518       0.0638151248         171.048301     0.000537645955         164.277374      0.00013482331         145.804447
                   0.000137438844         142.172052     0.000537645955         164.277374       0.0644743444        -178.734445        0.971995429        -99.9244246
                   0.000537568601         164.479195      0.00013482331         145.804447        0.971995429        -99.9244246       0.0643217184        -179.432552

620      0.0640142512         174.002827        0.969385922        -110.248669     0.000170564431         142.951093      0.00055427175         160.870428
                      0.969385922        -110.248669       0.0626285274         167.314191     0.000554264986         160.659392     0.000168377417         145.936059
                   0.000170564431         142.951093     0.000554264986         160.659392       0.0640671891         177.868987        0.971413266        -103.223841
                    0.00055427175         160.870428     0.000168377417         145.936059        0.971413266        -103.223841       0.0639130452         177.145368

640      0.0626336586         170.651048        0.968833562        -113.772028     0.000205481671         142.538529     0.000570651909         157.270237
                      0.968833562        -113.772028       0.0612082429         163.584328     0.000570524071          157.05095     0.000203566832         145.039099
                   0.000205481671         142.538529     0.000570524071          157.05095       0.0634600304         174.484633        0.970850286        -106.522185
                   0.000570651909         157.270237     0.000203566832         145.039099        0.970850286        -106.522185       0.0633050862         173.735396

660      0.0610216264         167.330854        0.968303645        -117.294777     0.000241835442         141.389863     0.000586702944         153.681732
                      0.968303645        -117.294777       0.0595584863          159.85664     0.000586419204         153.455637     0.000240092261         143.517334
                   0.000241835442         141.389863     0.000586419204         153.455637       0.0626536279         171.111909        0.970306922        -109.819604
                   0.000586702944         153.681732     0.000240092261         143.517334        0.970306922        -109.819604       0.0624986342         170.336947

680      0.0591833617         164.045351        0.967795355        -120.817091     0.000279348995         139.758462      0.00060242457         150.107785
                      0.967795355        -120.817091       0.0576843447         156.129046     0.000601953313         149.876709     0.000277708799         141.589903
                   0.000279348995         139.758462     0.000601953313         149.876709       0.0616494027         167.750449        0.969783351        -113.116241
                    0.00060242457         150.107785     0.000277708799         141.589903        0.969783351        -113.116241       0.0614951394         166.949664

700      0.0571250259         160.798796         0.96730757        -124.339131     0.000317779906         137.794882     0.000617822408         146.550994
                       0.96730757        -124.339131       0.0555917804         152.399394     0.000617136155         146.317048     0.000316193278         139.385056
                   0.000317779906         137.794882     0.000617136155         146.317048       0.0604494392         164.400107        0.969279494        -116.412241
                   0.000617822408         146.550994     0.000316193278         139.385056        0.969279494        -116.412241       0.0602967112         163.573413

720      0.0548537528         157.596902        0.966838895        -127.861048     0.000356900334         135.593637      0.00063290787         143.013644
                      0.966838895        -127.861048       0.0532876326         148.665367     0.000631984026         142.779128     0.000355330119         136.982485
                   0.000356900334         135.593637     0.000631984026         142.779128        0.059056485         161.060963        0.968795033        -119.707743
                    0.00063290787         143.013644     0.000355330119         136.982485        0.968795033        -119.707743       0.0589061175           160.2083

740      0.0523776699         154.447281        0.966387695        -131.382975     0.000396487537         133.216821      0.00064769792         139.497682
                      0.966387695        -131.382975       0.0507796152         144.924379     0.000646519305         139.264992     0.000394904767         134.434172
                   0.000396487537         133.216821     0.000646519305         139.264992       0.0574739476         157.733341        0.968329419        -123.002879
                    0.00064769792         139.497682     0.000394904767         134.434172        0.968329419        -123.002879       0.0573267823         156.854685

760      0.0497059281         151.360085        0.965952129        -134.905031     0.000436319153         130.706822     0.000662214701         136.004694
                      0.965952129        -134.905031       0.0480763123         141.173406     0.000660769877         135.776235     0.000434700568         131.775412
                   0.000436319153         130.706822     0.000660769877         135.776235       0.0557058893         154.417845        0.967881885        -126.297776
                   0.000662214701         136.004694     0.000434700568         131.775412        0.967881885        -126.297776       0.0555627803         153.513221

780      0.0468487433         148.348956        0.965530184        -138.427317     0.000476170891         128.093541     0.000676485067         132.535895
                      0.965530184        -138.427317       0.0451871695         137.408751     0.000674768455            132.314     0.000474497365         129.030999
                   0.000476170891         128.093541     0.000674768455            132.314       0.0537570193         151.115397        0.967451467        -129.592553
                   0.000676485067         132.535895     0.000474497365         129.030999        0.967451467        -129.592553       0.0536188297         150.184903

800      0.0438174611         145.432455        0.965119718        -141.949914     0.000515815522         125.398687      0.00069054004         129.092123
                      0.965119718        -141.949914       0.0421224812         133.625691     0.000688551846         128.878982     0.000514071053         126.218873
                   0.000515815522         125.398687     0.000688551846         128.878982       0.0516326829         147.827313        0.967037017        -132.887317
                    0.00069054004         129.092123     0.000514071053         126.218873        0.967037017        -132.887317       0.0515002818         146.871141

820      0.0406246622         142.636304          0.9647185        -145.472887     0.000555022653         122.638435     0.000704414215         125.673836
                        0.9647185        -145.472887       0.0388933739         129.817902     0.000702160185         125.471439     0.000553193689         123.352371
                   0.000555022653         122.638435     0.000702160185         125.471439       0.0493388491         144.555402        0.966637227        -136.182169
                   0.000704414215         125.673836     0.000553193689         123.352371        0.966637227        -136.182169       0.0492131089         143.573875

840      0.0372843419         139.996988        0.964324244        -148.996279     0.000593558986         119.825138     0.000718145137         122.281122
                      0.964324244        -148.996279        0.035511788         125.976536     0.000715636168         122.091211     0.000591633984         120.441653
                   0.000593558986         119.825138     0.000715636168         122.091211        0.046882095         141.302115         0.96625065        -139.477195
                   0.000718145137         122.281122     0.000591633984         120.441653         0.96625065        -139.477195       0.0467638896          140.29573

860      0.0338122266         137.567799        0.963934655        -152.520118     0.000631188932         116.968448     0.000731772677          118.91371
                      0.963934655        -152.520118       0.0319904593         122.088593      0.00072902431          118.73774     0.000629158048         117.494651
                   0.000631188932         116.968448      0.00072902431          118.73774        0.044269589         138.070767        0.965875719        -142.772471
                   0.000731772677          118.91371     0.000629158048         117.494651        0.965875719        -142.772471       0.0441597931         137.040257

880      0.0302263567         135.429435        0.963547468         -156.04441     0.000667675463         114.076082     0.000745338391         115.570984
                      0.963547468         -156.04441       0.0283429091         118.133954     0.000742370229         115.410103     0.000665530347         114.517706
                   0.000667675463         114.076082     0.000742370229         115.410103       0.0415090733         134.865866        0.965510775         -146.06806
                   0.000745338391         115.570984     0.000665530347         114.517706        0.965510775         -146.06806       0.0414085622         133.812288

900      0.0265482136         133.709657         0.96316048        -159.569142     0.000702781112         111.154361     0.000758884905         112.252006
                       0.96316048        -159.569142       0.0245834596         114.079497     0.000755719993         112.107035     0.000700514814          111.51601
                   0.000702781112         111.154361     0.000755719993         112.107035       0.0386088452         131.693637         0.96515409        -149.364014
                   0.000758884905         112.252006     0.000700514814          111.51601         0.96515409        -149.364014       0.0385184972         130.618496

920       0.022805035          132.62216        0.962771595        -163.094288     0.000736269215         108.208586     0.000772455372         108.955537
                      0.962771595        -163.094288       0.0207273188         109.866367     0.000769119514         108.826966     0.000733876086         108.493923
                   0.000736269215         108.208586     0.000769119514         108.826966       0.0355777417          128.56285        0.964803889        -152.660368
                   0.000772455372         108.955537     0.000733876086         108.493923        0.964803889        -152.660368       0.0354984416         127.468282

940      0.0190349666         132.549556        0.962378849          -166.6198     0.000767905211         105.243319     0.000786092933         105.680061
                      0.962378849          -166.6198       0.0167908658         105.378792     0.000782614003          105.56805     0.000765380843         105.455201
                   0.000767905211         105.243319     0.000782614003          105.56805       0.0324251294         125.486199        0.964458379        -155.957149
                   0.000786092933         105.680061     0.000765380843         105.455201        0.964458379        -155.957149       0.0323577762         124.375251

960      0.0152997467         134.236244        0.961980451        -170.145621     0.000797457994         102.262583     0.000799840246         102.423808
                      0.961980451        -170.145621        0.012792598         100.353511     0.000796247528         102.328201     0.000794799186         102.403167
                   0.000797457994         102.262583     0.000796247528         102.328201       0.0291609074          122.48271        0.964115769        -159.254365
                   0.000799840246         102.423808     0.000794799186         102.403167        0.964115769        -159.254365       0.0291064278         121.359792

980      0.0117199774         139.271194          0.9615748        -173.671676     0.000824701161         99.2700258     0.000813739243         99.1847798
                        0.9615748        -173.671676       0.0087569187         94.0377379     0.000810062793         99.1051202     0.000821905896         99.3408406
                   0.000824701161         99.2700258     0.000810062793         99.1051202        0.025795539         119.582189        0.963774299        -162.552017
                   0.000813739243         99.1847798     0.000821905896         99.3408406        0.963774299        -162.552017       0.0257549101         118.453816

1000     0.00858425465         151.224553        0.961160511         -177.19788     0.000849413791         96.2691819     0.000827831374         95.9606366
                      0.961160511         -177.19788      0.00473780231         83.1176834     0.000824101558         95.8961876     0.000846481222         96.2711747
                   0.000849413791         96.2691819     0.000824101558         95.8961876       0.0223401465         116.834048         0.96343226        -165.850089
                   0.000827831374         95.9606366     0.000846481222         96.2711747         0.96343226        -165.850089       0.0223144397         115.710167

1020     0.00663945928         175.904273         0.96073646         179.275863     0.000871394785         93.2633325     0.000842144862          92.748973
                       0.96073646         179.275863       0.0013537353         24.1620621      0.00083839134          92.698704     0.000868324879         93.1969057
                   0.000871394785         93.2633325      0.00083839134          92.698704       0.0188067659           114.3265        0.963088015        -169.148555
                   0.000842144862          92.748973     0.000868324879         93.1969057        0.963088015        -169.148555       0.0187972309            113.223

1040     0.00699975091        -152.165129        0.960301779         175.749654     0.000890431484         90.2549886     0.000856726357         89.5479197
                      0.960301779         175.749654      0.00389795143        -69.3415401     0.000852977645           89.51064     0.000887225566         90.1200247
                   0.000890431484         90.2549886     0.000852977645           89.51064       0.0152090073         112.233692        0.962740031        -172.447378
                   0.000856726357         89.5479197     0.000887225566         90.1200247        0.962740031        -172.447378       0.0152172575         111.177653

1060     0.00939882778        -131.535563        0.959855834         172.223601     0.000906334249         87.2478993      0.00087160804         86.3542707
                      0.959855834         172.223601      0.00789541129         -82.826414     0.000867891644         86.3285663     0.000902994504         87.0437319
                   0.000906334249         87.2478993     0.000867891644         86.3285663       0.0115641039         110.953133        0.962386882         -175.74651
                    0.00087160804         86.3542707     0.000902994504         87.0437319        0.962386882         -175.74651       0.0115925794         109.995075

1080      0.0127066618        -122.076163        0.959398293         168.697818     0.000918926222         84.2454918     0.000886819417         83.1651289
                      0.959398293         168.697818       0.0119383751        -89.6444686     0.000883160603         83.1494078     0.000915455293         83.9708956
                   0.000918926222         84.2454918     0.000883160603         83.1494078      0.00790081602         111.624349        0.962027266        -179.045894
