!--------------------------------------------------
! Diplexer
! Date: 2024/04/17
! TDK P/N: DPX252690DT-5258B1_Ver_1_0_N_20240417
!--------------------------------------------------
! Frequency: Start=10.0MHz Stop=20.0GHz
! Port Assignments
!                _____
!               |     |---2(Lo-Band)
!   1(Common)---|     |
!               |_____|---3(Hi-Band)
!--------------------------------------------------
!
# MHz S DB R 50.0 
!freq dBS11 angS11 dBS12 angS12 dBS13 angS13
! dBS21 angS21 dBS22 angS22 dBS23 angS23
! dBS31 angS31 dBS32 angS32 dBS33 angS33
!
10.0 -46.523 -15.981 -0.026628 -1.1873 -56.671 90.324
 -0.019072 -1.1847 -48.393 -31.288 -55.723 88.87
 -56.545 92.2 -56.081 93.173 -0.0027525 -1.3953
20.0 -43.647 -44.863 -0.026527 -2.306 -50.287 87.638
 -0.019787 -2.3051 -43.909 -52.427 -50.023 85.754
 -50.253 87.955 -50.147 86.895 -0.0091047 -2.7871
30.0 -40.636 -59.058 -0.023116 -3.4243 -46.643 86.792
 -0.017182 -3.4252 -40.626 -60.908 -46.604 84.664
 -46.632 86.6 -46.631 84.783 -0.010328 -4.1801
40.0 -38.239 -67.453 -0.024128 -4.5279 -44.119 85.735
 -0.018387 -4.5304 -38.147 -67.071 -44.148 83.074
 -44.115 85.495 -44.147 82.988 -0.012597 -5.5638
50.0 -36.304 -73.249 -0.029647 -5.6192 -42.19 84.587
 -0.023493 -5.6226 -36.131 -72.153 -42.223 81.289
 -42.189 84.481 -42.224 81.317 -0.015979 -6.9397
60.0 -34.673 -77.092 -0.032026 -6.7115 -40.611 83.819
 -0.025455 -6.7157 -34.458 -75.475 -40.643 80.093
 -40.612 83.801 -40.647 80.197 -0.014381 -8.3158
70.0 -33.207 -80.734 -0.036672 -7.7993 -39.292 82.494
 -0.029582 -7.8032 -32.998 -77.984 -39.328 78.207
 -39.29 82.478 -39.328 78.233 -0.01952 -9.6925
80.0 -31.931 -83.389 -0.038184 -8.8879 -38.144 81.496
 -0.030579 -8.8913 -31.737 -79.818 -38.18 76.787
 -38.139 81.483 -38.176 76.755 -0.019642 -11.07
90.0 -30.862 -85.914 -0.040011 -9.9721 -37.141 80.456
 -0.032578 -9.9761 -30.671 -81.652 -37.172 75.19
 -37.136 80.438 -37.17 75.153 -0.021342 -12.451
100.0 -29.945 -88.381 -0.042137 -11.053 -36.25 79.386
 -0.035547 -11.058 -29.75 -83.501 -36.271 73.472
 -36.247 79.358 -36.275 73.463 -0.024484 -13.836
110.0 -29.105 -90.399 -0.04122 -12.133 -35.441 78.504
 -0.035458 -12.141 -28.91 -85.013 -35.448 72.06
 -35.438 78.467 -35.458 72.072 -0.022623 -15.222
120.0 -28.348 -92.911 -0.046521 -13.22 -34.723 77.315
 -0.040931 -13.224 -28.148 -86.786 -34.725 70.235
 -34.718 77.308 -34.729 70.244 -0.031048 -16.601
130.0 -27.64 -95.033 -0.048692 -14.309 -34.057 76.301
 -0.043298 -14.308 -27.441 -88.284 -34.05 68.682
 -34.051 76.321 -34.05 68.69 -0.034437 -17.982
140.0 -26.984 -97.14 -0.051972 -15.393 -33.448 75.263
 -0.04654 -15.39 -26.777 -89.805 -33.434 67.069
 -33.442 75.289 -33.431 67.079 -0.038743 -19.361
150.0 -26.372 -99.229 -0.056292 -16.473 -32.886 74.206
 -0.050576 -16.472 -26.151 -91.335 -32.865 65.41
 -32.881 74.221 -32.86 65.421 -0.043837 -20.741
160.0 -25.79 -101.05 -0.057575 -17.555 -32.356 73.272
 -0.051575 -17.554 -25.562 -92.666 -32.325 63.946
 -32.352 73.277 -32.319 63.96 -0.043972 -22.121
170.0 -25.261 -102.81 -0.063011 -18.637 -31.879 72.17
 -0.057119 -18.637 -25.029 -93.841 -31.835 62.208
 -31.874 72.16 -31.831 62.211 -0.049184 -23.507
180.0 -24.755 -104.37 -0.065344 -19.721 -31.424 71.18
 -0.059558 -19.721 -24.523 -94.884 -31.365 60.651
 -31.419 71.156 -31.362 60.644 -0.049311 -24.894
190.0 -24.286 -105.99 -0.06935 -20.805 -31.004 70.145
 -0.063441 -20.804 -24.051 -96.001 -30.93 59.038
 -30.999 70.122 -30.929 59.023 -0.051916 -26.281
200.0 -23.847 -107.68 -0.074866 -21.89 -30.614 69.07
 -0.068621 -21.887 -23.608 -97.176 -30.524 57.378
 -30.611 69.062 -30.525 57.355 -0.056732 -27.67
210.0 -23.424 -109.21 -0.077343 -22.976 -30.238 68.084
 -0.070774 -22.971 -23.184 -98.243 -30.13 55.861
 -30.236 68.09 -30.133 55.829 -0.056584 -29.06
220.0 -23.058 -111.01 -0.084282 -24.061 -29.9 67.019
 -0.077504 -24.057 -22.815 -99.463 -29.778 54.137
 -29.899 67.023 -29.781 54.115 -0.065637 -30.434
230.0 -22.699 -112.66 -0.088102 -25.148 -29.571 66.033
 -0.081115 -25.144 -22.458 -100.59 -29.433 52.545
 -29.571 66.035 -29.436 52.533 -0.069689 -31.81
240.0 -22.353 -114.35 -0.092168 -26.235 -29.268 65.032
 -0.085131 -26.231 -22.106 -101.73 -29.111 50.929
 -29.265 65.029 -29.114 50.924 -0.074591 -33.187
250.0 -22.017 -116.06 -0.096333 -27.322 -28.987 64.019
 -0.089401 -27.319 -21.757 -102.88 -28.807 49.29
 -28.979 64.007 -28.811 49.293 -0.080081 -34.565
260.0 -21.687 -117.65 -0.097471 -28.41 -28.713 63.066
 -0.090645 -28.407 -21.42 -103.95 -28.507 47.757
 -28.699 63.048 -28.512 47.767 -0.080691 -35.945
270.0 -21.401 -119.4 -0.10359 -29.499 -28.465 62.049
 -0.097108 -29.497 -21.112 -104.98 -28.241 46.046
 -28.455 62.04 -28.246 46.054 -0.088162 -37.327
280.0 -21.116 -121.05 -0.10656 -30.589 -28.221 61.087
 -0.10043 -30.588 -20.813 -105.94 -27.976 44.436
 -28.214 61.087 -27.981 44.443 -0.090574 -38.711
290.0 -20.847 -122.57 -0.11142 -31.682 -27.994 60.11
 -0.10523 -31.68 -20.537 -106.84 -27.73 42.811
 -27.988 60.114 -27.733 42.822 -0.094844 -40.091
300.0 -20.594 -123.98 -0.11789 -32.777 -27.781 59.118
 -0.11126 -32.774 -20.282 -107.69 -27.5 41.171
 -27.775 59.126 -27.5 41.193 -0.10066 -41.467
310.0 -20.343 -125.32 -0.1213 -33.874 -27.572 58.173
 -0.11425 -33.869 -20.032 -108.5 -27.269 39.613
 -27.565 58.183 -27.267 39.645 -0.10164 -42.844
320.0 -20.133 -126.92 -0.1286 -34.973 -27.39 57.197
 -0.12177 -34.967 -19.823 -109.58 -27.067 37.94
 -27.385 57.195 -27.066 37.962 -0.11 -44.222
330.0 -19.921 -128.45 -0.13272 -36.073 -27.21 56.262
 -0.12609 -36.067 -19.616 -110.62 -26.862 36.343
 -27.207 56.248 -26.863 36.355 -0.11335 -45.601
340.0 -19.723 -130.03 -0.13746 -37.176 -27.045 55.315
 -0.131 -37.17 -19.412 -111.68 -26.673 34.715
 -27.042 55.309 -26.675 34.726 -0.11874 -46.989
350.0 -19.534 -131.65 -0.14256 -38.282 -26.892 54.356
 -0.13623 -38.275 -19.21 -112.76 -26.498 33.058
 -26.887 54.378 -26.499 33.075 -0.12563 -48.387
360.0 -19.342 -133.21 -0.14458 -39.388 -26.74 53.43
 -0.13838 -39.382 -19.009 -113.79 -26.319 31.465
 -26.734 53.477 -26.321 31.488 -0.12756 -49.786
370.0 -19.15 -134.78 -0.15184 -40.501 -26.614 52.464
 -0.14576 -40.493 -18.814 -114.71 -26.169 29.786
 -26.609 52.503 -26.169 29.813 -0.13668 -51.177
380.0 -18.955 -136.28 -0.15582 -41.614 -26.488 51.525
 -0.14986 -41.605 -18.621 -115.59 -26.013 28.166
 -26.484 51.557 -26.013 28.196 -0.14068 -52.57
390.0 -18.784 -137.73 -0.16039 -42.73 -26.371 50.599
 -0.15444 -42.722 -18.452 -116.46 -25.871 26.543
 -26.369 50.622 -25.871 26.567 -0.14573 -53.963
400.0 -18.632 -139.15 -0.16525 -43.849 -26.264 49.682
 -0.15916 -43.844 -18.303 -117.33 -25.74 24.914
 -26.262 49.695 -25.741 24.922 -0.15139 -55.356
410.0 -18.479 -140.51 -0.16697 -44.969 -26.157 48.787
 -0.16073 -44.968 -18.156 -118.18 -25.604 23.331
 -26.155 48.79 -25.606 23.325 -0.15223 -56.75
420.0 -18.353 -142.06 -0.17408 -46.099 -26.076 47.862
 -0.16816 -46.096 -18.031 -119.21 -25.501 21.653
 -26.074 47.864 -25.503 21.653 -0.16302 -58.156
430.0 -18.223 -143.55 -0.17781 -47.23 -25.994 46.956
 -0.17221 -47.226 -17.906 -120.22 -25.391 20.015
 -25.99 46.956 -25.394 20.021 -0.16858 -59.565
440.0 -18.101 -145.03 -0.18242 -48.366 -25.922 46.051
 -0.17705 -48.36 -17.791 -121.23 -25.295 18.377
 -25.919 46.054 -25.297 18.388 -0.17608 -60.978
450.0 -17.986 -146.5 -0.18753 -49.508 -25.86 45.146
 -0.18229 -49.5 -17.686 -122.26 -25.211 16.736
 -25.858 45.155 -25.21 16.75 -0.1849 -62.396
460.0 -17.867 -147.92 -0.18937 -50.65 -25.797 44.254
 -0.18426 -50.641 -17.58 -123.27 -25.121 15.127
 -25.796 44.268 -25.118 15.145 -0.18865 -63.816
470.0 -17.759 -149.37 -0.19589 -51.801 -25.758 43.369
 -0.19037 -51.79 -17.48 -124.33 -25.06 13.481
 -25.755 43.379 -25.058 13.496 -0.19833 -65.224
480.0 -17.647 -150.79 -0.19891 -52.953 -25.716 42.492
 -0.19299 -52.942 -17.379 -125.37 -24.993 11.86
 -25.713 42.499 -24.991 11.872 -0.20276 -66.635
490.0 -17.557 -152.21 -0.2031 -54.11 -25.685 41.627
 -0.19658 -54.099 -17.292 -126.37 -24.938 10.233
 -25.682 41.635 -24.936 10.249 -0.20849 -68.046
500.0 -17.486 -153.65 -0.208 -55.272 -25.662 40.77
 -0.20068 -55.263 -17.216 -127.35 -24.892 8.5953
 -25.663 40.783 -24.892 8.6211 -0.21491 -69.458
510.0 -17.412 -155.06 -0.20956 -56.435 -25.638 39.917
 -0.20144 -56.428 -17.139 -128.32 -24.84 6.9758
 -25.642 39.935 -24.842 7.0105 -0.21645 -70.872
520.0 -17.362 -156.48 -0.21638 -57.613 -25.636 39.04
 -0.20797 -57.606 -17.088 -129.25 -24.819 5.3501
 -25.639 39.055 -24.821 5.3752 -0.2282 -72.286
530.0 -17.307 -157.89 -0.21952 -58.792 -25.633 38.164
 -0.21084 -58.786 -17.035 -130.18 -24.791 3.7335
 -25.634 38.176 -24.794 3.7489 -0.23466 -73.703
540.0 -17.257 -159.37 -0.22389 -59.979 -25.642 37.296
 -0.2152 -59.972 -16.993 -131.22 -24.779 2.1189
 -25.642 37.301 -24.781 2.1305 -0.24293 -75.129
550.0 -17.209 -160.9 -0.22892 -61.173 -25.664 36.43
 -0.22049 -61.166 -16.96 -132.35 -24.78 0.49782
 -25.662 36.427 -24.782 0.51099 -0.25222 -76.563
560.0 -17.156 -162.42 -0.23041 -62.369 -25.685 35.56
 -0.22222 -62.362 -16.925 -133.47 -24.775 -1.1217
 -25.681 35.549 -24.777 -1.1069 -0.25641 -78.0
570.0 -17.126 -163.83 -0.23651 -63.58 -25.725 34.678
 -0.22804 -63.575 -16.902 -134.57 -24.799 -2.7264
 -25.72 34.679 -24.803 -2.7085 -0.26717 -79.452
580.0 -17.091 -165.22 -0.23873 -64.791 -25.763 33.789
 -0.22996 -64.789 -16.877 -135.66 -24.817 -4.3388
 -25.758 33.801 -24.822 -4.3187 -0.27234 -80.906
590.0 -17.071 -166.59 -0.24226 -66.012 -25.815 32.904
 -0.23324 -66.01 -16.859 -136.72 -24.851 -5.938
 -25.81 32.919 -24.858 -5.9168 -0.27906 -82.353
600.0 -17.065 -167.95 -0.24644 -67.242 -25.88 32.019
 -0.23723 -67.24 -16.848 -137.76 -24.9 -7.536
 -25.876 32.028 -24.906 -7.5142 -0.28662 -83.795
610.0 -17.055 -169.31 -0.24674 -68.473 -25.944 31.12
 -0.23739 -68.471 -16.834 -138.81 -24.943 -9.1489
 -25.94 31.125 -24.949 -9.1266 -0.28892 -85.239
620.0 -17.067 -170.7 -0.24861 -69.718 -26.023 30.223
 -0.24062 -69.718 -16.858 -139.93 -25.014 -10.705
 -26.02 30.245 -25.016 -10.684 -0.29555 -86.673
630.0 -17.101 -172.14 -0.25032 -70.974 -26.118 29.317
 -0.24296 -70.977 -16.894 -141.02 -25.092 -12.242
 -26.112 29.344 -25.095 -12.225 -0.30131 -88.114
640.0 -17.139 -173.59 -0.25258 -72.245 -26.224 28.384
 -0.24573 -72.249 -16.939 -142.15 -25.186 -13.77
 -26.218 28.408 -25.188 -13.752 -0.30911 -89.577
650.0 -17.178 -175.03 -0.25469 -73.528 -26.341 27.42
 -0.24826 -73.532 -16.99 -143.32 -25.293 -15.303
 -26.336 27.435 -25.294 -15.276 -0.31781 -91.062
660.0 -17.214 -176.49 -0.25285 -74.813 -26.459 26.43
 -0.2468 -74.816 -17.039 -144.51 -25.396 -16.867
 -26.454 26.436 -25.397 -16.831 -0.32119 -92.55
670.0 -17.279 -177.87 -0.25855 -76.123 -26.612 25.426
 -0.25168 -76.126 -17.106 -145.79 -25.545 -18.306
 -26.607 25.426 -25.545 -18.273 -0.33423 -94.06
680.0 -17.34 -179.26 -0.25971 -77.433 -26.766 24.385
 -0.25201 -77.437 -17.17 -147.09 -25.69 -19.794
 -26.761 24.379 -25.691 -19.765 -0.34124 -95.573
690.0 -17.402 179.41 -0.26053 -78.756 -26.938 23.297
 -0.25261 -78.76 -17.243 -148.36 -25.853 -21.237
 -26.933 23.287 -25.853 -21.207 -0.34805 -97.084
700.0 -17.464 178.14 -0.26036 -80.09 -27.128 22.152
 -0.25272 -80.096 -17.324 -149.62 -26.033 -22.653
 -27.123 22.142 -26.032 -22.619 -0.35396 -98.595
710.0 -17.549 176.8 -0.26184 -81.442 -27.345 21.001
 -0.25427 -81.442 -17.42 -150.93 -26.244 -23.973
 -27.342 20.983 -26.243 -23.982 -0.36068 -100.1
720.0 -17.678 175.54 -0.26609 -82.815 -27.595 19.777
 -0.25845 -82.815 -17.56 -152.25 -26.485 -25.159
 -27.593 19.762 -26.486 -25.159 -0.37109 -101.62
730.0 -17.804 174.24 -0.26534 -84.189 -27.848 18.48
 -0.25765 -84.188 -17.698 -153.62 -26.729 -26.414
 -27.846 18.469 -26.731 -26.404 -0.3754 -103.14
740.0 -17.949 172.99 -0.26484 -85.581 -28.128 17.103
 -0.25718 -85.579 -17.854 -155.02 -26.998 -27.592
 -28.126 17.095 -27.001 -27.566 -0.3815 -104.67
750.0 -18.115 171.78 -0.26507 -86.992 -28.441 15.629
 -0.25755 -86.989 -18.029 -156.46 -27.299 -28.659
 -28.438 15.628 -27.302 -28.619 -0.39003 -106.22
760.0 -18.285 170.59 -0.26587 -88.417 -28.793 14.041
 -0.25856 -88.419 -18.212 -158.01 -27.635 -29.56
 -28.792 14.063 -27.634 -29.532 -0.39996 -107.78
770.0 -18.468 169.46 -0.27021 -89.876 -29.208 12.31
 -0.2629 -89.875 -18.431 -159.67 -28.017 -30.139
 -29.209 12.328 -28.016 -30.117 -0.41337 -109.36
780.0 -18.651 168.29 -0.26891 -91.335 -29.636 10.402
 -0.26163 -91.331 -18.648 -161.41 -28.416 -30.772
 -29.637 10.415 -28.415 -30.758 -0.42021 -110.94
790.0 -18.863 167.29 -0.26989 -92.819 -30.128 8.2888
 -0.26267 -92.814 -18.897 -163.18 -28.861 -31.055
 -30.129 8.3077 -28.861 -31.046 -0.42863 -112.53
800.0 -19.102 166.43 -0.27173 -94.325 -30.684 5.8999
 -0.26459 -94.321 -19.176 -165.0 -29.354 -30.993
 -30.685 5.9365 -29.356 -30.99 -0.43728 -114.14
810.0 -19.348 165.53 -0.26816 -95.833 -31.264 3.1767
 -0.26109 -95.83 -19.457 -166.94 -29.879 -30.885
 -31.266 3.2322 -29.883 -30.889 -0.43978 -115.75
820.0 -19.631 164.99 -0.27267 -97.391 -31.996 -0.036371
 -0.26554 -97.39 -19.798 -168.93 -30.467 -29.776
 -31.993 0.0059031 -30.468 -29.776 -0.45199 -117.37
830.0 -19.922 164.41 -0.27076 -98.95 -32.76 -3.854
 -0.26356 -98.952 -20.141 -171.09 -31.094 -28.5
 -32.751 -3.823 -31.092 -28.496 -0.45719 -119.0
840.0 -20.252 164.07 -0.27361 -100.55 -33.681 -8.5339
 -0.26704 -100.55 -20.565 -173.47 -31.758 -25.971
 -33.677 -8.5155 -31.764 -25.948 -0.47067 -120.66
850.0 -20.609 163.86 -0.27588 -102.17 -34.715 -14.441
 -0.26933 -102.17 -21.035 -176.1 -32.444 -22.451
 -34.708 -14.463 -32.449 -22.423 -0.48355 -122.32
860.0 -20.981 163.65 -0.27195 -103.8 -35.766 -21.975
 -0.26543 -103.79 -21.512 -179.03 -33.142 -18.248
 -35.753 -22.038 -33.147 -18.216 -0.48975 -124.0
870.0 -21.36 164.01 -0.27785 -105.48 -36.997 -32.453
 -0.27106 -105.47 -22.067 177.71 -33.712 -11.663
 -36.986 -32.481 -33.715 -11.638 -0.50386 -125.72
880.0 -21.756 164.4 -0.27624 -107.16 -37.99 -46.039
 -0.26919 -107.16 -22.626 174.0 -34.185 -4.2327
 -37.986 -46.036 -34.185 -4.2205 -0.51009 -127.45
890.0 -22.151 165.55 -0.28272 -108.91 -38.692 -64.202
 -0.27617 -108.9 -23.289 169.92 -34.24 5.1104
 -38.704 -64.162 -34.241 5.1446 -0.52525 -129.22
900.0 -22.568 167.09 -0.28802 -110.67 -38.525 -84.233
 -0.28117 -110.67 -23.984 165.23 -33.968 14.555
 -38.53 -84.225 -33.973 14.635 -0.53807 -131.01
910.0 -22.997 168.82 -0.2858 -112.44 -37.469 -101.62
 -0.27858 -112.43 -24.672 159.74 -33.484 23.232
 -37.468 -101.62 -33.49 23.347 -0.54307 -132.8
920.0 -23.383 171.71 -0.29527 -114.27 -35.965 -116.72
 -0.28721 -114.27 -25.521 153.23 -32.539 30.78
 -35.971 -116.77 -32.541 30.769 -0.55852 -134.61
930.0 -23.729 175.14 -0.30096 -116.13 -34.298 -127.7
 -0.29269 -116.12 -26.371 145.34 -31.496 36.634
 -34.295 -127.74 -31.492 36.592 -0.57124 -136.43
940.0 -24.006 179.18 -0.31012 -118.03 -32.666 -136.2
 -0.30199 -118.02 -27.222 135.49 -30.345 40.713
 -32.661 -136.22 -30.341 40.672 -0.58751 -138.28
950.0 -24.202 -176.28 -0.32 -119.97 -31.134 -142.77
 -0.3123 -119.97 -27.93 123.32 -29.188 43.447
 -31.129 -142.79 -29.187 43.43 -0.60491 -140.16
960.0 -24.342 -171.53 -0.32057 -121.92 -29.763 -147.49
 -0.31266 -121.91 -28.233 109.61 -28.149 45.52
 -29.757 -147.47 -28.148 45.554 -0.61312 -142.04
970.0 -24.144 -166.37 -0.34072 -123.96 -28.448 -152.28
 -0.33332 -123.95 -28.253 94.463 -27.018 45.885
 -28.445 -152.27 -27.017 45.908 -0.63915 -144.0
980.0 -23.885 -161.48 -0.34984 -126.01 -27.267 -155.87
 -0.34295 -126.0 -27.705 80.229 -26.017 46.171
 -27.265 -155.87 -26.016 46.184 -0.65497 -145.97
990.0 -23.441 -157.14 -0.36555 -128.11 -26.165 -159.24
 -0.35909 -128.1 -26.842 67.469 -25.04 45.59
 -26.163 -159.24 -25.039 45.602 -0.67638 -147.99
1000.0 -22.873 -153.47 -0.38386 -130.27 -25.134 -162.3
 -0.37773 -130.26 -25.782 56.675 -24.102 44.532
 -25.131 -162.3 -24.1 44.547 -0.69996 -150.05
1010.0 -22.299 -150.29 -0.39184 -132.44 -24.193 -164.8
 -0.38599 -132.43 -24.628 48.249 -23.248 43.591
 -24.189 -164.79 -23.246 43.608 -0.71396 -152.11
1020.0 -21.527 -148.32 -0.42503 -134.72 -23.286 -167.64
 -0.41896 -134.71 -23.535 40.335 -22.379 41.449
 -23.281 -167.63 -22.377 41.462 -0.74715 -154.25
1030.0 -20.81 -146.66 -0.4445 -137.01 -22.45 -169.96
 -0.43824 -137.0 -22.449 34.185 -21.58 39.682
 -22.443 -169.96 -21.579 39.691 -0.76827 -156.4
1040.0 -20.072 -145.96 -0.47302 -139.37 -21.658 -172.3
 -0.46671 -139.35 -21.436 28.767 -20.811 37.363
 -21.651 -172.29 -20.809 37.371 -0.79874 -158.6
1050.0 -19.34 -145.9 -0.50522 -141.79 -20.905 -174.57
 -0.49897 -141.78 -20.485 24.005 -20.065 34.791
 -20.898 -174.54 -20.064 34.8 -0.83379 -160.86
1060.0 -18.662 -145.93 -0.52447 -144.24 -20.201 -176.51
 -0.51825 -144.22 -19.585 20.118 -19.363 32.528
 -20.194 -176.48 -19.362 32.539 -0.85767 -163.13
1070.0 -17.965 -147.35 -0.57491 -146.81 -19.529 -178.7
 -0.56797 -146.79 -18.771 16.257 -18.673 29.184
 -19.521 -178.67 -18.671 29.201 -0.90841 -165.51
1080.0 -17.316 -148.56 -0.60791 -149.4 -18.895 179.41
 -0.60024 -149.39 -17.997 13.042 -18.01 26.322
 -18.887 179.44 -18.008 26.346 -0.9442 -167.92
1090.0 -16.695 -150.55 -0.65403 -152.08 -18.294 177.56
 -0.64627 -152.07 -17.305 10.063 -17.377 22.981
 -18.286 177.59 -17.376 23.005 -0.9903 -170.4
1100.0 -16.091 -153.0 -0.70578 -154.85 -17.724 175.79
 -0.69846 -154.84 -16.675 7.2981 -16.758 19.431
 -17.716 175.81 -16.757 19.451 -1.0405 -172.96
1110.0 -15.516 -155.23 -0.74086 -157.65 -17.181 174.22
 -0.73393 -157.64 -16.074 4.8844 -16.154 16.254
 -17.173 174.23 -16.155 16.269 -1.0764 -175.56
1120.0 -14.99 -158.71 -0.81651 -160.62 -16.663 172.69
 -0.80898 -160.61 -15.546 2.5235 -15.588 11.956
 -16.656 172.7 -15.588 11.969 -1.147 -178.28
1130.0 -14.467 -161.8 -0.86895 -163.63 -16.17 171.33
 -0.86086 -163.62 -15.035 0.42891 -15.016 8.1867
 -16.163 171.34 -15.016 8.1983 -1.1979 178.95
1140.0 -14.0 -165.53 -0.94001 -166.77 -15.689 170.19
 -0.93179 -166.75 -14.572 -1.4044 -14.484 3.9022
 -15.683 170.21 -14.484 3.9125 -1.2676 176.08
1150.0 -13.552 -169.62 -1.0188 -170.03 -15.225 169.23
 -1.0107 -170.02 -14.148 -3.0346 -13.961 -0.63236
 -15.218 169.25 -13.96 -0.62233 -1.3465 173.1
1160.0 -13.098 -173.42 -1.075 -173.35 -14.778 168.4
 -1.0669 -173.35 -13.738 -4.4777 -13.429 -4.7554
 -14.77 168.41 -13.428 -4.745 -1.407 170.07
1170.0 -12.771 -178.65 -1.1912 -176.94 -14.287 168.05
 -1.183 -176.93 -13.364 -5.2053 -12.974 -10.176
 -14.28 168.06 -12.974 -10.166 -1.5237 166.8
1180.0 -12.391 176.54 -1.2736 179.39 -13.821 167.74
 -1.2653 179.4 -13.004 -5.874 -12.475 -15.032
 -13.816 167.76 -12.476 -15.022 -1.6127 163.46
1190.0 -12.112 170.98 -1.3909 175.5 -13.283 167.77
 -1.3826 175.52 -12.63 -5.9278 -12.046 -20.54
 -13.277 167.79 -12.046 -20.531 -1.7374 159.92
1200.0 -11.858 164.85 -1.5235 171.38 -12.704 168.02
 -1.5153 171.39 -12.25 -5.5533 -11.623 -26.445
 -12.698 168.03 -11.623 -26.433 -1.8807 156.16
1210.0 -11.546 159.01 -1.6222 167.13 -12.141 168.24
 -1.6141 167.14 -11.873 -5.1459 -11.159 -31.901
 -12.136 168.26 -11.158 -31.887 -1.9976 152.28
1220.0 -11.511 151.48 -1.8445 162.45 -11.327 168.44
 -1.8362 162.46 -11.307 -3.8496 -10.882 -39.019
 -11.321 168.46 -10.881 -39.001 -2.2381 148.07
1230.0 -11.332 144.14 -2.0105 157.56 -10.583 168.61
 -2.0019 157.57 -10.772 -2.7074 -10.493 -45.609
 -10.575 168.64 -10.492 -45.588 -2.4347 143.65
1240.0 -11.368 136.08 -2.2723 152.41 -9.681 167.96
 -2.2641 152.42 -10.037 -1.7997 -10.266 -52.917
 -9.6729 167.99 -10.265 -52.896 -2.7286 139.07
1250.0 -11.484 126.94 -2.5936 146.81 -8.7105 166.9
 -2.5863 146.82 -9.1965 -1.1153 -10.08 -60.948
 -8.7021 166.92 -10.078 -60.93 -3.092 134.15
1260.0 -11.435 117.74 -2.8606 140.88 -7.8196 165.83
 -2.8542 140.89 -8.4051 -0.69466 -9.7841 -68.597
 -7.8108 165.85 -9.7813 -68.58 -3.4212 128.89
1270.0 -12.043 107.29 -3.4386 135.01 -6.7792 162.21
 -3.4324 135.02 -7.3507 -2.3164 -9.9649 -77.578
 -6.7693 162.23 -9.9619 -77.559 -4.0441 124.02
1280.0 -12.352 95.654 -3.9469 128.35 -5.8254 159.33
 -3.941 128.36 -6.4056 -3.6046 -9.9283 -86.711
 -5.8147 159.35 -9.9253 -86.69 -4.6371 118.41
1290.0 -13.009 84.309 -4.6277 122.21 -4.9838 154.97
 -4.6224 122.22 -5.5164 -6.5311 -10.178 -95.536
 -4.9731 154.99 -10.175 -95.516 -5.3874 113.56
1300.0 -13.935 71.263 -5.4957 115.99 -4.1818 149.91
