!Murata Part Number: LQP02TQ3N9B02
!These Parameters are Measured in Series Mode Connection
!       o--[Z]--o
!Port1              Port2
!       o-------o
!
!Freq. Start=50[MHz] Stop=20[GHz], 401[Steps]
# Hz S RI R 50
!Freq.(Hz) S11(Real) S11(Imag) S21(Real) S21(Imag) S12(Real) S12(Imag) S22(Real) S22(Imag)
5.0E7 0.005500779283781507 0.01327377745268159 0.9944992207162185 -0.01327377745268159 0.9944992207162185 -0.01327377745268159 0.005500779283781507 0.01327377745268159
5.0754570186123446E7 0.005511347805377216 0.013472390323673634 0.9944886521946229 -0.013472390323673634 0.9944886521946229 -0.013472390323673634 0.005511347805377216 0.013472390323673634
5.152052789556263E7 0.005522206948264775 0.013673933273190187 0.9944777930517353 -0.013673933273190187 0.9944777930517353 -0.013673933273190187 0.005522206948264775 0.013673933273190187
5.229804498202928E7 0.005533363990791543 0.013878448170198539 0.9944666360092087 -0.013878448170198539 0.9944666360092087 -0.013878448170198539 0.005533363990791543 0.013878448170198539
5.308729589274893E7 0.005544826362970631 0.014085977453066048 0.9944551736370294 -0.014085977453066048 0.9944551736370294 -0.014085977453066048 0.005544826362970631 0.014085977453066048
5.388845770760058E7 0.005556601648720211 0.014296564137739111 0.9944433983512797 -0.014296564137739111 0.9944433983512797 -0.014296564137739111 0.005556601648720211 0.014296564137739111
5.470171017884717E7 0.005568697588147836 0.01451025182612786 0.9944313024118521 -0.01451025182612786 0.9944313024118521 -0.01451025182612786 0.005568697588147836 0.01451025182612786
5.5527235771465644E7 0.00558112207988588 0.014727084714704693 0.9944188779201141 -0.014727084714704693 0.9944188779201141 -0.014727084714704693 0.00558112207988588 0.014727084714704693
5.6365219704085544E7 0.00559388318348485 0.01494710760332503 0.994406116816515 -0.01494710760332503 0.994406116816515 -0.01494710760332503 0.00559388318348485 0.01494710760332503
5.721584999054556E7 0.005606989121872036 0.015170365904278628 0.9943930108781281 -0.015170365904278631 0.9943930108781281 -0.015170365904278631 0.005606989121872036 0.015170365904278628
5.807931748207712E7 0.0056204482838834845 0.015396905651579742 0.9943795517161164 -0.015396905651579742 0.9943795517161164 -0.015396905651579742 0.0056204482838834845 0.015396905651579742
5.8955815910124585E7 0.0056342692268780865 0.01562677351050457 0.9943657307731218 -0.01562677351050457 0.9943657307731218 -0.01562677351050457 0.0056342692268780865 0.01562677351050457
5.984554192981184E7 0.005648460679443332 0.01586001678738425 0.9943515393205564 -0.01586001678738425 0.9943515393205564 -0.01586001678738425 0.005648460679443332 0.01586001678738425
6.074869516406457E7 0.005663031544202907 0.01609668343966161 0.9943369684557972 -0.01609668343966161 0.9943369684557972 -0.01609668343966161 0.005663031544202907 0.01609668343966161
6.166547824839868E7 0.0056779909007371775 0.016336822086219616 0.9943220090992629 -0.016336822086219616 0.9943220090992629 -0.016336822086219616 0.0056779909007371775 0.016336822086219616
6.2596096876384385E7 0.005693348008628319 0.016580482017989506 0.9943066519913716 -0.016580482017989506 0.9943066519913716 -0.016580482017989506 0.005693348008628319 0.016580482017989506
6.354075984579668E7 0.0057091123106427204 0.016827713208846063 0.9942908876893573 -0.016827713208846067 0.9942908876893573 -0.016827713208846067 0.0057091123106427204 0.016827713208846063
6.449967910546205E7 0.005725293436064001 0.017078566326797294 0.9942747065639359 -0.017078566326797294 0.9942747065639359 -0.017078566326797294 0.005725293436064001 0.017078566326797294
6.547306980281226E7 0.005741901204190896 0.017333092745475478 0.9942580987958092 -0.01733309274547548 0.9942580987958092 -0.01733309274547548 0.005741901204190896 0.017333092745475478
6.646115033215589E7 0.005758945628015021 0.01759134455593603 0.994241054371985 -0.017591344555936028 0.994241054371985 -0.017591344555936028 0.005758945628015021 0.01759134455593603
6.746414238367817E7 0.005776436918094316 0.017853374578769978 0.9942235630819056 -0.017853374578769978 0.9942235630819056 -0.017853374578769978 0.005776436918094316 0.017853374578769978
6.848227099318038E7 0.005794385486638873 0.01811923637653573 0.9942056145133611 -0.01811923637653573 0.9942056145133611 -0.01811923637653573 0.005794385486638873 0.01811923637653573
6.951576459256999E7 0.005812801951826527 0.018388984266514665 0.9941871980481733 -0.01838898426651467 0.9941871980481733 -0.01838898426651467 0.005812801951826527 0.018388984266514665
7.056485506111258E7 0.005831697142366449 0.018662673333794653 0.9941683028576337 -0.018662673333794653 0.9941683028576337 -0.018662673333794653 0.005831697142366449 0.018662673333794653
7.162977777745734E7 0.0058510821023297 0.018940359444684893 0.9941489178976705 -0.01894035944468489 0.9941489178976705 -0.01894035944468489 0.0058510821023297 0.018940359444684893
7.271077167244768E7 0.005870968096266412 0.01922209926046445 0.9941290319037337 -0.01922209926046445 0.9941290319037337 -0.01922209926046445 0.005870968096266412 0.01922209926046445
7.380807928272885E7 0.005891366614629982 0.019507950251466098 0.99410863338537 -0.019507950251466098 0.99410863338537 -0.019507950251466098 0.005891366614629982 0.019507950251466098
7.492194680516452E7 0.005912289379529237 0.019797970711495954 0.9940877106204706 -0.01979797071149595 0.9940877106204706 -0.01979797071149595 0.005912289379529237 0.019797970711495954
7.60526241520746E7 0.005933748350830216 0.020092219772588626 0.9940662516491696 -0.020092219772588626 0.9940662516491696 -0.020092219772588626 0.005933748350830216 0.020092219772588626
7.720036500730675E7 0.005955755732629641 0.020390757420096186 0.9940442442673705 -0.020390757420096186 0.9940442442673705 -0.020390757420096186 0.005955755732629641 0.020390757420096186
7.836542688315398E7 0.005978323980122674 0.020693644508108285 0.9940216760198776 -0.020693644508108285 0.9940216760198776 -0.020693644508108285 0.005978323980122674 0.020693644508108285
7.954807117813127E7 0.006001465806887974 0.021000942775199614 0.9939985341931121 -0.021000942775199614 0.9939985341931121 -0.021000942775199614 0.006001465806887974 0.021000942775199614
8.074856323562416E7 0.006025194192613306 0.02131271486049939 0.993974805807387 -0.02131271486049939 0.993974805807387 -0.02131271486049939 0.006025194192613306 0.02131271486049939
8.196717240342227E7 0.006049522391285295 0.021629024320076445 0.9939504776087145 -0.021629024320076445 0.9939504776087145 -0.021629024320076445 0.006049522391285295 0.021629024320076445
8.320417209415154E7 0.006074463939866971 0.021949935643632155 0.9939255360601329 -0.021949935643632155 0.9939255360601329 -0.021949935643632155 0.006074463939866971 0.021949935643632155
8.445983984661816E7 0.0061000326674868835 0.022275514271491915 0.993899967332513 -0.022275514271491915 0.993899967332513 -0.022275514271491915 0.0061000326674868835 0.022275514271491915
8.573445738807854E7 0.006126242705163462 0.02260582661188462 0.9938737572948366 -0.02260582661188462 0.9938737572948366 -0.02260582661188462 0.006126242705163462 0.02260582661188462
8.702831069744885E7 0.006153108496088186 0.022940940058498165 0.9938468915039118 -0.02294094005849816 0.9938468915039118 -0.02294094005849816 0.006153108496088186 0.022940940058498165
8.834169006946853E7 0.006180644806490868 0.023280923008297413 0.9938193551935091 -0.023280923008297413 0.9938193551935091 -0.023280923008297413 0.006180644806490868 0.023280923008297413
8.96748901798321E7 0.006208866737109995 0.023625844879590022 0.9937911332628901 -0.023625844879590022 0.9937911332628901 -0.023625844879590022 0.006208866737109995 0.023625844879590022
9.1028210151304E7 0.006237789735290577 0.02397577613032363 0.9937622102647092 -0.02397577613032363 0.9937622102647092 -0.02397577613032363 0.006237789735290577 0.02397577613032363
9.240195362083109E7 0.006267429607731403 0.02433078827659689 0.9937325703922686 -0.024330788276596894 0.9937325703922686 -0.024330788276596894 0.006267429607731403 0.02433078827659689
9.379642880766791E7 0.006297802533902949 0.02469095391136552 0.9937021974660971 -0.024690953911365516 0.9937021974660971 -0.024690953911365516 0.006297802533902949 0.02469095391136552
9.521194858253023E7 0.006328925080156213 0.025056346723322784 0.993671074919844 -0.02505634672332278 0.993671074919844 -0.02505634672332278 0.006328925080156213 0.025056346723322784
9.664883053779216E7 0.006360814214542138 0.025427041515933356 0.9936391857854578 -0.025427041515933356 0.9936391857854578 -0.025427041515933356 0.006360814214542138 0.025427041515933356
9.810739705874248E7 0.006393487322359943 0.02580311422659746 0.9936065126776399 -0.02580311422659746 0.9936065126776399 -0.02580311422659746 0.006393487322359943 0.02580311422659746
9.958797539591652E7 0.006426962222451877 0.02618464194592182 0.9935730377775481 -0.02618464194592182 0.9935730377775481 -0.02618464194592182 0.006426962222451877 0.02618464194592182
1.0109089773851961E8 0.006461257184260483 0.02657170293707255 0.9935387428157397 -0.02657170293707255 0.9935387428157397 -0.02657170293707255 0.006461257184260483 0.02657170293707255
1.0261650128895843E8 0.006496390945663372 0.02696437665518438 0.9935036090543368 -0.02696437665518438 0.9935036090543368 -0.02696437665518438 0.006496390945663372 0.02696437665518438
1.0416512833849736E8 0.006532382731599004 0.027362743766799768 0.9934676172684009 -0.027362743766799768 0.9934676172684009 -0.027362743766799768 0.006532382731599004 0.027362743766799768
1.0573712634405641E8 0.0065692522734957254 0.027766886169310754 0.9934307477265042 -0.027766886169310754 0.9934307477265042 -0.027766886169310754 0.0065692522734957254 0.027766886169310754
1.0733284800616828E8 0.006607019829514605 0.028176887010375847 0.9933929801704852 -0.028176887010375847 0.9933929801704852 -0.028176887010375847 0.006607019829514605 0.028176887010375847
1.0895265134811176E8 0.0066457062056154235 0.028592830707283964 0.9933542937943847 -0.028592830707283957 0.9933542937943847 -0.028592830707283957 0.0066457062056154235 0.028592830707283964
1.1059689979623953E8 0.006685332777453399 0.029014802966236996 0.9933146672225467 -0.029014802966236996 0.9933146672225467 -0.029014802966236996 0.006685332777453399 0.029014802966236996
1.1226596226151802E8 0.006725921513112788 0.029442890801522553 0.9932740784868869 -0.029442890801522553 0.9932740784868869 -0.029442890801522553 0.006725921513112788 0.029442890801522553
1.1396021322229806E8 0.006767494996681939 0.029877182554548357 0.9932325050033181 -0.029877182554548357 0.9932325050033181 -0.029877182554548357 0.006767494996681939 0.029877182554548357
1.1568003280833441E8 0.00681007645267287 0.030317767912709716 0.993189923547327 -0.030317767912709716 0.993189923547327 -0.030317767912709716 0.00681007645267287 0.030317767912709716
1.1742580688607343E8 0.006853689771286959 0.030764737928062637 0.9931463102287132 -0.030764737928062637 0.9931463102287132 -0.030764737928062637 0.006853689771286959 0.030764737928062637
1.1919792714522783E8 0.006898359534526881 0.0312181850357742 0.9931016404654732 -0.031218185035774195 0.9931016404654732 -0.031218185035774195 0.006898359534526881 0.0312181850357742
1.2099679118665792E8 0.006944111043153487 0.031678203072323705 0.9930558889568466 -0.03167820307232371 0.9930558889568466 -0.03167820307232371 0.006944111043153487 0.031678203072323705
1.2282280261157903E8 0.006990970344485172 0.032144887293428 0.993009029655515 -0.032144887293428 0.993009029655515 -0.032144887293428 0.006990970344485172 0.032144887293428
1.2467637111211549E8 0.007038964261035879 0.032618334391665484 0.9929610357389641 -0.032618334391665484 0.9929610357389641 -0.032618334391665484 0.007038964261035879 0.032618334391665484
1.265579125632208E8 0.007088120419986925 0.033098642513774305 0.992911879580013 -0.033098642513774305 0.992911879580013 -0.033098642513774305 0.007088120419986925 0.033098642513774305
1.284678491159853E8 0.007138467283486781 0.033585911277601126 0.9928615327165132 -0.03358591127760112 0.9928615327165132 -0.03358591127760112 0.007138467283486781 0.033585911277601126
1.3040660929235186E8 0.007190034179772061 0.034080241788678044 0.9928099658202281 -0.034080241788678044 0.9928099658202281 -0.034080241788678044 0.007190034179772061 0.034080241788678044
1.3237462808126101E8 0.007242851335102374 0.03458173665640675 0.9927571486648977 -0.03458173665640676 0.9927571486648977 -0.03458173665640676 0.007242851335102374 0.03458173665640675
1.3437234703624701E8 0.007296949906500866 0.035090500009829495 0.9927030500934991 -0.035090500009829495 0.9927030500934991 -0.035090500009829495 0.007296949906500866 0.035090500009829495
1.364002143745067E8 0.007352362015292254 0.0356066375129689 0.9926476379847078 -0.03560663751296891 0.9926476379847078 -0.03560663751296891 0.007352362015292254 0.0356066375129689
1.3845868507746372E8 0.007409120781429418 0.03613025637971893 0.9925908792185706 -0.03613025637971893 0.9925908792185706 -0.03613025637971893 0.007409120781429418 0.03613025637971893
1.405482209928499E8 0.00746726035860007 0.03666146538827155 0.9925327396414001 -0.036661465388271544 0.9925327396414001 -0.036661465388271544 0.00746726035860007 0.03666146538827155
1.426692909383278E8 0.007526815970104486 0.037200374895064135 0.9924731840298954 -0.037200374895064135 0.9924731840298954 -0.037200374895064135 0.007526815970104486 0.037200374895064135
1.4482237080667645E8 0.007587823945496135 0.03774709684823507 0.9924121760545039 -0.03774709684823507 0.9924121760545039 -0.03774709684823507 0.007587823945496135 0.03774709684823507
1.4700794367256513E8 0.007650321757976953 0.03830174480057525 0.992349678242023 -0.03830174480057525 0.992349678242023 -0.03830174480057525 0.007650321757976953 0.03830174480057525
1.492264999009378E8 0.007714348062539864 0.03886443392196516 0.9922856519374601 -0.03886443392196516 0.9922856519374601 -0.03886443392196516 0.007714348062539864 0.03886443392196516
1.5147853725703382E8 0.007779942734851732 0.03943528101128802 0.9922200572651482 -0.03943528101128802 0.9922200572651482 -0.03943528101128802 0.007779942734851732 0.03943528101128802
1.5376456101806876E8 0.007847146910870817 0.04001440450781089 0.9921528530891291 -0.04001440450781089 0.9921528530891291 -0.04001440450781089 0.007847146910870817 0.04001440450781089
1.5608508408660066E8 0.007916003027193768 0.040601924502025995 0.9920839969728062 -0.040601924502025995 0.9920839969728062 -0.040601924502025995 0.007916003027193768 0.040601924502025995
1.5844062710560706E8 0.007986554862128396 0.04119796274594642 0.9920134451378715 -0.04119796274594641 0.9920134451378715 -0.04119796274594641 0.007986554862128396 0.04119796274594642
1.6083171857529896E8 0.008058847577489507 0.0418026426628499 0.9919411524225106 -0.0418026426628499 0.9919411524225106 -0.0418026426628499 0.008058847577489507 0.0418026426628499
1.632588949716973E8 0.008132927761116496 0.04241608935646574 0.9918670722388834 -0.042416089356465736 0.9918670722388834 -0.042416089356465736 0.008132927761116496 0.04241608935646574
1.6572270086699936E8 0.008208843470112867 0.04303842961960047 0.9917911565298873 -0.04303842961960047 0.9917911565298873 -0.04303842961960047 0.008208843470112867 0.04303842961960047
1.6822368905176118E8 0.008286644274809048 0.043669791942197396 0.9917133557251908 -0.043669791942197396 0.9917133557251908 -0.043669791942197396 0.008286644274809048 0.043669791942197396
1.7076242065892437E8 0.008366381303451562 0.044310306518825955 0.9916336186965485 -0.04431030651882595 0.9916336186965485 -0.04431030651882595 0.008366381303451562 0.044310306518825955
1.7333946528971428E8 0.008448107287623068 0.0449601052555966 0.9915518927123769 -0.0449601052555966 0.9915518927123769 -0.0449601052555966 0.008448107287623068 0.0449601052555966
1.7595540114143828E8 0.008531876608399235 0.04561932177649672 0.9914681233916008 -0.04561932177649672 0.9914681233916008 -0.04561932177649672 0.008531876608399235 0.04561932177649672
1.786108151372127E8 0.008617745343249949 0.0462880914291423 0.9913822546567501 -0.0462880914291423 0.9913822546567501 -0.0462880914291423 0.008617745343249949 0.0462880914291423
1.8130630305764765E8 0.008705771313693898 0.04696655128994059 0.991294228686306 -0.046966551289940595 0.991294228686306 -0.046966551289940595 0.008705771313693898 0.04696655128994059
1.840424696745189E8 0.008796014133716834 0.04765484016865694 0.9912039858662831 -0.04765484016865693 0.9912039858662831 -0.04765484016865693 0.008796014133716834 0.04765484016865694
1.8681992888645732E8 0.008888535258965293 0.048353098612379325 0.9911114647410346 -0.048353098612379325 0.9911114647410346 -0.048353098612379325 0.008888535258965293 0.048353098612379325
1.8963930385668582E8 0.008983398036728806 0.04906146890887243 0.9910166019632711 -0.04906146890887243 0.9910166019632711 -0.04906146890887243 0.008983398036728806 0.04906146890887243
1.92501227152835E8 0.00908066775672477 0.04978009508931235 0.9909193322432753 -0.04978009508931236 0.9909193322432753 -0.04978009508931236 0.00908066775672477 0.04978009508931235
1.9540634088886917E8 0.009180411702701273 0.05050912293039179 0.9908195882972985 -0.050509122930391774 0.9908195882972985 -0.050509122930391774 0.009180411702701273 0.05050912293039179
1.983552968691535E8 0.009282699204874028 0.05124869995578386 0.9907173007951258 -0.05124869995578386 0.9907173007951258 -0.05124869995578386 0.009282699204874028 0.05124869995578386
2.0134875673469606E8 0.009387601693214578 0.051998975436952345 0.9906123983067856 -0.051998975436952345 0.9906123983067856 -0.051998975436952345 0.009387601693214578 0.051998975436952345
2.0438739211159652E8 0.009495192751607337 0.052760100393292944 0.9905048072483927 -0.052760100393292944 0.9905048072483927 -0.052760100393292944 0.009495192751607337 0.052760100393292944
2.074718847617352E8 0.009605548172894034 0.05353222759159116 0.990394451827106 -0.05353222759159115 0.990394451827106 -0.05353222759159115 0.009605548172894034 0.05353222759159116
2.106029267357361E8 0.009718746014823944 0.0543155115447779 0.9902812539851761 -0.0543155115447779 0.9902812539851761 -0.0543155115447779 0.009718746014823944 0.0543155115447779
2.1378122052823865E8 0.00983486665692912 0.05511010850996513 0.9901651333430708 -0.05511010850996513 0.9901651333430708 -0.05511010850996513 0.00983486665692912 0.05511010850996513
2.1700747923551247E8 0.009953992858343723 0.05591617648574078 0.9900460071416561 -0.05591617648574078 0.9900460071416561 -0.05591617648574078 0.009953992858343723 0.05591617648574078
2.2028242671545094E8 0.010076209816586426 0.05673387520870077 0.9899237901834136 -0.05673387520870077 0.9899237901834136 -0.05673387520870077 0.010076209816586426 0.05673387520870077
2.23606797749979E8 0.010201605227324988 0.057563366149195126 0.989798394772675 -0.057563366149195126 0.989798394772675 -0.057563366149195126 0.010201605227324988 0.057563366149195126
2.2698133820991236E8 0.010330269345141734 0.058404812506263754 0.9896697306548583 -0.058404812506263754 0.9896697306548583 -0.058404812506263754 0.010330269345141734 0.058404812506263754
2.3040680522230446E8 0.010462295045318192 0.05925837920173519 0.9895377049546817 -0.05925837920173519 0.9895377049546817 -0.05925837920173519 0.010462295045318192 0.05925837920173519
2.338839673403185E8 0.010597777886656924 0.060124232873461705 0.989402222113343 -0.060124232873461705 0.989402222113343 -0.060124232873461705 0.010597777886656924 0.060124232873461705
2.37413604715664E8 0.010736816175357832 0.06100254186766239 0.9892631838246421 -0.061002541867662394 0.9892631838246421 -0.061002541867662394 0.010736816175357832 0.06100254186766239
2.4099650927363476E8 0.010879511029965656 0.06189347623034464 0.9891204889700345 -0.06189347623034464 0.9891204889700345 -0.06189347623034464 0.010879511029965656 0.06189347623034464
2.446334848907889E8 0.01102596644740486 0.06279720769777437 0.9889740335525952 -0.06279720769777437 0.9889740335525952 -0.06279720769777437 0.01102596644740486 0.06279720769777437
