!Murata Part Number: LQP02TQ1N5B02
!These Parameters are Measured in Series Mode Connection
!       o--[Z]--o
!Port1              Port2
!       o-------o
!
!Freq. Start=50[MHz] Stop=20[GHz], 401[Steps]
# Hz S RI R 50
!Freq.(Hz) S11(Real) S11(Imag) S21(Real) S21(Imag) S12(Real) S12(Imag) S22(Real) S22(Imag)
5.0E7 0.001594796850228835 0.005395609983841491 0.9984052031497711 -0.00539560998384149 0.9984052031497711 -0.00539560998384149 0.001594796850228835 0.005395609983841491
5.0754570186123446E7 0.0015984214671551336 0.005476331152371984 0.9984015785328446 -0.005476331152371983 0.9984015785328446 -0.005476331152371983 0.0015984214671551336 0.005476331152371984
5.152052789556263E7 0.0016021453006377154 0.005558241207104423 0.9983978546993622 -0.005558241207104423 0.9983978546993622 -0.005558241207104423 0.0016021453006377154 0.005558241207104423
5.229804498202928E7 0.0016059707664197234 0.005641356964707569 0.9983940292335803 -0.005641356964707569 0.9983940292335803 -0.005641356964707569 0.0016059707664197234 0.005641356964707569
5.308729589274893E7 0.0016099003231535192 0.005725695458869868 0.9983900996768466 -0.005725695458869868 0.9983900996768466 -0.005725695458869868 0.0016099003231535192 0.005725695458869868
5.388845770760058E7 0.0016139364723487472 0.005811273942824011 0.9983860635276511 -0.005811273942824011 0.9983860635276511 -0.005811273942824011 0.0016139364723487472 0.005811273942824011
5.470171017884717E7 0.0016180817582749506 0.005898109891927285 0.9983819182417252 -0.005898109891927285 0.9983819182417252 -0.005898109891927285 0.0016180817582749506 0.005898109891927285
5.5527235771465644E7 0.0016223387678173853 0.005986221006301639 0.9983776612321826 -0.005986221006301639 0.9983776612321826 -0.005986221006301639 0.0016223387678173853 0.005986221006301639
5.6365219704085544E7 0.0016267101302847198 0.006075625213537648 0.9983732898697153 -0.006075625213537648 0.9983732898697153 -0.006075625213537648 0.0016267101302847198 0.006075625213537648
5.721584999054556E7 0.0016311985171674889 0.0061663406714666325 0.9983688014828325 -0.006166340671466632 0.9983688014828325 -0.006166340671466632 0.0016311985171674889 0.0061663406714666325
5.807931748207712E7 0.0016358066418462826 0.0062583857710056395 0.9983641933581537 -0.0062583857710056395 0.9983641933581537 -0.0062583857710056395 0.0016358066418462826 0.0062583857710056395
5.8955815910124585E7 0.0016405372592488052 0.00635177913908002 0.9983594627407512 -0.00635177913908002 0.9983594627407512 -0.00635177913908002 0.0016405372592488052 0.00635177913908002
5.984554192981184E7 0.001645393165455161 0.006446539641628809 0.9983546068345449 -0.006446539641628809 0.9983546068345449 -0.006446539641628809 0.001645393165455161 0.006446539641628809
6.074869516406457E7 0.0016503771972508669 0.0065426863866980675 0.9983496228027492 -0.006542686386698069 0.9983496228027492 -0.006542686386698069 0.0016503771972508669 0.0065426863866980675
6.166547824839868E7 0.0016554922316273743 0.0066402387276279125 0.9983445077683725 -0.0066402387276279125 0.9983445077683725 -0.0066402387276279125 0.0016554922316273743 0.0066402387276279125
6.2596096876384385E7 0.0016607411852300824 0.006739216266338903 0.99833925881477 -0.006739216266338903 0.99833925881477 -0.006739216266338903 0.0016607411852300824 0.006739216266338903
6.354075984579668E7 0.001666127013754117 0.006839638856723853 0.9983338729862459 -0.006839638856723854 0.9983338729862459 -0.006839638856723854 0.001666127013754117 0.006839638856723853
6.449967910546205E7 0.0016716527112884605 0.006941526608151377 0.9983283472887116 -0.006941526608151377 0.9983283472887116 -0.006941526608151377 0.0016716527112884605 0.006941526608151377
6.547306980281226E7 0.0016773213096092912 0.007044899889087537 0.9983226786903908 -0.007044899889087537 0.9983226786903908 -0.007044899889087537 0.0016773213096092912 0.007044899889087537
6.646115033215589E7 0.0016831358774237848 0.0071497793308423555 0.998316864122576 -0.0071497793308423555 0.998316864122576 -0.0071497793308423555 0.0016831358774237848 0.0071497793308423555
6.746414238367817E7 0.001689099519565977 0.007256185831448041 0.9983109004804339 -0.007256185831448041 0.9983109004804339 -0.007256185831448041 0.001689099519565977 0.007256185831448041
6.848227099318038E7 0.0016952153761466773 0.007364140559675948 0.9983047846238532 -0.007364140559675948 0.9983047846238532 -0.007364140559675948 0.0016952153761466773 0.007364140559675948
6.951576459256999E7 0.0017014866216598758 0.007473664959199568 0.9982985133783401 -0.007473664959199568 0.9982985133783401 -0.007473664959199568 0.0017014866216598758 0.007473664959199568
7.056485506111258E7 0.0017079164640485087 0.007584780752910824 0.9982920835359516 -0.007584780752910824 0.9982920835359516 -0.007584780752910824 0.0017079164640485087 0.007584780752910824
7.162977777745734E7 0.0017145081437329353 0.007697509947397231 0.9982854918562669 -0.007697509947397231 0.9982854918562669 -0.007697509947397231 0.0017145081437329353 0.007697509947397231
7.271077167244768E7 0.0017212649326059839 0.007811874837587467 0.9982787350673941 -0.007811874837587467 0.9982787350673941 -0.007811874837587467 0.0017212649326059839 0.007811874837587467
7.380807928272885E7 0.0017281901329989496 0.00792789801157299 0.9982718098670014 -0.007927898011572992 0.9982718098670014 -0.007927898011572992 0.0017281901329989496 0.00792789801157299
7.492194680516452E7 0.001735287076623465 0.008045602355613463 0.9982647129233766 -0.008045602355613461 0.9982647129233766 -0.008045602355613461 0.001735287076623465 0.008045602355613463
7.60526241520746E7 0.0017425591234947618 0.008165011059333567 0.9982574408765053 -0.008165011059333569 0.9982574408765053 -0.008165011059333569 0.0017425591234947618 0.008165011059333567
7.720036500730675E7 0.001750009660842422 0.00828614762111902 0.9982499903391576 -0.00828614762111902 0.9982499903391576 -0.00828614762111902 0.001750009660842422 0.00828614762111902
7.836542688315398E7 0.0017576421020153077 0.008409035853719195 0.9982423578979847 -0.008409035853719195 0.9982423578979847 -0.008409035853719195 0.0017576421020153077 0.008409035853719195
7.954807117813127E7 0.0017654598853880576 0.008533699890064047 0.998234540114612 -0.008533699890064047 0.998234540114612 -0.008533699890064047 0.0017654598853880576 0.008533699890064047
8.074856323562416E7 0.0017734664732770877 0.008660164189302454 0.998226533526723 -0.008660164189302454 0.998226533526723 -0.008660164189302454 0.0017734664732770877 0.008660164189302454
8.196717240342227E7 0.0017816653508747656 0.008788453543069194 0.9982183346491251 -0.008788453543069194 0.9982183346491251 -0.008788453543069194 0.0017816653508747656 0.008788453543069194
8.320417209415154E7 0.0017900600252110713 0.008918593081987431 0.9982099399747889 -0.008918593081987431 0.9982099399747889 -0.008918593081987431 0.0017900600252110713 0.008918593081987431
8.445983984661816E7 0.0017986540241526818 0.00905060828241313 0.9982013459758473 -0.00905060828241313 0.9982013459758473 -0.00905060828241313 0.0017986540241526818 0.00905060828241313
8.573445738807854E7 0.001807450895450177 0.0091845249734277 0.9981925491045498 -0.0091845249734277 0.9981925491045498 -0.0091845249734277 0.001807450895450177 0.0091845249734277
8.702831069744885E7 0.0018164542058446151 0.009320369344084527 0.9981835457941552 -0.009320369344084525 0.9981835457941552 -0.009320369344084525 0.0018164542058446151 0.009320369344084527
8.834169006946853E7 0.0018256675402454918 0.009458167950914644 0.9981743324597545 -0.009458167950914644 0.9981743324597545 -0.009458167950914644 0.0018256675402454918 0.009458167950914644
8.96748901798321E7 0.0018350945009926547 0.009597947725696328 0.9981649054990075 -0.00959794772569633 0.9981649054990075 -0.00959794772569633 0.0018350945009926547 0.009597947725696328
9.1028210151304E7 0.0018447387072154189 0.009739735983492637 0.9981552612927846 -0.009739735983492639 0.9981552612927846 -0.009739735983492639 0.0018447387072154189 0.009739735983492637
9.240195362083109E7 0.00185460379430271 0.00988356043096034 0.9981453962056974 -0.00988356043096034 0.9981453962056974 -0.00988356043096034 0.00185460379430271 0.00988356043096034
9.379642880766791E7 0.001864693413498624 0.010029449174932932 0.9981353065865015 -0.010029449174932932 0.9981353065865015 -0.010029449174932932 0.001864693413498624 0.010029449174932932
9.521194858253023E7 0.0018750112316383376 0.010177430731279634 0.9981249887683618 -0.010177430731279634 0.9981249887683618 -0.010177430731279634 0.0018750112316383376 0.010177430731279634
9.664883053779216E7 0.0018855609310397868 0.010327534034041439 0.9981144390689602 -0.010327534034041439 0.9981144390689602 -0.010327534034041439 0.0018855609310397868 0.010327534034041439
9.810739705874248E7 0.0018963462095669594 0.010479788444844205 0.9981036537904331 -0.010479788444844205 0.9981036537904331 -0.010479788444844205 0.0018963462095669594 0.010479788444844205
9.958797539591652E7 0.0019073707808810506 0.010634223762588085 0.998092629219119 -0.010634223762588083 0.998092629219119 -0.010634223762588083 0.0019073707808810506 0.010634223762588085
1.0109089773851961E8 0.0019186383748960316 0.010790870233411309 0.998081361625104 -0.010790870233411309 0.998081361625104 -0.010790870233411309 0.0019186383748960316 0.010790870233411309
1.0261650128895843E8 0.0019301527384554401 0.01094975856092535 0.9980698472615446 -0.01094975856092535 0.9980698472615446 -0.01094975856092535 0.0019301527384554401 0.01094975856092535
1.0416512833849736E8 0.0019419176362473845 0.0111109199167174 0.9980580823637525 -0.0111109199167174 0.9980580823637525 -0.0111109199167174 0.0019419176362473845 0.0111109199167174
1.0573712634405641E8 0.001953936851974835 0.011274385951114872 0.9980460631480252 -0.011274385951114874 0.9980460631480252 -0.011274385951114874 0.001953936851974835 0.011274385951114872
1.0733284800616828E8 0.0019662141897982804 0.011440188804205442 0.9980337858102017 -0.011440188804205442 0.9980337858102017 -0.011440188804205442 0.0019662141897982804 0.011440188804205442
1.0895265134811176E8 0.0019787534760677718 0.011608361117104926 0.9980212465239322 -0.011608361117104924 0.9980212465239322 -0.011608361117104924 0.0019787534760677718 0.011608361117104926
1.1059689979623953E8 0.0019915585613611312 0.011778936043464003 0.9980084414386388 -0.011778936043464003 0.9980084414386388 -0.011778936043464003 0.0019915585613611312 0.011778936043464003
1.1226596226151802E8 0.00200463332284489 0.01195194726120361 0.9979953666771552 -0.01195194726120361 0.9979953666771552 -0.01195194726120361 0.00200463332284489 0.01195194726120361
1.1396021322229806E8 0.002017981666974071 0.01212742898446739 0.997982018333026 -0.01212742898446739 0.997982018333026 -0.01212742898446739 0.002017981666974071 0.01212742898446739
1.1568003280833441E8 0.0020316075325464344 0.012305415975778465 0.9979683924674536 -0.012305415975778463 0.9979683924674536 -0.012305415975778463 0.0020316075325464344 0.012305415975778465
1.1742580688607343E8 0.002045514894126235 0.01248594355838656 0.9979544851058738 -0.01248594355838656 0.9979544851058738 -0.01248594355838656 0.002045514894126235 0.01248594355838656
1.1919792714522783E8 0.0020597077658517453 0.012669047628790023 0.997940292234148 -0.012669047628790021 0.997940292234148 -0.012669047628790021 0.0020597077658517453 0.012669047628790023
1.2099679118665792E8 0.002074190205640014 0.012854764669416454 0.9979258097943599 -0.012854764669416452 0.9979258097943599 -0.012854764669416452 0.002074190205640014 0.012854764669416454
1.2282280261157903E8 0.002088966319801331 0.013043131761444143 0.9979110336801985 -0.013043131761444143 0.9979110336801985 -0.013043131761444143 0.002088966319801331 0.013043131761444143
1.2467637111211549E8 0.0021040402680748494 0.013234186597745768 0.9978959597319252 -0.013234186597745766 0.9978959597319252 -0.013234186597745766 0.0021040402680748494 0.013234186597745768
1.265579125632208E8 0.0021194162690955786 0.01342796749593441 0.9978805837309044 -0.01342796749593441 0.9978805837309044 -0.01342796749593441 0.0021194162690955786 0.01342796749593441
1.284678491159853E8 0.002135098606301768 0.01362451341149139 0.9978649013936983 -0.013624513411491393 0.9978649013936983 -0.013624513411491393 0.002135098606301768 0.01362451341149139
1.3040660929235186E8 0.002151091634290204 0.013823863950954106 0.9978489083657099 -0.013823863950954106 0.9978489083657099 -0.013823863950954106 0.002151091634290204 0.013823863950954106
1.3237462808126101E8 0.0021673997856256158 0.014026059385141823 0.9978326002143745 -0.014026059385141822 0.9978326002143745 -0.014026059385141822 0.0021673997856256158 0.014026059385141823
1.3437234703624701E8 0.0021840275781086966 0.014231140662396304 0.9978159724218912 -0.014231140662396304 0.9978159724218912 -0.014231140662396304 0.0021840275781086966 0.014231140662396304
1.364002143745067E8 0.0022009796225056838 0.01443914942181374 0.9977990203774942 -0.014439149421813744 0.9977990203774942 -0.014439149421813744 0.0022009796225056838 0.01443914942181374
1.3845868507746372E8 0.0022182606307407236 0.014650128006444238 0.9977817393692592 -0.014650128006444238 0.9977817393692592 -0.014650128006444238 0.0022182606307407236 0.014650128006444238
1.405482209928499E8 0.002235875424550498 0.014864119476434595 0.9977641245754494 -0.014864119476434595 0.9977641245754494 -0.014864119476434595 0.002235875424550498 0.014864119476434595
1.426692909383278E8 0.0022538289445987623 0.015081167622090233 0.9977461710554011 -0.015081167622090233 0.9977461710554011 -0.015081167622090233 0.0022538289445987623 0.015081167622090233
1.4482237080667645E8 0.0022721262600466324 0.01530131697683188 0.9977278737399532 -0.015301316976831876 0.9977278737399532 -0.015301316976831876 0.0022721262600466324 0.01530131697683188
1.4700794367256513E8 0.0022907725785726142 0.0155246128300232 0.9977092274214273 -0.0155246128300232 0.9977092274214273 -0.0155246128300232 0.0022907725785726142 0.0155246128300232
1.492264999009378E8 0.0023097732568344936 0.01575110123964554 0.9976902267431653 -0.01575110123964554 0.9976902267431653 -0.01575110123964554 0.0023097732568344936 0.01575110123964554
1.5147853725703382E8 0.002329133811363354 0.01598082904479668 0.9976708661886367 -0.01598082904479668 0.9976708661886367 -0.01598082904479668 0.002329133811363354 0.01598082904479668
1.5376456101806876E8 0.002348859929878228 0.01621384387799117 0.9976511400701217 -0.016213843877991168 0.9976511400701217 -0.016213843877991168 0.002348859929878228 0.01621384387799117
1.5608508408660066E8 0.0023689574830080234 0.01645019417724055 0.997631042516992 -0.01645019417724055 0.997631042516992 -0.01645019417724055 0.0023689574830080234 0.01645019417724055
1.5844062710560706E8 0.0023894325364057166 0.016689929197892767 0.9976105674635943 -0.016689929197892767 0.9976105674635943 -0.016689929197892767 0.0023894325364057166 0.016689929197892767
1.6083171857529896E8 0.0024102913632381272 0.01693309902421148 0.9975897086367618 -0.016933099024211484 0.9975897086367618 -0.016933099024211484 0.0024102913632381272 0.01693309902421148
1.632588949716973E8 0.002431540457033006 0.017179754580676828 0.9975684595429668 -0.017179754580676828 0.9975684595429668 -0.017179754580676828 0.002431540457033006 0.017179754580676828
1.6572270086699936E8 0.0024531865448637526 0.017429947642991103 0.9975468134551363 -0.017429947642991103 0.9975468134551363 -0.017429947642991103 0.0024531865448637526 0.017429947642991103
1.6822368905176118E8 0.0024752366008506566 0.01768373084877402 0.9975247633991495 -0.017683730848774025 0.9975247633991495 -0.017683730848774025 0.0024752366008506566 0.01768373084877402
1.7076242065892437E8 0.0024976978599564157 0.01794115770793429 0.9975023021400437 -0.017941157707934294 0.9975023021400437 -0.017941157707934294 0.0024976978599564157 0.01794115770793429
1.7333946528971428E8 0.0025205778320524976 0.018202282612705553 0.9974794221679475 -0.018202282612705553 0.9974794221679475 -0.018202282612705553 0.0025205778320524976 0.018202282612705553
1.7595540114143828E8 0.0025438843162320685 0.01846716084733721 0.9974561156837679 -0.018467160847337207 0.9974561156837679 -0.018467160847337207 0.0025438843162320685 0.01846716084733721
1.786108151372127E8 0.002567625415344327 0.01873584859743216 0.9974323745846557 -0.018735848597432155 0.9974323745846557 -0.018735848597432155 0.002567625415344327 0.01873584859743216
1.8130630305764765E8 0.0025918095507245684 0.019008402958925995 0.9974081904492754 -0.019008402958925995 0.9974081904492754 -0.019008402958925995 0.0025918095507245684 0.019008402958925995
1.840424696745189E8 0.0026164454770937315 0.01928488194670381 0.9973835545229064 -0.019284881946703806 0.9973835545229064 -0.019284881946703806 0.0026164454770937315 0.01928488194670381
1.8681992888645732E8 0.0026415422976010044 0.019565344502853427 0.997358457702399 -0.019565344502853427 0.997358457702399 -0.019565344502853427 0.0026415422976010044 0.019565344502853427
1.8963930385668582E8 0.002667109478982905 0.019849850504555802 0.9973328905210171 -0.019849850504555802 0.9973328905210171 -0.019849850504555802 0.002667109478982905 0.019849850504555802
1.92501227152835E8 0.0026931568668123376 0.020138460771615508 0.9973068431331877 -0.020138460771615508 0.9973068431331877 -0.020138460771615508 0.0026931568668123376 0.020138460771615508
1.9540634088886917E8 0.0027196947008114097 0.020431237073636612 0.9972803052991885 -0.020431237073636612 0.9972803052991885 -0.020431237073636612 0.0027196947008114097 0.020431237073636612
1.983552968691535E8 0.002746733630202151 0.020728242136851125 0.9972532663697977 -0.020728242136851125 0.9972532663697977 -0.020728242136851125 0.002746733630202151 0.020728242136851125
2.0134875673469606E8 0.0027742847290699894 0.021029539650609844 0.99722571527093 -0.021029539650609844 0.99722571527093 -0.021029539650609844 0.0027742847290699894 0.021029539650609844
2.0438739211159652E8 0.002802359511715465 0.02133519427354673 0.9971976404882846 -0.021335194273546732 0.9971976404882846 -0.021335194273546732 0.002802359511715465 0.02133519427354673
2.074718847617352E8 0.0028309699479707163 0.021645271639430832 0.9971690300520293 -0.021645271639430832 0.9971690300520293 -0.021645271639430832 0.0028309699479707163 0.021645271639430832
2.106029267357361E8 0.0028601284784582565 0.021959838362721026 0.9971398715215417 -0.021959838362721026 0.9971398715215417 -0.021959838362721026 0.0028601284784582565 0.021959838362721026
2.1378122052823865E8 0.0028898480297708242 0.02227896204384108 0.9971101519702292 -0.02227896204384108 0.9971101519702292 -0.02227896204384108 0.0028898480297708242 0.02227896204384108
2.1700747923551247E8 0.002920142029552433 0.022602711274194193 0.9970798579704475 -0.022602711274194196 0.9970798579704475 -0.022602711274194196 0.002920142029552433 0.022602711274194193
2.2028242671545094E8 0.002951024421462191 0.022931155640937735 0.9970489755785378 -0.022931155640937735 0.9970489755785378 -0.022931155640937735 0.002951024421462191 0.022931155640937735
2.23606797749979E8 0.002982509680004079 0.023264365731540525 0.9970174903199961 -0.023264365731540525 0.9970174903199961 -0.023264365731540525 0.002982509680004079 0.023264365731540525
2.2698133820991236E8 0.003014612825207525 0.023602413138146414 0.9969853871747927 -0.023602413138146417 0.9969853871747927 -0.023602413138146417 0.003014612825207525 0.023602413138146414
2.3040680522230446E8 0.0030473494371453646 0.02394537046176906 0.9969526505628545 -0.02394537046176906 0.9969526505628545 -0.02394537046176906 0.0030473494371453646 0.02394537046176906
2.338839673403185E8 0.0030807356702776323 0.02429331131634407 0.9969192643297223 -0.024293311316344074 0.9969192643297223 -0.024293311316344074 0.0030807356702776323 0.02429331131634407
2.37413604715664E8 0.0031147882676115083 0.024646310332665716 0.9968852117323884 -0.024646310332665716 0.9968852117323884 -0.024646310332665716 0.0031147882676115083 0.024646310332665716
