!Murata Part Number: LQP02TQ17NH02
!These Parameters are Measured in Series Mode Connection
!       o--[Z]--o
!Port1              Port2
!       o-------o
!
!Freq. Start=50[MHz] Stop=20[GHz], 401[Steps]
# Hz S RI R 50
!Freq.(Hz) S11(Real) S11(Imag) S21(Real) S21(Imag) S12(Real) S12(Imag) S22(Real) S22(Imag)
5.0E7 0.02398948686545594 0.05840479646446752 0.976010513134544 -0.05840479646446752 0.976010513134544 -0.05840479646446752 0.02398948686545594 0.05840479646446752
5.0754570186123446E7 0.02414215334884827 0.05922869796666209 0.9758578466511517 -0.05922869796666209 0.9758578466511517 -0.05922869796666209 0.02414215334884827 0.05922869796666209
5.152052789556263E7 0.02429812764646937 0.060064216669599886 0.9757018723535308 -0.0600642166695999 0.9757018723535308 -0.0600642166695999 0.02429812764646937 0.060064216669599886
5.229804498202928E7 0.024457501941476077 0.06091151377483651 0.975542498058524 -0.06091151377483651 0.975542498058524 -0.06091151377483651 0.024457501941476077 0.06091151377483651
5.308729589274893E7 0.02462037112093726 0.061770751862130706 0.9753796288790626 -0.061770751862130706 0.9753796288790626 -0.061770751862130706 0.02462037112093726 0.061770751862130706
5.388845770760058E7 0.024786832816562427 0.06264209487009385 0.9752131671834375 -0.06264209487009387 0.9752131671834375 -0.06264209487009387 0.024786832816562427 0.06264209487009385
5.470171017884717E7 0.024956987445459 0.06352570807729031 0.9750430125545408 -0.06352570807729031 0.9750430125545408 -0.06352570807729031 0.024956987445459 0.06352570807729031
5.5527235771465644E7 0.02513093825101707 0.06442175808384278 0.9748690617489829 -0.06442175808384278 0.9748690617489829 -0.06442175808384278 0.02513093825101707 0.06442175808384278
5.6365219704085544E7 0.02530879134402625 0.06533041279359009 0.9746912086559736 -0.06533041279359007 0.9746912086559736 -0.06533041279359007 0.02530879134402625 0.06533041279359009
5.721584999054556E7 0.025490655744135036 0.06625184139684155 0.974509344255865 -0.06625184139684155 0.974509344255865 -0.06625184139684155 0.025490655744135036 0.06625184139684155
5.807931748207712E7 0.025676643421768532 0.06718621435376465 0.9743233565782315 -0.06718621435376465 0.9743233565782315 -0.06718621435376465 0.025676643421768532 0.06718621435376465
5.8955815910124585E7 0.02586686934062622 0.0681337033784387 0.9741331306593738 -0.0681337033784387 0.9741331306593738 -0.0681337033784387 0.02586686934062622 0.0681337033784387
5.984554192981184E7 0.026061451500886342 0.06909448142359974 0.9739385484991139 -0.06909448142359974 0.9739385484991139 -0.06909448142359974 0.026061451500886342 0.06909448142359974
6.074869516406457E7 0.02626051098324939 0.07006872266609632 0.9737394890167507 -0.07006872266609633 0.9737394890167507 -0.07006872266609633 0.02626051098324939 0.07006872266609632
6.166547824839868E7 0.026464171993957897 0.07105660249306947 0.9735358280060421 -0.07105660249306948 0.9735358280060421 -0.07105660249306948 0.026464171993957897 0.07105660249306947
6.2596096876384385E7 0.02667256191093482 0.07205829748886113 0.9733274380890649 -0.07205829748886113 0.9733274380890649 -0.07205829748886113 0.02667256191093482 0.07205829748886113
6.354075984579668E7 0.026885811331188243 0.07307398542265127 0.9731141886688118 -0.07307398542265127 0.9731141886688118 -0.07307398542265127 0.026885811331188243 0.07307398542265127
6.449967910546205E7 0.02710405411963424 0.07410384523681252 0.9728959458803658 -0.07410384523681252 0.9728959458803658 -0.07410384523681252 0.02710405411963424 0.07410384523681252
6.547306980281226E7 0.027327427459495388 0.07514805703596594 0.9726725725405047 -0.07514805703596594 0.9726725725405047 -0.07514805703596594 0.027327427459495388 0.07514805703596594
6.646115033215589E7 0.027556071904436 0.07620680207671116 0.9724439280955642 -0.07620680207671117 0.9724439280955642 -0.07620680207671117 0.027556071904436 0.07620680207671116
6.746414238367817E7 0.027790131432600285 0.07728026275799522 0.9722098685673995 -0.07728026275799522 0.9722098685673995 -0.07728026275799522 0.027790131432600285 0.07728026275799522
6.848227099318038E7 0.028029753502723725 0.07836862261207632 0.9719702464972761 -0.07836862261207632 0.9719702464972761 -0.07836862261207632 0.028029753502723725 0.07836862261207632
6.951576459256999E7 0.028275089112491675 0.07947206629602649 0.9717249108875082 -0.07947206629602648 0.9717249108875082 -0.07947206629602648 0.028275089112491675 0.07947206629602649
7.056485506111258E7 0.02852629285932323 0.08059077958370843 0.9714737071406767 -0.08059077958370843 0.9714737071406767 -0.08059077958370843 0.02852629285932323 0.08059077958370843
7.162977777745734E7 0.028783523003761795 0.08172494935814964 0.9712164769962383 -0.08172494935814964 0.9712164769962383 -0.08172494935814964 0.028783523003761795 0.08172494935814964
7.271077167244768E7 0.029046941535656824 0.0828747636042253 0.9709530584643432 -0.0828747636042253 0.9709530584643432 -0.0828747636042253 0.029046941535656824 0.0828747636042253
7.380807928272885E7 0.029316714243323865 0.08404041140154969 0.9706832857566762 -0.0840404114015497 0.9706832857566762 -0.0840404114015497 0.029316714243323865 0.08404041140154969
7.492194680516452E7 0.029593010785872637 0.08522208291746224 0.9704069892141275 -0.08522208291746224 0.9704069892141275 -0.08522208291746224 0.029593010785872637 0.08522208291746224
7.60526241520746E7 0.02987600476889403 0.08641996939998099 0.970123995231106 -0.08641996939998099 0.970123995231106 -0.08641996939998099 0.02987600476889403 0.08641996939998099
7.720036500730675E7 0.03016587382369884 0.08763426317058284 0.969834126176301 -0.08763426317058284 0.969834126176301 -0.08763426317058284 0.03016587382369884 0.08763426317058284
7.836542688315398E7 0.030462799690300888 0.08886515761665373 0.969537200309699 -0.08886515761665373 0.969537200309699 -0.08886515761665373 0.030462799690300888 0.08886515761665373
7.954807117813127E7 0.030766968304337415 0.0901128471834378 0.9692330316956626 -0.0901128471834378 0.9692330316956626 -0.0901128471834378 0.030766968304337415 0.0901128471834378
8.074856323562416E7 0.03107856988811864 0.09137752736529804 0.9689214301118813 -0.09137752736529804 0.9689214301118813 -0.09137752736529804 0.03107856988811864 0.09137752736529804
8.196717240342227E7 0.03139779904599646 0.09265939469608449 0.9686022009540036 -0.0926593946960845 0.9686022009540036 -0.0926593946960845 0.03139779904599646 0.09265939469608449
8.320417209415154E7 0.03172485486423949 0.09395864673838882 0.9682751451357604 -0.0939586467383888 0.9682751451357604 -0.0939586467383888 0.03172485486423949 0.09395864673838882
8.445983984661816E7 0.03205994101559799 0.09527548207144691 0.9679400589844019 -0.09527548207144691 0.9679400589844019 -0.09527548207144691 0.03205994101559799 0.09527548207144691
8.573445738807854E7 0.032403265868736986 0.0966101002774322 0.967596734131263 -0.0966101002774322 0.967596734131263 -0.0966101002774322 0.032403265868736986 0.0966101002774322
8.702831069744885E7 0.03275504260271084 0.0979627019258658 0.967244957397289 -0.0979627019258658 0.967244957397289 -0.0979627019258658 0.03275504260271084 0.0979627019258658
8.834169006946853E7 0.03311548932664348 0.0993334885558477 0.9668845106733563 -0.0993334885558477 0.9668845106733563 -0.0993334885558477 0.03311548932664348 0.0993334885558477
8.96748901798321E7 0.03348482920477197 0.10072266265579788 0.966515170795228 -0.10072266265579788 0.966515170795228 -0.10072266265579788 0.03348482920477197 0.10072266265579788
9.1028210151304E7 0.033863290586999446 0.10213042764037432 0.9661367094130006 -0.10213042764037432 0.9661367094130006 -0.10213042764037432 0.033863290586999446 0.10213042764037432
9.240195362083109E7 0.034251107145092774 0.10355698782421617 0.9657488928549072 -0.10355698782421617 0.9657488928549072 -0.10355698782421617 0.034251107145092774 0.10355698782421617
9.379642880766791E7 0.03464851801464773 0.10500254839214232 0.9653514819853521 -0.10500254839214229 0.9653514819853521 -0.10500254839214229 0.03464851801464773 0.10500254839214232
9.521194858253023E7 0.03505576794292887 0.10646731536541396 0.9649442320570712 -0.10646731536541398 0.9649442320570712 -0.10646731536541398 0.03505576794292887 0.10646731536541396
9.664883053779216E7 0.03547310744267668 0.10795149556365431 0.9645268925573233 -0.10795149556365431 0.9645268925573233 -0.10795149556365431 0.03547310744267668 0.10795149556365431
9.810739705874248E7 0.035900792951955876 0.10945529656199623 0.964099207048044 -0.10945529656199623 0.964099207048044 -0.10945529656199623 0.035900792951955876 0.10945529656199623
9.958797539591652E7 0.03633908700009992 0.110978926643013 0.9636609129999 -0.110978926643013 0.9636609129999 -0.110978926643013 0.03633908700009992 0.110978926643013
1.0109089773851961E8 0.03678825837978613 0.11252259474296965 0.9632117416202138 -0.11252259474296965 0.9632117416202138 -0.11252259474296965 0.03678825837978613 0.11252259474296965
1.0261650128895843E8 0.037248582325252744 0.11408651039191423 0.962751417674747 -0.11408651039191424 0.962751417674747 -0.11408651039191424 0.037248582325252744 0.11408651039191423
1.0416512833849736E8 0.037720340696645975 0.11567088364711427 0.962279659303354 -0.11567088364711424 0.962279659303354 -0.11567088364711424 0.037720340696645975 0.11567088364711427
1.0573712634405641E8 0.03820382217045815 0.11727592501932647 0.9617961778295419 -0.11727592501932647 0.9617961778295419 -0.11727592501932647 0.03820382217045815 0.11727592501932647
1.0733284800616828E8 0.038699322435992875 0.11890184539137773 0.9613006775640073 -0.11890184539137776 0.9613006775640073 -0.11890184539137776 0.038699322435992875 0.11890184539137773
1.0895265134811176E8 0.039207144397761864 0.12054885592851768 0.9607928556022383 -0.12054885592851768 0.9607928556022383 -0.12054885592851768 0.039207144397761864 0.12054885592851768
1.1059689979623953E8 0.03972759838369041 0.12221716797999738 0.9602724016163096 -0.12221716797999738 0.9602724016163096 -0.12221716797999738 0.03972759838369041 0.12221716797999738
1.1226596226151802E8 0.0402610023589754 0.12390699297131567 0.9597389976410247 -0.12390699297131567 0.9597389976410247 -0.12390699297131567 0.0402610023589754 0.12390699297131567
1.1396021322229806E8 0.04080768214540764 0.1256185422865672 0.9591923178545924 -0.1256185422865672 0.9591923178545924 -0.1256185422865672 0.04080768214540764 0.1256185422865672
1.1568003280833441E8 0.04136797164593672 0.12735202714032146 0.9586320283540632 -0.12735202714032146 0.9586320283540632 -0.12735202714032146 0.04136797164593672 0.12735202714032146
1.1742580688607343E8 0.04194221307422117 0.12910765843845662 0.9580577869257788 -0.12910765843845662 0.9580577869257788 -0.12910765843845662 0.04194221307422117 0.12910765843845662
1.1919792714522783E8 0.042530757188871 0.13088564662736843 0.957469242811129 -0.13088564662736843 0.957469242811129 -0.13088564662736843 0.042530757188871 0.13088564662736843
1.2099679118665792E8 0.043133963532053426 0.1326862015309769 0.9568660364679467 -0.1326862015309769 0.9568660364679467 -0.1326862015309769 0.043133963532053426 0.1326862015309769
1.2282280261157903E8 0.04375220067209517 0.1345095321749519 0.9562477993279048 -0.1345095321749519 0.9562477993279048 -0.1345095321749519 0.04375220067209517 0.1345095321749519
1.2467637111211549E8 0.04438584644967603 0.1363558465975842 0.9556141535503239 -0.1363558465975842 0.9556141535503239 -0.1363558465975842 0.04438584644967603 0.1363558465975842
1.265579125632208E8 0.04503528822717205 0.1382253516467348 0.9549647117728278 -0.13822535164673477 0.9549647117728278 -0.13822535164673477 0.04503528822717205 0.1382253516467348
1.284678491159853E8 0.04570092314066598 0.14011825276230067 0.954299076859334 -0.14011825276230067 0.954299076859334 -0.14011825276230067 0.04570092314066598 0.14011825276230067
1.3040660929235186E8 0.0463831583541058 0.1420347537436496 0.9536168416458941 -0.1420347537436496 0.9536168416458941 -0.1420347537436496 0.0463831583541058 0.1420347537436496
1.3237462808126101E8 0.04708241131505262 0.14397505650148465 0.9529175886849474 -0.14397505650148462 0.9529175886849474 -0.14397505650148462 0.04708241131505262 0.14397505650148465
1.3437234703624701E8 0.04779911001142094 0.14593936079361594 0.9522008899885791 -0.14593936079361594 0.9522008899885791 -0.14593936079361594 0.04779911001142094 0.14593936079361594
1.364002143745067E8 0.048533693228576286 0.14792786394413426 0.9514663067714239 -0.14792786394413426 0.9514663067714239 -0.14792786394413426 0.048533693228576286 0.14792786394413426
1.3845868507746372E8 0.04928661080611763 0.1499407605454984 0.9507133891938824 -0.14994076054549843 0.9507133891938824 -0.14994076054549843 0.04928661080611763 0.1499407605454984
1.405482209928499E8 0.05005832389363388 0.15197824214306976 0.9499416761063662 -0.1519782421430698 0.9499416761063662 -0.1519782421430698 0.05005832389363388 0.15197824214306976
1.426692909383278E8 0.0508493052046883 0.15404049690165103 0.9491506947953118 -0.15404049690165103 0.9491506947953118 -0.15404049690165103 0.0508493052046883 0.15404049690165103
1.4482237080667645E8 0.05166003926824784 0.15612770925360955 0.9483399607317522 -0.15612770925360955 0.9483399607317522 -0.15612770925360955 0.05166003926824784 0.15612770925360955
1.4700794367256513E8 0.052491022676739794 0.15824005952819473 0.94750897732326 -0.15824005952819473 0.94750897732326 -0.15824005952819473 0.052491022676739794 0.15824005952819473
1.492264999009378E8 0.05334276432988316 0.16037772356168378 0.9466572356701167 -0.16037772356168378 0.9466572356701167 -0.16037772356168378 0.05334276432988316 0.16037772356168378
1.5147853725703382E8 0.05421578567340991 0.16254087228802547 0.94578421432659 -0.16254087228802544 0.94578421432659 -0.16254087228802544 0.05421578567340991 0.16254087228802547
1.5376456101806876E8 0.05511062093175761 0.16472967130967822 0.9448893790682426 -0.16472967130967822 0.9448893790682426 -0.16472967130967822 0.05511062093175761 0.16472967130967822
1.5608508408660066E8 0.056027817333784175 0.1669442804483768 0.9439721826662157 -0.16694428044837684 0.9439721826662157 -0.16694428044837684 0.056027817333784175 0.1669442804483768
1.5844062710560706E8 0.05696793533052531 0.16918485327559488 0.9430320646694745 -0.16918485327559488 0.9430320646694745 -0.16918485327559488 0.05696793533052531 0.16918485327559488
1.6083171857529896E8 0.05793154880398489 0.17145153662250714 0.942068451196015 -0.17145153662250712 0.942068451196015 -0.17145153662250712 0.05793154880398489 0.17145153662250714
1.632588949716973E8 0.05891924526592083 0.17374447006929422 0.9410807547340793 -0.1737444700692942 0.9410807547340793 -0.1737444700692942 0.05891924526592083 0.17374447006929422
1.6572270086699936E8 0.05993162604556209 0.17606378541367282 0.9400683739544379 -0.17606378541367282 0.9400683739544379 -0.17606378541367282 0.05993162604556209 0.17606378541367282
1.6822368905176118E8 0.06096930646516434 0.17840960611857276 0.9390306935348357 -0.17840960611857273 0.9390306935348357 -0.17840960611857273 0.06096930646516434 0.17840960611857276
1.7076242065892437E8 0.06203291600228906 0.18078204673892795 0.9379670839977108 -0.18078204673892792 0.9379670839977108 -0.18078204673892792 0.06203291600228906 0.18078204673892795
1.7333946528971428E8 0.06312309843766342 0.18318121232758866 0.9368769015623366 -0.1831812123275887 0.9368769015623366 -0.1831812123275887 0.06312309843766342 0.18318121232758866
1.7595540114143828E8 0.06424051198745795 0.18560719782041116 0.935759488012542 -0.18560719782041116 0.935759488012542 -0.18560719782041116 0.06424051198745795 0.18560719782041116
1.786108151372127E8 0.06538582941879338 0.1880600874006231 0.9346141705812067 -0.18806008740062316 0.9346141705812067 -0.18806008740062316 0.06538582941879338 0.1880600874006231
1.8130630305764765E8 0.06655973814726979 0.19053995384261685 0.9334402618527302 -0.19053995384261685 0.9334402618527302 -0.19053995384261685 0.06655973814726979 0.19053995384261685
1.840424696745189E8 0.06776294031528636 0.1930468578353647 0.9322370596847137 -0.1930468578353647 0.9322370596847137 -0.1930468578353647 0.06776294031528636 0.1930468578353647
1.8681992888645732E8 0.0689961528499048 0.19558084728570987 0.9310038471500952 -0.19558084728570987 0.9310038471500952 -0.19558084728570987 0.0689961528499048 0.19558084728570987
1.8963930385668582E8 0.0702601074989869 0.19814195660183287 0.9297398925010132 -0.19814195660183292 0.9297398925010132 -0.19814195660183292 0.0702601074989869 0.19814195660183287
1.92501227152835E8 0.07155555084432051 0.20073020595725166 0.9284444491556794 -0.20073020595725163 0.9284444491556794 -0.20073020595725163 0.07155555084432051 0.20073020595725166
1.9540634088886917E8 0.07288324429043193 0.20334560053576972 0.927116755709568 -0.20334560053576972 0.927116755709568 -0.20334560053576972 0.07288324429043193 0.20334560053576972
1.983552968691535E8 0.07424396402776436 0.2059881297578437 0.9257560359722357 -0.2059881297578437 0.9257560359722357 -0.2059881297578437 0.07424396402776436 0.2059881297578437
2.0134875673469606E8 0.07563850096889078 0.20865776648890527 0.9243614990311091 -0.20865776648890527 0.9243614990311091 -0.20865776648890527 0.07563850096889078 0.20865776648890527
2.0438739211159652E8 0.07706766065641361 0.2113544662302341 0.9229323393435865 -0.2113544662302341 0.9229323393435865 -0.2113544662302341 0.07706766065641361 0.2113544662302341
2.074718847617352E8 0.07853226314119269 0.21407816629304358 0.9214677368588073 -0.21407816629304358 0.9214677368588073 -0.21407816629304358 0.07853226314119269 0.21407816629304358
2.106029267357361E8 0.08003314282953254 0.21682878495651167 0.9199668571704674 -0.21682878495651167 0.9199668571704674 -0.21682878495651167 0.08003314282953254 0.21682878495651167
2.1378122052823865E8 0.08157114829795185 0.21960622061055787 0.918428851702048 -0.21960622061055787 0.918428851702048 -0.21960622061055787 0.08157114829795185 0.21960622061055787
2.1700747923551247E8 0.08314714207415073 0.22241035088424377 0.9168528579258491 -0.22241035088424377 0.9168528579258491 -0.22241035088424377 0.08314714207415073 0.22241035088424377
2.2028242671545094E8 0.08476200038278758 0.22524103176074922 0.9152379996172123 -0.2252410317607492 0.9152379996172123 -0.2252410317607492 0.08476200038278758 0.22524103176074922
2.23606797749979E8 0.08641661285467601 0.22809809667995787 0.913583387145324 -0.22809809667995787 0.913583387145324 -0.22809809667995787 0.08641661285467601 0.22809809667995787
2.2698133820991236E8 0.08811188219801296 0.2309813556297698 0.9118881178019871 -0.2309813556297698 0.9118881178019871 -0.2309813556297698 0.08811188219801296 0.2309813556297698
2.3040680522230446E8 0.08984872383025311 0.23389059422734157 0.9101512761697468 -0.23389059422734157 0.9101512761697468 -0.23389059422734157 0.08984872383025311 0.23389059422734157
2.338839673403185E8 0.09162806546925498 0.23682557279155053 0.9083719345307449 -0.23682557279155056 0.9083719345307449 -0.23682557279155056 0.09162806546925498 0.23682557279155053
2.37413604715664E8 0.0934508466823325 0.2397860254080655 0.9065491533176675 -0.2397860254080655 0.9065491533176675 -0.2397860254080655 0.0934508466823325 0.2397860254080655
2.4099650927363476E8 0.09531801839186597 0.24277165898850922 0.904681981608134 -0.24277165898850922 0.904681981608134 -0.24277165898850922 0.09531801839186597 0.24277165898850922
2.446334848907889E8 0.09723054233614539 0.245782152325293 0.9027694576638545 -0.245782152325293 0.9027694576638545 -0.245782152325293 0.09723054233614539 0.245782152325293
2.4832534757531032E8 0.09918939048414516 0.24881715514380778 0.9008106095158549 -0.2488171551438078 0.9008106095158549 -0.2488171551438078 0.09918939048414516 0.24881715514380778
2.5207292565009177E8 0.10119554440296531 0.2518762871537635 0.8988044555970347 -0.2518762871537635 0.8988044555970347 -0.2518762871537635 0.10119554440296531 0.2518762871537635
