!Murata Part Number: LQP02TQ7N5H02
!These Parameters are Measured in Series Mode Connection
!       o--[Z]--o
!Port1              Port2
!       o-------o
!
!Freq. Start=50[MHz] Stop=20[GHz], 401[Steps]
# Hz S RI R 50
!Freq.(Hz) S11(Real) S11(Imag) S21(Real) S21(Imag) S12(Real) S12(Imag) S22(Real) S22(Imag)
5.0E7 0.008847629396178766 0.025411743085827103 0.9911523706038211 -0.02541174308582711 0.9911523706038211 -0.02541174308582711 0.008847629396178766 0.025411743085827103
5.0754570186123446E7 0.008879538154479815 0.025787645685980732 0.9911204618455203 -0.025787645685980725 0.9911204618455203 -0.025787645685980725 0.008879538154479815 0.025787645685980732
5.152052789556263E7 0.00891222861469622 0.02616903942704666 0.9910877713853039 -0.02616903942704666 0.9910877713853039 -0.02616903942704666 0.00891222861469622 0.02616903942704666
5.229804498202928E7 0.008945720465615445 0.026556004304984095 0.9910542795343846 -0.026556004304984095 0.9910542795343846 -0.026556004304984095 0.008945720465615445 0.026556004304984095
5.308729589274893E7 0.008980033984078855 0.02694862146871135 0.9910199660159211 -0.02694862146871135 0.9910199660159211 -0.02694862146871135 0.008980033984078855 0.02694862146871135
5.388845770760058E7 0.009015190053555151 0.02734697323203376 0.990984809946445 -0.027346973232033767 0.990984809946445 -0.027346973232033767 0.009015190053555151 0.02734697323203376
5.470171017884717E7 0.009051210183035688 0.02775114308546223 0.9909487898169643 -0.02775114308546223 0.9909487898169643 -0.02775114308546223 0.009051210183035688 0.02775114308546223
5.5527235771465644E7 0.009088116526247617 0.02816121570792786 0.9909118834737525 -0.02816121570792786 0.9909118834737525 -0.02816121570792786 0.009088116526247617 0.02816121570792786
5.6365219704085544E7 0.00912593190118171 0.028577276978399766 0.9908740680988183 -0.028577276978399766 0.9908740680988183 -0.028577276978399766 0.00912593190118171 0.028577276978399766
5.721584999054556E7 0.009164679809932833 0.028999413987413677 0.990835320190067 -0.028999413987413677 0.990835320190067 -0.028999413987413677 0.009164679809932833 0.028999413987413677
5.807931748207712E7 0.009204384458852402 0.029427715048520837 0.9907956155411478 -0.02942771504852084 0.9907956155411478 -0.02942771504852084 0.009204384458852402 0.029427715048520837
5.8955815910124585E7 0.009245070779013204 0.02986226970966667 0.990754929220987 -0.02986226970966667 0.990754929220987 -0.02986226970966667 0.009245070779013204 0.02986226970966667
5.984554192981184E7 0.009286764446988957 0.030303168764510727 0.9907132355530109 -0.03030316876451072 0.9907132355530109 -0.03030316876451072 0.009286764446988957 0.030303168764510727
6.074869516406457E7 0.009329491905952142 0.030750504263699262 0.9906705080940478 -0.030750504263699262 0.9906705080940478 -0.030750504263699262 0.009329491905952142 0.030750504263699262
6.166547824839868E7 0.009373280387095662 0.031204369526102924 0.9906267196129042 -0.031204369526102924 0.9906267196129042 -0.031204369526102924 0.009373280387095662 0.031204369526102924
6.2596096876384385E7 0.009418157931385602 0.03166485915003258 0.9905818420686142 -0.03166485915003258 0.9905818420686142 -0.03166485915003258 0.009418157931385602 0.03166485915003258
6.354075984579668E7 0.0094641534116545 0.03213206902444666 0.9905358465883455 -0.03213206902444666 0.9905358465883455 -0.03213206902444666 0.0094641534116545 0.03213206902444666
6.449967910546205E7 0.009511296555046166 0.03260609634016332 0.9904887034449541 -0.03260609634016332 0.9904887034449541 -0.03260609634016332 0.009511296555046166 0.03260609634016332
6.547306980281226E7 0.009559617965825728 0.03308703960109151 0.9904403820341741 -0.03308703960109151 0.9904403820341741 -0.03308703960109151 0.009559617965825728 0.03308703960109151
6.646115033215589E7 0.009609149148570344 0.03357499863549438 0.9903908508514297 -0.033574998635494374 0.9903908508514297 -0.033574998635494374 0.009609149148570344 0.03357499863549438
6.746414238367817E7 0.009659922531758375 0.03407007460729825 0.9903400774682417 -0.03407007460729825 0.9903400774682417 -0.03407007460729825 0.009659922531758375 0.03407007460729825
6.848227099318038E7 0.009711971491777127 0.034572370027460345 0.9902880285082228 -0.034572370027460345 0.9902880285082228 -0.034572370027460345 0.009711971491777127 0.034572370027460345
6.951576459256999E7 0.009765330377371541 0.03508198876540752 0.9902346696226284 -0.03508198876540752 0.9902346696226284 -0.03508198876540752 0.009765330377371541 0.03508198876540752
7.056485506111258E7 0.009820034534558403 0.03559903606055738 0.9901799654654415 -0.03559903606055738 0.9901799654654415 -0.03559903606055738 0.009820034534558403 0.03559903606055738
7.162977777745734E7 0.009876120332033058 0.03612361853393257 0.9901238796679671 -0.036123618533932575 0.9901238796679671 -0.036123618533932575 0.009876120332033058 0.03612361853393257
7.271077167244768E7 0.009933625187097892 0.03665584419987737 0.990066374812902 -0.03665584419987738 0.990066374812902 -0.03665584419987738 0.009933625187097892 0.03665584419987737
7.380807928272885E7 0.009992587592144003 0.03719582247788482 0.9900074124078561 -0.03719582247788482 0.9900074124078561 -0.03719582247788482 0.009992587592144003 0.03719582247788482
7.492194680516452E7 0.01005304714171974 0.03774366420454041 0.9899469528582803 -0.03774366420454041 0.9899469528582803 -0.03774366420454041 0.01005304714171974 0.03774366420454041
7.60526241520746E7 0.010115044560221938 0.03829948164558743 0.9898849554397782 -0.03829948164558743 0.9898849554397782 -0.03829948164558743 0.010115044560221938 0.03829948164558743
7.720036500730675E7 0.010178621730247724 0.038863388508116305 0.9898213782697523 -0.038863388508116305 0.9898213782697523 -0.038863388508116305 0.010178621730247724 0.038863388508116305
7.836542688315398E7 0.010243821721646729 0.039435499952878705 0.9897561782783533 -0.039435499952878705 0.9897561782783533 -0.039435499952878705 0.010243821721646729 0.039435499952878705
7.954807117813127E7 0.010310688821315408 0.040015932606724466 0.9896893111786845 -0.040015932606724466 0.9896893111786845 -0.040015932606724466 0.010310688821315408 0.040015932606724466
8.074856323562416E7 0.010379268563776963 0.04060480457515721 0.9896207314362229 -0.04060480457515721 0.9896207314362229 -0.04060480457515721 0.010379268563776963 0.04060480457515721
8.196717240342227E7 0.010449607762591928 0.04120223545500159 0.9895503922374081 -0.04120223545500159 0.9895503922374081 -0.04120223545500159 0.010449607762591928 0.04120223545500159
8.320417209415154E7 0.01052175454264595 0.04180834634717267 0.9894782454573542 -0.04180834634717267 0.9894782454573542 -0.04180834634717267 0.01052175454264595 0.04180834634717267
8.445983984661816E7 0.010595758373362622 0.04242325986953414 0.9894042416266373 -0.04242325986953414 0.9894042416266373 -0.04242325986953414 0.010595758373362622 0.04242325986953414
8.573445738807854E7 0.010671670102890371 0.04304710016983019 0.9893283298971094 -0.04304710016983018 0.9893283298971094 -0.04304710016983018 0.010671670102890371 0.04304710016983019
8.702831069744885E7 0.010749541993313327 0.043679992938671336 0.9892504580066867 -0.043679992938671336 0.9892504580066867 -0.043679992938671336 0.010749541993313327 0.043679992938671336
8.834169006946853E7 0.010829427756936816 0.04432206542255183 0.989170572243063 -0.04432206542255182 0.989170572243063 -0.04432206542255182 0.010829427756936816 0.04432206542255183
8.96748901798321E7 0.010911382593698796 0.04497344643687288 0.9890886174063012 -0.04497344643687288 0.9890886174063012 -0.04497344643687288 0.010911382593698796 0.04497344643687288
9.1028210151304E7 0.010995463229758652 0.04563426637894175 0.9890045367702414 -0.04563426637894175 0.9890045367702414 -0.04563426637894175 0.010995463229758652 0.04563426637894175
9.240195362083109E7 0.01108172795731517 0.04630465724091361 0.9889182720426848 -0.0463046572409136 0.9889182720426848 -0.0463046572409136 0.01108172795731517 0.04630465724091361
9.379642880766791E7 0.011170236675705 0.0469847526226391 0.9888297633242952 -0.0469847526226391 0.9888297633242952 -0.0469847526226391 0.011170236675705 0.0469847526226391
9.521194858253023E7 0.011261050933832891 0.047674687744376845 0.988738949066167 -0.047674687744376845 0.988738949066167 -0.047674687744376845 0.011261050933832891 0.047674687744376845
9.664883053779216E7 0.011354233973984145 0.04837459945932653 0.988645766026016 -0.04837459945932653 0.988645766026016 -0.04837459945932653 0.011354233973984145 0.04837459945932653
9.810739705874248E7 0.01144985077706874 0.049084626265933386 0.9885501492229312 -0.049084626265933386 0.9885501492229312 -0.049084626265933386 0.01144985077706874 0.049084626265933386
9.958797539591652E7 0.011547968109345833 0.04980490831991298 0.9884520318906542 -0.04980490831991297 0.9884520318906542 -0.04980490831991297 0.011547968109345833 0.04980490831991298
1.0109089773851961E8 0.011648654570675375 0.05053558744593903 0.9883513454293248 -0.05053558744593904 0.9883513454293248 -0.05053558744593904 0.011648654570675375 0.05053558744593903
1.0261650128895843E8 0.011751980644342444 0.05127680714893567 0.9882480193556576 -0.05127680714893567 0.9882480193556576 -0.05127680714893567 0.011751980644342444 0.05127680714893567
1.0416512833849736E8 0.01185801874849754 0.05202871262490959 0.9881419812515023 -0.05202871262490959 0.9881419812515023 -0.05202871262490959 0.01185801874849754 0.05202871262490959
1.0573712634405641E8 0.011966843289254103 0.05279145077125571 0.9880331567107459 -0.05279145077125571 0.9880331567107459 -0.05279145077125571 0.011966843289254103 0.05279145077125571
1.0733284800616828E8 0.01207853071548202 0.05356517019646558 0.987921469284518 -0.05356517019646558 0.987921469284518 -0.05356517019646558 0.01207853071548202 0.05356517019646558
1.0895265134811176E8 0.012193159575333245 0.054350021229164644 0.9878068404246667 -0.05435002122916464 0.9878068404246667 -0.05435002122916464 0.012193159575333245 0.054350021229164644
1.1059689979623953E8 0.012310810574532408 0.05514615592640097 0.9876891894254676 -0.055146155926400986 0.9876891894254676 -0.055146155926400986 0.012310810574532408 0.05514615592640097
1.1226596226151802E8 0.012431566636462617 0.05595372808110577 0.9875684333635373 -0.055953728081105755 0.9875684333635373 -0.055953728081105755 0.012431566636462617 0.05595372808110577
1.1396021322229806E8 0.01255551296407279 0.05677289322864215 0.9874444870359272 -0.05677289322864214 0.9874444870359272 -0.05677289322864214 0.01255551296407279 0.05677289322864215
1.1568003280833441E8 0.012682737103629474 0.057603808652356696 0.9873172628963705 -0.057603808652356696 0.9873172628963705 -0.057603808652356696 0.012682737103629474 0.057603808652356696
1.1742580688607343E8 0.01281332901033225 0.05844663338804584 0.9871866709896676 -0.05844663338804584 0.9871866709896676 -0.05844663338804584 0.01281332901033225 0.05844663338804584
1.1919792714522783E8 0.012947381115807899 0.0593015282272464 0.9870526188841922 -0.0593015282272464 0.9870526188841922 -0.0593015282272464 0.012947381115807899 0.0593015282272464
1.2099679118665792E8 0.013084988397494206 0.060168655719258266 0.9869150116025057 -0.060168655719258266 0.9869150116025057 -0.060168655719258266 0.013084988397494206 0.060168655719258266
1.2282280261157903E8 0.01322624844992029 0.06104818017180567 0.9867737515500794 -0.06104818017180567 0.9867737515500794 -0.06104818017180567 0.01322624844992029 0.06104818017180567
1.2467637111211549E8 0.013371261557885634 0.0619402676502412 0.9866287384421145 -0.0619402676502412 0.9866287384421145 -0.0619402676502412 0.013371261557885634 0.0619402676502412
1.265579125632208E8 0.013520130771535747 0.06284508597519671 0.9864798692284642 -0.06284508597519671 0.9864798692284642 -0.06284508597519671 0.013520130771535747 0.06284508597519671
1.284678491159853E8 0.013672961983327783 0.06376280471858413 0.9863270380166722 -0.06376280471858413 0.9863270380166722 -0.06376280471858413 0.013672961983327783 0.06376280471858413
1.3040660929235186E8 0.013829864006874781 0.06469359519784817 0.9861701359931253 -0.06469359519784817 0.9861701359931253 -0.06469359519784817 0.013829864006874781 0.06469359519784817
1.3237462808126101E8 0.01399094865765273 0.06563763046837406 0.9860090513423473 -0.06563763046837406 0.9860090513423473 -0.06563763046837406 0.01399094865765273 0.06563763046837406
1.3437234703624701E8 0.014156330835549907 0.06659508531395204 0.98584366916445 -0.06659508531395203 0.98584366916445 -0.06659508531395203 0.014156330835549907 0.06659508531395204
1.364002143745067E8 0.014326128609233563 0.06756613623520234 0.9856738713907665 -0.06756613623520234 0.9856738713907665 -0.06756613623520234 0.014326128609233563 0.06756613623520234
1.3845868507746372E8 0.014500463302304418 0.06855096143586431 0.9854995366976955 -0.06855096143586431 0.9854995366976955 -0.06855096143586431 0.014500463302304418 0.06855096143586431
1.405482209928499E8 0.01467945958120493 0.0695497408068542 0.985320540418795 -0.06954974080685418 0.985320540418795 -0.06954974080685418 0.01467945958120493 0.0695497408068542
1.426692909383278E8 0.014863245544843464 0.07056265590799875 0.9851367544551566 -0.07056265590799875 0.9851367544551566 -0.07056265590799875 0.014863245544843464 0.07056265590799875
1.4482237080667645E8 0.015051952815891919 0.07158988994735274 0.9849480471841079 -0.07158988994735274 0.9849480471841079 -0.07158988994735274 0.015051952815891919 0.07158988994735274
1.4700794367256513E8 0.015245716633710396 0.07263162775800971 0.9847542833662895 -0.07263162775800971 0.9847542833662895 -0.07263162775800971 0.015245716633710396 0.07263162775800971
1.492264999009378E8 0.015444675948849105 0.07368805577231889 0.9845553240511508 -0.07368805577231889 0.9845553240511508 -0.07368805577231889 0.015444675948849105 0.07368805577231889
1.5147853725703382E8 0.015648973519073957 0.07475936199342373 0.984351026480926 -0.07475936199342374 0.984351026480926 -0.07475936199342374 0.015648973519073957 0.07475936199342373
1.5376456101806876E8 0.0158587560068588 0.07584573596403855 0.9841412439931412 -0.07584573596403857 0.9841412439931412 -0.07584573596403857 0.0158587560068588 0.07584573596403855
1.5608508408660066E8 0.016074174078284473 0.07694736873238478 0.9839258259217156 -0.07694736873238478 0.9839258259217156 -0.07694736873238478 0.016074174078284473 0.07694736873238478
1.5844062710560706E8 0.016295382503281906 0.07806445281520974 0.9837046174967181 -0.07806445281520973 0.9837046174967181 -0.07806445281520973 0.016295382503281906 0.07806445281520974
1.6083171857529896E8 0.016522540257154196 0.07919718215781597 0.9834774597428458 -0.07919718215781597 0.9834774597428458 -0.07919718215781597 0.016522540257154196 0.07919718215781597
1.632588949716973E8 0.016755810623309997 0.08034575209103027 0.98324418937669 -0.08034575209103027 0.98324418937669 -0.08034575209103027 0.016755810623309997 0.08034575209103027
1.6572270086699936E8 0.016995361297139234 0.08151035928504739 0.9830046387028608 -0.0815103592850474 0.9830046387028608 -0.0815103592850474 0.016995361297139234 0.08151035928504739
1.6822368905176118E8 0.017241364490960132 0.08269120170008565 0.9827586355090399 -0.08269120170008563 0.9827586355090399 -0.08269120170008563 0.017241364490960132 0.08269120170008565
1.7076242065892437E8 0.017493997039965608 0.08388847853379552 0.9825060029600344 -0.08388847853379552 0.9825060029600344 -0.08388847853379552 0.017493997039965608 0.08388847853379552
1.7333946528971428E8 0.01775344050909601 0.08510239016536679 0.982246559490904 -0.08510239016536679 0.982246559490904 -0.08510239016536679 0.01775344050909601 0.08510239016536679
1.7595540114143828E8 0.018019881300764776 0.08633313809628217 0.9819801186992352 -0.08633313809628217 0.9819801186992352 -0.08633313809628217 0.018019881300764776 0.08633313809628217
1.786108151372127E8 0.01829351076336339 0.08758092488767096 0.9817064892366365 -0.08758092488767096 0.9817064892366365 -0.08758092488767096 0.01829351076336339 0.08758092488767096
1.8130630305764765E8 0.01857452530047203 0.088845954094218 0.9814254746995281 -0.088845954094218 0.9814254746995281 -0.088845954094218 0.01857452530047203 0.088845954094218
1.840424696745189E8 0.018863126480702857 0.09012843019458834 0.9811368735192971 -0.09012843019458834 0.9811368735192971 -0.09012843019458834 0.018863126480702857 0.09012843019458834
1.8681992888645732E8 0.01915952114810375 0.0914285585183305 0.9808404788518964 -0.0914285585183305 0.9808404788518964 -0.0914285585183305 0.01915952114810375 0.0914285585183305
1.8963930385668582E8 0.01946392153305148 0.09274654516922558 0.9805360784669487 -0.09274654516922558 0.9805360784669487 -0.09274654516922558 0.01946392153305148 0.09274654516922558
1.92501227152835E8 0.01977654536356462 0.09408259694505171 0.9802234546364352 -0.09408259694505171 0.9802234546364352 -0.09408259694505171 0.01977654536356462 0.09408259694505171
1.9540634088886917E8 0.020097615976968655 0.09543692125373775 0.9799023840230313 -0.09543692125373776 0.9799023840230313 -0.09543692125373776 0.020097615976968655 0.09543692125373775
1.983552968691535E8 0.02042736243184749 0.09680972602588148 0.9795726375681526 -0.09680972602588149 0.9795726375681526 -0.09680972602588149 0.02042736243184749 0.09680972602588148
2.0134875673469606E8 0.020766019620218363 0.09820121962361165 0.9792339803797815 -0.09820121962361164 0.9792339803797815 -0.09820121962361164 0.020766019620218363 0.09820121962361165
2.0438739211159652E8 0.02111382837986999 0.09961161074577576 0.97888617162013 -0.09961161074577576 0.97888617162013 -0.09961161074577576 0.02111382837986999 0.09961161074577576
2.074718847617352E8 0.02147103560680612 0.1010411083294355 0.9785289643931938 -0.1010411083294355 0.9785289643931938 -0.1010411083294355 0.02147103560680612 0.1010411083294355
2.106029267357361E8 0.021837894367741514 0.10248992144765755 0.9781621056322586 -0.10248992144765752 0.9781621056322586 -0.10248992144765752 0.021837894367741514 0.10248992144765755
2.1378122052823865E8 0.02221466401259935 0.10395825920358509 0.9777853359874007 -0.10395825920358509 0.9777853359874007 -0.10395825920358509 0.02221466401259935 0.10395825920358509
2.1700747923551247E8 0.022601610286964446 0.10544633062078058 0.9773983897130355 -0.10544633062078056 0.9773983897130355 -0.10544633062078056 0.022601610286964446 0.10544633062078058
2.2028242671545094E8 0.02299900544445011 0.10695434452982731 0.9770009945555499 -0.10695434452982731 0.9770009945555499 -0.10695434452982731 0.02299900544445011 0.10695434452982731
2.23606797749979E8 0.0234071283589413 0.10848250945118207 0.9765928716410587 -0.10848250945118207 0.9765928716410587 -0.10848250945118207 0.0234071283589413 0.10848250945118207
2.2698133820991236E8 0.02382626463668154 0.11003103347426768 0.9761737353633184 -0.11003103347426768 0.9761737353633184 -0.11003103347426768 0.02382626463668154 0.11003103347426768
2.3040680522230446E8 0.024256706728176303 0.1116001241327976 0.9757432932718235 -0.11160012413279759 0.9757432932718235 -0.11160012413279759 0.024256706728176303 0.1116001241327976
2.338839673403185E8 0.024698754039890296 0.11318998827631999 0.9753012459601096 -0.11318998827631999 0.9753012459601096 -0.11318998827631999 0.024698754039890296 0.11318998827631999
2.37413604715664E8 0.025152713045722613 0.11480083193797207 0.9748472869542775 -0.11480083193797207 0.9748472869542775 -0.11480083193797207 0.025152713045722613 0.11480083193797207
2.4099650927363476E8 0.025618897398248738 0.11643286019842962 0.9743811026017514 -0.11643286019842962 0.9743811026017514 -0.11643286019842962 0.025618897398248738 0.11643286019842962
2.446334848907889E8 0.02609762803972479 0.1180862770460375 0.9739023719602752 -0.11808627704603748 0.9739023719602752 -0.11808627704603748 0.02609762803972479 0.1180862770460375
2.4832534757531032E8 0.026589233312855686 0.1197612852331016 0.9734107666871441 -0.1197612852331016 0.9734107666871441 -0.1197612852331016 0.026589233312855686 0.1197612852331016
