!Murata Part Number: LQP02TQ1N8B02
!These Parameters are Measured in Series Mode Connection
!       o--[Z]--o
!Port1              Port2
!       o-------o
!
!Freq. Start=50[MHz] Stop=20[GHz], 401[Steps]
# Hz S RI R 50
!Freq.(Hz) S11(Real) S11(Imag) S21(Real) S21(Imag) S12(Real) S12(Imag) S22(Real) S22(Imag)
5.0E7 0.00197498531293542 0.006360042796005586 0.9980250146870646 -0.006360042796005585 0.9980250146870646 -0.006360042796005585 0.00197498531293542 0.006360042796005586
5.0754570186123446E7 0.001979018022322972 0.006455357102192105 0.998020981977677 -0.006455357102192105 0.998020981977677 -0.006455357102192105 0.001979018022322972 0.006455357102192105
5.152052789556263E7 0.001983163914973502 0.0065520815915548255 0.9980168360850266 -0.0065520815915548255 0.9980168360850266 -0.0065520815915548255 0.001983163914973502 0.0065520815915548255
5.229804498202928E7 0.001987425905421679 0.006650236422354337 0.9980125740945782 -0.006650236422354337 0.9980125740945782 -0.006650236422354337 0.001987425905421679 0.006650236422354337
5.308729589274893E7 0.0019918069690647677 0.0067498420174756935 0.9980081930309354 -0.0067498420174756935 0.9980081930309354 -0.0067498420174756935 0.0019918069690647677 0.0067498420174756935
5.388845770760058E7 0.001996310142692717 0.006850919067386161 0.9980036898573073 -0.006850919067386161 0.9980036898573073 -0.006850919067386161 0.001996310142692717 0.006850919067386161
5.470171017884717E7 0.002000938524983482 0.0069534885331365 0.9979990614750165 -0.0069534885331365 0.9979990614750165 -0.0069534885331365 0.002000938524983482 0.0069534885331365
5.5527235771465644E7 0.002005695276961558 0.007057571649408678 0.9979943047230384 -0.007057571649408678 0.9979943047230384 -0.007057571649408678 0.002005695276961558 0.007057571649408678
5.6365219704085544E7 0.0020105836224177495 0.007163189927613217 0.9979894163775823 -0.007163189927613217 0.9979894163775823 -0.007163189927613217 0.0020105836224177495 0.007163189927613217
5.721584999054556E7 0.0020156068482882063 0.007270365159039484 0.9979843931517117 -0.007270365159039484 0.9979843931517117 -0.007270365159039484 0.0020156068482882063 0.007270365159039484
5.807931748207712E7 0.0020207683049908013 0.007379119418062552 0.9979792316950092 -0.007379119418062552 0.9979792316950092 -0.007379119418062552 0.0020207683049908013 0.007379119418062552
5.8955815910124585E7 0.002026071406717021 0.007489475065410519 0.997973928593283 -0.007489475065410519 0.997973928593283 -0.007489475065410519 0.002026071406717021 0.007489475065410519
5.984554192981184E7 0.0020315196316775105 0.007601454751496352 0.9979684803683225 -0.007601454751496352 0.9979684803683225 -0.007601454751496352 0.0020315196316775105 0.007601454751496352
6.074869516406457E7 0.0020371165222996235 0.007715081419818662 0.9979628834777005 -0.007715081419818662 0.9979628834777005 -0.007715081419818662 0.0020371165222996235 0.007715081419818662
6.166547824839868E7 0.00204286568537533 0.007830378310436072 0.9979571343146245 -0.007830378310436073 0.9979571343146245 -0.007830378310436073 0.00204286568537533 0.007830378310436072
6.2596096876384385E7 0.0020487707921579964 0.007947368963519996 0.9979512292078421 -0.007947368963519994 0.9979512292078421 -0.007947368963519994 0.0020487707921579964 0.007947368963519996
6.354075984579668E7 0.0020548355784067137 0.008066077222991233 0.9979451644215931 -0.008066077222991233 0.9979451644215931 -0.008066077222991233 0.0020548355784067137 0.008066077222991233
6.449967910546205E7 0.0020610638443769357 0.00818652724024563 0.997938936155623 -0.00818652724024563 0.997938936155623 -0.00818652724024563 0.0020610638443769357 0.00818652724024563
6.547306980281226E7 0.00206745945475647 0.008308743477974794 0.9979325405452436 -0.008308743477974792 0.9979325405452436 -0.008308743477974792 0.00206745945475647 0.008308743477974794
6.646115033215589E7 0.0020740263385459834 0.008432750714087832 0.9979259736614541 -0.008432750714087832 0.9979259736614541 -0.008432750714087832 0.0020740263385459834 0.008432750714087832
6.746414238367817E7 0.0020807684888834574 0.008558574045740518 0.9979192315111166 -0.00855857404574052 0.9979192315111166 -0.00855857404574052 0.0020807684888834574 0.008558574045740518
6.848227099318038E7 0.0020876899628122715 0.008686238893478554 0.9979123100371876 -0.008686238893478554 0.9979123100371876 -0.008686238893478554 0.0020876899628122715 0.008686238893478554
6.951576459256999E7 0.0020947948809928825 0.008815771005501898 0.9979052051190072 -0.0088157710055019 0.9979052051190072 -0.0088157710055019 0.0020947948809928825 0.008815771005501898
7.056485506111258E7 0.0021020874273583413 0.008947196462057392 0.9978979125726417 -0.008947196462057392 0.9978979125726417 -0.008947196462057392 0.0021020874273583413 0.008947196462057392
7.162977777745734E7 0.002109571848714303 0.009080541679967306 0.9978904281512857 -0.009080541679967306 0.9978904281512857 -0.009080541679967306 0.002109571848714303 0.009080541679967306
7.271077167244768E7 0.002117252454284429 0.009215833417301495 0.9978827475457155 -0.009215833417301495 0.9978827475457155 -0.009215833417301495 0.002117252454284429 0.009215833417301495
7.380807928272885E7 0.002125133615202616 0.009353098778201391 0.9978748663847973 -0.009353098778201391 0.9978748663847973 -0.009353098778201391 0.002125133615202616 0.009353098778201391
7.492194680516452E7 0.0021332197639537982 0.009492365217864089 0.9978667802360462 -0.009492365217864089 0.9978667802360462 -0.009492365217864089 0.0021332197639537982 0.009492365217864089
7.60526241520746E7 0.0021415153937656027 0.009633660547695176 0.9978584846062344 -0.009633660547695176 0.9978584846062344 -0.009633660547695176 0.0021415153937656027 0.009633660547695176
7.720036500730675E7 0.0021500250579535715 0.009777012940639108 0.9978499749420465 -0.009777012940639108 0.9978499749420465 -0.009777012940639108 0.0021500250579535715 0.009777012940639108
7.836542688315398E7 0.002158753369223241 0.009922450936696166 0.9978412466307768 -0.009922450936696164 0.9978412466307768 -0.009922450936696164 0.002158753369223241 0.009922450936696166
7.954807117813127E7 0.0021677049989328786 0.01007000344863522 0.9978322950010672 -0.01007000344863522 0.9978322950010672 -0.01007000344863522 0.0021677049989328786 0.01007000344863522
8.074856323562416E7 0.002176884676321269 0.01021969976791168 0.9978231153236788 -0.01021969976791168 0.9978231153236788 -0.01021969976791168 0.002176884676321269 0.01021969976791168
8.196717240342227E7 0.002186297187705589 0.010371569570800116 0.9978137028122944 -0.010371569570800116 0.9978137028122944 -0.010371569570800116 0.002186297187705589 0.010371569570800116
8.320417209415154E7 0.0021959473756550285 0.010525642924751263 0.9978040526243451 -0.010525642924751263 0.9978040526243451 -0.010525642924751263 0.0021959473756550285 0.010525642924751263
8.445983984661816E7 0.002205840138146463 0.010681950294982923 0.9977941598618534 -0.010681950294982923 0.9977941598618534 -0.010681950294982923 0.002205840138146463 0.010681950294982923
8.573445738807854E7 0.002215980427709292 0.01084052255131467 0.9977840195722907 -0.01084052255131467 0.9977840195722907 -0.01084052255131467 0.002215980427709292 0.01084052255131467
8.702831069744885E7 0.0022263732505671385 0.011001390975255888 0.9977736267494328 -0.01100139097525589 0.9977736267494328 -0.01100139097525589 0.0022263732505671385 0.011001390975255888
8.834169006946853E7 0.002237023665785001 0.011164587267356875 0.997762976334215 -0.011164587267356873 0.997762976334215 -0.011164587267356873 0.002237023665785001 0.011164587267356875
8.96748901798321E7 0.0022479367844311336 0.011330143554832504 0.9977520632155688 -0.011330143554832504 0.9977520632155688 -0.011330143554832504 0.0022479367844311336 0.011330143554832504
9.1028210151304E7 0.0022591177687637702 0.011498092399467844 0.9977408822312364 -0.011498092399467844 0.9977408822312364 -0.011498092399467844 0.0022591177687637702 0.011498092399467844
9.240195362083109E7 0.0022705718314536003 0.011668466805814822 0.9977294281685465 -0.011668466805814822 0.9977294281685465 -0.011668466805814822 0.0022705718314536003 0.011668466805814822
9.379642880766791E7 0.002282304234853769 0.011841300229688906 0.9977176957651462 -0.011841300229688906 0.9977176957651462 -0.011841300229688906 0.002282304234853769 0.011841300229688906
9.521194858253023E7 0.0022943202903299474 0.012016626586974275 0.9977056797096701 -0.012016626586974275 0.9977056797096701 -0.012016626586974275 0.0022943202903299474 0.012016626586974275
9.664883053779216E7 0.0023066253576639177 0.012194480262745644 0.9976933746423362 -0.012194480262745645 0.9976933746423362 -0.012194480262745645 0.0023066253576639177 0.012194480262745644
9.810739705874248E7 0.0023192248445449435 0.012374896120714433 0.9976807751554551 -0.012374896120714433 0.9976807751554551 -0.012374896120714433 0.0023192248445449435 0.012374896120714433
9.958797539591652E7 0.002332124206164006 0.01255790951300643 0.9976678757938361 -0.01255790951300643 0.9976678757938361 -0.01255790951300643 0.002332124206164006 0.01255790951300643
1.0109089773851961E8 0.002345328944926856 0.01274355629027743 0.9976546710550732 -0.01274355629027743 0.9976546710550732 -0.01274355629027743 0.002345328944926856 0.01274355629027743
1.0261650128895843E8 0.0023588446103026068 0.012931872812172786 0.9976411553896973 -0.012931872812172784 0.9976411553896973 -0.012931872812172784 0.0023588446103026068 0.012931872812172786
1.0416512833849736E8 0.002372676798825399 0.01312289595813587 0.9976273232011744 -0.013122895958135867 0.9976273232011744 -0.013122895958135867 0.002372676798825399 0.01312289595813587
1.0573712634405641E8 0.0023868311542674476 0.013316663138569834 0.9976131688457325 -0.01331666313856983 0.9976131688457325 -0.01331666313856983 0.0023868311542674476 0.013316663138569834
1.0733284800616828E8 0.0024013133680024414 0.013513212306355856 0.9975986866319977 -0.013513212306355856 0.9975986866319977 -0.013513212306355856 0.0024013133680024414 0.013513212306355856
1.0895265134811176E8 0.002416129179579048 0.013712581968730517 0.997583870820421 -0.013712581968730517 0.997583870820421 -0.013712581968730517 0.002416129179579048 0.013712581968730517
1.1059689979623953E8 0.0024312843775248123 0.01391481119952332 0.9975687156224753 -0.013914811199523324 0.9975687156224753 -0.013914811199523324 0.0024312843775248123 0.01391481119952332
1.1226596226151802E8 0.00244678480040138 0.014119939651754874 0.9975532151995987 -0.014119939651754874 0.9975532151995987 -0.014119939651754874 0.00244678480040138 0.014119939651754874
1.1396021322229806E8 0.002462636338132461 0.014328007570594478 0.9975373636618674 -0.014328007570594478 0.9975373636618674 -0.014328007570594478 0.002462636338132461 0.014328007570594478
1.1568003280833441E8 0.0024788449336263945 0.014539055806675074 0.9975211550663735 -0.014539055806675074 0.9975211550663735 -0.014539055806675074 0.0024788449336263945 0.014539055806675074
1.1742580688607343E8 0.002495416584715522 0.014753125829761802 0.9975045834152844 -0.014753125829761803 0.9975045834152844 -0.014753125829761803 0.002495416584715522 0.014753125829761802
1.1919792714522783E8 0.002512357346434911 0.014970259742769422 0.997487642653565 -0.014970259742769422 0.997487642653565 -0.014970259742769422 0.002512357346434911 0.014970259742769422
1.2099679118665792E8 0.002529673333663043 0.015190500296121952 0.997470326666337 -0.015190500296121952 0.997470326666337 -0.015190500296121952 0.002529673333663043 0.015190500296121952
1.2282280261157903E8 0.0025473707241472636 0.015413890902446886 0.9974526292758528 -0.015413890902446882 0.9974526292758528 -0.015413890902446882 0.0025473707241472636 0.015413890902446886
1.2467637111211549E8 0.002565455761936719 0.015640475651594498 0.9974345442380632 -0.015640475651594498 0.9974345442380632 -0.015640475651594498 0.002565455761936719 0.015640475651594498
1.265579125632208E8 0.0025839347612453384 0.015870299325971303 0.9974160652387546 -0.015870299325971303 0.9974160652387546 -0.015870299325971303 0.0025839347612453384 0.015870299325971303
1.284678491159853E8 0.002602814110767206 0.01610340741617513 0.9973971858892327 -0.016103407416175133 0.9973971858892327 -0.016103407416175133 0.002602814110767206 0.01610340741617513
1.3040660929235186E8 0.002622100278466267 0.01633984613691789 0.9973778997215338 -0.01633984613691789 0.9973778997215338 -0.01633984613691789 0.002622100278466267 0.01633984613691789
1.3237462808126101E8 0.0026417998168617625 0.016579662443220164 0.9973582001831381 -0.016579662443220164 0.9973582001831381 -0.016579662443220164 0.0026417998168617625 0.016579662443220164
1.3437234703624701E8 0.002661919368830204 0.0168229040468605 0.9973380806311699 -0.0168229040468605 0.9973380806311699 -0.0168229040468605 0.002661919368830204 0.0168229040468605
1.364002143745067E8 0.0026824656739438645 0.017069619433060523 0.9973175343260563 -0.017069619433060523 0.9973175343260563 -0.017069619433060523 0.0026824656739438645 0.017069619433060523
1.3845868507746372E8 0.0027034455753649116 0.017319857877385766 0.997296554424635 -0.017319857877385766 0.997296554424635 -0.017319857877385766 0.0027034455753649116 0.017319857877385766
1.405482209928499E8 0.0027248660273131494 0.017573669462840055 0.9972751339726869 -0.017573669462840055 0.9972751339726869 -0.017573669462840055 0.0027248660273131494 0.017573669462840055
1.426692909383278E8 0.002746734103124325 0.017831105097130637 0.9972532658968757 -0.01783110509713064 0.9972532658968757 -0.01783110509713064 0.002746734103124325 0.017831105097130637
1.4482237080667645E8 0.002769057003914445 0.01809221653007922 0.9972309429960855 -0.01809221653007922 0.9972309429960855 -0.01809221653007922 0.002769057003914445 0.01809221653007922
1.4700794367256513E8 0.0027918420678642803 0.01835705637115327 0.9972081579321358 -0.01835705637115327 0.9972081579321358 -0.01835705637115327 0.0027918420678642803 0.01835705637115327
1.492264999009378E8 0.002815096780136547 0.01862567810709052 0.9971849032198634 -0.018625678107090524 0.9971849032198634 -0.018625678107090524 0.002815096780136547 0.01862567810709052
1.5147853725703382E8 0.0028388287834366192 0.01889813611958865 0.9971611712165633 -0.018898136119588654 0.9971611712165633 -0.018898136119588654 0.0028388287834366192 0.01889813611958865
1.5376456101806876E8 0.002863045889225884 0.01917448570303132 0.9971369541107742 -0.019174485703031315 0.9971369541107742 -0.019174485703031315 0.002863045889225884 0.01917448570303132
1.5608508408660066E8 0.00288775608959483 0.01945478308222055 0.9971122439104052 -0.019454783082220553 0.9971122439104052 -0.019454783082220553 0.00288775608959483 0.01945478308222055
1.5844062710560706E8 0.0029129675698011375 0.019739085430085363 0.9970870324301989 -0.019739085430085363 0.9970870324301989 -0.019739085430085363 0.0029129675698011375 0.019739085430085363
1.6083171857529896E8 0.0029386887214758518 0.020027450885335543 0.9970613112785242 -0.02002745088533554 0.9970613112785242 -0.02002745088533554 0.0029386887214758518 0.020027450885335543
1.632588949716973E8 0.0029649281564986603 0.020319938570029398 0.9970350718435014 -0.0203199385700294 0.9970350718435014 -0.0203199385700294 0.0029649281564986603 0.020319938570029398
1.6572270086699936E8 0.0029916947215411285 0.02061660860702424 0.9970083052784589 -0.02061660860702424 0.9970083052784589 -0.02061660860702424 0.0029916947215411285 0.02061660860702424
1.6822368905176118E8 0.003018997513274492 0.02091752213727809 0.9969810024867254 -0.02091752213727809 0.9969810024867254 -0.02091752213727809 0.003018997513274492 0.02091752213727809
1.7076242065892437E8 0.0030468458942364105 0.021222741336971603 0.9969531541057635 -0.021222741336971603 0.9969531541057635 -0.021222741336971603 0.0030468458942364105 0.021222741336971603
1.7333946528971428E8 0.003075249509348853 0.02153232943441949 0.9969247504906512 -0.021532329434419493 0.9969247504906512 -0.021532329434419493 0.003075249509348853 0.02153232943441949
1.7595540114143828E8 0.003104218303077051 0.021846350726741286 0.996895781696923 -0.02184635072674129 0.996895781696923 -0.02184635072674129 0.003104218303077051 0.021846350726741286
1.786108151372127E8 0.003133762537217298 0.022164870596262282 0.9968662374627828 -0.022164870596262282 0.9968662374627828 -0.022164870596262282 0.003133762537217298 0.022164870596262282
1.8130630305764765E8 0.0031638928092991747 0.0224879555266161 0.9968361071907008 -0.0224879555266161 0.9968361071907008 -0.0224879555266161 0.0031638928092991747 0.0224879555266161
1.840424696745189E8 0.0031946200715858384 0.022815673118522062 0.996805379928414 -0.022815673118522062 0.996805379928414 -0.022815673118522062 0.0031946200715858384 0.022815673118522062
1.8681992888645732E8 0.00322595565065386 0.023148092105211272 0.9967740443493461 -0.023148092105211272 0.9967740443493461 -0.023148092105211272 0.00322595565065386 0.023148092105211272
1.8963930385668582E8 0.0032579112675324086 0.023485282367477548 0.9967420887324677 -0.02348528236747755 0.9967420887324677 -0.02348528236747755 0.0032579112675324086 0.023485282367477548
1.92501227152835E8 0.0032904990583796324 0.023827314948330323 0.9967095009416204 -0.02382731494833032 0.9967095009416204 -0.02382731494833032 0.0032904990583796324 0.023827314948330323
1.9540634088886917E8 0.0033237315956726673 0.02417426206722931 0.9966762684043273 -0.02417426206722931 0.9966762684043273 -0.02417426206722931 0.0033237315956726673 0.02417426206722931
1.983552968691535E8 0.0033576219098860557 0.024526197133881995 0.9966423780901139 -0.024526197133881992 0.9966423780901139 -0.024526197133881992 0.0033576219098860557 0.024526197133881995
2.0134875673469606E8 0.0033921835116321798 0.02488319476158778 0.9966078164883677 -0.024883194761587776 0.9966078164883677 -0.024883194761587776 0.0033921835116321798 0.02488319476158778
2.0438739211159652E8 0.0034274304142361506 0.025245330780114542 0.9965725695857638 -0.025245330780114542 0.9965725695857638 -0.025245330780114542 0.0034274304142361506 0.025245330780114542
2.074718847617352E8 0.003463377156716665 0.025612682248095903 0.9965366228432834 -0.025612682248095903 0.9965366228432834 -0.025612682248095903 0.003463377156716665 0.025612682248095903
2.106029267357361E8 0.0035000388271435776 0.025985327464939843 0.9964999611728563 -0.025985327464939843 0.9964999611728563 -0.025985327464939843 0.0035000388271435776 0.025985327464939843
2.1378122052823865E8 0.0035374310863425275 0.02636334598224225 0.9964625689136575 -0.02636334598224225 0.9964625689136575 -0.02636334598224225 0.0035374310863425275 0.02636334598224225
2.1700747923551247E8 0.0035755701919164638 0.026746818614700928 0.9964244298080834 -0.026746818614700928 0.9964244298080834 -0.026746818614700928 0.0035755701919164638 0.026746818614700928
2.2028242671545094E8 0.0036144730225540034 0.027135827450528914 0.996385526977446 -0.02713582745052892 0.996385526977446 -0.02713582745052892 0.0036144730225540034 0.027135827450528914
2.23606797749979E8 0.0036541571025945426 0.027530455861368073 0.9963458428974057 -0.027530455861368073 0.9963458428974057 -0.027530455861368073 0.0036541571025945426 0.027530455861368073
2.2698133820991236E8 0.003694640626820472 0.02793078851170694 0.9963053593731795 -0.02793078851170694 0.9963053593731795 -0.02793078851170694 0.003694640626820472 0.02793078851170694
2.3040680522230446E8 0.003735942485447327 0.028336911367809206 0.9962640575145528 -0.028336911367809206 0.9962640575145528 -0.028336911367809206 0.003735942485447327 0.028336911367809206
2.338839673403185E8 0.003778082289283558 0.02874891170616183 0.9962219177107164 -0.02874891170616183 0.9962219177107164 -0.02874891170616183 0.003778082289283558 0.02874891170616183
2.37413604715664E8 0.0038210803950325073 0.029166878121454475 0.9961789196049675 -0.029166878121454475 0.9961789196049675 -0.029166878121454475 0.0038210803950325073 0.029166878121454475
