!Murata Part Number: LQP02TQ13NH02
!These Parameters are Measured in Series Mode Connection
!       o--[Z]--o
!Port1              Port2
!       o-------o
!
!Freq. Start=50[MHz] Stop=20[GHz], 401[Steps]
# Hz S RI R 50
!Freq.(Hz) S11(Real) S11(Imag) S21(Real) S21(Imag) S12(Real) S12(Imag) S22(Real) S22(Imag)
5.0E7 0.01774744999040682 0.04264890067445536 0.9822525500095933 -0.04264890067445537 0.9822525500095933 -0.04264890067445537 0.01774744999040682 0.04264890067445536
5.0754570186123446E7 0.01782177904234483 0.043279615949421715 0.982178220957655 -0.043279615949421715 0.982178220957655 -0.043279615949421715 0.01782177904234483 0.043279615949421715
5.152052789556263E7 0.01789814038014668 0.043919530228744105 0.9821018596198533 -0.043919530228744105 0.9821018596198533 -0.043919530228744105 0.01789814038014668 0.043919530228744105
5.229804498202928E7 0.01797659108094067 0.04456877109330209 0.9820234089190593 -0.04456877109330209 0.9820234089190593 -0.04456877109330209 0.01797659108094067 0.04456877109330209
5.308729589274893E7 0.01805718974353083 0.045227467635784994 0.9819428102564692 -0.045227467635784994 0.9819428102564692 -0.045227467635784994 0.01805718974353083 0.045227467635784994
5.388845770760058E7 0.01813999652752444 0.04589575047224907 0.9818600034724755 -0.04589575047224907 0.9818600034724755 -0.04589575047224907 0.01813999652752444 0.04589575047224907
5.470171017884717E7 0.01822507319364161 0.0465737517534236 0.9817749268063584 -0.0465737517534236 0.9817749268063584 -0.0465737517534236 0.01822507319364161 0.0465737517534236
5.5527235771465644E7 0.018312483145236952 0.047261605175728846 0.981687516854763 -0.047261605175728846 0.981687516854763 -0.047261605175728846 0.018312483145236952 0.047261605175728846
5.6365219704085544E7 0.0184022914710632 0.047959445991967074 0.9815977085289369 -0.047959445991967074 0.9815977085289369 -0.047959445991967074 0.0184022914710632 0.047959445991967074
5.721584999054556E7 0.01849456498930467 0.04866741102164436 0.9815054350106953 -0.04866741102164436 0.9815054350106953 -0.04866741102164436 0.01849456498930467 0.04866741102164436
5.807931748207712E7 0.0185893722929087 0.04938563866088165 0.9814106277070914 -0.04938563866088165 0.9814106277070914 -0.04938563866088165 0.0185893722929087 0.04938563866088165
5.8955815910124585E7 0.018686783796240877 0.05011426889186871 0.9813132162037591 -0.05011426889186871 0.9813132162037591 -0.05011426889186871 0.018686783796240877 0.05011426889186871
5.984554192981184E7 0.018786871783089697 0.050853443291815695 0.9812131282169104 -0.050853443291815695 0.9812131282169104 -0.050853443291815695 0.018786871783089697 0.050853443291815695
6.074869516406457E7 0.01888971045604411 0.05160330504135316 0.981110289543956 -0.05160330504135316 0.981110289543956 -0.05160330504135316 0.01888971045604411 0.05160330504135316
6.166547824839868E7 0.01899537598726666 0.0523639989323311 0.9810046240127335 -0.0523639989323311 0.9810046240127335 -0.0523639989323311 0.01899537598726666 0.0523639989323311
6.2596096876384385E7 0.019103946570682758 0.053135671374965304 0.9808960534293172 -0.053135671374965304 0.9808960534293172 -0.053135671374965304 0.019103946570682758 0.053135671374965304
6.354075984579668E7 0.01921550247560553 0.05391847040427849 0.9807844975243946 -0.05391847040427849 0.9807844975243946 -0.05391847040427849 0.01921550247560553 0.05391847040427849
6.449967910546205E7 0.019330126101813505 0.05471254568578162 0.9806698738981864 -0.05471254568578162 0.9806698738981864 -0.05471254568578162 0.019330126101813505 0.05471254568578162
6.547306980281226E7 0.019447902036096913 0.055518048520340424 0.9805520979639032 -0.05551804852034043 0.9805520979639032 -0.05551804852034043 0.019447902036096913 0.055518048520340424
6.646115033215589E7 0.019568917110286316 0.05633513184817037 0.9804310828897137 -0.056335131848170385 0.9804310828897137 -0.056335131848170385 0.019568917110286316 0.05633513184817037
6.746414238367817E7 0.019693260460775533 0.057163950251903045 0.9803067395392245 -0.057163950251903045 0.9803067395392245 -0.057163950251903045 0.019693260460775533 0.057163950251903045
6.848227099318038E7 0.019821023589548542 0.05800465995866538 0.9801789764104515 -0.05800465995866539 0.9801789764104515 -0.05800465995866539 0.019821023589548542 0.05800465995866538
6.951576459256999E7 0.01995230042671845 0.058857418841113465 0.9800476995732815 -0.058857418841113465 0.9800476995732815 -0.058857418841113465 0.01995230042671845 0.058857418841113465
7.056485506111258E7 0.02008718739458441 0.059722386417361384 0.9799128126054156 -0.059722386417361384 0.9799128126054156 -0.059722386417361384 0.02008718739458441 0.059722386417361384
7.162977777745734E7 0.02022578347321012 0.06059972384974549 0.9797742165267898 -0.06059972384974549 0.9797742165267898 -0.06059972384974549 0.02022578347321012 0.06059972384974549
7.271077167244768E7 0.020368190267526426 0.061489593942365216 0.9796318097324735 -0.061489593942365216 0.9796318097324735 -0.061489593942365216 0.020368190267526426 0.061489593942365216
7.380807928272885E7 0.02051451207595748 0.06239216113733979 0.9794854879240424 -0.062392161137339794 0.9794854879240424 -0.062392161137339794 0.02051451207595748 0.06239216113733979
7.492194680516452E7 0.020664855960568954 0.06330759150972243 0.9793351440394311 -0.06330759150972244 0.9793351440394311 -0.06330759150972244 0.020664855960568954 0.06330759150972243
7.60526241520746E7 0.020819331818734858 0.06423605276101256 0.979180668181265 -0.06423605276101256 0.979180668181265 -0.06423605276101256 0.020819331818734858 0.06423605276101256
7.720036500730675E7 0.020978052456317627 0.06517771421120801 0.9790219475436823 -0.06517771421120802 0.9790219475436823 -0.06517771421120802 0.020978052456317627 0.06517771421120801
7.836542688315398E7 0.021141133662354917 0.06613274678933906 0.9788588663376451 -0.06613274678933906 0.9788588663376451 -0.06613274678933906 0.021141133662354917 0.06613274678933906
7.954807117813127E7 0.021308694285245136 0.06710132302242795 0.9786913057147548 -0.06710132302242795 0.9786913057147548 -0.06710132302242795 0.021308694285245136 0.06710132302242795
8.074856323562416E7 0.021480856310422465 0.06808361702281754 0.9785191436895775 -0.06808361702281754 0.9785191436895775 -0.06808361702281754 0.021480856310422465 0.06808361702281754
8.196717240342227E7 0.021657744939511465 0.06907980447381444 0.9783422550604886 -0.06907980447381444 0.9783422550604886 -0.06907980447381444 0.021657744939511465 0.06907980447381444
8.320417209415154E7 0.02183948867095038 0.07009006261359345 0.9781605113290498 -0.07009006261359345 0.9781605113290498 -0.07009006261359345 0.02183948867095038 0.07009006261359345
8.445983984661816E7 0.02202621938207168 0.07111457021730971 0.9779737806179283 -0.07111457021730971 0.9779737806179283 -0.07111457021730971 0.02202621938207168 0.07111457021730971
8.573445738807854E7 0.02221807241262853 0.07215350757736881 0.9777819275873715 -0.07215350757736881 0.9777819275873715 -0.07215350757736881 0.02221807241262853 0.07215350757736881
8.702831069744885E7 0.0224151866497556 0.07320705648180399 0.9775848133502444 -0.07320705648180399 0.9775848133502444 -0.07320705648180399 0.0224151866497556 0.07320705648180399
8.834169006946853E7 0.022617704614352977 0.0742754001907125 0.9773822953856469 -0.0742754001907125 0.9773822953856469 -0.0742754001907125 0.022617704614352977 0.0742754001907125
8.96748901798321E7 0.022825772548882798 0.07535872341070349 0.9771742274511171 -0.07535872341070349 0.9771742274511171 -0.07535872341070349 0.022825772548882798 0.07535872341070349
9.1028210151304E7 0.023039540506568836 0.07645721226731153 0.9769604594934312 -0.07645721226731153 0.9769604594934312 -0.07645721226731153 0.023039540506568836 0.07645721226731153
9.240195362083109E7 0.02325916244199088 0.07757105427533062 0.9767408375580091 -0.0775710542753306 0.9767408375580091 -0.0775710542753306 0.02325916244199088 0.07757105427533062
9.379642880766791E7 0.023484796303067084 0.07870043830702483 0.9765152036969329 -0.07870043830702483 0.9765152036969329 -0.07870043830702483 0.023484796303067084 0.07870043830702483
9.521194858253023E7 0.02371660412441933 0.07984555455817165 0.9762833958755807 -0.07984555455817165 0.9762833958755807 -0.07984555455817165 0.02371660412441933 0.07984555455817165
9.664883053779216E7 0.023954752122119137 0.08100659451189593 0.9760452478778809 -0.08100659451189593 0.9760452478778809 -0.08100659451189593 0.023954752122119137 0.08100659451189593
9.810739705874248E7 0.02419941078981396 0.0821837509002512 0.9758005892101861 -0.08218375090025122 0.9758005892101861 -0.08218375090025122 0.02419941078981396 0.0821837509002512
9.958797539591652E7 0.024450754996236432 0.08337721766350605 0.9755492450037635 -0.08337721766350605 0.9755492450037635 -0.08337721766350605 0.024450754996236432 0.08337721766350605
1.0109089773851961E8 0.02470896408410276 0.08458718990709246 0.9752910359158973 -0.08458718990709246 0.9752910359158973 -0.08458718990709246 0.02470896408410276 0.08458718990709246
1.0261650128895843E8 0.02497422197040899 0.08581386385617183 0.975025778029591 -0.08581386385617183 0.975025778029591 -0.08581386385617183 0.02497422197040899 0.08581386385617183
1.0416512833849736E8 0.025246717248138578 0.08705743680777442 0.9747532827518612 -0.08705743680777442 0.9747532827518612 -0.08705743680777442 0.025246717248138578 0.08705743680777442
1.0573712634405641E8 0.025526643289397483 0.08831810708046409 0.9744733567106025 -0.08831810708046409 0.9744733567106025 -0.08831810708046409 0.025526643289397483 0.08831810708046409
1.0733284800616828E8 0.02581419834999798 0.08959607396148067 0.9741858016500021 -0.08959607396148067 0.9741858016500021 -0.08959607396148067 0.02581419834999798 0.08959607396148067
1.0895265134811176E8 0.0261095856755157 0.09089153765130667 0.9738904143244843 -0.09089153765130667 0.9738904143244843 -0.09089153765130667 0.0261095856755157 0.09089153765130667
1.1059689979623953E8 0.02641301360884978 0.09220469920560405 0.9735869863911503 -0.09220469920560405 0.9735869863911503 -0.09220469920560405 0.02641301360884978 0.09220469920560405
1.1226596226151802E8 0.026724695699319193 0.093535760474461 0.9732753043006808 -0.093535760474461 0.9732753043006808 -0.093535760474461 0.026724695699319193 0.093535760474461
1.1396021322229806E8 0.027044850813333812 0.09488492403888493 0.9729551491866664 -0.09488492403888493 0.9729551491866664 -0.09488492403888493 0.027044850813333812 0.09488492403888493
1.1568003280833441E8 0.027373703246682427 0.0962523931444715 0.9726262967533174 -0.09625239314447148 0.9726262967533174 -0.09625239314447148 0.027373703246682427 0.0962523931444715
1.1742580688607343E8 0.0277114828384846 0.097638371632175 0.9722885171615154 -0.097638371632175 0.9722885171615154 -0.097638371632175 0.0277114828384846 0.097638371632175
1.1919792714522783E8 0.028058425086857252 0.09904306386609597 0.9719415749131428 -0.09904306386609597 0.9719415749131428 -0.09904306386609597 0.028058425086857252 0.09904306386609597
1.2099679118665792E8 0.028414771266350718 0.1004666746581964 0.9715852287336494 -0.1004666746581964 0.9715852287336494 -0.1004666746581964 0.028414771266350718 0.1004666746581964
1.2282280261157903E8 0.028780768547212836 0.10190940918984298 0.971219231452787 -0.10190940918984298 0.971219231452787 -0.10190940918984298 0.028780768547212836 0.10190940918984298
1.2467637111211549E8 0.029156670116542875 0.10337147293007008 0.970843329883457 -0.10337147293007008 0.970843329883457 -0.10337147293007008 0.029156670116542875 0.10337147293007008
1.265579125632208E8 0.029542735301399628 0.10485307155044342 0.9704572646986003 -0.10485307155044345 0.9704572646986003 -0.10485307155044345 0.029542735301399628 0.10485307155044342
1.284678491159853E8 0.029939229693930813 0.10635441083639467 0.9700607703060691 -0.10635441083639467 0.9700607703060691 -0.10635441083639467 0.029939229693930813 0.10635441083639467
1.3040660929235186E8 0.030346425278592076 0.10787569659488473 0.9696535747214079 -0.10787569659488473 0.9696535747214079 -0.10787569659488473 0.030346425278592076 0.10787569659488473
1.3237462808126101E8 0.030764600561525364 0.10941713455824163 0.9692353994384746 -0.10941713455824163 0.9692353994384746 -0.10941713455824163 0.030764600561525364 0.10941713455824163
1.3437234703624701E8 0.031194040702166196 0.11097893028400387 0.9688059592978336 -0.11097893028400387 0.9688059592978336 -0.11097893028400387 0.031194040702166196 0.11097893028400387
1.364002143745067E8 0.03163503764714921 0.11256128905058752 0.9683649623528506 -0.11256128905058752 0.9683649623528506 -0.11256128905058752 0.03163503764714921 0.11256128905058752
1.3845868507746372E8 0.032087890266578725 0.11416441574857787 0.9679121097334212 -0.11416441574857787 0.9679121097334212 -0.11416441574857787 0.032087890266578725 0.11416441574857787
1.405482209928499E8 0.03255290449272946 0.11578851476743239 0.9674470955072706 -0.11578851476743238 0.9674470955072706 -0.11578851476743238 0.03255290449272946 0.11578851476743239
1.426692909383278E8 0.03303039346123781 0.11743378987736466 0.9669696065387621 -0.11743378987736469 0.9669696065387621 -0.11743378987736469 0.03303039346123781 0.11743378987736466
1.4482237080667645E8 0.033520677654838855 0.11910044410616076 0.9664793223451613 -0.11910044410616076 0.9664793223451613 -0.11910044410616076 0.033520677654838855 0.11910044410616076
1.4700794367256513E8 0.03402408504969805 0.1207886796106624 0.965975914950302 -0.1207886796106624 0.965975914950302 -0.1207886796106624 0.03402408504969805 0.1207886796106624
1.492264999009378E8 0.03454095126437816 0.12249869754263389 0.9654590487356218 -0.12249869754263387 0.9654590487356218 -0.12249869754263387 0.03454095126437816 0.12249869754263389
1.5147853725703382E8 0.035071619711471935 0.12423069790870775 0.964928380288528 -0.12423069790870776 0.964928380288528 -0.12423069790870776 0.035071619711471935 0.12423069790870775
1.5376456101806876E8 0.03561644175192069 0.12598487942408998 0.9643835582480792 -0.12598487942409 0.9643835582480792 -0.12598487942409 0.03561644175192069 0.12598487942408998
1.5608508408660066E8 0.03617577685202427 0.12776143935968093 0.9638242231479757 -0.12776143935968093 0.9638242231479757 -0.12776143935968093 0.03617577685202427 0.12776143935968093
1.5844062710560706E8 0.03674999274313439 0.12956057338225296 0.9632500072568658 -0.12956057338225296 0.9632500072568658 -0.12956057338225296 0.03674999274313439 0.12956057338225296
1.6083171857529896E8 0.03733946558400546 0.1313824753873048 0.9626605344159944 -0.1313824753873048 0.9626605344159944 -0.1313824753873048 0.03733946558400546 0.1313824753873048
1.632588949716973E8 0.03794458012575792 0.13322733732419192 0.9620554198742421 -0.13322733732419192 0.9620554198742421 -0.13322733732419192 0.03794458012575792 0.13322733732419192
1.6572270086699936E8 0.03856572987938912 0.13509534901311737 0.9614342701206108 -0.13509534901311737 0.9614342701206108 -0.13509534901311737 0.03856572987938912 0.13509534901311737
1.6822368905176118E8 0.03920331728574245 0.13698669795354426 0.9607966827142574 -0.13698669795354426 0.9607966827142574 -0.13698669795354426 0.03920331728574245 0.13698669795354426
1.7076242065892437E8 0.039857753887820854 0.13890156912357782 0.9601422461121791 -0.13890156912357782 0.9601422461121791 -0.13890156912357782 0.039857753887820854 0.13890156912357782
1.7333946528971428E8 0.04052946050530282 0.14084014476984463 0.9594705394946972 -0.14084014476984466 0.9594705394946972 -0.14084014476984466 0.04052946050530282 0.14084014476984463
1.7595540114143828E8 0.041218867411090036 0.14280260418738353 0.95878113258891 -0.14280260418738353 0.95878113258891 -0.14280260418738353 0.041218867411090036 0.14280260418738353
1.786108151372127E8 0.041926414509682666 0.1447891234890451 0.9580735854903174 -0.1447891234890451 0.9580735854903174 -0.1447891234890451 0.041926414509682666 0.1447891234890451
1.8130630305764765E8 0.04265255151714551 0.1467998753638874 0.9573474484828545 -0.1467998753638874 0.9573474484828545 -0.1467998753638874 0.04265255151714551 0.1467998753638874
1.840424696745189E8 0.0433977381423903 0.14883502882403887 0.9566022618576097 -0.1488350288240389 0.9566022618576097 -0.1488350288240389 0.0433977381423903 0.14883502882403887
1.8681992888645732E8 0.04416244426946257 0.15089474893949453 0.9558375557305374 -0.15089474893949453 0.9558375557305374 -0.15089474893949453 0.04416244426946257 0.15089474893949453
1.8963930385668582E8 0.04494715014047976 0.15297919656030087 0.9550528498595202 -0.15297919656030087 0.9550528498595202 -0.15297919656030087 0.04494715014047976 0.15297919656030087
1.92501227152835E8 0.045752346538824484 0.15508852802557915 0.9542476534611756 -0.15508852802557918 0.9542476534611756 -0.15508852802557918 0.045752346538824484 0.15508852802557915
1.9540634088886917E8 0.046578534972153876 0.1572228948588364 0.9534214650278461 -0.1572228948588364 0.9534214650278461 -0.1572228948588364 0.046578534972153876 0.1572228948588364
1.983552968691535E8 0.047426227854737664 0.1593824434490096 0.9525737721452622 -0.15938244344900956 0.9525737721452622 -0.15938244344900956 0.047426227854737664 0.1593824434490096
2.0134875673469606E8 0.04829594868859091 0.16156731471669375 0.9517040513114093 -0.16156731471669375 0.9517040513114093 -0.16156731471669375 0.04829594868859091 0.16156731471669375
2.0438739211159652E8 0.049188232242817605 0.16377764376500836 0.9508117677571825 -0.16377764376500836 0.9508117677571825 -0.16377764376500836 0.049188232242817605 0.16377764376500836
2.074718847617352E8 0.05010362473053033 0.1660135595145665 0.9498963752694698 -0.1660135595145665 0.9498963752694698 -0.1660135595145665 0.05010362473053033 0.1660135595145665
2.106029267357361E8 0.05104268398265926 0.16827518432202235 0.9489573160173408 -0.16827518432202235 0.9489573160173408 -0.16827518432202235 0.05104268398265926 0.16827518432202235
2.1378122052823865E8 0.0520059796179112 0.17056263358168974 0.9479940203820888 -0.17056263358168974 0.9479940203820888 -0.17056263358168974 0.0520059796179112 0.17056263358168974
2.1700747923551247E8 0.05299409320808532 0.17287601530974187 0.9470059067919147 -0.17287601530974184 0.9470059067919147 -0.17287601530974184 0.05299409320808532 0.17287601530974187
2.2028242671545094E8 0.0540076184378985 0.17521542971052906 0.9459923815621014 -0.17521542971052909 0.9459923815621014 -0.17521542971052909 0.0540076184378985 0.17521542971052906
2.23606797749979E8 0.055047161258419026 0.17758096872457563 0.9449528387415811 -0.17758096872457563 0.9449528387415811 -0.17758096872457563 0.055047161258419026 0.17758096872457563
2.2698133820991236E8 0.0561133400331526 0.17997271555784983 0.9438866599668474 -0.17997271555784983 0.9438866599668474 -0.17997271555784983 0.0561133400331526 0.17997271555784983
2.3040680522230446E8 0.057206785675771823 0.1823907441919385 0.9427932143242282 -0.1823907441919385 0.9427932143242282 -0.1823907441919385 0.057206785675771823 0.1823907441919385
2.338839673403185E8 0.058328141778425574 0.18483511887479429 0.9416718582215744 -0.1848351188747943 0.9416718582215744 -0.1848351188747943 0.058328141778425574 0.18483511887479429
2.37413604715664E8 0.059478064729514175 0.18730589359177188 0.9405219352704859 -0.1873058935917719 0.9405219352704859 -0.1873058935917719 0.059478064729514175 0.18730589359177188
2.4099650927363476E8 0.06065722381976366 0.18980311151671542 0.9393427761802364 -0.18980311151671542 0.9393427761802364 -0.18980311151671542 0.06065722381976366 0.18980311151671542
2.446334848907889E8 0.06186630133538404 0.1923268044429144 0.9381336986646159 -0.1923268044429144 0.9381336986646159 -0.1923268044429144 0.06186630133538404 0.1923268044429144
2.4832534757531032E8 0.0631059926370479 0.19487699219380217 0.9368940073629521 -0.19487699219380217 0.9368940073629521 -0.19487699219380217 0.0631059926370479 0.19487699219380217
2.5207292565009177E8 0.06437700622338137 0.19745368201333277 0.9356229937766186 -0.19745368201333277 0.9356229937766186 -0.19745368201333277 0.06437700622338137 0.19745368201333277
