!Murata Part Number: LQP02TQ2N0B02
!These Parameters are Measured in Series Mode Connection
!       o--[Z]--o
!Port1              Port2
!       o-------o
!
!Freq. Start=50[MHz] Stop=20[GHz], 401[Steps]
# Hz S RI R 50
!Freq.(Hz) S11(Real) S11(Imag) S21(Real) S21(Imag) S12(Real) S12(Imag) S22(Real) S22(Imag)
5.0E7 0.002168526928790014 0.007067598830655134 0.99783147307121 -0.007067598830655134 0.99783147307121 -0.007067598830655134 0.002168526928790014 0.007067598830655134
5.0754570186123446E7 0.002173852498697262 0.007173167373244609 0.9978261475013027 -0.007173167373244609 0.9978261475013027 -0.007173167373244609 0.002173852498697262 0.007173167373244609
5.152052789556263E7 0.002179322011944959 0.007280284401995286 0.9978206779880551 -0.007280284401995286 0.9978206779880551 -0.007280284401995286 0.002179322011944959 0.007280284401995286
5.229804498202928E7 0.0021849388771851613 0.007388971612751835 0.9978150611228148 -0.007388971612751835 0.9978150611228148 -0.007388971612751835 0.0021849388771851613 0.007388971612751835
5.308729589274893E7 0.0021907065587860016 0.007499250977109106 0.997809293441214 -0.007499250977109106 0.997809293441214 -0.007499250977109106 0.0021907065587860016 0.007499250977109106
5.388845770760058E7 0.00219662857650169 0.007611144745737875 0.9978033714234982 -0.007611144745737875 0.9978033714234982 -0.007611144745737875 0.00219662857650169 0.007611144745737875
5.470171017884717E7 0.0022027085050759037 0.007724675451803634 0.997797291494924 -0.007724675451803632 0.997797291494924 -0.007724675451803632 0.0022027085050759037 0.007724675451803634
5.5527235771465644E7 0.0022089499737773864 0.007839865914484836 0.9977910500262226 -0.007839865914484836 0.9977910500262226 -0.007839865914484836 0.0022089499737773864 0.007839865914484836
5.6365219704085544E7 0.0022153566658669396 0.007956739242597448 0.997784643334133 -0.007956739242597446 0.997784643334133 -0.007956739242597446 0.0022153566658669396 0.007956739242597448
5.721584999054556E7 0.002221932317995156 0.008075318838332832 0.9977780676820049 -0.008075318838332832 0.9977780676820049 -0.008075318838332832 0.002221932317995156 0.008075318838332832
5.807931748207712E7 0.002228680719530591 0.008195628401116367 0.9977713192804694 -0.008195628401116367 0.9977713192804694 -0.008195628401116367 0.002228680719530591 0.008195628401116367
5.8955815910124585E7 0.0022356057118184066 0.00831769193159465 0.9977643942881816 -0.00831769193159465 0.9977643942881816 -0.00831769193159465 0.0022356057118184066 0.00831769193159465
5.984554192981184E7 0.0022427111873698155 0.008441533735759201 0.9977572888126303 -0.008441533735759201 0.9977572888126303 -0.008441533735759201 0.0022427111873698155 0.008441533735759201
6.074869516406457E7 0.0022500010889831604 0.008567178429215123 0.9977499989110168 -0.008567178429215123 0.9977499989110168 -0.008567178429215123 0.0022500010889831604 0.008567178429215123
6.166547824839868E7 0.002257479408797745 0.008694650941603347 0.9977425205912023 -0.008694650941603347 0.9977425205912023 -0.008694650941603347 0.002257479408797745 0.008694650941603347
6.2596096876384385E7 0.0022651501872821326 0.008823976521185392 0.9977348498127179 -0.008823976521185392 0.9977348498127179 -0.008823976521185392 0.0022651501872821326 0.008823976521185392
6.354075984579668E7 0.0022730175121590188 0.008955180739599916 0.9977269824878409 -0.008955180739599916 0.9977269824878409 -0.008955180739599916 0.0022730175121590188 0.008955180739599916
6.449967910546205E7 0.0022810855172693506 0.009088289496800387 0.9977189144827308 -0.009088289496800387 0.9977189144827308 -0.009088289496800387 0.0022810855172693506 0.009088289496800387
6.547306980281226E7 0.002289358381378979 0.009223329026183759 0.9977106416186211 -0.009223329026183759 0.9977106416186211 -0.009223329026183759 0.002289358381378979 0.009223329026183759
6.646115033215589E7 0.0022978403269316256 0.00936032589991989 0.9977021596730683 -0.00936032589991989 0.9977021596730683 -0.00936032589991989 0.0022978403269316256 0.00936032589991989
6.746414238367817E7 0.0023065356187526864 0.009499307034491852 0.9976934643812474 -0.009499307034491852 0.9976934643812474 -0.009499307034491852 0.0023065356187526864 0.009499307034491852
6.848227099318038E7 0.0023154485627089887 0.009640299696457326 0.997684551437291 -0.009640299696457326 0.997684551437291 -0.009640299696457326 0.0023154485627089887 0.009640299696457326
6.951576459256999E7 0.002324583504330377 0.009783331508441432 0.9976754164956695 -0.00978333150844143 0.9976754164956695 -0.00978333150844143 0.002324583504330377 0.009783331508441432
7.056485506111258E7 0.002333944827399695 0.009928430455371357 0.9976660551726002 -0.009928430455371357 0.9976660551726002 -0.009928430455371357 0.002333944827399695 0.009928430455371357
7.162977777745734E7 0.00234353695251854 0.010075624890963222 0.9976564630474816 -0.010075624890963222 0.9976564630474816 -0.010075624890963222 0.00234353695251854 0.010075624890963222
7.271077167244768E7 0.0023533643356569147 0.010224943544471577 0.9976466356643431 -0.010224943544471577 0.9976466356643431 -0.010224943544471577 0.0023533643356569147 0.010224943544471577
7.380807928272885E7 0.002363431466695776 0.010376415527711838 0.9976365685333043 -0.010376415527711838 0.9976365685333043 -0.010376415527711838 0.002363431466695776 0.010376415527711838
7.492194680516452E7 0.002373742867972284 0.010530070342365862 0.9976262571320278 -0.01053007034236586 0.9976262571320278 -0.01053007034236586 0.002373742867972284 0.010530070342365862
7.60526241520746E7 0.0023843030928384443 0.01068593788758065 0.9976156969071615 -0.01068593788758065 0.9976156969071615 -0.01068593788758065 0.0023843030928384443 0.01068593788758065
7.720036500730675E7 0.0023951167242447302 0.01084404846786998 0.9976048832757554 -0.01084404846786998 0.9976048832757554 -0.01084404846786998 0.0023951167242447302 0.01084404846786998
7.836542688315398E7 0.00240618837336112 0.011004432801328304 0.997593811626639 -0.011004432801328304 0.997593811626639 -0.011004432801328304 0.00240618837336112 0.011004432801328304
7.954807117813127E7 0.002417522678248962 0.011167122028166058 0.997582477321751 -0.01116712202816606 0.997582477321751 -0.01116712202816606 0.002417522678248962 0.011167122028166058
8.074856323562416E7 0.002429124302597925 0.011332147719574906 0.9975708756974021 -0.011332147719574904 0.9975708756974021 -0.011332147719574904 0.002429124302597925 0.011332147719574906
8.196717240342227E7 0.0024409979345432213 0.011499541886930918 0.9975590020654567 -0.011499541886930916 0.9975590020654567 -0.011499541886930916 0.0024409979345432213 0.011499541886930918
8.320417209415154E7 0.0024531482855792166 0.011669336991343295 0.9975468517144207 -0.011669336991343295 0.9975468517144207 -0.011669336991343295 0.0024531482855792166 0.011669336991343295
8.445983984661816E7 0.002465580089586339 0.011841565953555091 0.9975344199104136 -0.011841565953555091 0.9975344199104136 -0.011841565953555091 0.002465580089586339 0.011841565953555091
8.573445738807854E7 0.002478298101989177 0.012016262164202166 0.9975217018980108 -0.012016262164202164 0.9975217018980108 -0.012016262164202164 0.002478298101989177 0.012016262164202166
8.702831069744885E7 0.002491307099064376 0.012193459494435276 0.9975086929009356 -0.012193459494435276 0.9975086929009356 -0.012193459494435276 0.002491307099064376 0.012193459494435276
8.834169006946853E7 0.0025046118774178063 0.012373192306909538 0.9974953881225822 -0.01237319230690954 0.9974953881225822 -0.01237319230690954 0.0025046118774178063 0.012373192306909538
8.96748901798321E7 0.002518217253651207 0.012555495467144366 0.9974817827463488 -0.012555495467144366 0.9974817827463488 -0.012555495467144366 0.002518217253651207 0.012555495467144366
9.1028210151304E7 0.002532128064239199 0.01274040435525591 0.9974678719357607 -0.01274040435525591 0.9974678719357607 -0.01274040435525591 0.002532128064239199 0.01274040435525591
9.240195362083109E7 0.0025463491656381914 0.012927954878062826 0.9974536508343619 -0.012927954878062826 0.9974536508343619 -0.012927954878062826 0.0025463491656381914 0.012927954878062826
9.379642880766791E7 0.0025608854346493098 0.013118183481564911 0.9974391145653506 -0.013118183481564911 0.9974391145653506 -0.013118183481564911 0.0025608854346493098 0.013118183481564911
9.521194858253023E7 0.0025757417690579127 0.013311127163792898 0.9974242582309419 -0.013311127163792895 0.9974242582309419 -0.013311127163792895 0.0025757417690579127 0.013311127163792898
9.664883053779216E7 0.0025909230885726746 0.013506823488026126 0.9974090769114273 -0.013506823488026126 0.9974090769114273 -0.013506823488026126 0.0025909230885726746 0.013506823488026126
9.810739705874248E7 0.0026064343360875787 0.013705310596373562 0.9973935656639125 -0.013705310596373562 0.9973935656639125 -0.013705310596373562 0.0026064343360875787 0.013705310596373562
9.958797539591652E7 0.0026222804792902623 0.013906627223711825 0.9973777195207096 -0.013906627223711825 0.9973777195207096 -0.013906627223711825 0.0026222804792902623 0.013906627223711825
1.0109089773851961E8 0.002638466512640347 0.014110812711972632 0.9973615334873597 -0.014110812711972632 0.9973615334873597 -0.014110812711972632 0.002638466512640347 0.014110812711972632
1.0261650128895843E8 0.002654997459741297 0.014317907024770132 0.9973450025402587 -0.014317907024770132 0.9973450025402587 -0.014317907024770132 0.002654997459741297 0.014317907024770132
1.0416512833849736E8 0.002671878376129243 0.014527950762357167 0.9973281216238706 -0.014527950762357167 0.9973281216238706 -0.014527950762357167 0.002671878376129243 0.014527950762357167
1.0573712634405641E8 0.0026891143525018613 0.01474098517689766 0.997310885647498 -0.014740985176897663 0.997310885647498 -0.014740985176897663 0.0026891143525018613 0.01474098517689766
1.0733284800616828E8 0.0027067105184100954 0.014957052188040871 0.9972932894815899 -0.014957052188040871 0.9972932894815899 -0.014957052188040871 0.0027067105184100954 0.014957052188040871
1.0895265134811176E8 0.0027246720464348044 0.015176194398781208 0.997275327953565 -0.015176194398781208 0.997275327953565 -0.015176194398781208 0.0027246720464348044 0.015176194398781208
1.1059689979623953E8 0.002743004156869835 0.015398455111585984 0.9972569958431301 -0.015398455111585982 0.9972569958431301 -0.015398455111585982 0.002743004156869835 0.015398455111585984
1.1226596226151802E8 0.0027617121229321297 0.015623878344771617 0.9972382878770679 -0.015623878344771617 0.9972382878770679 -0.015623878344771617 0.0027617121229321297 0.015623878344771617
1.1396021322229806E8 0.0027808012765184434 0.01585250884910718 0.9972191987234816 -0.01585250884910718 0.9972191987234816 -0.01585250884910718 0.0027808012765184434 0.01585250884910718
1.1568003280833441E8 0.0028002770145271957 0.016084392124622787 0.9971997229854725 -0.016084392124622784 0.9971997229854725 -0.016084392124622784 0.0028002770145271957 0.016084392124622787
1.1742580688607343E8 0.0028201448057625866 0.016319574437598593 0.9971798551942372 -0.01631957443759859 0.9971798551942372 -0.01631957443759859 0.0028201448057625866 0.016319574437598593
1.1919792714522783E8 0.0028404101984367707 0.01655810283770897 0.9971595898015634 -0.01655810283770897 0.9971595898015634 -0.01655810283770897 0.0028404101984367707 0.01655810283770897
1.2099679118665792E8 0.002861078828284245 0.016800025175294907 0.9971389211717155 -0.016800025175294903 0.9971389211717155 -0.016800025175294903 0.002861078828284245 0.016800025175294907
1.2282280261157903E8 0.002882156427300976 0.017045390118736757 0.997117843572699 -0.01704539011873676 0.997117843572699 -0.01704539011873676 0.002882156427300976 0.017045390118736757
1.2467637111211549E8 0.002903648833118905 0.017294247171897974 0.997096351166881 -0.017294247171897974 0.997096351166881 -0.017294247171897974 0.002903648833118905 0.017294247171897974
1.265579125632208E8 0.0029255619990245754 0.017546646691609893 0.9970744380009753 -0.017546646691609897 0.9970744380009753 -0.017546646691609897 0.0029255619990245754 0.017546646691609893
1.284678491159853E8 0.0029479020046285745 0.017802639905166628 0.9970520979953712 -0.017802639905166628 0.9970520979953712 -0.017802639905166628 0.0029479020046285745 0.017802639905166628
1.3040660929235186E8 0.0029706750671903855 0.0180622789277986 0.9970293249328097 -0.0180622789277986 0.9970293249328097 -0.0180622789277986 0.0029706750671903855 0.0180622789277986
1.3237462808126101E8 0.002993887553600951 0.0183256167800926 0.9970061124463993 -0.0183256167800926 0.9970061124463993 -0.0183256167800926 0.002993887553600951 0.0183256167800926
1.3437234703624701E8 0.0030175459930230865 0.018592707405326286 0.9969824540069769 -0.018592707405326286 0.9969824540069769 -0.018592707405326286 0.0030175459930230865 0.018592707405326286
1.364002143745067E8 0.003041657090187497 0.01886360568668457 0.9969583429098127 -0.01886360568668457 0.9969583429098127 -0.01886360568668457 0.003041657090187497 0.01886360568668457
1.3845868507746372E8 0.0030662277393398297 0.01913836746432588 0.9969337722606602 -0.019138367464325883 0.9969337722606602 -0.019138367464325883 0.0030662277393398297 0.01913836746432588
1.405482209928499E8 0.003091265038831809 0.019417049552266065 0.9969087349611683 -0.019417049552266065 0.9969087349611683 -0.019417049552266065 0.003091265038831809 0.019417049552266065
1.426692909383278E8 0.003116776306347218 0.01969970975504879 0.9968832236936528 -0.01969970975504879 0.9968832236936528 -0.01969970975504879 0.003116776306347218 0.01969970975504879
1.4482237080667645E8 0.0031427690947510656 0.019986406884171557 0.996857230905249 -0.019986406884171554 0.996857230905249 -0.019986406884171554 0.0031427690947510656 0.019986406884171557
1.4700794367256513E8 0.003169251208548108 0.020277200774237628 0.996830748791452 -0.020277200774237628 0.996830748791452 -0.020277200774237628 0.003169251208548108 0.020277200774237628
1.492264999009378E8 0.00319623072093458 0.02057215229880516 0.9968037692790656 -0.020572152298805164 0.9968037692790656 -0.020572152298805164 0.00319623072093458 0.02057215229880516
1.5147853725703382E8 0.0032237159914249454 0.0208713233859063 0.996776284008575 -0.020871323385906297 0.996776284008575 -0.020871323385906297 0.0032237159914249454 0.0208713233859063
1.5376456101806876E8 0.003251715684033419 0.021174777033210433 0.9967482843159666 -0.021174777033210433 0.9967482843159666 -0.021174777033210433 0.003251715684033419 0.021174777033210433
1.5608508408660066E8 0.0032802387859880533 0.021482577322807377 0.996719761214012 -0.021482577322807377 0.996719761214012 -0.021482577322807377 0.0032802387859880533 0.021482577322807377
1.5844062710560706E8 0.003309294626953557 0.021794789435588453 0.9966907053730464 -0.021794789435588453 0.9966907053730464 -0.021794789435588453 0.003309294626953557 0.021794789435588453
1.6083171857529896E8 0.003338892898737266 0.022111479665205252 0.9966611071012629 -0.022111479665205252 0.9966611071012629 -0.022111479665205252 0.003338892898737266 0.022111479665205252
1.632588949716973E8 0.0033690436754513133 0.022432715431587872 0.9966309563245488 -0.022432715431587875 0.9966309563245488 -0.022432715431587875 0.0033690436754513133 0.022432715431587872
1.6572270086699936E8 0.0033997574341028246 0.022758565294007337 0.9966002425658971 -0.022758565294007337 0.9966002425658971 -0.022758565294007337 0.0033997574341028246 0.022758565294007337
1.6822368905176118E8 0.0034310450755828436 0.023089098963668547 0.9965689549244173 -0.023089098963668547 0.9965689549244173 -0.023089098963668547 0.0034310450755828436 0.023089098963668547
1.7076242065892437E8 0.0034629179460238923 0.02342438731582325 0.9965370820539761 -0.02342438731582325 0.9965370820539761 -0.02342438731582325 0.0034629179460238923 0.02342438731582325
1.7333946528971428E8 0.0034953878584954435 0.023764502401394934 0.9965046121415045 -0.023764502401394934 0.9965046121415045 -0.023764502401394934 0.0034953878584954435 0.023764502401394934
1.7595540114143828E8 0.003528467115006129 0.024109517458109915 0.9964715328849939 -0.024109517458109915 0.9964715328849939 -0.024109517458109915 0.003528467115006129 0.024109517458109915
1.786108151372127E8 0.003562168528781386 0.024459506921132104 0.9964378314712187 -0.024459506921132104 0.9964378314712187 -0.024459506921132104 0.003562168528781386 0.024459506921132104
1.8130630305764765E8 0.003596505446785231 0.024814546433201173 0.9964034945532146 -0.024814546433201173 0.9964034945532146 -0.024814546433201173 0.003596505446785231 0.024814546433201173
1.840424696745189E8 0.0036314917724551725 0.025174712854276807 0.9963685082275447 -0.025174712854276807 0.9963685082275447 -0.025174712854276807 0.0036314917724551725 0.025174712854276807
1.8681992888645732E8 0.0036671419886197265 0.025540084270694218 0.9963328580113804 -0.025540084270694218 0.9963328580113804 -0.025540084270694218 0.0036671419886197265 0.025540084270694218
1.8963930385668582E8 0.00370347118056876 0.02591074000383894 0.9962965288194313 -0.02591074000383894 0.9962965288194313 -0.02591074000383894 0.00370347118056876 0.02591074000383894
1.92501227152835E8 0.0037404950592477603 0.02628676061835121 0.9962595049407523 -0.026286760618351203 0.9962595049407523 -0.026286760618351203 0.0037404950592477603 0.02628676061835121
1.9540634088886917E8 0.0037782299845483315 0.026668227929872862 0.9962217700154516 -0.026668227929872862 0.9962217700154516 -0.026668227929872862 0.0037782299845483315 0.026668227929872862
1.983552968691535E8 0.003816692988668503 0.027055225012352156 0.9961833070113316 -0.027055225012352156 0.9961833070113316 -0.027055225012352156 0.003816692988668503 0.027055225012352156
2.0134875673469606E8 0.003855901799517937 0.027447836204923692 0.996144098200482 -0.027447836204923692 0.996144098200482 -0.027447836204923692 0.003855901799517937 0.027447836204923692
2.0438739211159652E8 0.0038958748641448743 0.027846147118383513 0.9961041251358549 -0.027846147118383516 0.9961041251358549 -0.027846147118383516 0.0038958748641448743 0.027846147118383513
2.074718847617352E8 0.003936631372163364 0.02825024464128054 0.9960633686278365 -0.028250244641280533 0.9960633686278365 -0.028250244641280533 0.003936631372163364 0.02825024464128054
2.106029267357361E8 0.003978191279161434 0.028660216945647965 0.9960218087208388 -0.028660216945647972 0.9960218087208388 -0.028660216945647972 0.003978191279161434 0.028660216945647965
2.1378122052823865E8 0.004020575330072845 0.029076153492399663 0.9959794246699271 -0.029076153492399663 0.9959794246699271 -0.029076153492399663 0.004020575330072845 0.029076153492399663
2.1700747923551247E8 0.004063805082497314 0.02949814503641801 0.9959361949175028 -0.029498145036418014 0.9959361949175028 -0.029498145036418014 0.004063805082497314 0.02949814503641801
2.2028242671545094E8 0.004107902929956357 0.02992628363136102 0.9958920970700436 -0.02992628363136102 0.9958920970700436 -0.02992628363136102 0.004107902929956357 0.02992628363136102
2.23606797749979E8 0.004152892125074262 0.030360662634217685 0.9958471078749258 -0.030360662634217682 0.9958471078749258 -0.030360662634217682 0.004152892125074262 0.030360662634217685
2.2698133820991236E8 0.004198796802676057 0.030801376709641413 0.9958012031973239 -0.030801376709641413 0.9958012031973239 -0.030801376709641413 0.004198796802676057 0.030801376709641413
2.3040680522230446E8 0.004245642002796839 0.031248521834092248 0.9957543579972031 -0.031248521834092248 0.9957543579972031 -0.031248521834092248 0.004245642002796839 0.031248521834092248
2.338839673403185E8 0.00429345369359919 0.03170219529981884 0.995706546306401 -0.03170219529981884 0.995706546306401 -0.03170219529981884 0.00429345369359919 0.03170219529981884
2.37413604715664E8 0.004342258794197934 0.03216249571871229 0.9956577412058021 -0.03216249571871228 0.9956577412058021 -0.03216249571871228 0.004342258794197934 0.03216249571871229
