!Murata Part Number: LQP02TQ11NH02
!These Parameters are Measured in Series Mode Connection
!       o--[Z]--o
!Port1              Port2
!       o-------o
!
!Freq. Start=50[MHz] Stop=20[GHz], 401[Steps]
# Hz S RI R 50
!Freq.(Hz) S11(Real) S11(Imag) S21(Real) S21(Imag) S12(Real) S12(Imag) S22(Real) S22(Imag)
5.0E7 0.012581455972705045 0.037091353636425586 0.9874185440272948 -0.03709135363642558 0.9874185440272948 -0.03709135363642558 0.012581455972705045 0.037091353636425586
5.0754570186123446E7 0.012642556226922974 0.03763944851668627 0.9873574437730771 -0.03763944851668627 0.9873574437730771 -0.03763944851668627 0.012642556226922974 0.03763944851668627
5.152052789556263E7 0.01270528297745321 0.038195493633318575 0.9872947170225468 -0.038195493633318575 0.9872947170225468 -0.038195493633318575 0.01270528297745321 0.038195493633318575
5.229804498202928E7 0.012769679231494541 0.038759599730225115 0.9872303207685053 -0.038759599730225115 0.9872303207685053 -0.038759599730225115 0.012769679231494541 0.038759599730225115
5.308729589274893E7 0.01283578915613895 0.039331878965372186 0.9871642108438609 -0.039331878965372186 0.9871642108438609 -0.039331878965372186 0.01283578915613895 0.039331878965372186
5.388845770760058E7 0.012903658111170689 0.039912444921154866 0.9870963418888291 -0.039912444921154866 0.9870963418888291 -0.039912444921154866 0.012903658111170689 0.039912444921154866
5.470171017884717E7 0.012973332682544527 0.04050141261433037 0.9870266673174556 -0.04050141261433038 0.9870266673174556 -0.04050141261433038 0.012973332682544527 0.04050141261433037
5.5527235771465644E7 0.013044860716532722 0.04109889850550503 0.9869551392834671 -0.04109889850550503 0.9869551392834671 -0.04109889850550503 0.013044860716532722 0.04109889850550503
5.6365219704085544E7 0.013118291354530211 0.04170502050816231 0.9868817086454699 -0.04170502050816231 0.9868817086454699 -0.04170502050816231 0.013118291354530211 0.04170502050816231
5.721584999054556E7 0.013193675068506496 0.04231989799722074 0.9868063249314933 -0.04231989799722074 0.9868063249314933 -0.04231989799722074 0.013193675068506496 0.04231989799722074
5.807931748207712E7 0.013271063697092923 0.042943651817112766 0.986728936302907 -0.042943651817112766 0.986728936302907 -0.042943651817112766 0.013271063697092923 0.042943651817112766
5.8955815910124585E7 0.013350510482293736 0.04357640428937709 0.9866494895177061 -0.04357640428937709 0.9866494895177061 -0.04357640428937709 0.013350510482293736 0.04357640428937709
5.984554192981184E7 0.013432070106809397 0.04421827921975979 0.9865679298931906 -0.04421827921975979 0.9865679298931906 -0.04421827921975979 0.013432070106809397 0.04421827921975979
6.074869516406457E7 0.013515798731961277 0.044869401904820846 0.9864842012680388 -0.044869401904820846 0.9864842012680388 -0.044869401904820846 0.013515798731961277 0.044869401904820846
6.166547824839868E7 0.0136017540362069 0.045529899138045136 0.9863982459637932 -0.045529899138045136 0.9863982459637932 -0.045529899138045136 0.0136017540362069 0.045529899138045136
6.2596096876384385E7 0.013689995254236309 0.046199899215459805 0.9863100047457637 -0.0461998992154598 0.9863100047457637 -0.0461998992154598 0.013689995254236309 0.046199899215459805
6.354075984579668E7 0.013780583216640576 0.046879531940760645 0.9862194167833593 -0.046879531940760645 0.9862194167833593 -0.046879531940760645 0.013780583216640576 0.046879531940760645
6.449967910546205E7 0.013873580390145294 0.04756892862995382 0.9861264196098546 -0.04756892862995382 0.9861264196098546 -0.04756892862995382 0.013873580390145294 0.04756892862995382
6.547306980281226E7 0.013969050918402896 0.04826822211552029 0.9860309490815969 -0.04826822211552029 0.9860309490815969 -0.04826822211552029 0.013969050918402896 0.04826822211552029
6.646115033215589E7 0.014067060663339938 0.0489775467501132 0.98593293933666 -0.0489775467501132 0.98593293933666 -0.0489775467501132 0.014067060663339938 0.0489775467501132
6.746414238367817E7 0.014167677247057232 0.0496970384097999 0.985832322752943 -0.04969703840979991 0.985832322752943 -0.04969703840979991 0.014167677247057232 0.0496970384097999
6.848227099318038E7 0.014270970094283018 0.05042683449686252 0.9857290299057168 -0.05042683449686253 0.9857290299057168 -0.05042683449686253 0.014270970094283018 0.05042683449686252
6.951576459256999E7 0.014377010475382208 0.051167073942173055 0.9856229895246176 -0.05116707394217305 0.9856229895246176 -0.05116707394217305 0.014377010475382208 0.051167073942173055
7.056485506111258E7 0.014485871549927209 0.05191789720715974 0.9855141284500726 -0.05191789720715974 0.9855141284500726 -0.05191789720715974 0.014485871549927209 0.05191789720715974
7.162977777745734E7 0.014597628410839295 0.05267944628538449 0.9854023715891607 -0.05267944628538449 0.9854023715891607 -0.05267944628538449 0.014597628410839295 0.05267944628538449
7.271077167244768E7 0.014712358129112651 0.0534518647037509 0.9852876418708872 -0.0534518647037509 0.9852876418708872 -0.0534518647037509 0.014712358129112651 0.0534518647037509
7.380807928272885E7 0.014830139799136664 0.05423529752336462 0.9851698602008633 -0.05423529752336462 0.9851698602008633 -0.05423529752336462 0.014830139799136664 0.05423529752336462
7.492194680516452E7 0.014951054584636452 0.05502989134006856 0.9850489454153637 -0.05502989134006856 0.9850489454153637 -0.05502989134006856 0.014951054584636452 0.05502989134006856
7.60526241520746E7 0.015075185765254883 0.05583579428467548 0.9849248142347453 -0.05583579428467548 0.9849248142347453 -0.05583579428467548 0.015075185765254883 0.05583579428467548
7.720036500730675E7 0.015202618783804354 0.056653156022921945 0.9847973812161955 -0.056653156022921945 0.9847973812161955 -0.056653156022921945 0.015202618783804354 0.056653156022921945
7.836542688315398E7 0.01533344129422092 0.05748212775516706 0.984666558705779 -0.05748212775516706 0.984666558705779 -0.05748212775516706 0.01533344129422092 0.05748212775516706
7.954807117813127E7 0.015467743210257661 0.058322862215859056 0.9845322567897425 -0.05832286221585906 0.9845322567897425 -0.05832286221585906 0.015467743210257661 0.058322862215859056
8.074856323562416E7 0.015605616754959702 0.05917551367279265 0.9843943832450402 -0.05917551367279265 0.9843943832450402 -0.05917551367279265 0.015605616754959702 0.05917551367279265
8.196717240342227E7 0.015747156510968096 0.060040237926179726 0.9842528434890319 -0.06004023792617971 0.9842528434890319 -0.06004023792617971 0.015747156510968096 0.060040237926179726
8.320417209415154E7 0.01589245947170481 0.06091719230755298 0.9841075405282952 -0.06091719230755298 0.9841075405282952 -0.06091719230755298 0.01589245947170481 0.06091719230755298
8.445983984661816E7 0.01604162509349676 0.061806535678522276 0.9839583749065032 -0.061806535678522276 0.9839583749065032 -0.061806535678522276 0.01604162509349676 0.061806535678522276
8.573445738807854E7 0.016194755348702194 0.06270842842940048 0.9838052446512979 -0.0627084284294005 0.9838052446512979 -0.0627084284294005 0.016194755348702194 0.06270842842940048
8.702831069744885E7 0.016351954779907946 0.06362303247771264 0.983648045220092 -0.06362303247771263 0.983648045220092 -0.06362303247771263 0.016351954779907946 0.06362303247771264
8.834169006946853E7 0.016513330555272574 0.06455051126660066 0.9834866694447275 -0.06455051126660068 0.9834866694447275 -0.06455051126660068 0.016513330555272574 0.06455051126660066
8.96748901798321E7 0.01667899252509475 0.06549102976313054 0.9833210074749053 -0.06549102976313054 0.9833210074749053 -0.06549102976313054 0.01667899252509475 0.06549102976313054
9.1028210151304E7 0.016849053279693462 0.06644475445650681 0.9831509467203067 -0.0664447544565068 0.9831509467203067 -0.0664447544565068 0.016849053279693462 0.06644475445650681
9.240195362083109E7 0.01702362820869083 0.06741185335619279 0.9829763717913093 -0.0674118533561928 0.9829763717913093 -0.0674118533561928 0.01702362820869083 0.06741185335619279
9.379642880766791E7 0.01720283556179506 0.06839249598993191 0.9827971644382051 -0.06839249598993193 0.9827971644382051 -0.06839249598993193 0.01720283556179506 0.06839249598993191
9.521194858253023E7 0.0173867965111858 0.06938685340165782 0.9826132034888143 -0.06938685340165782 0.9826132034888143 -0.06938685340165782 0.0173867965111858 0.06938685340165782
9.664883053779216E7 0.017575635215610032 0.07039509814927694 0.98242436478439 -0.07039509814927694 0.98242436478439 -0.07039509814927694 0.017575635215610032 0.07039509814927694
9.810739705874248E7 0.017769478886301832 0.07141740430229898 0.9822305211136982 -0.071417404302299 0.9822305211136982 -0.071417404302299 0.017769478886301832 0.07141740430229898
9.958797539591652E7 0.017968457854843706 0.07245394743928348 0.9820315421451562 -0.07245394743928346 0.9820315421451562 -0.07245394743928346 0.017968457854843706 0.07245394743928348
1.0109089773851961E8 0.018172705643093374 0.07350490464506419 0.9818272943569064 -0.07350490464506419 0.9818272943569064 -0.07350490464506419 0.018172705643093374 0.07350490464506419
1.0261650128895843E8 0.018382359035302748 0.07457045450770275 0.9816176409646973 -0.07457045450770275 0.9816176409646973 -0.07457045450770275 0.018382359035302748 0.07457045450770275
1.0416512833849736E8 0.018597558152561214 0.0756507771151149 0.9814024418474389 -0.0756507771151149 0.9814024418474389 -0.0756507771151149 0.018597558152561214 0.0756507771151149
1.0573712634405641E8 0.018818446529698624 0.07674605405130322 0.9811815534703012 -0.0767460540513032 0.9811815534703012 -0.0767460540513032 0.018818446529698624 0.07674605405130322
1.0733284800616828E8 0.019045171194786638 0.0778564683921189 0.9809548288052132 -0.07785646839211889 0.9809548288052132 -0.07785646839211889 0.019045171194786638 0.0778564683921189
1.0895265134811176E8 0.019277882751380024 0.07898220470046527 0.98072211724862 -0.07898220470046527 0.98072211724862 -0.07898220470046527 0.019277882751380024 0.07898220470046527
1.1059689979623953E8 0.01951673546364198 0.08012344902084415 0.9804832645363583 -0.08012344902084416 0.9804832645363583 -0.08012344902084416 0.01951673546364198 0.08012344902084415
1.1226596226151802E8 0.01976188734449872 0.08128038887313332 0.9802381126555014 -0.08128038887313332 0.9802381126555014 -0.08128038887313332 0.01976188734449872 0.08128038887313332
1.1396021322229806E8 0.02001350024697018 0.08245321324547245 0.9799864997530299 -0.08245321324547245 0.9799864997530299 -0.08245321324547245 0.02001350024697018 0.08245321324547245
1.1568003280833441E8 0.020271739958823354 0.08364211258611962 0.9797282600411767 -0.08364211258611962 0.9797282600411767 -0.08364211258611962 0.020271739958823354 0.08364211258611962
1.1742580688607343E8 0.02053677630069488 0.08484727879412979 0.9794632236993052 -0.08484727879412979 0.9794632236993052 -0.08484727879412979 0.02053677630069488 0.08484727879412979
1.1919792714522783E8 0.02080878322782762 0.08606890520868943 0.9791912167721724 -0.08606890520868941 0.9791912167721724 -0.08606890520868941 0.02080878322782762 0.08606890520868943
1.2099679118665792E8 0.021087938935564276 0.08730718659693061 0.9789120610644358 -0.08730718659693061 0.9789120610644358 -0.08730718659693061 0.021087938935564276 0.08730718659693061
1.2282280261157903E8 0.02137442596873741 0.08856231914003015 0.9786255740312625 -0.08856231914003015 0.9786255740312625 -0.08856231914003015 0.02137442596873741 0.08856231914003015
1.2467637111211549E8 0.021668431335091526 0.0898345004173865 0.9783315686649084 -0.0898345004173865 0.9783315686649084 -0.0898345004173865 0.021668431335091526 0.0898345004173865
1.265579125632208E8 0.021970146622867216 0.09112392938865053 0.9780298533771327 -0.09112392938865053 0.9780298533771327 -0.09112392938865053 0.021970146622867216 0.09112392938865053
1.284678491159853E8 0.02227976812267168 0.09243080637337242 0.9777202318773283 -0.09243080637337243 0.9777202318773283 -0.09243080637337243 0.02227976812267168 0.09243080637337242
1.3040660929235186E8 0.022597496953751812 0.09375533302800991 0.9774025030462482 -0.09375533302800991 0.9774025030462482 -0.09375533302800991 0.022597496953751812 0.09375533302800991
1.3237462808126101E8 0.02292353919477792 0.09509771232002834 0.9770764608052221 -0.09509771232002832 0.9770764608052221 -0.09509771232002832 0.02292353919477792 0.09509771232002834
1.3437234703624701E8 0.023258106019236252 0.09645814849880809 0.9767418939807638 -0.09645814849880809 0.9767418939807638 -0.09645814849880809 0.023258106019236252 0.09645814849880809
1.364002143745067E8 0.023601413835517487 0.09783684706305906 0.9763985861644825 -0.09783684706305908 0.9763985861644825 -0.09783684706305908 0.023601413835517487 0.09783684706305906
1.3845868507746372E8 0.023953684431775955 0.09923401472442696 0.9760463155682241 -0.09923401472442696 0.9760463155682241 -0.09923401472442696 0.023953684431775955 0.09923401472442696
1.405482209928499E8 0.024315145125620993 0.10064985936696094 0.9756848548743791 -0.10064985936696094 0.9756848548743791 -0.10064985936696094 0.024315145125620993 0.10064985936696094
1.426692909383278E8 0.024686028918687476 0.10208459000210066 0.9753139710813126 -0.10208459000210066 0.9753139710813126 -0.10208459000210066 0.024686028918687476 0.10208459000210066
1.4482237080667645E8 0.025066574656115375 0.1035384167188221 0.9749334253438848 -0.1035384167188221 0.9749334253438848 -0.1035384167188221 0.025066574656115375 0.1035384167188221
1.4700794367256513E8 0.025457027190952775 0.10501155062857415 0.9745429728090472 -0.10501155062857415 0.9745429728090472 -0.10501155062857415 0.025457027190952775 0.10501155062857415
1.492264999009378E8 0.025857637553476604 0.10650420380462124 0.9741423624465235 -0.10650420380462124 0.9741423624465235 -0.10650420380462124 0.025857637553476604 0.10650420380462124
1.5147853725703382E8 0.026268663125406926 0.10801658921539764 0.9737313368745932 -0.10801658921539764 0.9737313368745932 -0.10801658921539764 0.026268663125406926 0.10801658921539764
1.5376456101806876E8 0.02669036781896948 0.10954892065146946 0.9733096321810306 -0.10954892065146948 0.9733096321810306 -0.10954892065146948 0.02669036781896948 0.10954892065146946
1.5608508408660066E8 0.02712302226073928 0.11110141264568817 0.9728769777392605 -0.11110141264568817 0.9728769777392605 -0.11110141264568817 0.02712302226073928 0.11110141264568817
1.5844062710560706E8 0.027566903980175507 0.11267428038611334 0.9724330960198245 -0.11267428038611332 0.9724330960198245 -0.11267428038611332 0.027566903980175507 0.11267428038611334
1.6083171857529896E8 0.0280222976027341 0.11426773962127466 0.9719777023972659 -0.11426773962127469 0.9719777023972659 -0.11426773962127469 0.0280222976027341 0.11426773962127466
1.632588949716973E8 0.028489495047419527 0.11588200655733606 0.9715105049525805 -0.11588200655733606 0.9715105049525805 -0.11588200655733606 0.028489495047419527 0.11588200655733606
1.6572270086699936E8 0.02896879572861245 0.11751729774672157 0.9710312042713874 -0.11751729774672157 0.9710312042713874 -0.11751729774672157 0.02896879572861245 0.11751729774672157
1.6822368905176118E8 0.029460506761983054 0.11917382996775915 0.970539493238017 -0.11917382996775916 0.970539493238017 -0.11917382996775916 0.029460506761983054 0.11917382996775915
1.7076242065892437E8 0.02996494317427367 0.12085182009489548 0.9700350568257261 -0.12085182009489548 0.9700350568257261 -0.12085182009489548 0.02996494317427367 0.12085182009489548
1.7333946528971428E8 0.030482428116707 0.1225514849590375 0.969517571883293 -0.12255148495903748 0.969517571883293 -0.12255148495903748 0.030482428116707 0.1225514849590375
1.7595540114143828E8 0.031013293081748054 0.12427304119757357 0.9689867069182521 -0.12427304119757358 0.9689867069182521 -0.12427304119757358 0.031013293081748054 0.12427304119757357
1.786108151372127E8 0.03155787812292093 0.12601670509363486 0.9684421218770789 -0.12601670509363486 0.9684421218770789 -0.12601670509363486 0.03155787812292093 0.12601670509363486
1.8130630305764765E8 0.03211653207735271 0.12778269240415815 0.9678834679226473 -0.12778269240415815 0.9678834679226473 -0.12778269240415815 0.03211653207735271 0.12778269240415815
1.840424696745189E8 0.03268961279068858 0.12957121817631892 0.9673103872093114 -0.12957121817631892 0.9673103872093114 -0.12957121817631892 0.03268961279068858 0.12957121817631892
1.8681992888645732E8 0.033277487343994216 0.13138249655191203 0.9667225126560058 -0.13138249655191203 0.9667225126560058 -0.13138249655191203 0.033277487343994216 0.13138249655191203
1.8963930385668582E8 0.03388053228223406 0.13321674055926505 0.966119467717766 -0.13321674055926505 0.966119467717766 -0.13321674055926505 0.03388053228223406 0.13321674055926505
1.92501227152835E8 0.03449913384388481 0.13507416189228166 0.9655008661561153 -0.13507416189228166 0.9655008661561153 -0.13507416189228166 0.03449913384388481 0.13507416189228166
1.9540634088886917E8 0.035133688191217295 0.1369549706762233 0.9648663118087826 -0.1369549706762233 0.9648663118087826 -0.1369549706762233 0.035133688191217295 0.1369549706762233
1.983552968691535E8 0.03578460164075247 0.13885937521985364 0.9642153983592474 -0.13885937521985364 0.9642153983592474 -0.13885937521985364 0.03578460164075247 0.13885937521985364
2.0134875673469606E8 0.036452290893369925 0.14078758175358236 0.9635477091066301 -0.14078758175358239 0.9635477091066301 -0.14078758175358239 0.036452290893369925 0.14078758175358236
2.0438739211159652E8 0.037137183263522784 0.142739794153266 0.9628628167364771 -0.142739794153266 0.9628628167364771 -0.142739794153266 0.037137183263522784 0.142739794153266
2.074718847617352E8 0.037839716906985746 0.14471621364933687 0.9621602830930143 -0.14471621364933687 0.9621602830930143 -0.14471621364933687 0.037839716906985746 0.14471621364933687
2.106029267357361E8 0.038560341046539916 0.1467170385209547 0.9614396589534601 -0.1467170385209547 0.9614396589534601 -0.1467170385209547 0.038560341046539916 0.1467170385209547
2.1378122052823865E8 0.03929951619497331 0.14874246377489408 0.9607004838050266 -0.14874246377489406 0.9607004838050266 -0.14874246377489406 0.03929951619497331 0.14874246377489408
2.1700747923551247E8 0.04005771437475246 0.15079268080890182 0.9599422856252476 -0.15079268080890182 0.9599422856252476 -0.15079268080890182 0.04005771437475246 0.15079268080890182
2.2028242671545094E8 0.040835419333700294 0.1528678770592856 0.9591645806662998 -0.1528678770592856 0.9591645806662998 -0.1528678770592856 0.040835419333700294 0.1528678770592856
2.23606797749979E8 0.04163312675599052 0.15496823563251225 0.9583668732440095 -0.15496823563251225 0.9583668732440095 -0.15496823563251225 0.04163312675599052 0.15496823563251225
2.2698133820991236E8 0.04245134446775217 0.15709393492062668 0.957548655532248 -0.15709393492062668 0.957548655532248 -0.15709393492062668 0.04245134446775217 0.15709393492062668
2.3040680522230446E8 0.04329059263655497 0.15924514820032143 0.9567094073634451 -0.1592451482003214 0.9567094073634451 -0.1592451482003214 0.04329059263655497 0.15924514820032143
2.338839673403185E8 0.044151403964029716 0.16142204321551903 0.9558485960359703 -0.16142204321551903 0.9558485960359703 -0.16142204321551903 0.044151403964029716 0.16142204321551903
2.37413604715664E8 0.0450343238708583 0.1636247817433531 0.9549656761291417 -0.16362478174335313 0.9549656761291417 -0.16362478174335313 0.0450343238708583 0.1636247817433531
2.4099650927363476E8 0.04593991067335192 0.1658535191434641 0.954060089326648 -0.16585351914346408 0.954060089326648 -0.16585351914346408 0.04593991067335192 0.1658535191434641
2.446334848907889E8 0.04686873575081937 0.16810840389055484 0.9531312642491807 -0.16810840389055481 0.9531312642491807 -0.16810840389055481 0.04686873575081937 0.16810840389055484
2.4832534757531032E8 0.04782138370291226 0.1703895770901807 0.9521786162970878 -0.17038957709018068 0.9521786162970878 -0.17038957709018068 0.04782138370291226 0.1703895770901807
