!Murata Part Number: LQP02TQ0N6B02
!These Parameters are Measured in Series Mode Connection
!       o--[Z]--o
!Port1              Port2
!       o-------o
!
!Freq. Start=50[MHz] Stop=20[GHz], 401[Steps]
# Hz S RI R 50
!Freq.(Hz) S11(Real) S11(Imag) S21(Real) S21(Imag) S12(Real) S12(Imag) S22(Real) S22(Imag)
5.0E7 3.8565509942793517E-4 0.0022429683019004757 0.999614344900572 -0.0022429683019004757 0.999614344900572 -0.0022429683019004757 3.8565509942793517E-4 0.0022429683019004757
5.0754570186123446E7 3.867212124043521E-4 0.0022766264015336942 0.9996132787875956 -0.0022766264015336947 0.9996132787875956 -0.0022766264015336947 3.867212124043521E-4 0.0022766264015336942
5.152052789556263E7 3.8781699782704276E-4 0.002310784382554722 0.9996121830021729 -0.002310784382554722 0.9996121830021729 -0.002310784382554722 3.8781699782704276E-4 0.002310784382554722
5.229804498202928E7 3.889432055964879E-4 0.0023454494703343933 0.9996110567944034 -0.0023454494703343933 0.9996110567944034 -0.0023454494703343933 3.889432055964879E-4 0.0023454494703343933
5.308729589274893E7 3.9010060047425067E-4 0.002380628988223402 0.9996098993995258 -0.0023806289882234016 0.9996098993995258 -0.0023806289882234016 3.9010060047425067E-4 0.002380628988223402
5.388845770760058E7 3.91289962164848E-4 0.00241633035875347 0.9996087100378351 -0.00241633035875347 0.9996087100378351 -0.00241633035875347 3.91289962164848E-4 0.00241633035875347
5.470171017884717E7 3.925120853865839E-4 0.002452561104857325 0.9996074879146135 -0.0024525611048573244 0.9996074879146135 -0.0024525611048573244 3.925120853865839E-4 0.002452561104857325
5.5527235771465644E7 3.937677799308385E-4 0.002489328851108453 0.9996062322200692 -0.002489328851108453 0.9996062322200692 -0.002489328851108453 3.937677799308385E-4 0.002489328851108453
5.6365219704085544E7 3.9505787070931523E-4 0.0025266413249816423 0.9996049421292906 -0.0025266413249816423 0.9996049421292906 -0.0025266413249816423 3.9505787070931523E-4 0.0025266413249816423
5.721584999054556E7 3.963831977887646E-4 0.0025645063581353927 0.9996036168022114 -0.0025645063581353927 0.9996036168022114 -0.0025645063581353927 3.963831977887646E-4 0.0025645063581353927
5.807931748207712E7 3.9774461641272653E-4 0.0026029318877173403 0.9996022553835872 -0.0026029318877173403 0.9996022553835872 -0.0026029318877173403 3.9774461641272653E-4 0.0026029318877173403
5.8955815910124585E7 3.991429970098623E-4 0.002641925957693911 0.9996008570029902 -0.002641925957693911 0.9996008570029902 -0.002641925957693911 3.991429970098623E-4 0.002641925957693911
5.984554192981184E7 4.005792251884656E-4 0.002681496720205475 0.9995994207748115 -0.002681496720205475 0.9995994207748115 -0.002681496720205475 4.005792251884656E-4 0.002681496720205475
6.074869516406457E7 4.0205420171679485E-4 0.002721652436948357 0.999597945798283 -0.002721652436948357 0.999597945798283 -0.002721652436948357 4.0205420171679485E-4 0.002721652436948357
6.166547824839868E7 4.0356884248889417E-4 0.0027624014805851297 0.9995964311575112 -0.00276240148058513 0.9995964311575112 -0.00276240148058513 4.0356884248889417E-4 0.0027624014805851297
6.2596096876384385E7 4.051240784756262E-4 0.002803752336184651 0.9995948759215244 -0.0028037523361846514 0.9995948759215244 -0.0028037523361846514 4.051240784756262E-4 0.002803752336184651
6.354075984579668E7 4.067208556606909E-4 0.0028457136026934556 0.9995932791443393 -0.002845713602693456 0.9995932791443393 -0.002845713602693456 4.067208556606909E-4 0.0028457136026934556
6.449967910546205E7 4.083601349614568E-4 0.002888293994440078 0.9995916398650385 -0.002888293994440078 0.9995916398650385 -0.002888293994440078 4.083601349614568E-4 0.002888293994440078
6.547306980281226E7 4.1004289213450744E-4 0.002931502342674056 0.9995899571078657 -0.002931502342674056 0.9995899571078657 -0.002931502342674056 4.1004289213450744E-4 0.002931502342674056
6.646115033215589E7 4.117701176658655E-4 0.0029753475971413578 0.9995882298823342 -0.0029753475971413578 0.9995882298823342 -0.0029753475971413578 4.117701176658655E-4 0.0029753475971413578
6.746414238367817E7 4.135428166459488E-4 0.0030198388276980945 0.999586457183354 -0.0030198388276980945 0.999586457183354 -0.0030198388276980945 4.135428166459488E-4 0.0030198388276980945
6.848227099318038E7 4.15362008629383E-4 0.003064985225964402 0.9995846379913705 -0.003064985225964402 0.9995846379913705 -0.003064985225964402 4.15362008629383E-4 0.003064985225964402
6.951576459256999E7 4.172287274799062E-4 0.0031107961070204887 0.99958277127252 -0.0031107961070204887 0.99958277127252 -0.0031107961070204887 4.172287274799062E-4 0.0031107961070204887
7.056485506111258E7 4.1914402120068973E-4 0.0031572809111468617 0.9995808559787994 -0.0031572809111468612 0.9995808559787994 -0.0031572809111468612 4.1914402120068973E-4 0.0031572809111468617
7.162977777745734E7 4.2110895175051147E-4 0.003204449205610824 0.9995788910482496 -0.003204449205610824 0.9995788910482496 -0.003204449205610824 4.2110895175051147E-4 0.003204449205610824
7.271077167244768E7 4.2312459484633943E-4 0.0032523106865013905 0.9995768754051536 -0.003252310686501391 0.9995768754051536 -0.003252310686501391 4.2312459484633943E-4 0.0032523106865013905
7.380807928272885E7 4.251920397529981E-4 0.0033008751806147974 0.999574807960247 -0.0033008751806147974 0.999574807960247 -0.0033008751806147974 4.251920397529981E-4 0.0033008751806147974
7.492194680516452E7 4.2731238906073486E-4 0.003350152647392838 0.9995726876109392 -0.0033501526473928376 0.9995726876109392 -0.0033501526473928376 4.2731238906073486E-4 0.003350152647392838
7.60526241520746E7 4.2948675845163106E-4 0.003400153180916289 0.9995705132415482 -0.0034001531809162897 0.9995705132415482 -0.0034001531809162897 4.2948675845163106E-4 0.003400153180916289
7.720036500730675E7 4.317162764559575E-4 0.003450887011955712 0.9995682837235442 -0.003450887011955712 0.9995682837235442 -0.003450887011955712 4.317162764559575E-4 0.003450887011955712
7.836542688315398E7 4.340020841997273E-4 0.0035023645100819224 0.9995659979158003 -0.0035023645100819224 0.9995659979158003 -0.0035023645100819224 4.340020841997273E-4 0.0035023645100819224
7.954807117813127E7 4.3634533514486145E-4 0.0035545961858384732 0.999563654664855 -0.0035545961858384732 0.999563654664855 -0.0035545961858384732 4.3634533514486145E-4 0.0035545961858384732
8.074856323562416E7 4.3874719482354355E-4 0.003607592692978416 0.9995612528051764 -0.003607592692978416 0.9995612528051764 -0.003607592692978416 4.3874719482354355E-4 0.003607592692978416
8.196717240342227E7 4.4120884056852533E-4 0.00366136483076766 0.9995587911594314 -0.00366136483076766 0.9995587911594314 -0.00366136483076766 4.4120884056852533E-4 0.00366136483076766
8.320417209415154E7 4.437314612413154E-4 0.0037159235463572185 0.9995562685387586 -0.0037159235463572185 0.9995562685387586 -0.0037159235463572185 4.437314612413154E-4 0.0037159235463572185
8.445983984661816E7 4.463162569603754E-4 0.003771279937226527 0.9995536837430395 -0.003771279937226527 0.9995536837430395 -0.003771279937226527 4.463162569603754E-4 0.003771279937226527
8.573445738807854E7 4.489644388316219E-4 0.003827445253700041 0.9995510355611684 -0.003827445253700042 0.9995510355611684 -0.003827445253700042 4.489644388316219E-4 0.003827445253700041
8.702831069744885E7 4.516772286837459E-4 0.00388443090153923 0.9995483227713163 -0.0038844309015392295 0.9995483227713163 -0.0038844309015392295 4.516772286837459E-4 0.00388443090153923
8.834169006946853E7 4.5445585881103155E-4 0.003942248444611942 0.9995455441411888 -0.003942248444611941 0.9995455441411888 -0.003942248444611941 4.5445585881103155E-4 0.003942248444611942
8.96748901798321E7 4.573015717265657E-4 0.004000909607641126 0.9995426984282734 -0.004000909607641126 0.9995426984282734 -0.004000909607641126 4.573015717265657E-4 0.004000909607641126
9.1028210151304E7 4.6021561992891786E-4 0.0040604262790346875 0.999539784380071 -0.004060426279034687 0.999539784380071 -0.004060426279034687 4.6021561992891786E-4 0.0040604262790346875
9.240195362083109E7 4.631992656855593E-4 0.004120810513798115 0.9995368007343145 -0.004120810513798115 0.9995368007343145 -0.004120810513798115 4.631992656855593E-4 0.004120810513798115
9.379642880766791E7 4.662537808364824E-4 0.004182074536531455 0.9995337462191635 -0.004182074536531455 0.9995337462191635 -0.004182074536531455 4.662537808364824E-4 0.004182074536531455
9.521194858253023E7 4.693804466216691E-4 0.004244230744511939 0.9995306195533783 -0.004244230744511938 0.9995306195533783 -0.004244230744511938 4.693804466216691E-4 0.004244230744511939
9.664883053779216E7 4.7258055353621665E-4 0.004307291710863406 0.9995274194464637 -0.004307291710863406 0.9995274194464637 -0.004307291710863406 4.7258055353621665E-4 0.004307291710863406
9.810739705874248E7 4.7585540121712616E-4 0.004371270187813488 0.9995241445987829 -0.004371270187813489 0.9995241445987829 -0.004371270187813489 4.7585540121712616E-4 0.004371270187813488
9.958797539591652E7 4.7920629836588834E-4 0.004436179110039237 0.999520793701634 -0.004436179110039237 0.999520793701634 -0.004436179110039237 4.7920629836588834E-4 0.004436179110039237
1.0109089773851961E8 4.826345627111706E-4 0.004502031598101666 0.999517365437289 -0.004502031598101666 0.999517365437289 -0.004502031598101666 4.826345627111706E-4 0.004502031598101666
1.0261650128895843E8 4.861415210160271E-4 0.004568840961969392 0.9995138584789839 -0.0045688409619693915 0.9995138584789839 -0.0045688409619693915 4.861415210160271E-4 0.004568840961969392
1.0416512833849736E8 4.897285091341782E-4 0.0046366207046312675 0.9995102714908659 -0.0046366207046312675 0.9995102714908659 -0.0046366207046312675 4.897285091341782E-4 0.0046366207046312675
1.0573712634405641E8 4.933968721199999E-4 0.0047053845257976085 0.99950660312788 -0.004705384525797608 0.99950660312788 -0.004705384525797608 4.933968721199999E-4 0.0047053845257976085
1.0733284800616828E8 4.971479643969432E-4 0.004775146325689283 0.999502852035603 -0.004775146325689283 0.999502852035603 -0.004775146325689283 4.971479643969432E-4 0.004775146325689283
1.0895265134811176E8 5.00983149989157E-4 0.004845920208913591 0.9994990168500107 -0.004845920208913591 0.9994990168500107 -0.004845920208913591 5.00983149989157E-4 0.004845920208913591
1.1059689979623953E8 5.049038028211238E-4 0.0049177204884255366 0.9994950961971789 -0.0049177204884255366 0.9994950961971789 -0.0049177204884255366 5.049038028211238E-4 0.0049177204884255366
1.1226596226151802E8 5.089113070901176E-4 0.004990561689572689 0.99949108869291 -0.004990561689572689 0.99949108869291 -0.004990561689572689 5.089113070901176E-4 0.004990561689572689
1.1396021322229806E8 5.13007057716268E-4 0.005064458554221469 0.9994869929422837 -0.005064458554221469 0.9994869929422837 -0.005064458554221469 5.13007057716268E-4 0.005064458554221469
1.1568003280833441E8 5.171924608749727E-4 0.005139426044962344 0.9994828075391251 -0.005139426044962344 0.9994828075391251 -0.005139426044962344 5.171924608749727E-4 0.005139426044962344
1.1742580688607343E8 5.214689346163E-4 0.0052154793493909765 0.9994785310653836 -0.0052154793493909765 0.9994785310653836 -0.0052154793493909765 5.214689346163E-4 0.0052154793493909765
1.1919792714522783E8 5.258379095759179E-4 0.005292633884461995 0.9994741620904242 -0.0052926338844619955 0.9994741620904242 -0.0052926338844619955 5.258379095759179E-4 0.005292633884461995
1.2099679118665792E8 5.303008297819232E-4 0.005370905300911665 0.9994696991702182 -0.005370905300911666 0.9994696991702182 -0.005370905300911666 5.303008297819232E-4 0.005370905300911665
1.2282280261157903E8 5.348591535617677E-4 0.0054503094877453445 0.9994651408464381 -0.0054503094877453445 0.9994651408464381 -0.0054503094877453445 5.348591535617677E-4 0.0054503094877453445
1.2467637111211549E8 5.395143545532427E-4 0.005530862576785197 0.9994604856454468 -0.005530862576785198 0.9994604856454468 -0.005530862576785198 5.395143545532427E-4 0.005530862576785197
1.265579125632208E8 5.442679228232282E-4 0.005612580947273272 0.9994557320771769 -0.005612580947273272 0.9994557320771769 -0.005612580947273272 5.442679228232282E-4 0.005612580947273272
1.284678491159853E8 5.491213660976189E-4 0.005695481230524696 0.9994508786339023 -0.005695481230524696 0.9994508786339023 -0.005695481230524696 5.491213660976189E-4 0.005695481230524696
1.3040660929235186E8 5.540762111054921E-4 0.005779580314625339 0.9994459237888947 -0.005779580314625339 0.9994459237888947 -0.005779580314625339 5.540762111054921E-4 0.005779580314625339
1.3237462808126101E8 5.591340050402253E-4 0.005864895349167981 0.9994408659949598 -0.005864895349167981 0.9994408659949598 -0.005864895349167981 5.591340050402253E-4 0.005864895349167981
1.3437234703624701E8 5.642963171398547E-4 0.005951443750020759 0.9994357036828603 -0.005951443750020759 0.9994357036828603 -0.005951443750020759 5.642963171398547E-4 0.005951443750020759
1.364002143745067E8 5.69564740388523E-4 0.006039243204121218 0.9994304352596114 -0.006039243204121218 0.9994304352596114 -0.006039243204121218 5.69564740388523E-4 0.006039243204121218
1.3845868507746372E8 5.749408933404022E-4 0.006128311674289276 0.9994250591066597 -0.006128311674289276 0.9994250591066597 -0.006128311674289276 5.749408933404022E-4 0.006128311674289276
1.405482209928499E8 5.804264220669489E-4 0.006218667404051888 0.9994195735779331 -0.006218667404051887 0.9994195735779331 -0.006218667404051887 5.804264220669489E-4 0.006218667404051888
1.426692909383278E8 5.860230022278415E-4 0.006310328922472302 0.9994139769977721 -0.006310328922472302 0.9994139769977721 -0.006310328922472302 5.860230022278415E-4 0.006310328922472302
1.4482237080667645E8 5.917323412653592E-4 0.0064033150489763895 0.9994082676587346 -0.0064033150489763895 0.9994082676587346 -0.0064033150489763895 5.917323412653592E-4 0.0064033150489763895
1.4700794367256513E8 5.975561807213968E-4 0.006497644898168564 0.9994024438192786 -0.006497644898168564 0.9994024438192786 -0.006497644898168564 5.975561807213968E-4 0.006497644898168564
1.492264999009378E8 6.034962986756991E-4 0.006593337884629737 0.9993965037013242 -0.006593337884629737 0.9993965037013242 -0.006593337884629737 6.034962986756991E-4 0.006593337884629737
1.5147853725703382E8 6.095545123032671E-4 0.006690413727689651 0.9993904454876967 -0.006690413727689652 0.9993904454876967 -0.006690413727689652 6.095545123032671E-4 0.006690413727689651
1.5376456101806876E8 6.157326805482662E-4 0.006788892456166006 0.9993842673194517 -0.006788892456166006 0.9993842673194517 -0.006788892456166006 6.157326805482662E-4 0.006788892456166006
1.5608508408660066E8 6.220327069111185E-4 0.006888794413062955 0.9993779672930888 -0.006888794413062955 0.9993779672930888 -0.006888794413062955 6.220327069111185E-4 0.006888794413062955
1.5844062710560706E8 6.284565423448051E-4 0.006990140260221487 0.9993715434576553 -0.006990140260221487 0.9993715434576553 -0.006990140260221487 6.284565423448051E-4 0.006990140260221487
1.6083171857529896E8 6.350061882557747E-4 0.007092950982914641 0.9993649938117443 -0.007092950982914641 0.9993649938117443 -0.007092950982914641 6.350061882557747E-4 0.007092950982914641
1.632588949716973E8 6.416836996041871E-4 0.007197247894380466 0.9993583163003958 -0.007197247894380466 0.9993583163003958 -0.007197247894380466 6.416836996041871E-4 0.007197247894380466
1.6572270086699936E8 6.484911880976225E-4 0.007303052640286263 0.9993515088119023 -0.007303052640286263 0.9993515088119023 -0.007303052640286263 6.484911880976225E-4 0.007303052640286263
1.6822368905176118E8 6.554308254717239E-4 0.007410387203117612 0.9993445691745283 -0.007410387203117614 0.9993445691745283 -0.007410387203117614 6.554308254717239E-4 0.007410387203117612
1.7076242065892437E8 6.625048468506844E-4 0.0075192739064864345 0.9993374951531493 -0.0075192739064864345 0.9993374951531493 -0.0075192739064864345 6.625048468506844E-4 0.0075192739064864345
1.7333946528971428E8 6.697155541798866E-4 0.007629735419352586 0.9993302844458203 -0.007629735419352588 0.9993302844458203 -0.007629735419352588 6.697155541798866E-4 0.007629735419352586
1.7595540114143828E8 6.770653197224622E-4 0.007741794760154017 0.9993229346802776 -0.007741794760154017 0.9993229346802776 -0.007741794760154017 6.770653197224622E-4 0.007741794760154017
1.786108151372127E8 6.84556589611034E-4 0.007855475300841172 0.999315443410389 -0.007855475300841172 0.999315443410389 -0.007855475300841172 6.84556589611034E-4 0.007855475300841172
1.8130630305764765E8 6.921918874454028E-4 0.007970800770811724 0.9993078081125545 -0.007970800770811724 0.9993078081125545 -0.007970800770811724 6.921918874454028E-4 0.007970800770811724
1.840424696745189E8 6.99973817926529E-4 0.008087795260742589 0.9993000261820735 -0.00808779526074259 0.9993000261820735 -0.00808779526074259 6.99973817926529E-4 0.008087795260742589
1.8681992888645732E8 7.079050705167468E-4 0.008206483226316645 0.9992920949294833 -0.008206483226316645 0.9992920949294833 -0.008206483226316645 7.079050705167468E-4 0.008206483226316645
1.8963930385668582E8 7.159884231158063E-4 0.008326889491842397 0.9992840115768841 -0.008326889491842397 0.9992840115768841 -0.008326889491842397 7.159884231158063E-4 0.008326889491842397
1.92501227152835E8 7.242267457420435E-4 0.008449039253765563 0.9992757732542581 -0.008449039253765563 0.9992757732542581 -0.008449039253765563 7.242267457420435E-4 0.008449039253765563
1.9540634088886917E8 7.326230042077303E-4 0.008572958084072246 0.9992673769957924 -0.008572958084072246 0.9992673769957924 -0.008572958084072246 7.326230042077303E-4 0.008572958084072246
1.983552968691535E8 7.411802637774666E-4 0.00869867193358426 0.9992588197362224 -0.00869867193358426 0.9992588197362224 -0.00869867193358426 7.411802637774666E-4 0.00869867193358426
2.0134875673469606E8 7.499016927983361E-4 0.008826207135147887 0.9992500983072018 -0.008826207135147889 0.9992500983072018 -0.008826207135147889 7.499016927983361E-4 0.008826207135147887
2.0438739211159652E8 7.587905662904648E-4 0.008955590406718152 0.9992412094337096 -0.008955590406718153 0.9992412094337096 -0.008955590406718153 7.587905662904648E-4 0.008955590406718152
2.074718847617352E8 7.678502694866046E-4 0.009086848854341661 0.9992321497305134 -0.009086848854341661 0.9992321497305134 -0.009086848854341661 7.678502694866046E-4 0.009086848854341661
2.106029267357361E8 7.770843013093843E-4 0.009220009975041679 0.9992229156986906 -0.009220009975041679 0.9992229156986906 -0.009220009975041679 7.770843013093843E-4 0.009220009975041679
2.1378122052823865E8 7.864962777749689E-4 0.009355101659610163 0.999213503722225 -0.009355101659610161 0.999213503722225 -0.009355101659610161 7.864962777749689E-4 0.009355101659610163
2.1700747923551247E8 7.960899353119914E-4 0.009492152195312057 0.999203910064688 -0.009492152195312058 0.999203910064688 -0.009492152195312058 7.960899353119914E-4 0.009492152195312057
2.2028242671545094E8 8.058691339848408E-4 0.009631190268508253 0.999194130866015 -0.009631190268508252 0.999194130866015 -0.009631190268508252 8.058691339848408E-4 0.009631190268508253
2.23606797749979E8 8.15837860610615E-4 0.009772244967204117 0.9991841621393893 -0.009772244967204115 0.9991841621393893 -0.009772244967204115 8.15837860610615E-4 0.009772244967204117
2.2698133820991236E8 8.260002317593514E-4 0.009915345783531522 0.9991739997682405 -0.009915345783531522 0.9991739997682405 -0.009915345783531522 8.260002317593514E-4 0.009915345783531522
2.3040680522230446E8 8.363604966275011E-4 0.010060522616173002 0.9991636395033725 -0.010060522616173002 0.9991636395033725 -0.010060522616173002 8.363604966275011E-4 0.010060522616173002
2.338839673403185E8 8.469230397749799E-4 0.010207805772737288 0.9991530769602252 -0.010207805772737288 0.9991530769602252 -0.010207805772737288 8.469230397749799E-4 0.010207805772737288
2.37413604715664E8 8.576923837165858E-4 0.010357225972096427 0.9991423076162834 -0.010357225972096425 0.9991423076162834 -0.010357225972096425 8.576923837165858E-4 0.010357225972096427
