!Murata Part Number: LQP02TQ0N7B02
!These Parameters are Measured in Series Mode Connection
!       o--[Z]--o
!Port1              Port2
!       o-------o
!
!Freq. Start=50[MHz] Stop=20[GHz], 401[Steps]
# Hz S RI R 50
!Freq.(Hz) S11(Real) S11(Imag) S21(Real) S21(Imag) S12(Real) S12(Imag) S22(Real) S22(Imag)
5.0E7 4.104249625026206E-4 0.0026055767373077948 0.9995895750374975 -0.002605576737307795 0.9995895750374975 -0.002605576737307795 4.104249625026206E-4 0.0026055767373077948
5.0754570186123446E7 4.1217203477289055E-4 0.0026444792645771145 0.999587827965227 -0.0026444792645771145 0.999587827965227 -0.0026444792645771145 4.1217203477289055E-4 0.0026444792645771145
5.152052789556263E7 4.1396505624009334E-4 0.0026839519178259593 0.9995860349437597 -0.0026839519178259593 0.9995860349437597 -0.0026839519178259593 4.1396505624009334E-4 0.0026839519178259593
5.229804498202928E7 4.158050440609833E-4 0.0027240026795024254 0.9995841949559391 -0.002724002679502425 0.9995841949559391 -0.002724002679502425 4.158050440609833E-4 0.0027240026795024254
5.308729589274893E7 4.1769302800495275E-4 0.0027646396342294794 0.999582306971995 -0.0027646396342294794 0.999582306971995 -0.0027646396342294794 4.1769302800495275E-4 0.0027646396342294794
5.388845770760058E7 4.1963005010407897E-4 0.00280587097011399 0.999580369949896 -0.00280587097011399 0.999580369949896 -0.00280587097011399 4.1963005010407897E-4 0.00280587097011399
5.470171017884717E7 4.2161716427534924E-4 0.002847704980095063 0.9995783828357246 -0.002847704980095063 0.9995783828357246 -0.002847704980095063 4.2161716427534924E-4 0.002847704980095063
5.5527235771465644E7 4.236554359148603E-4 0.0028901500633341805 0.9995763445640853 -0.0028901500633341805 0.9995763445640853 -0.0028901500633341805 4.236554359148603E-4 0.0028901500633341805
5.6365219704085544E7 4.2574594146390455E-4 0.0029332147266496497 0.9995742540585362 -0.0029332147266496497 0.9995742540585362 -0.0029332147266496497 4.2574594146390455E-4 0.0029332147266496497
5.721584999054556E7 4.27889767946967E-4 0.0029769075859980864 0.9995721102320531 -0.0029769075859980864 0.9995721102320531 -0.0029769075859980864 4.27889767946967E-4 0.0029769075859980864
5.807931748207712E7 4.300880124817866E-4 0.0030212373680056277 0.999569911987518 -0.0030212373680056277 0.999569911987518 -0.0030212373680056277 4.300880124817866E-4 0.0030212373680056277
5.8955815910124585E7 4.3234178176178013E-4 0.0030662129115517655 0.9995676582182381 -0.0030662129115517655 0.9995676582182381 -0.0030662129115517655 4.3234178176178013E-4 0.0030662129115517655
5.984554192981184E7 4.346521915112664E-4 0.0031118431694087106 0.9995653478084887 -0.0031118431694087106 0.9995653478084887 -0.0031118431694087106 4.346521915112664E-4 0.0031118431694087106
6.074869516406457E7 4.3702036591410066E-4 0.0031581372099392987 0.999562979634086 -0.003158137209939299 0.999562979634086 -0.003158137209939299 4.3702036591410066E-4 0.0031581372099392987
6.166547824839868E7 4.394474370164928E-4 0.0032051042188565478 0.9995605525629835 -0.003205104218856548 0.9995605525629835 -0.003205104218856548 4.394474370164928E-4 0.0032051042188565478
6.2596096876384385E7 4.419345441049687E-4 0.0032527535010479698 0.9995580654558951 -0.003252753501047969 0.9995580654558951 -0.003252753501047969 4.419345441049687E-4 0.0032527535010479698
6.354075984579668E7 4.444828330606363E-4 0.0033010944824679194 0.9995555171669394 -0.003301094482467919 0.9995555171669394 -0.003301094482467919 4.444828330606363E-4 0.0033010944824679194
6.449967910546205E7 4.4709345569110044E-4 0.0033501367121011485 0.9995529065443091 -0.0033501367121011485 0.9995529065443091 -0.0033501367121011485 4.4709345569110044E-4 0.0033501367121011485
6.547306980281226E7 4.49767569041618E-4 0.003399889864000914 0.9995502324309583 -0.003399889864000914 0.9995502324309583 -0.003399889864000914 4.49767569041618E-4 0.003399889864000914
6.646115033215589E7 4.5250633468728107E-4 0.003450363739404933 0.9995474936653126 -0.0034503637394049337 0.9995474936653126 -0.0034503637394049337 4.5250633468728107E-4 0.003450363739404933
6.746414238367817E7 4.553109180082702E-4 0.003501568268932492 0.9995446890819918 -0.003501568268932492 0.9995446890819918 -0.003501568268932492 4.553109180082702E-4 0.003501568268932492
6.848227099318038E7 4.581824874504523E-4 0.003553513514866024 0.9995418175125494 -0.0035535135148660243 0.9995418175125494 -0.0035535135148660243 4.581824874504523E-4 0.003553513514866024
6.951576459256999E7 4.6112221377386103E-4 0.0036062096735204707 0.9995388777862261 -0.003606209673520471 0.9995388777862261 -0.003606209673520471 4.6112221377386103E-4 0.0036062096735204707
7.056485506111258E7 4.641312692918425E-4 0.0036596670777036106 0.9995358687307081 -0.0036596670777036106 0.9995358687307081 -0.0036596670777036106 4.641312692918425E-4 0.0036596670777036106
7.162977777745734E7 4.6721082710393294E-4 0.003713896199270611 0.9995327891728961 -0.003713896199270611 0.9995327891728961 -0.003713896199270611 4.6721082710393294E-4 0.003713896199270611
7.271077167244768E7 4.703620603257904E-4 0.003768907651775859 0.9995296379396742 -0.0037689076517758596 0.9995296379396742 -0.0037689076517758596 4.703620603257904E-4 0.003768907651775859
7.380807928272885E7 4.735861413197847E-4 0.0038247121932250936 0.9995264138586802 -0.0038247121932250944 0.9995264138586802 -0.0038247121932250944 4.735861413197847E-4 0.0038247121932250936
7.492194680516452E7 4.768842409301261E-4 0.0038813207289307037 0.9995231157590697 -0.0038813207289307037 0.9995231157590697 -0.0038813207289307037 4.768842409301261E-4 0.0038813207289307037
7.60526241520746E7 4.8025752772669307E-4 0.0039387443144729495 0.9995197424722735 -0.0039387443144729495 0.9995197424722735 -0.0039387443144729495 4.8025752772669307E-4 0.0039387443144729495
7.720036500730675E7 4.8370716726198497E-4 0.003996994158769629 0.9995162928327382 -0.003996994158769629 0.9995162928327382 -0.003996994158769629 4.8370716726198497E-4 0.003996994158769629
7.836542688315398E7 4.8723432134591675E-4 0.004056081627256586 0.9995127656786542 -0.004056081627256586 0.9995127656786542 -0.004056081627256586 4.8723432134591675E-4 0.004056081627256586
7.954807117813127E7 4.908401473434248E-4 0.004116018245181178 0.9995091598526569 -0.004116018245181178 0.9995091598526569 -0.004116018245181178 4.908401473434248E-4 0.004116018245181178
8.074856323562416E7 4.945257975001173E-4 0.004176815701010586 0.9995054742024998 -0.004176815701010587 0.9995054742024998 -0.004176815701010587 4.945257975001173E-4 0.004176815701010586
8.196717240342227E7 4.982924183014631E-4 0.004238485849956607 0.9995017075816985 -0.004238485849956607 0.9995017075816985 -0.004238485849956607 4.982924183014631E-4 0.004238485849956607
8.320417209415154E7 5.02141149871239E-4 0.004301040717618216 0.9994978588501287 -0.004301040717618216 0.9994978588501287 -0.004301040717618216 5.02141149871239E-4 0.004301040717618216
8.445983984661816E7 5.06073125415181E-4 0.0043644925037428835 0.9994939268745848 -0.004364492503742883 0.9994939268745848 -0.004364492503742883 5.06073125415181E-4 0.0043644925037428835
8.573445738807854E7 5.100894707160009E-4 0.004428853586107286 0.9994899105292839 -0.004428853586107286 0.9994899105292839 -0.004428853586107286 5.100894707160009E-4 0.004428853586107286
8.702831069744885E7 5.141913036861064E-4 0.004494136524517647 0.999485808696314 -0.004494136524517648 0.999485808696314 -0.004494136524517648 5.141913036861064E-4 0.004494136524517647
8.834169006946853E7 5.183797339845237E-4 0.004560354064929538 0.9994816202660156 -0.004560354064929538 0.9994816202660156 -0.004560354064929538 5.183797339845237E-4 0.004560354064929538
8.96748901798321E7 5.226558627046676E-4 0.00462751914368655 0.9994773441372953 -0.00462751914368655 0.9994773441372953 -0.00462751914368655 5.226558627046676E-4 0.00462751914368655
9.1028210151304E7 5.270207821397125E-4 0.004695644891876836 0.9994729792178603 -0.004695644891876836 0.9994729792178603 -0.004695644891876836 5.270207821397125E-4 0.004695644891876836
9.240195362083109E7 5.314755756323816E-4 0.004764744639805925 0.9994685244243676 -0.004764744639805926 0.9994685244243676 -0.004764744639805926 5.314755756323816E-4 0.004764744639805925
9.379642880766791E7 5.360213175160294E-4 0.004834831921583866 0.999463978682484 -0.004834831921583866 0.999463978682484 -0.004834831921583866 5.360213175160294E-4 0.004834831921583866
9.521194858253023E7 5.406590731539014E-4 0.004905920479824153 0.9994593409268462 -0.004905920479824153 0.9994593409268462 -0.004905920479824153 5.406590731539014E-4 0.004905920479824153
9.664883053779216E7 5.453898990834062E-4 0.00497802427045142 0.9994546101009164 -0.00497802427045142 0.9994546101009164 -0.00497802427045142 5.453898990834062E-4 0.00497802427045142
9.810739705874248E7 5.502148432721814E-4 0.005051157467614294 0.9994497851567277 -0.005051157467614293 0.9994497851567277 -0.005051157467614293 5.502148432721814E-4 0.005051157467614294
9.958797539591652E7 5.551349454926063E-4 0.005125334468699319 0.9994448650545075 -0.0051253344686993186 0.9994448650545075 -0.0051253344686993186 5.551349454926063E-4 0.005125334468699319
1.0109089773851961E8 5.601512378212601E-4 0.0052005698994412874 0.9994398487621787 -0.0052005698994412874 0.9994398487621787 -0.0052005698994412874 5.601512378212601E-4 0.0052005698994412874
1.0261650128895843E8 5.652647452696182E-4 0.0052768786191247944 0.9994347352547306 -0.0052768786191247944 0.9994347352547306 -0.0052768786191247944 5.652647452696182E-4 0.0052768786191247944
1.0416512833849736E8 5.704764865520096E-4 0.005354275725871219 0.999429523513448 -0.005354275725871219 0.999429523513448 -0.005354275725871219 5.704764865520096E-4 0.005354275725871219
1.0573712634405641E8 5.757874749965834E-4 0.005432776562004912 0.9994242125250035 -0.005432776562004912 0.9994242125250035 -0.005432776562004912 5.757874749965834E-4 0.005432776562004912
1.0733284800616828E8 5.8119871960465E-4 0.005512396719491756 0.9994188012803952 -0.005512396719491756 0.9994188012803952 -0.005512396719491756 5.8119871960465E-4 0.005512396719491756
1.0895265134811176E8 5.867112262633801E-4 0.005593152045442798 0.9994132887737368 -0.005593152045442798 0.9994132887737368 -0.005593152045442798 5.867112262633801E-4 0.005593152045442798
1.1059689979623953E8 5.923259991163932E-4 0.005675058647675148 0.9994076740008835 -0.005675058647675148 0.9994076740008835 -0.005675058647675148 5.923259991163932E-4 0.005675058647675148
1.1226596226151802E8 5.980440420962639E-4 0.005758132900321963 0.9994019559579038 -0.005758132900321963 0.9994019559579038 -0.005758132900321963 5.980440420962639E-4 0.005758132900321963
1.1396021322229806E8 6.038663606224323E-4 0.005842391449482727 0.9993961336393777 -0.005842391449482727 0.9993961336393777 -0.005842391449482727 6.038663606224323E-4 0.005842391449482727
1.1568003280833441E8 6.097939634674258E-4 0.005927851218904869 0.9993902060365327 -0.005927851218904869 0.9993902060365327 -0.005927851218904869 6.097939634674258E-4 0.005927851218904869
1.1742580688607343E8 6.158278647936541E-4 0.006014529415687231 0.9993841721352065 -0.006014529415687231 0.9993841721352065 -0.006014529415687231 6.158278647936541E-4 0.006014529415687231
1.1919792714522783E8 6.219690863623857E-4 0.006102443535995686 0.9993780309136375 -0.006102443535995685 0.9993780309136375 -0.006102443535995685 6.219690863623857E-4 0.006102443535995686
1.2099679118665792E8 6.282186599157976E-4 0.006191611370780926 0.9993717813400842 -0.006191611370780926 0.9993717813400842 -0.006191611370780926 6.282186599157976E-4 0.006191611370780926
1.2282280261157903E8 6.345776297322541E-4 0.006282051011488176 0.9993654223702678 -0.006282051011488176 0.9993654223702678 -0.006282051011488176 6.345776297322541E-4 0.006282051011488176
1.2467637111211549E8 6.410470553542107E-4 0.006373780855748578 0.9993589529446457 -0.006373780855748578 0.9993589529446457 -0.006373780855748578 6.410470553542107E-4 0.006373780855748578
1.265579125632208E8 6.476280144873447E-4 0.0064668196130417185 0.9993523719855127 -0.006466819613041718 0.9993523719855127 -0.006466819613041718 6.476280144873447E-4 0.0064668196130417185
1.284678491159853E8 6.543216060686998E-4 0.006561186310318886 0.9993456783939314 -0.006561186310318886 0.9993456783939314 -0.006561186310318886 6.543216060686998E-4 0.006561186310318886
1.3040660929235186E8 6.611289535008286E-4 0.006656900297576623 0.9993388710464992 -0.006656900297576622 0.9993388710464992 -0.006656900297576622 6.611289535008286E-4 0.006656900297576623
1.3237462808126101E8 6.680512080480686E-4 0.006753981253370225 0.9993319487919519 -0.006753981253370225 0.9993319487919519 -0.006753981253370225 6.680512080480686E-4 0.006753981253370225
1.3437234703624701E8 6.750895523902704E-4 0.006852449190257051 0.9993249104476096 -0.006852449190257052 0.9993249104476096 -0.006852449190257052 6.750895523902704E-4 0.006852449190257051
1.364002143745067E8 6.822452043284597E-4 0.0069523244601596935 0.9993177547956715 -0.006952324460159694 0.9993177547956715 -0.006952324460159694 6.822452043284597E-4 0.0069523244601596935
1.3845868507746372E8 6.895194206361179E-4 0.007053627759639444 0.9993104805793639 -0.007053627759639443 0.9993104805793639 -0.007053627759639443 6.895194206361179E-4 0.007053627759639444
1.405482209928499E8 6.969135010489368E-4 0.00715638013507074 0.9993030864989509 -0.00715638013507074 0.9993030864989509 -0.00715638013507074 6.969135010489368E-4 0.00715638013507074
1.426692909383278E8 7.044287923851606E-4 0.00726060298770789 0.9992955712076149 -0.007260602987707892 0.9992955712076149 -0.007260602987707892 7.044287923851606E-4 0.00726060298770789
1.4482237080667645E8 7.120666927878526E-4 0.007366318078635668 0.9992879333072121 -0.007366318078635668 0.9992879333072121 -0.007366318078635668 7.120666927878526E-4 0.007366318078635668
1.4700794367256513E8 7.198286560797349E-4 0.007473547533596166 0.9992801713439204 -0.007473547533596167 0.9992801713439204 -0.007473547533596167 7.198286560797349E-4 0.007473547533596166
1.492264999009378E8 7.277161962205565E-4 0.007582313847684751 0.9992722838037795 -0.007582313847684751 0.9992722838037795 -0.007582313847684751 7.277161962205565E-4 0.007582313847684751
1.5147853725703382E8 7.357308918563347E-4 0.007692639889908691 0.9992642691081437 -0.00769263988990869 0.9992642691081437 -0.00769263988990869 7.357308918563347E-4 0.007692639889908691
1.5376456101806876E8 7.438743909492333E-4 0.007804548907602856 0.9992561256090506 -0.007804548907602856 0.9992561256090506 -0.007804548907602856 7.438743909492333E-4 0.007804548907602856
1.5608508408660066E8 7.5214841547632E-4 0.007918064530697561 0.9992478515845238 -0.007918064530697561 0.9992478515845238 -0.007918064530697561 7.5214841547632E-4 0.007918064530697561
1.5844062710560706E8 7.605547661849788E-4 0.008033210775834432 0.9992394452338151 -0.008033210775834432 0.9992394452338151 -0.008033210775834432 7.605547661849788E-4 0.008033210775834432
1.6083171857529896E8 7.690953273923789E-4 0.008150012050327242 0.9992309046726079 -0.008150012050327242 0.9992309046726079 -0.008150012050327242 7.690953273923789E-4 0.008150012050327242
1.632588949716973E8 7.777720718160298E-4 0.008268493155965255 0.9992222279281839 -0.008268493155965255 0.9992222279281839 -0.008268493155965255 7.777720718160298E-4 0.008268493155965255
1.6572270086699936E8 7.865870654222268E-4 0.008388679292657825 0.9992134129345778 -0.008388679292657825 0.9992134129345778 -0.008388679292657825 7.865870654222268E-4 0.008388679292657825
1.6822368905176118E8 7.955424722789645E-4 0.008510596061919685 0.9992044575277209 -0.008510596061919685 0.9992044575277209 -0.008510596061919685 7.955424722789645E-4 0.008510596061919685
1.7076242065892437E8 8.046405593997984E-4 0.008634269470197574 0.9991953594406001 -0.008634269470197574 0.9991953594406001 -0.008634269470197574 8.046405593997984E-4 0.008634269470197574
1.7333946528971428E8 8.138837015650521E-4 0.008759725932039532 0.9991861162984349 -0.00875972593203953 0.9991861162984349 -0.00875972593203953 8.138837015650521E-4 0.008759725932039532
1.7595540114143828E8 8.232743861068053E-4 0.008886992273109342 0.9991767256138933 -0.008886992273109342 0.9991767256138933 -0.008886992273109342 8.232743861068053E-4 0.008886992273109342
1.786108151372127E8 8.328152176441777E-4 0.009016095733049545 0.9991671847823558 -0.009016095733049546 0.9991671847823558 -0.009016095733049546 8.328152176441777E-4 0.009016095733049545
1.8130630305764765E8 8.425089227555661E-4 0.00914706396819726 0.9991574910772444 -0.00914706396819726 0.9991574910772444 -0.00914706396819726 8.425089227555661E-4 0.00914706396819726
1.840424696745189E8 8.523583545747162E-4 0.00927992505415805 0.9991476416454254 -0.00927992505415805 0.9991476416454254 -0.00927992505415805 8.523583545747162E-4 0.00927992505415805
1.8681992888645732E8 8.62366497297801E-4 0.009414707488244047 0.9991376335027021 -0.009414707488244047 0.9991376335027021 -0.009414707488244047 8.62366497297801E-4 0.009414707488244047
1.8963930385668582E8 8.72536470588997E-4 0.009551440191783287 0.9991274635294108 -0.009551440191783287 0.9991274635294108 -0.009551440191783287 8.72536470588997E-4 0.009551440191783287
1.92501227152835E8 8.82871533872451E-4 0.009690152512308077 0.9991171284661275 -0.009690152512308077 0.9991171284661275 -0.009690152512308077 8.82871533872451E-4 0.009690152512308077
1.9540634088886917E8 8.933750904989803E-4 0.009830874225631123 0.9991066249095011 -0.009830874225631121 0.9991066249095011 -0.009830874225631121 8.933750904989803E-4 0.009830874225631123
1.983552968691535E8 9.040506917763291E-4 0.009973635537818732 0.9990959493082238 -0.009973635537818732 0.9990959493082238 -0.009973635537818732 9.040506917763291E-4 0.009973635537818732
2.0134875673469606E8 9.149020408523487E-4 0.01011846708707138 0.9990850979591477 -0.010118467087071382 0.9990850979591477 -0.010118467087071382 9.149020408523487E-4 0.01011846708707138
2.0438739211159652E8 9.259329964410214E-4 0.010265399945522296 0.9990740670035588 -0.010265399945522296 0.9990740670035588 -0.010265399945522296 9.259329964410214E-4 0.010265399945522296
2.074718847617352E8 9.371475763818623E-4 0.010414465620965629 0.9990628524236183 -0.010414465620965629 0.9990628524236183 -0.010414465620965629 9.371475763818623E-4 0.010414465620965629
2.106029267357361E8 9.485499610238497E-4 0.010565696058526215 0.9990514500389762 -0.010565696058526215 0.9990514500389762 -0.010565696058526215 9.485499610238497E-4 0.010565696058526215
2.1378122052823865E8 9.601444964256902E-4 0.010719123642283517 0.9990398555035744 -0.010719123642283517 0.9990398555035744 -0.010719123642283517 9.601444964256902E-4 0.010719123642283517
2.1700747923551247E8 9.719356973648866E-4 0.010874781196862852 0.9990280643026351 -0.010874781196862852 0.9990280643026351 -0.010874781196862852 9.719356973648866E-4 0.010874781196862852
2.2028242671545094E8 9.839282501487368E-4 0.011032701989007375 0.999016071749851 -0.011032701989007375 0.999016071749851 -0.011032701989007375 9.839282501487368E-4 0.011032701989007375
2.23606797749979E8 9.961270152211163E-4 0.011192919729144863 0.999003872984779 -0.011192919729144863 0.999003872984779 -0.011192919729144863 9.961270152211163E-4 0.011192919729144863
2.2698133820991236E8 0.0010085370295595311 0.011355468572963552 0.9989914629704405 -0.01135546857296355 0.9989914629704405 -0.01135546857296355 0.0010085370295595311 0.011355468572963552
2.3040680522230446E8 0.0010211635088576525 0.01152038312301163 0.9989788364911424 -0.011520383123011632 0.9989788364911424 -0.011520383123011632 0.0010211635088576525 0.01152038312301163
2.338839673403185E8 0.0010340118494892249 0.011687698430335477 0.9989659881505107 -0.011687698430335477 0.9989659881505107 -0.011687698430335477 0.0010340118494892249 0.011687698430335477
2.37413604715664E8 0.0010470876302498882 0.011857449996171648 0.9989529123697501 -0.011857449996171646 0.9989529123697501 -0.011857449996171646 0.0010470876302498882 0.011857449996171648
