!Murata Part Number: LQP02TQ6N8H02
!These Parameters are Measured in Series Mode Connection
!       o--[Z]--o
!Port1              Port2
!       o-------o
!
!Freq. Start=50[MHz] Stop=20[GHz], 401[Steps]
# Hz S RI R 50
!Freq.(Hz) S11(Real) S11(Imag) S21(Real) S21(Imag) S12(Real) S12(Imag) S22(Real) S22(Imag)
5.0E7 0.00900026399244606 0.022889140996387974 0.9909997360075541 -0.022889140996387974 0.9909997360075541 -0.022889140996387974 0.00900026399244606 0.022889140996387974
5.0754570186123446E7 0.00902659447213262 0.023228665947107516 0.9909734055278673 -0.023228665947107516 0.9909734055278673 -0.023228665947107516 0.00902659447213262 0.023228665947107516
5.152052789556263E7 0.00905357960950288 0.023573155549177698 0.9909464203904972 -0.0235731555491777 0.9909464203904972 -0.0235731555491777 0.00905357960950288 0.023573155549177698
5.229804498202928E7 0.009081235301211764 0.02392268187041143 0.9909187646987883 -0.02392268187041143 0.9909187646987883 -0.02392268187041143 0.009081235301211764 0.02392268187041143
5.308729589274893E7 0.009109577887293241 0.02427731804325354 0.9908904221127068 -0.024277318043253542 0.9908904221127068 -0.024277318043253542 0.009109577887293241 0.02427731804325354
5.388845770760058E7 0.009138624166487861 0.024637138278804895 0.9908613758335122 -0.0246371382788049 0.9908613758335122 -0.0246371382788049 0.009138624166487861 0.024637138278804895
5.470171017884717E7 0.009168391411991338 0.02500221788080593 0.9908316085880088 -0.02500221788080593 0.9908316085880088 -0.02500221788080593 0.009168391411991338 0.02500221788080593
5.5527235771465644E7 0.009198897387622355 0.025372633259573504 0.9908011026123776 -0.025372633259573504 0.9908011026123776 -0.025372633259573504 0.009198897387622355 0.025372633259573504
5.6365219704085544E7 0.00923016036440775 0.025748461945886536 0.9907698396355921 -0.025748461945886536 0.9907698396355921 -0.025748461945886536 0.00923016036440775 0.025748461945886536
5.721584999054556E7 0.009262199137583202 0.026129782604816285 0.9907378008624168 -0.026129782604816285 0.9907378008624168 -0.026129782604816285 0.009262199137583202 0.026129782604816285
5.807931748207712E7 0.009295033044007547 0.026516675049498374 0.9907049669559924 -0.026516675049498374 0.9907049669559924 -0.026516675049498374 0.009295033044007547 0.026516675049498374
5.8955815910124585E7 0.009328681979989066 0.026909220254844653 0.9906713180200108 -0.026909220254844653 0.9906713180200108 -0.026909220254844653 0.009328681979989066 0.026909220254844653
5.984554192981184E7 0.009363166419522494 0.027307500371193838 0.9906368335804774 -0.027307500371193838 0.9906368335804774 -0.027307500371193838 0.009363166419522494 0.027307500371193838
6.074869516406457E7 0.009398507432935741 0.027711598737900866 0.9906014925670642 -0.027711598737900866 0.9906014925670642 -0.027711598737900866 0.009398507432935741 0.027711598737900866
6.166547824839868E7 0.00943472670594619 0.028121599896866325 0.9905652732940539 -0.028121599896866332 0.9905652732940539 -0.028121599896866332 0.00943472670594619 0.028121599896866325
6.2596096876384385E7 0.009471846559126704 0.028537589606007354 0.9905281534408734 -0.028537589606007354 0.9905281534408734 -0.028537589606007354 0.009471846559126704 0.028537589606007354
6.354075984579668E7 0.009509889967782861 0.028959654852673548 0.9904901100322172 -0.028959654852673548 0.9904901100322172 -0.028959654852673548 0.009509889967782861 0.028959654852673548
6.449967910546205E7 0.009548880582243272 0.029387883867010946 0.9904511194177567 -0.029387883867010946 0.9904511194177567 -0.029387883867010946 0.009548880582243272 0.029387883867010946
6.547306980281226E7 0.0095888427485665 0.029822366135279322 0.9904111572514336 -0.029822366135279322 0.9904111572514336 -0.029822366135279322 0.0095888427485665 0.029822366135279322
6.646115033215589E7 0.009629801529668879 0.03026319241312744 0.990370198470331 -0.03026319241312744 0.990370198470331 -0.03026319241312744 0.009629801529668879 0.03026319241312744
6.746414238367817E7 0.009671782726879087 0.03071045473883266 0.9903282172731208 -0.03071045473883266 0.9903282172731208 -0.03071045473883266 0.009671782726879087 0.03071045473883266
6.848227099318038E7 0.009714812901926662 0.031164246446510935 0.9902851870980732 -0.031164246446510935 0.9902851870980732 -0.031164246446510935 0.009714812901926662 0.031164246446510935
6.951576459256999E7 0.009758919399373263 0.03162466217930439 0.9902410806006268 -0.03162466217930439 0.9902410806006268 -0.03162466217930439 0.009758919399373263 0.03162466217930439
7.056485506111258E7 0.009804130369497017 0.03209179790255328 0.9901958696305029 -0.03209179790255328 0.9901958696305029 -0.03209179790255328 0.009804130369497017 0.03209179790255328
7.162977777745734E7 0.009850474791642012 0.03256575091695973 0.9901495252083581 -0.032565750916959735 0.9901495252083581 -0.032565750916959735 0.009850474791642012 0.03256575091695973
7.271077167244768E7 0.009897982498046964 0.03304661987175051 0.9901020175019529 -0.03304661987175051 0.9901020175019529 -0.03304661987175051 0.009897982498046964 0.03304661987175051
7.380807928272885E7 0.009946684198168644 0.03353450477784593 0.9900533158018314 -0.03353450477784593 0.9900533158018314 -0.03353450477784593 0.009946684198168644 0.03353450477784593
7.492194680516452E7 0.009996611503517721 0.03402950702104139 0.9900033884964822 -0.03402950702104139 0.9900033884964822 -0.03402950702104139 0.009996611503517721 0.03402950702104139
7.60526241520746E7 0.010047796953026588 0.03453172937520815 0.9899522030469734 -0.03453172937520815 0.9899522030469734 -0.03453172937520815 0.010047796953026588 0.03453172937520815
7.720036500730675E7 0.01010027403897062 0.03504127601551851 0.9898997259610294 -0.03504127601551852 0.9898997259610294 -0.03504127601551852 0.01010027403897062 0.03504127601551851
7.836542688315398E7 0.01015407723346626 0.03555825253170043 0.9898459227665337 -0.035558252531700425 0.9898459227665337 -0.035558252531700425 0.01015407723346626 0.03555825253170043
7.954807117813127E7 0.010209242015571378 0.03608276594132495 0.9897907579844288 -0.03608276594132495 0.9897907579844288 -0.03608276594132495 0.010209242015571378 0.03608276594132495
8.074856323562416E7 0.010265804899014878 0.036614924703128916 0.9897341951009851 -0.036614924703128916 0.9897341951009851 -0.036614924703128916 0.010265804899014878 0.036614924703128916
8.196717240342227E7 0.010323803460584955 0.037154838730373986 0.9896761965394151 -0.037154838730373986 0.9896761965394151 -0.037154838730373986 0.010323803460584955 0.037154838730373986
8.320417209415154E7 0.010383276369206546 0.03770261940424137 0.9896167236307933 -0.03770261940424137 0.9896167236307933 -0.03770261940424137 0.010383276369206546 0.03770261940424137
8.445983984661816E7 0.010444263415740746 0.03825837958725968 0.9895557365842592 -0.038258379587259674 0.9895557365842592 -0.038258379587259674 0.010444263415740746 0.03825837958725968
8.573445738807854E7 0.010506805543540143 0.03882223363676182 0.9894931944564598 -0.038822233636761815 0.9894931944564598 -0.038822233636761815 0.010506805543540143 0.03882223363676182
8.702831069744885E7 0.010570944879795862 0.03939429741836432 0.9894290551202041 -0.03939429741836432 0.9894290551202041 -0.03939429741836432 0.010570944879795862 0.03939429741836432
8.834169006946853E7 0.010636724767713183 0.03997468831946016 0.9893632752322867 -0.03997468831946017 0.9893632752322867 -0.03997468831946017 0.010636724767713183 0.03997468831946016
8.96748901798321E7 0.010704189799554 0.04056352526271444 0.989295810200446 -0.04056352526271444 0.989295810200446 -0.04056352526271444 0.010704189799554 0.04056352526271444
9.1028210151304E7 0.010773385850585277 0.04116092871954845 0.9892266141494147 -0.04116092871954845 0.9892266141494147 -0.04116092871954845 0.010773385850585277 0.04116092871954845
9.240195362083109E7 0.010844360113973776 0.04176702072359643 0.9891556398860262 -0.04176702072359643 0.9891556398860262 -0.04176702072359643 0.010844360113973776 0.04176702072359643
9.379642880766791E7 0.010917161136667717 0.04238192488411519 0.9890828388633323 -0.04238192488411519 0.9890828388633323 -0.04238192488411519 0.010917161136667717 0.04238192488411519
9.521194858253023E7 0.010991838856306814 0.04300576639932479 0.9890081611436933 -0.04300576639932479 0.9890081611436933 -0.04300576639932479 0.010991838856306814 0.04300576639932479
9.664883053779216E7 0.011068444639202299 0.04363867206965517 0.9889315553607977 -0.04363867206965517 0.9889315553607977 -0.04363867206965517 0.011068444639202299 0.04363867206965517
9.810739705874248E7 0.011147031319428612 0.04428077031087036 0.9888529686805714 -0.04428077031087036 0.9888529686805714 -0.04428077031087036 0.011147031319428612 0.04428077031087036
9.958797539591652E7 0.011227653239068361 0.04493219116703919 0.9887723467609316 -0.04493219116703919 0.9887723467609316 -0.04493219116703919 0.011227653239068361 0.04493219116703919
1.0109089773851961E8 0.011310366289651834 0.04559306632331821 0.9886896337103481 -0.04559306632331821 0.9886896337103481 -0.04559306632331821 0.011310366289651834 0.04559306632331821
1.0261650128895843E8 0.011395227954831617 0.04626352911850905 0.9886047720451683 -0.04626352911850905 0.9886047720451683 -0.04626352911850905 0.011395227954831617 0.04626352911850905
1.0416512833849736E8 0.01148229735433222 0.04694371455734982 0.988517702645668 -0.04694371455734982 0.988517702645668 -0.04694371455734982 0.01148229735433222 0.04694371455734982
1.0573712634405641E8 0.011571635289213435 0.04763375932249683 0.9884283647107865 -0.04763375932249683 0.9884283647107865 -0.04763375932249683 0.011571635289213435 0.04763375932249683
1.0733284800616828E8 0.011663304288485032 0.048333801786149856 0.988336695711515 -0.048333801786149856 0.988336695711515 -0.048333801786149856 0.011663304288485032 0.048333801786149856
1.0895265134811176E8 0.011757368657108701 0.04904398202127129 0.9882426313428913 -0.04904398202127129 0.9882426313428913 -0.04904398202127129 0.011757368657108701 0.04904398202127129
1.1059689979623953E8 0.011853894525421533 0.049764441812346315 0.9881461054745784 -0.049764441812346315 0.9881461054745784 -0.049764441812346315 0.011853894525421533 0.049764441812346315
1.1226596226151802E8 0.011952949900013539 0.050495324665629455 0.9880470500999865 -0.050495324665629455 0.9880470500999865 -0.050495324665629455 0.011952949900013539 0.050495324665629455
1.1396021322229806E8 0.012054604716089212 0.05123677581881859 0.9879453952839109 -0.05123677581881859 0.9879453952839109 -0.05123677581881859 0.012054604716089212 0.05123677581881859
1.1568003280833441E8 0.012158930891341234 0.05198894225009676 0.9878410691086588 -0.05198894225009676 0.9878410691086588 -0.05198894225009676 0.012158930891341234 0.05198894225009676
1.1742580688607343E8 0.012266002381361552 0.052751972686478535 0.9877339976186384 -0.05275197268647855 0.9877339976186384 -0.05275197268647855 0.012266002381361552 0.052751972686478535
1.1919792714522783E8 0.01237589523661265 0.05352601761139614 0.9876241047633872 -0.05352601761139614 0.9876241047633872 -0.05352601761139614 0.01237589523661265 0.05352601761139614
1.2099679118665792E8 0.012488687660978768 0.05431122927145826 0.9875113123390211 -0.054311229271458254 0.9875113123390211 -0.054311229271458254 0.012488687660978768 0.05431122927145826
1.2282280261157903E8 0.012604460071914202 0.055107761682313273 0.9873955399280857 -0.055107761682313273 0.9873955399280857 -0.055107761682313273 0.012604460071914202 0.055107761682313273
1.2467637111211549E8 0.012723295162202266 0.055915770633546434 0.9872767048377975 -0.055915770633546434 0.9872767048377975 -0.055915770633546434 0.012723295162202266 0.055915770633546434
1.265579125632208E8 0.012845277963335865 0.0567354136925396 0.9871547220366642 -0.0567354136925396 0.9871547220366642 -0.0567354136925396 0.012845277963335865 0.0567354136925396
1.284678491159853E8 0.012970495910526835 0.05756685020722087 0.987029504089473 -0.05756685020722087 0.987029504089473 -0.05756685020722087 0.012970495910526835 0.05756685020722087
1.3040660929235186E8 0.013099038909348618 0.058410241307631616 0.9869009610906514 -0.058410241307631616 0.9869009610906514 -0.058410241307631616 0.013099038909348618 0.058410241307631616
1.3237462808126101E8 0.013230999404012522 0.059265749906235586 0.9867690005959876 -0.059265749906235586 0.9867690005959876 -0.059265749906235586 0.013230999404012522 0.059265749906235586
1.3437234703624701E8 0.01336647244727567 0.060133540696897574 0.9866335275527242 -0.060133540696897574 0.9866335275527242 -0.060133540696897574 0.01336647244727567 0.060133540696897574
1.364002143745067E8 0.013505555771974334 0.061013780152456086 0.9864944442280257 -0.0610137801524561 0.9864944442280257 -0.0610137801524561 0.013505555771974334 0.061013780152456086
1.3845868507746372E8 0.01364834986417388 0.06190663652081697 0.9863516501358262 -0.06190663652081697 0.9863516501358262 -0.06190663652081697 0.01364834986417388 0.06190663652081697
1.405482209928499E8 0.013794958037922802 0.06281227981949372 0.9862050419620771 -0.06281227981949371 0.9862050419620771 -0.06281227981949371 0.013794958037922802 0.06281227981949372
1.426692909383278E8 0.01394548651159564 0.06373088182852245 0.9860545134884044 -0.06373088182852246 0.9860545134884044 -0.06373088182852246 0.01394548651159564 0.06373088182852245
1.4482237080667645E8 0.014100044485806056 0.06466261608167864 0.985899955514194 -0.06466261608167864 0.985899955514194 -0.06466261608167864 0.014100044485806056 0.06466261608167864
1.4700794367256513E8 0.014258744222869027 0.06560765785592575 0.9857412557771308 -0.06560765785592575 0.9857412557771308 -0.06560765785592575 0.014258744222869027 0.06560765785592575
1.492264999009378E8 0.01442170112778779 0.06656618415902575 0.9855782988722119 -0.06656618415902574 0.9855782988722119 -0.06656618415902574 0.01442170112778779 0.06656618415902575
1.5147853725703382E8 0.014589033830739109 0.06753837371524425 0.9854109661692608 -0.06753837371524427 0.9854109661692608 -0.06753837371524427 0.014589033830739109 0.06753837371524425
1.5376456101806876E8 0.014760864271027649 0.06852440694908346 0.9852391357289723 -0.06852440694908347 0.9852391357289723 -0.06852440694908347 0.014760864271027649 0.06852440694908346
1.5608508408660066E8 0.014937317782478365 0.06952446596697984 0.9850626822175217 -0.06952446596697984 0.9850626822175217 -0.06952446596697984 0.014937317782478365 0.06952446596697984
1.5844062710560706E8 0.015118523180233604 0.07053873453690312 0.9848814768197666 -0.07053873453690312 0.9848814768197666 -0.07053873453690312 0.015118523180233604 0.07053873453690312
1.6083171857529896E8 0.015304612848919916 0.071567398065798 0.9846953871510802 -0.071567398065798 0.9846953871510802 -0.071567398065798 0.015304612848919916 0.071567398065798
1.632588949716973E8 0.015495722832148466 0.07261064357481033 0.9845042771678516 -0.07261064357481033 0.9845042771678516 -0.07261064357481033 0.015495722832148466 0.07261064357481033
1.6572270086699936E8 0.015691992923310895 0.07366865967224265 0.9843080070766892 -0.07366865967224265 0.9843080070766892 -0.07366865967224265 0.015691992923310895 0.07366865967224265
1.6822368905176118E8 0.015893566757632347 0.07474163652418654 0.9841064332423679 -0.07474163652418654 0.9841064332423679 -0.07474163652418654 0.015893566757632347 0.07474163652418654
1.7076242065892437E8 0.016100591905442264 0.07582976582278193 0.9838994080945579 -0.07582976582278193 0.9838994080945579 -0.07582976582278193 0.016100591905442264 0.07582976582278193
1.7333946528971428E8 0.016313219966622793 0.0769332407520548 0.9836867800333773 -0.0769332407520548 0.9836867800333773 -0.0769332407520548 0.016313219966622793 0.0769332407520548
1.7595540114143828E8 0.016531606666195464 0.07805225595128973 0.9834683933338044 -0.07805225595128973 0.9834683933338044 -0.07805225595128973 0.016531606666195464 0.07805225595128973
1.786108151372127E8 0.016755911951005634 0.07918700747589325 0.9832440880489944 -0.07918700747589325 0.9832440880489944 -0.07918700747589325 0.016755911951005634 0.07918700747589325
1.8130630305764765E8 0.01698630008746582 0.08033769275570918 0.9830136999125342 -0.08033769275570918 0.9830136999125342 -0.08033769275570918 0.01698630008746582 0.08033769275570918
1.840424696745189E8 0.01722293976031878 0.08150451055074777 0.9827770602396814 -0.08150451055074777 0.9827770602396814 -0.08150451055074777 0.01722293976031878 0.08150451055074777
1.8681992888645732E8 0.01746600417238283 0.08268766090429365 0.9825339958276171 -0.08268766090429365 0.9825339958276171 -0.08268766090429365 0.01746600417238283 0.08268766090429365
1.8963930385668582E8 0.017715671145242706 0.08388734509336004 0.9822843288547574 -0.08388734509336003 0.9822843288547574 -0.08388734509336003 0.017715671145242706 0.08388734509336004
1.92501227152835E8 0.017972123220850997 0.08510376557645766 0.9820278767791489 -0.08510376557645766 0.9820278767791489 -0.08510376557645766 0.017972123220850997 0.08510376557645766
1.9540634088886917E8 0.018235547764006956 0.08633712593865066 0.9817644522359931 -0.08633712593865066 0.9817644522359931 -0.08633712593865066 0.018235547764006956 0.08633712593865066
1.983552968691535E8 0.018506137065681497 0.08758763083387172 0.9814938629343184 -0.08758763083387172 0.9814938629343184 -0.08758763083387172 0.018506137065681497 0.08758763083387172
2.0134875673469606E8 0.018784088447159567 0.08885548592447196 0.9812159115528405 -0.08885548592447197 0.9812159115528405 -0.08885548592447197 0.018784088447159567 0.08885548592447196
2.0438739211159652E8 0.019069604364973743 0.09014089781798157 0.9809303956350264 -0.09014089781798158 0.9809303956350264 -0.09014089781798158 0.019069604364973743 0.09014089781798157
2.074718847617352E8 0.01936289251660546 0.09144407400105883 0.9806371074833946 -0.09144407400105885 0.9806371074833946 -0.09144407400105885 0.01936289251660546 0.09144407400105883
2.106029267357361E8 0.01966416594693391 0.0927652227706062 0.9803358340530661 -0.0927652227706062 0.9803358340530661 -0.0927652227706062 0.01966416594693391 0.0927652227706062
2.1378122052823865E8 0.01997364315541535 0.09410455316203288 0.9800263568445846 -0.09410455316203287 0.9800263568445846 -0.09410455316203287 0.01997364315541535 0.09410455316203288
2.1700747923551247E8 0.02029154820397987 0.09546227487464423 0.9797084517960203 -0.09546227487464423 0.9797084517960203 -0.09546227487464423 0.02029154820397987 0.09546227487464423
2.2028242671545094E8 0.02061811082563582 0.09683859819413751 0.9793818891743641 -0.09683859819413751 0.9793818891743641 -0.09683859819413751 0.02061811082563582 0.09683859819413751
2.23606797749979E8 0.020953566533776773 0.09823373391218489 0.9790464334662232 -0.09823373391218489 0.9790464334662232 -0.09823373391218489 0.020953566533776773 0.09823373391218489
2.2698133820991236E8 0.02129815673218989 0.09964789324308294 0.9787018432678101 -0.09964789324308292 0.9787018432678101 -0.09964789324308292 0.02129815673218989 0.09964789324308294
2.3040680522230446E8 0.0216521288257691 0.10108128773744776 0.9783478711742308 -0.10108128773744778 0.9783478711742308 -0.10108128773744778 0.0216521288257691 0.10108128773744776
2.338839673403185E8 0.022015736331941566 0.10253412919293362 0.9779842636680586 -0.10253412919293362 0.9779842636680586 -0.10253412919293362 0.022015736331941566 0.10253412919293362
2.37413604715664E8 0.02238923899282043 0.10400662956195048 0.9776107610071795 -0.10400662956195048 0.9776107610071795 -0.10400662956195048 0.02238923899282043 0.10400662956195048
2.4099650927363476E8 0.02277290288810285 0.10549900085635668 0.9772270971118973 -0.10549900085635668 0.9772270971118973 -0.10549900085635668 0.02277290288810285 0.10549900085635668
2.446334848907889E8 0.023167000548736483 0.10701145504909503 0.9768329994512636 -0.10701145504909503 0.9768329994512636 -0.10701145504909503 0.023167000548736483 0.10701145504909503
