!Murata Part Number: LQP02TQ1N9B02
!These Parameters are Measured in Series Mode Connection
!       o--[Z]--o
!Port1              Port2
!       o-------o
!
!Freq. Start=50[MHz] Stop=20[GHz], 401[Steps]
# Hz S RI R 50
!Freq.(Hz) S11(Real) S11(Imag) S21(Real) S21(Imag) S12(Real) S12(Imag) S22(Real) S22(Imag)
5.0E7 0.00195464837695794 0.006752414400671245 0.9980453516230421 -0.006752414400671247 0.9980453516230421 -0.006752414400671247 0.00195464837695794 0.006752414400671245
5.0754570186123446E7 0.0019595449793073073 0.006853469051214723 0.9980404550206929 -0.006853469051214723 0.9980404550206929 -0.006853469051214723 0.0019595449793073073 0.006853469051214723
5.152052789556263E7 0.001964578477438675 0.00695601283970865 0.9980354215225614 -0.00695601283970865 0.9980354215225614 -0.00695601283970865 0.001964578477438675 0.00695601283970865
5.229804498202928E7 0.0019697523636495154 0.007060066809711469 0.9980302476363505 -0.007060066809711469 0.9980302476363505 -0.007060066809711469 0.0019697523636495154 0.007060066809711469
5.308729589274893E7 0.001975070201072699 0.007165652271913036 0.9980249297989272 -0.007165652271913038 0.9980249297989272 -0.007165652271913038 0.001975070201072699 0.007165652271913036
5.388845770760058E7 0.0019805356241443233 0.007272790806842751 0.9980194643758556 -0.007272790806842751 0.9980194643758556 -0.007272790806842751 0.0019805356241443233 0.007272790806842751
5.470171017884717E7 0.001986152339020438 0.007381504267616976 0.9980138476609796 -0.007381504267616976 0.9980138476609796 -0.007381504267616976 0.001986152339020438 0.007381504267616976
5.5527235771465644E7 0.0019919241239398366 0.007491814782729163 0.9980080758760601 -0.007491814782729163 0.9980080758760601 -0.007491814782729163 0.0019919241239398366 0.007491814782729163
5.6365219704085544E7 0.0019978548295301385 0.007603744758886503 0.9980021451704698 -0.007603744758886503 0.9980021451704698 -0.007603744758886503 0.0019978548295301385 0.007603744758886503
5.721584999054556E7 0.0020039483790544065 0.007717316883897122 0.9979960516209456 -0.007717316883897122 0.9979960516209456 -0.007717316883897122 0.0020039483790544065 0.007717316883897122
5.807931748207712E7 0.0020102087685955365 0.007832554129612186 0.9979897912314044 -0.007832554129612186 0.9979897912314044 -0.007832554129612186 0.0020102087685955365 0.007832554129612186
5.8955815910124585E7 0.002016640067175795 0.007949479754927592 0.9979833599328242 -0.007949479754927592 0.9979833599328242 -0.007949479754927592 0.002016640067175795 0.007949479754927592
5.984554192981184E7 0.0020232464168088754 0.008068117308850261 0.997976753583191 -0.008068117308850263 0.997976753583191 -0.008068117308850263 0.0020232464168088754 0.008068117308850261
6.074869516406457E7 0.0020300320324819978 0.008188490633634303 0.9979699679675181 -0.008188490633634304 0.9979699679675181 -0.008188490633634304 0.0020300320324819978 0.008188490633634303
6.166547824839868E7 0.0020370012020656633 0.008310623867992795 0.9979629987979344 -0.008310623867992795 0.9979629987979344 -0.008310623867992795 0.0020370012020656633 0.008310623867992795
6.2596096876384385E7 0.002044158286148838 0.008434541450391181 0.9979558417138511 -0.008434541450391181 0.9979558417138511 -0.008434541450391181 0.002044158286148838 0.008434541450391181
6.354075984579668E7 0.002051507717797474 0.008560268122428683 0.9979484922822024 -0.008560268122428683 0.9979484922822024 -0.008560268122428683 0.002051507717797474 0.008560268122428683
6.449967910546205E7 0.0020590540022344945 0.008687828932314475 0.9979409459977654 -0.008687828932314475 0.9979409459977654 -0.008687828932314475 0.0020590540022344945 0.008687828932314475
6.547306980281226E7 0.0020668017164395805 0.008817249238445785 0.9979331982835604 -0.008817249238445785 0.9979331982835604 -0.008817249238445785 0.0020668017164395805 0.008817249238445785
6.646115033215589E7 0.0020747555086673346 0.008948554713095426 0.9979252444913329 -0.008948554713095426 0.9979252444913329 -0.008948554713095426 0.0020747555086673346 0.008948554713095426
6.746414238367817E7 0.002082920097882687 0.009081771346216636 0.9979170799021173 -0.009081771346216636 0.9979170799021173 -0.009081771346216636 0.002082920097882687 0.009081771346216636
6.848227099318038E7 0.0020913002731127073 0.009216925449373536 0.9979086997268874 -0.009216925449373537 0.9979086997268874 -0.009216925449373537 0.0020913002731127073 0.009216925449373536
6.951576459256999E7 0.00209990089271434 0.009354043659805864 0.9979000991072856 -0.009354043659805864 0.9979000991072856 -0.009354043659805864 0.00209990089271434 0.009354043659805864
7.056485506111258E7 0.0021087268835579516 0.009493152944636967 0.997891273116442 -0.009493152944636967 0.997891273116442 -0.009493152944636967 0.0021087268835579516 0.009493152944636967
7.162977777745734E7 0.002117783240127004 0.009634280605234566 0.997882216759873 -0.009634280605234566 0.997882216759873 -0.009634280605234566 0.002117783240127004 0.009634280605234566
7.271077167244768E7 0.002127075023534591 0.009777454281733955 0.9978729249764653 -0.009777454281733955 0.9978729249764653 -0.009777454281733955 0.002127075023534591 0.009777454281733955
7.380807928272885E7 0.002136607360458112 0.009922701957733844 0.9978633926395419 -0.009922701957733844 0.9978633926395419 -0.009922701957733844 0.002136607360458112 0.009922701957733844
7.492194680516452E7 0.002146385441993836 0.01007005196517526 0.9978536145580063 -0.010070051965175261 0.9978536145580063 -0.010070051965175261 0.002146385441993836 0.01007005196517526
7.60526241520746E7 0.0021564145224337223 0.010219532989414335 0.9978435854775662 -0.010219532989414335 0.9978435854775662 -0.010219532989414335 0.0021564145224337223 0.010219532989414335
7.720036500730675E7 0.002166699917967446 0.01037117407450005 0.9978333000820326 -0.010371174074500049 0.9978333000820326 -0.010371174074500049 0.002166699917967446 0.01037117407450005
7.836542688315398E7 0.0021772470053132253 0.010525004628668296 0.9978227529946868 -0.010525004628668297 0.9978227529946868 -0.010525004628668297 0.0021772470053132253 0.010525004628668296
7.954807117813127E7 0.0021880612202817757 0.010681054430063909 0.9978119387797182 -0.010681054430063907 0.9978119387797182 -0.010681054430063907 0.0021880612202817757 0.010681054430063909
8.074856323562416E7 0.0021991480562784053 0.010839353632702463 0.9978008519437215 -0.010839353632702465 0.9978008519437215 -0.010839353632702465 0.0021991480562784053 0.010839353632702463
8.196717240342227E7 0.002210513062749063 0.010999932772683916 0.997789486937251 -0.010999932772683916 0.997789486937251 -0.010999932772683916 0.002210513062749063 0.010999932772683916
8.320417209415154E7 0.002222161843576955 0.011162822774670208 0.9977778381564232 -0.011162822774670208 0.9977778381564232 -0.011162822774670208 0.002222161843576955 0.011162822774670208
8.445983984661816E7 0.002234100055437213 0.011328054958639151 0.9977658999445628 -0.011328054958639151 0.9977658999445628 -0.011328054958639151 0.002234100055437213 0.011328054958639151
8.573445738807854E7 0.0022463334061179506 0.011495661046926868 0.997753666593882 -0.011495661046926868 0.997753666593882 -0.011495661046926868 0.0022463334061179506 0.011495661046926868
8.702831069744885E7 0.002258867652816999 0.011665673171571155 0.997741132347183 -0.011665673171571155 0.997741132347183 -0.011665673171571155 0.002258867652816999 0.011665673171571155
8.834169006946853E7 0.002271708600424571 0.011838123881968024 0.9977282913995754 -0.011838123881968024 0.9977282913995754 -0.011838123881968024 0.002271708600424571 0.011838123881968024
8.96748901798321E7 0.0022848620998030295 0.012013046152853545 0.997715137900197 -0.012013046152853545 0.997715137900197 -0.012013046152853545 0.0022848620998030295 0.012013046152853545
9.1028210151304E7 0.002298334046076046 0.012190473392623018 0.997701665953924 -0.012190473392623016 0.997701665953924 -0.012190473392623016 0.002298334046076046 0.012190473392623018
9.240195362083109E7 0.002312130376940364 0.012370439451999124 0.9976878696230597 -0.012370439451999124 0.9976878696230597 -0.012370439451999124 0.002312130376940364 0.012370439451999124
9.379642880766791E7 0.0023262570710145002 0.01255297863306049 0.9976737429289856 -0.012552978633060489 0.9976737429289856 -0.012552978633060489 0.0023262570710145002 0.01255297863306049
9.521194858253023E7 0.002340720146239767 0.012738125698641587 0.99765927985376 -0.012738125698641585 0.99765927985376 -0.012738125698641585 0.002340720146239767 0.012738125698641587
9.664883053779216E7 0.00235552565835005 0.01292591588211456 0.99764447434165 -0.01292591588211456 0.99764447434165 -0.01292591588211456 0.00235552565835005 0.01292591588211456
9.810739705874248E7 0.0023706796994278677 0.013116384897562767 0.9976293203005722 -0.013116384897562767 0.9976293203005722 -0.013116384897562767 0.0023706796994278677 0.013116384897562767
9.958797539591652E7 0.002386188396565315 0.013309568950355377 0.9976138116034347 -0.013309568950355377 0.9976138116034347 -0.013309568950355377 0.002386188396565315 0.013309568950355377
1.0109089773851961E8 0.0024020579106495423 0.013505504748131551 0.9975979420893504 -0.013505504748131551 0.9975979420893504 -0.013505504748131551 0.0024020579106495423 0.013505504748131551
1.0261650128895843E8 0.0024182944352934394 0.013704229512201732 0.9975817055647066 -0.013704229512201732 0.9975817055647066 -0.013704229512201732 0.0024182944352934394 0.013704229512201732
1.0416512833849736E8 0.002434904195933261 0.013905780989372892 0.9975650958040669 -0.013905780989372892 0.9975650958040669 -0.013905780989372892 0.002434904195933261 0.013905780989372892
1.0573712634405641E8 0.002451893449115861 0.01411019746420333 0.9975481065508841 -0.01411019746420333 0.9975481065508841 -0.01411019746420333 0.002451893449115861 0.01411019746420333
1.0733284800616828E8 0.002469268481999156 0.014317517771691586 0.9975307315180009 -0.014317517771691587 0.9975307315180009 -0.014317517771691587 0.002469268481999156 0.014317517771691586
1.0895265134811176E8 0.0024870356120903236 0.014527781310402738 0.9975129643879097 -0.014527781310402738 0.9975129643879097 -0.014527781310402738 0.0024870356120903236 0.014527781310402738
1.1059689979623953E8 0.002505201187247061 0.014741028056034083 0.9974947988127528 -0.014741028056034082 0.9974947988127528 -0.014741028056034082 0.002505201187247061 0.014741028056034083
1.1226596226151802E8 0.002523771585967988 0.014957298575420797 0.9974762284140319 -0.014957298575420797 0.9974762284140319 -0.014957298575420797 0.002523771585967988 0.014957298575420797
1.1396021322229806E8 0.0025427532179989145 0.015176634040980507 0.997457246782001 -0.015176634040980507 0.997457246782001 -0.015176634040980507 0.0025427532179989145 0.015176634040980507
1.1568003280833441E8 0.0025621525252823296 0.015399076245594327 0.9974378474747175 -0.015399076245594327 0.9974378474747175 -0.015399076245594327 0.0025621525252823296 0.015399076245594327
1.1742580688607343E8 0.00258197598327788 0.015624667617920033 0.9974180240167222 -0.015624667617920033 0.9974180240167222 -0.015624667617920033 0.00258197598327788 0.015624667617920033
1.1919792714522783E8 0.0026022301026820396 0.015853451238131446 0.9973977698973181 -0.015853451238131446 0.9973977698973181 -0.015853451238131446 0.0026022301026820396 0.015853451238131446
1.2099679118665792E8 0.0026229214315753547 0.01608547085407616 0.9973770785684248 -0.01608547085407616 0.9973770785684248 -0.01608547085407616 0.0026229214315753547 0.01608547085407616
1.2282280261157903E8 0.00264405655802585 0.016320770897841962 0.9973559434419741 -0.016320770897841962 0.9973559434419741 -0.016320770897841962 0.00264405655802585 0.016320770897841962
1.2467637111211549E8 0.0026656421131770625 0.016559396502720203 0.9973343578868229 -0.016559396502720206 0.9973343578868229 -0.016559396502720206 0.0026656421131770625 0.016559396502720203
1.265579125632208E8 0.002687684774849102 0.016801393520552592 0.997312315225151 -0.016801393520552592 0.997312315225151 -0.016801393520552592 0.002687684774849102 0.016801393520552592
1.284678491159853E8 0.002710191271680765 0.017046808539445683 0.9972898087283194 -0.017046808539445683 0.9972898087283194 -0.017046808539445683 0.002710191271680765 0.017046808539445683
1.3040660929235186E8 0.002733168387840285 0.01729568890183556 0.9972668316121596 -0.01729568890183556 0.9972668316121596 -0.01729568890183556 0.002733168387840285 0.01729568890183556
1.3237462808126101E8 0.0027566229683316165 0.01754808272288274 0.9972433770316683 -0.017548082722882736 0.9972433770316683 -0.017548082722882736 0.0027566229683316165 0.01754808272288274
1.3437234703624701E8 0.0027805619249224194 0.01780403890917583 0.9972194380750775 -0.01780403890917583 0.9972194380750775 -0.01780403890917583 0.0027805619249224194 0.01780403890917583
1.364002143745067E8 0.002804992242718843 0.018063607177720084 0.9971950077572812 -0.018063607177720084 0.9971950077572812 -0.018063607177720084 0.002804992242718843 0.018063607177720084
1.3845868507746372E8 0.0028299209874111165 0.0183268380751852 0.9971700790125889 -0.0183268380751852 0.9971700790125889 -0.0183268380751852 0.0028299209874111165 0.0183268380751852
1.405482209928499E8 0.0028553553132125847 0.018593782997384706 0.9971446446867875 -0.018593782997384706 0.9971446446867875 -0.018593782997384706 0.0028553553132125847 0.018593782997384706
1.426692909383278E8 0.0028813024715133393 0.018864494208957597 0.9971186975284866 -0.0188644942089576 0.9971186975284866 -0.0188644942089576 0.0028813024715133393 0.018864494208957597
1.4482237080667645E8 0.0029077698202679306 0.019139024863221013 0.9970922301797318 -0.019139024863221013 0.9970922301797318 -0.019139024863221013 0.0029077698202679306 0.019139024863221013
1.4700794367256513E8 0.002934764834134735 0.01941742902216103 0.9970652351658651 -0.01941742902216103 0.9970652351658651 -0.01941742902216103 0.002934764834134735 0.01941742902216103
1.492264999009378E8 0.0029622951153826576 0.019699761676527407 0.9970377048846172 -0.019699761676527403 0.9970377048846172 -0.019699761676527403 0.0029622951153826576 0.019699761676527407
1.5147853725703382E8 0.0029903684055785852 0.019986078765996503 0.9970096315944216 -0.019986078765996503 0.9970096315944216 -0.019986078765996503 0.0029903684055785852 0.019986078765996503
1.5376456101806876E8 0.0030189925980667505 0.020276437199365324 0.9969810074019332 -0.020276437199365328 0.9969810074019332 -0.020276437199365328 0.0030189925980667505 0.020276437199365324
1.5608508408660066E8 0.00304817575124875 0.020570894874739 0.9969518242487512 -0.020570894874738996 0.9969518242487512 -0.020570894874738996 0.00304817575124875 0.020570894874739
1.5844062710560706E8 0.0030779261026703305 0.020869510699672435 0.9969220738973296 -0.020869510699672435 0.9969220738973296 -0.020869510699672435 0.0030779261026703305 0.020869510699672435
1.6083171857529896E8 0.0031082520839185008 0.021172344611227148 0.9968917479160816 -0.021172344611227148 0.9968917479160816 -0.021172344611227148 0.0031082520839185008 0.021172344611227148
1.632588949716973E8 0.003139162336329665 0.02147945759590282 0.9968608376636704 -0.021479457595902817 0.9968608376636704 -0.021479457595902817 0.003139162336329665 0.02147945759590282
1.6572270086699936E8 0.0031706657275067697 0.02179091170940386 0.9968293342724933 -0.021790911709403865 0.9968293342724933 -0.021790911709403865 0.0031706657275067697 0.02179091170940386
1.6822368905176118E8 0.003202771368640483 0.022106770096200528 0.9967972286313596 -0.022106770096200528 0.9967972286313596 -0.022106770096200528 0.003202771368640483 0.022106770096200528
1.7076242065892437E8 0.0032354886326265877 0.022427097008844755 0.9967645113673733 -0.022427097008844755 0.9967645113673733 -0.022427097008844755 0.0032354886326265877 0.022427097008844755
1.7333946528971428E8 0.003268827172968875 0.022751957827001512 0.9967311728270312 -0.022751957827001512 0.9967311728270312 -0.022751957827001512 0.003268827172968875 0.022751957827001512
1.7595540114143828E8 0.003302796943453836 0.02308141907615668 0.996697203056546 -0.02308141907615668 0.996697203056546 -0.02308141907615668 0.003302796943453836 0.02308141907615668
1.786108151372127E8 0.0033374082185807573 0.023415548445964288 0.9966625917814191 -0.023415548445964284 0.9966625917814191 -0.023415548445964284 0.0033374082185807573 0.023415548445964288
1.8130630305764765E8 0.0033726716147278327 0.023754414808196237 0.9966273283852721 -0.023754414808196234 0.9966273283852721 -0.023754414808196234 0.0033726716147278327 0.023754414808196237
1.840424696745189E8 0.0034085981120323813 0.024098088234260167 0.9965914018879676 -0.024098088234260167 0.9965914018879676 -0.024098088234260167 0.0034085981120323813 0.024098088234260167
1.8681992888645732E8 0.003445199076960499 0.024446640012251917 0.9965548009230395 -0.024446640012251917 0.9965548009230395 -0.024446640012251917 0.003445199076960499 0.024446640012251917
1.8963930385668582E8 0.0034824862855391435 0.024800142663511913 0.9965175137144608 -0.024800142663511913 0.9965175137144608 -0.024800142663511913 0.0034824862855391435 0.024800142663511913
1.92501227152835E8 0.003520471947221204 0.025158669958656277 0.9964795280527787 -0.025158669958656277 0.9964795280527787 -0.025158669958656277 0.003520471947221204 0.025158669958656277
1.9540634088886917E8 0.0035591687293520524 0.025522296933056368 0.9964408312706479 -0.025522296933056368 0.9964408312706479 -0.025522296933056368 0.0035591687293520524 0.025522296933056368
1.983552968691535E8 0.0035985897822040855 0.025891099901742924 0.9964014102177958 -0.025891099901742924 0.9964014102177958 -0.025891099901742924 0.0035985897822040855 0.025891099901742924
2.0134875673469606E8 0.0036387487645440555 0.026265156473713858 0.9963612512354558 -0.026265156473713858 0.9963612512354558 -0.026265156473713858 0.0036387487645440555 0.026265156473713858
2.0438739211159652E8 0.0036796598696964564 0.02664454556562765 0.9963203401303036 -0.02664454556562765 0.9963203401303036 -0.02664454556562765 0.0036796598696964564 0.02664454556562765
2.074718847617352E8 0.003721337852064975 0.02702934741486737 0.996278662147935 -0.02702934741486736 0.996278662147935 -0.02702934741486736 0.003721337852064975 0.02702934741486737
2.106029267357361E8 0.003763798054073078 0.027419643591963826 0.9962362019459269 -0.027419643591963833 0.9962362019459269 -0.027419643591963833 0.003763798054073078 0.027419643591963826
2.1378122052823865E8 0.0038070564334839897 0.027815517012369548 0.996192943566516 -0.027815517012369548 0.996192943566516 -0.027815517012369548 0.0038070564334839897 0.027815517012369548
2.1700747923551247E8 0.0038511295910599267 0.02821705194757845 0.9961488704089398 -0.02821705194757845 0.9961488704089398 -0.02821705194757845 0.0038511295910599267 0.02821705194757845
2.2028242671545094E8 0.003896034798520246 0.028624334035590043 0.9961039652014796 -0.028624334035590043 0.9961039652014796 -0.028624334035590043 0.003896034798520246 0.028624334035590043
2.23606797749979E8 0.003941790026758344 0.029037450290720034 0.9960582099732413 -0.029037450290720034 0.9960582099732413 -0.029037450290720034 0.003941790026758344 0.029037450290720034
2.2698133820991236E8 0.0039884139742775125 0.029456489112763117 0.9960115860257225 -0.029456489112763117 0.9960115860257225 -0.029456489112763117 0.0039884139742775125 0.029456489112763117
2.3040680522230446E8 0.00403592609580657 0.02988154029551641 0.9959640739041935 -0.029881540295516415 0.9959640739041935 -0.029881540295516415 0.00403592609580657 0.02988154029551641
2.338839673403185E8 0.004084346631057294 0.030312695034676658 0.9959156533689425 -0.03031269503467665 0.9959156533689425 -0.03031269503467665 0.004084346631057294 0.030312695034676658
2.37413604715664E8 0.004133696633586633 0.030750045935126213 0.9958663033664132 -0.03075004593512621 0.9958663033664132 -0.03075004593512621 0.004133696633586633 0.030750045935126213
