!Murata Part Number: LQP02TQ2N1B02
!These Parameters are Measured in Series Mode Connection
!       o--[Z]--o
!Port1              Port2
!       o-------o
!
!Freq. Start=50[MHz] Stop=20[GHz], 401[Steps]
# Hz S RI R 50
!Freq.(Hz) S11(Real) S11(Imag) S21(Real) S21(Imag) S12(Real) S12(Imag) S22(Real) S22(Imag)
5.0E7 0.002141100740003264 0.0074409527258129035 0.9978588992599967 -0.007440952725812902 0.9978588992599967 -0.007440952725812902 0.002141100740003264 0.0074409527258129035
5.0754570186123446E7 0.002147082468393785 0.0075520862918671185 0.9978529175316061 -0.007552086291867118 0.9978529175316061 -0.007552086291867118 0.002147082468393785 0.0075520862918671185
5.152052789556263E7 0.0021532280886746797 0.007664848774361257 0.9978467719113253 -0.007664848774361257 0.9978467719113253 -0.007664848774361257 0.0021532280886746797 0.007664848774361257
5.229804498202928E7 0.0021595415990944343 0.007779262898885601 0.9978404584009055 -0.007779262898885602 0.9978404584009055 -0.007779262898885602 0.0021595415990944343 0.007779262898885601
5.308729589274893E7 0.002166027069258857 0.007895351672956597 0.9978339729307412 -0.007895351672956597 0.9978339729307412 -0.007895351672956597 0.002166027069258857 0.007895351672956597
5.388845770760058E7 0.002172688640055238 0.008013138388997264 0.9978273113599447 -0.008013138388997264 0.9978273113599447 -0.008013138388997264 0.002172688640055238 0.008013138388997264
5.470171017884717E7 0.002179530523500044 0.008132646627389602 0.9978204694764998 -0.0081326466273896 0.9978204694764998 -0.0081326466273896 0.002179530523500044 0.008132646627389602
5.5527235771465644E7 0.0021865570025076365 0.008253900259605044 0.9978134429974923 -0.008253900259605044 0.9978134429974923 -0.008253900259605044 0.0021865570025076365 0.008253900259605044
5.6365219704085544E7 0.0021937724305776123 0.008376923451419379 0.9978062275694224 -0.008376923451419379 0.9978062275694224 -0.008376923451419379 0.0021937724305776123 0.008376923451419379
5.721584999054556E7 0.002201181231398642 0.008501740666219058 0.9977988187686013 -0.00850174066621906 0.9977988187686013 -0.00850174066621906 0.002201181231398642 0.008501740666219058
5.807931748207712E7 0.0022087878983667467 0.008628376668405963 0.9977912121016334 -0.008628376668405963 0.9977912121016334 -0.008628376668405963 0.0022087878983667467 0.008628376668405963
5.8955815910124585E7 0.0022165969940163644 0.008756856526908401 0.9977834030059837 -0.008756856526908401 0.9977834030059837 -0.008756856526908401 0.0022165969940163644 0.008756856526908401
5.984554192981184E7 0.0022246131493626766 0.008887205618806293 0.9977753868506373 -0.008887205618806293 0.9977753868506373 -0.008887205618806293 0.0022246131493626766 0.008887205618806293
6.074869516406457E7 0.002232841063154068 0.009019449633078946 0.9977671589368459 -0.009019449633078946 0.9977671589368459 -0.009019449633078946 0.002232841063154068 0.009019449633078946
6.166547824839868E7 0.002241285501033897 0.009153614574484327 0.9977587144989662 -0.009153614574484327 0.9977587144989662 -0.009153614574484327 0.002241285501033897 0.009153614574484327
6.2596096876384385E7 0.0022499512946111523 0.009289726767579064 0.9977500487053889 -0.009289726767579064 0.9977500487053889 -0.009289726767579064 0.0022499512946111523 0.009289726767579064
6.354075984579668E7 0.002258843340439945 0.009427812860888781 0.9977411566595601 -0.009427812860888781 0.9977411566595601 -0.009427812860888781 0.002258843340439945 0.009427812860888781
6.449967910546205E7 0.002267966598908296 0.009567899831238827 0.9977320334010916 -0.009567899831238827 0.9977320334010916 -0.009567899831238827 0.002267966598908296 0.009567899831238827
6.547306980281226E7 0.002277326093037146 0.00971001498825586 0.9977226739069627 -0.009710014988255859 0.9977226739069627 -0.009710014988255859 0.002277326093037146 0.00971001498825586
6.646115033215589E7 0.0022869269071910366 0.009854185979050988 0.9977130730928089 -0.00985418597905099 0.9977130730928089 -0.00985418597905099 0.0022869269071910366 0.009854185979050988
6.746414238367817E7 0.002296774185702544 0.010000440793095715 0.9977032258142975 -0.010000440793095715 0.9977032258142975 -0.010000440793095715 0.002296774185702544 0.010000440793095715
6.848227099318038E7 0.0023068731314131214 0.01014880776730208 0.997693126868587 -0.01014880776730208 0.997693126868587 -0.01014880776730208 0.0023068731314131214 0.01014880776730208
6.951576459256999E7 0.002317229004133681 0.01029931559131884 0.9976827709958663 -0.01029931559131884 0.9976827709958663 -0.01029931559131884 0.002317229004133681 0.01029931559131884
7.056485506111258E7 0.002327847119029025 0.010451993313055727 0.9976721528809709 -0.010451993313055727 0.9976721528809709 -0.010451993313055727 0.002327847119029025 0.010451993313055727
7.162977777745734E7 0.0023387328449308597 0.010606870344448089 0.9976612671550691 -0.010606870344448089 0.9976612671550691 -0.010606870344448089 0.0023387328449308597 0.010606870344448089
7.271077167244768E7 0.0023498916025850884 0.010763976467474526 0.997650108397415 -0.010763976467474526 0.997650108397415 -0.010763976467474526 0.0023498916025850884 0.010763976467474526
7.380807928272885E7 0.0023613288628397885 0.0109233418404401 0.9976386711371602 -0.0109233418404401 0.9976386711371602 -0.0109233418404401 0.0023613288628397885 0.0109233418404401
7.492194680516452E7 0.0023730501447812337 0.01108499700453806 0.9976269498552188 -0.01108499700453806 0.9976269498552188 -0.01108499700453806 0.0023730501447812337 0.01108499700453806
7.60526241520746E7 0.0023850610138262374 0.011248972890702948 0.9976149389861736 -0.01124897289070295 0.9976149389861736 -0.01124897289070295 0.0023850610138262374 0.011248972890702948
7.720036500730675E7 0.0023973670797800394 0.011415300826768008 0.9976026329202199 -0.011415300826768006 0.9976026329202199 -0.011415300826768006 0.0023973670797800394 0.011415300826768008
7.836542688315398E7 0.0024099739948699765 0.011584012544939789 0.99759002600513 -0.01158401254493979 0.99759002600513 -0.01158401254493979 0.0024099739948699765 0.011584012544939789
7.954807117813127E7 0.002422887451766196 0.011755140189602815 0.9975771125482339 -0.011755140189602815 0.9975771125482339 -0.011755140189602815 0.002422887451766196 0.011755140189602815
8.074856323562416E7 0.0024361131816017473 0.01192871632546678 0.9975638868183982 -0.011928716325466781 0.9975638868183982 -0.011928716325466781 0.0024361131816017473 0.01192871632546678
8.196717240342227E7 0.002449656952005456 0.012104773946068823 0.9975503430479946 -0.012104773946068823 0.9975503430479946 -0.012104773946068823 0.002449656952005456 0.012104773946068823
8.320417209415154E7 0.0024635245651620976 0.012283346482642806 0.9975364754348378 -0.012283346482642806 0.9975364754348378 -0.012283346482642806 0.0024635245651620976 0.012283346482642806
8.445983984661816E7 0.0024777218559155225 0.012464467813367259 0.9975222781440845 -0.012464467813367259 0.9975222781440845 -0.012464467813367259 0.0024777218559155225 0.012464467813367259
8.573445738807854E7 0.0024922546899315045 0.012648172273003234 0.9975077453100684 -0.012648172273003234 0.9975077453100684 -0.012648172273003234 0.0024922546899315045 0.012648172273003234
8.702831069744885E7 0.0025071289619381988 0.012834494662932409 0.9974928710380618 -0.012834494662932409 0.9974928710380618 -0.012834494662932409 0.0025071289619381988 0.012834494662932409
8.834169006946853E7 0.002522350594063288 0.013023470261605608 0.9974776494059366 -0.013023470261605608 0.9974776494059366 -0.013023470261605608 0.002522350594063288 0.013023470261605608
8.96748901798321E7 0.0025379255342879363 0.013215134835410543 0.9974620744657121 -0.013215134835410543 0.9974620744657121 -0.013215134835410543 0.0025379255342879363 0.013215134835410543
9.1028210151304E7 0.002553859755038833 0.013409524649967227 0.9974461402449611 -0.013409524649967227 0.9974461402449611 -0.013409524649967227 0.002553859755038833 0.013409524649967227
9.240195362083109E7 0.0025701592519406435 0.013606676481858088 0.9974298407480594 -0.013606676481858088 0.9974298407480594 -0.013606676481858088 0.0025701592519406435 0.013606676481858088
9.379642880766791E7 0.0025868300427522666 0.01380662763079919 0.9974131699572479 -0.01380662763079919 0.9974131699572479 -0.01380662763079919 0.0025868300427522666 0.01380662763079919
9.521194858253023E7 0.002603878166511196 0.014009415932257135 0.9973961218334888 -0.014009415932257135 0.9973961218334888 -0.014009415932257135 0.002603878166511196 0.014009415932257135
9.664883053779216E7 0.0026213096829113473 0.014215079770515808 0.9973786903170887 -0.014215079770515808 0.9973786903170887 -0.014215079770515808 0.0026213096829113473 0.014215079770515808
9.810739705874248E7 0.0026391306719404646 0.014423658092194768 0.9973608693280595 -0.014423658092194768 0.9973608693280595 -0.014423658092194768 0.0026391306719404646 0.014423658092194768
9.958797539591652E7 0.0026573472338040564 0.014635190420220375 0.9973426527661959 -0.014635190420220375 0.9973426527661959 -0.014635190420220375 0.0026573472338040564 0.014635190420220375
1.0109089773851961E8 0.0026759654891635523 0.014849716868248696 0.9973240345108364 -0.014849716868248696 0.9973240345108364 -0.014849716868248696 0.0026759654891635523 0.014849716868248696
1.0261650128895843E8 0.0026949915797168885 0.01506727815553778 0.9973050084202832 -0.01506727815553778 0.9973050084202832 -0.01506727815553778 0.0026949915797168885 0.01506727815553778
1.0416512833849736E8 0.0027144316691503343 0.015287915622264982 0.9972855683308498 -0.015287915622264982 0.9972855683308498 -0.015287915622264982 0.0027144316691503343 0.015287915622264982
1.0573712634405641E8 0.002734291944490652 0.01551167124528325 0.9972657080555095 -0.015511671245283251 0.9972657080555095 -0.015511671245283251 0.002734291944490652 0.01551167124528325
1.0733284800616828E8 0.0027545786178870164 0.01573858765430836 0.9972454213821128 -0.01573858765430836 0.9972454213821128 -0.01573858765430836 0.0027545786178870164 0.01573858765430836
1.0895265134811176E8 0.0027752979288521865 0.015968708148527095 0.9972247020711479 -0.01596870814852709 0.9972247020711479 -0.01596870814852709 0.0027752979288521865 0.015968708148527095
1.1059689979623953E8 0.0027964561469923767 0.016202076713614216 0.9972035438530077 -0.016202076713614216 0.9972035438530077 -0.016202076713614216 0.0027964561469923767 0.016202076713614216
1.1226596226151802E8 0.002818059575255159 0.016438738039144304 0.9971819404247448 -0.016438738039144307 0.9971819404247448 -0.016438738039144307 0.002818059575255159 0.016438738039144304
1.1396021322229806E8 0.002840114553724265 0.016678737536382014 0.9971598854462759 -0.016678737536382014 0.9971598854462759 -0.016678737536382014 0.002840114553724265 0.016678737536382014
1.1568003280833441E8 0.002862627463989744 0.016922121356432444 0.9971373725360102 -0.016922121356432444 0.9971373725360102 -0.016922121356432444 0.002862627463989744 0.016922121356432444
1.1742580688607343E8 0.0028856047341211566 0.017168936408731295 0.9971143952658789 -0.017168936408731295 0.9971143952658789 -0.017168936408731295 0.0028856047341211566 0.017168936408731295
1.1919792714522783E8 0.0029090528442706344 0.017419230379851925 0.9970909471557295 -0.01741923037985193 0.9970909471557295 -0.01741923037985193 0.0029090528442706344 0.017419230379851925
1.2099679118665792E8 0.0029329783329315653 0.017673051752604804 0.9970670216670683 -0.017673051752604807 0.9970670216670683 -0.017673051752604807 0.0029329783329315653 0.017673051752604804
1.2282280261157903E8 0.00295738780387747 0.017930449825402633 0.9970426121961226 -0.01793044982540263 0.9970426121961226 -0.01793044982540263 0.00295738780387747 0.017930449825402633
1.2467637111211549E8 0.0029822879338040776 0.018191474731862268 0.997017712066196 -0.018191474731862268 0.997017712066196 -0.018191474731862268 0.0029822879338040776 0.018191474731862268
1.265579125632208E8 0.0030076854806961833 0.018456177460613118 0.9969923145193038 -0.018456177460613118 0.9969923145193038 -0.018456177460613118 0.0030076854806961833 0.018456177460613118
1.284678491159853E8 0.0030335872929388584 0.018724609875279286 0.9969664127070612 -0.018724609875279286 0.9969664127070612 -0.018724609875279286 0.0030335872929388584 0.018724609875279286
1.3040660929235186E8 0.0030600003191908385 0.018996824734601715 0.9969399996808092 -0.018996824734601715 0.9969399996808092 -0.018996824734601715 0.0030600003191908385 0.018996824734601715
1.3237462808126101E8 0.0030869316190355964 0.019272875712664433 0.9969130683809644 -0.019272875712664433 0.9969130683809644 -0.019272875712664433 0.0030869316190355964 0.019272875712664433
1.3437234703624701E8 0.003114388374423461 0.019552817419188205 0.9968856116255765 -0.019552817419188205 0.9968856116255765 -0.019552817419188205 0.003114388374423461 0.019552817419188205
1.364002143745067E8 0.00314237790191557 0.019836705419852992 0.9968576220980844 -0.019836705419852992 0.9968576220980844 -0.019836705419852992 0.00314237790191557 0.019836705419852992
1.3845868507746372E8 0.003170907665738022 0.02012459625661039 0.9968290923342618 -0.02012459625661039 0.9968290923342618 -0.02012459625661039 0.003170907665738022 0.02012459625661039
1.405482209928499E8 0.0031999852916517824 0.020416547467945585 0.9968000147083482 -0.020416547467945585 0.9968000147083482 -0.020416547467945585 0.0031999852916517824 0.020416547467945585
1.426692909383278E8 0.003229618581641159 0.020712617609048398 0.9967703814183588 -0.020712617609048398 0.9967703814183588 -0.020712617609048398 0.003229618581641159 0.020712617609048398
1.4482237080667645E8 0.0032598155294207925 0.021012866271852126 0.9967401844705792 -0.021012866271852126 0.9967401844705792 -0.021012866271852126 0.0032598155294207925 0.021012866271852126
1.4700794367256513E8 0.00329058433675816 0.021317354104899155 0.996709415663242 -0.021317354104899155 0.996709415663242 -0.021317354104899155 0.00329058433675816 0.021317354104899155
1.492264999009378E8 0.0033219334306055764 0.02162614283299192 0.9966780665693944 -0.02162614283299192 0.9966780665693944 -0.02162614283299192 0.0033219334306055764 0.02162614283299192
1.5147853725703382E8 0.003353871481032728 0.02193929527658875 0.9966461285189673 -0.02193929527658875 0.9966461285189673 -0.02193929527658875 0.003353871481032728 0.02193929527658875
1.5376456101806876E8 0.003386407419947738 0.022256875370904115 0.9966135925800522 -0.022256875370904115 0.9966135925800522 -0.022256875370904115 0.003386407419947738 0.022256875370904115
1.5608508408660066E8 0.003419550460591757 0.02257894818467418 0.9965804495394083 -0.02257894818467418 0.9965804495394083 -0.02257894818467418 0.003419550460591757 0.02257894818467418
1.5844062710560706E8 0.0034533101177892113 0.022905579938549334 0.9965466898822107 -0.022905579938549338 0.9965466898822107 -0.022905579938549338 0.0034533101177892113 0.022905579938549334
1.6083171857529896E8 0.003487696228932936 0.02323683802307715 0.9965123037710671 -0.02323683802307715 0.9965123037710671 -0.02323683802307715 0.003487696228932936 0.02323683802307715
1.632588949716973E8 0.003522718975680659 0.023572791016240248 0.9964772810243194 -0.023572791016240248 0.9964772810243194 -0.023572791016240248 0.003522718975680659 0.023572791016240248
1.6572270086699936E8 0.003558388906336734 0.0239135087005164 0.9964416110936632 -0.0239135087005164 0.9964416110936632 -0.0239135087005164 0.003558388906336734 0.0239135087005164
1.6822368905176118E8 0.003594716958890454 0.024259062079429287 0.9964052830411095 -0.024259062079429287 0.9964052830411095 -0.024259062079429287 0.003594716958890454 0.024259062079429287
1.7076242065892437E8 0.003631714484679989 0.024609523393561403 0.9963682855153198 -0.0246095233935614 0.9963682855153198 -0.0246095233935614 0.003631714484679989 0.024609523393561403
1.7333946528971428E8 0.003669393272648917 0.024964966136003033 0.9963306067273512 -0.02496496613600303 0.9963306067273512 -0.02496496613600303 0.003669393272648917 0.024964966136003033
1.7595540114143828E8 0.0037077655741603005 0.025325465067213795 0.9962922344258398 -0.0253254650672138 0.9962922344258398 -0.0253254650672138 0.0037077655741603005 0.025325465067213795
1.786108151372127E8 0.003746844128331688 0.025691096229276452 0.9962531558716684 -0.025691096229276452 0.9962531558716684 -0.025691096229276452 0.003746844128331688 0.025691096229276452
1.8130630305764765E8 0.0037866421878528585 0.02606193695952559 0.996213357812147 -0.02606193695952559 0.996213357812147 -0.02606193695952559 0.0037866421878528585 0.02606193695952559
1.840424696745189E8 0.003827173545247053 0.026438065903537127 0.9961728264547529 -0.026438065903537127 0.9961728264547529 -0.026438065903537127 0.003827173545247053 0.026438065903537127
1.8681992888645732E8 0.003868452559535456 0.026819563027467998 0.9961315474404645 -0.026819563027467998 0.9961315474404645 -0.026819563027467998 0.003868452559535456 0.026819563027467998
1.8963930385668582E8 0.00391049418326409 0.02720650962973864 0.9960895058167358 -0.02720650962973864 0.9960895058167358 -0.02720650962973864 0.00391049418326409 0.02720650962973864
1.92501227152835E8 0.003953313989851928 0.027598988352054554 0.9960466860101482 -0.027598988352054547 0.9960466860101482 -0.027598988352054547 0.003953313989851928 0.027598988352054554
1.9540634088886917E8 0.003996928201218999 0.02799708318976673 0.9960030717987809 -0.02799708318976673 0.9960030717987809 -0.02799708318976673 0.003996928201218999 0.02799708318976673
1.983552968691535E8 0.004041353715653468 0.028400879501574133 0.9959586462843465 -0.028400879501574137 0.9959586462843465 -0.028400879501574137 0.004041353715653468 0.028400879501574133
2.0134875673469606E8 0.004086608135877269 0.02881046401857524 0.9959133918641228 -0.028810464018575243 0.9959133918641228 -0.028810464018575243 0.004086608135877269 0.02881046401857524
2.0438739211159652E8 0.004132709797270618 0.029225924852678723 0.9958672902027293 -0.029225924852678716 0.9958672902027293 -0.029225924852678716 0.004132709797270618 0.029225924852678723
2.074718847617352E8 0.004179677796216888 0.02964735150438718 0.9958203222037831 -0.02964735150438718 0.9958203222037831 -0.02964735150438718 0.004179677796216888 0.02964735150438718
2.106029267357361E8 0.0042275320185307 0.030074834869970823 0.9957724679814693 -0.030074834869970823 0.9957724679814693 -0.030074834869970823 0.0042275320185307 0.030074834869970823
2.1378122052823865E8 0.004276293167933741 0.030508467248051598 0.9957237068320661 -0.030508467248051598 0.9957237068320661 -0.030508467248051598 0.004276293167933741 0.030508467248051598
2.1700747923551247E8 0.004325982794544626 0.030948342345620678 0.9956740172054552 -0.030948342345620678 0.9956740172054552 -0.030948342345620678 0.004325982794544626 0.030948342345620678
2.2028242671545094E8 0.004376623323351368 0.03139455528351596 0.9956233766766485 -0.03139455528351596 0.9956233766766485 -0.03139455528351596 0.004376623323351368 0.03139455528351596
2.23606797749979E8 0.0044282380826372965 0.03184720260138838 0.9955717619173627 -0.03184720260138838 0.9955717619173627 -0.03184720260138838 0.0044282380826372965 0.03184720260138838
2.2698133820991236E8 0.004480851332333776 0.032306382262188627 0.9955191486676662 -0.032306382262188627 0.9955191486676662 -0.032306382262188627 0.004480851332333776 0.032306382262188627
2.3040680522230446E8 0.004534488292275812 0.03277219365620809 0.9954655117077241 -0.03277219365620809 0.9954655117077241 -0.03277219365620809 0.004534488292275812 0.03277219365620809
2.338839673403185E8 0.004589175170339587 0.03324473760471035 0.9954108248296605 -0.033244737604710355 0.9954108248296605 -0.033244737604710355 0.004589175170339587 0.03324473760471035
2.37413604715664E8 0.004644939190443839 0.03372411636319087 0.995355060809556 -0.03372411636319087 0.995355060809556 -0.03372411636319087 0.004644939190443839 0.03372411636319087
2.4099650927363476E8 0.004701808620400235 0.03421043362430498 0.9952981913796 -0.03421043362430499 0.9952981913796 -0.03421043362430499 0.004701808620400235 0.03421043362430498
