!Murata Part Number: LQP02TQ2N9B02
!These Parameters are Measured in Series Mode Connection
!       o--[Z]--o
!Port1              Port2
!       o-------o
!
!Freq. Start=50[MHz] Stop=20[GHz], 401[Steps]
# Hz S RI R 50
!Freq.(Hz) S11(Real) S11(Imag) S21(Real) S21(Imag) S12(Real) S12(Imag) S22(Real) S22(Imag)
5.0E7 0.0029531508229528845 0.009851782370727683 0.997046849177047 -0.009851782370727683 0.997046849177047 -0.009851782370727683 0.0029531508229528845 0.009851782370727683
5.0754570186123446E7 0.002958190362459611 0.01000015521545506 0.9970418096375405 -0.010000155215455062 0.9970418096375405 -0.010000155215455062 0.002958190362459611 0.01000015521545506
5.152052789556263E7 0.002963380948782499 0.01015075352345559 0.9970366190512175 -0.01015075352345559 0.9970366190512175 -0.01015075352345559 0.002963380948782499 0.01015075352345559
5.229804498202928E7 0.0029687270427811684 0.010303610273499303 0.9970312729572186 -0.010303610273499303 0.9970312729572186 -0.010303610273499303 0.0029687270427811684 0.010303610273499303
5.308729589274893E7 0.002974233233135426 0.010458758915877261 0.9970257667668644 -0.010458758915877261 0.9970257667668644 -0.010458758915877261 0.002974233233135426 0.010458758915877261
5.388845770760058E7 0.0029799042397799696 0.01061623337844075 0.99702009576022 -0.01061623337844075 0.99702009576022 -0.01061623337844075 0.0029799042397799696 0.01061623337844075
5.470171017884717E7 0.002985744917418445 0.010776068072691386 0.9970142550825817 -0.010776068072691386 0.9970142550825817 -0.010776068072691386 0.002985744917418445 0.010776068072691386
5.5527235771465644E7 0.0029917602591179467 0.010938297899921545 0.9970082397408819 -0.010938297899921545 0.9970082397408819 -0.010938297899921545 0.0029917602591179467 0.010938297899921545
5.6365219704085544E7 0.002997955399985042 0.011102958257404717 0.997002044600015 -0.011102958257404719 0.997002044600015 -0.011102958257404719 0.002997955399985042 0.011102958257404717
5.721584999054556E7 0.0030043356209244042 0.011270085044635331 0.9969956643790756 -0.011270085044635331 0.9969956643790756 -0.011270085044635331 0.0030043356209244042 0.011270085044635331
5.807931748207712E7 0.003010906352481033 0.01143971466961745 0.996989093647519 -0.01143971466961745 0.996989093647519 -0.01143971466961745 0.003010906352481033 0.01143971466961745
5.8955815910124585E7 0.0030176731787670994 0.011611884055201976 0.9969823268212329 -0.011611884055201976 0.9969823268212329 -0.011611884055201976 0.0030176731787670994 0.011611884055201976
5.984554192981184E7 0.003024641841474351 0.011786630645471757 0.9969753581585258 -0.011786630645471757 0.9969753581585258 -0.011786630645471757 0.003024641841474351 0.011786630645471757
6.074869516406457E7 0.0030318182439729624 0.011963992412174019 0.9969681817560273 -0.011963992412174019 0.9969681817560273 -0.011963992412174019 0.0030318182439729624 0.011963992412174019
6.166547824839868E7 0.003039208455497768 0.01214400786119973 0.9969607915445022 -0.01214400786119973 0.9969607915445022 -0.01214400786119973 0.003039208455497768 0.01214400786119973
6.2596096876384385E7 0.003046818715422634 0.012326716039109243 0.9969531812845775 -0.012326716039109243 0.9969531812845775 -0.012326716039109243 0.003046818715422634 0.012326716039109243
6.354075984579668E7 0.0030546554376237917 0.012512156539703749 0.9969453445623763 -0.012512156539703749 0.9969453445623763 -0.012512156539703749 0.0030546554376237917 0.012512156539703749
6.449967910546205E7 0.0030627252149328424 0.012700369510642 0.9969372747850671 -0.012700369510641999 0.9969372747850671 -0.012700369510641999 0.0030627252149328424 0.012700369510642
6.547306980281226E7 0.003071034823680116 0.012891395660101772 0.99692896517632 -0.012891395660101774 0.99692896517632 -0.012891395660101774 0.003071034823680116 0.012891395660101772
6.646115033215589E7 0.0030795912283289612 0.013085276263485601 0.996920408771671 -0.013085276263485601 0.996920408771671 -0.013085276263485601 0.0030795912283289612 0.013085276263485601
6.746414238367817E7 0.0030884015862015883 0.013282053170170338 0.9969115984137983 -0.013282053170170342 0.9969115984137983 -0.013282053170170342 0.0030884015862015883 0.013282053170170338
6.848227099318038E7 0.0030974732522968808 0.013481768810299999 0.996902526747703 -0.013481768810299999 0.996902526747703 -0.013481768810299999 0.0030974732522968808 0.013481768810299999
6.951576459256999E7 0.003106813784200669 0.013684466201621604 0.9968931862157994 -0.013684466201621604 0.9968931862157994 -0.013684466201621604 0.003106813784200669 0.013684466201621604
7.056485506111258E7 0.0031164309470887754 0.013890188956363589 0.9968835690529111 -0.01389018895636359 0.9968835690529111 -0.01389018895636359 0.0031164309470887754 0.013890188956363589
7.162977777745734E7 0.0031263327188231437 0.014098981288156452 0.996873667281177 -0.014098981288156452 0.996873667281177 -0.014098981288156452 0.0031263327188231437 0.014098981288156452
7.271077167244768E7 0.0031365272951412774 0.014310888018995414 0.9968634727048586 -0.014310888018995414 0.9968634727048586 -0.014310888018995414 0.0031365272951412774 0.014310888018995414
7.380807928272885E7 0.0031470230949391205 0.014525954586244961 0.9968529769050608 -0.014525954586244961 0.9968529769050608 -0.014525954586244961 0.0031470230949391205 0.014525954586244961
7.492194680516452E7 0.003157828765647446 0.014744227049684974 0.9968421712343526 -0.014744227049684977 0.9968421712343526 -0.014744227049684977 0.003157828765647446 0.014744227049684974
7.60526241520746E7 0.0031689531887017773 0.014965752098598666 0.9968310468112982 -0.014965752098598666 0.9968310468112982 -0.014965752098598666 0.0031689531887017773 0.014965752098598666
7.720036500730675E7 0.003180405485105738 0.01519057705890217 0.9968195945148944 -0.01519057705890217 0.9968195945148944 -0.01519057705890217 0.003180405485105738 0.01519057705890217
7.836542688315398E7 0.0031921950210876933 0.015418749900316156 0.9968078049789122 -0.015418749900316156 0.9968078049789122 -0.015418749900316156 0.0031921950210876933 0.015418749900316156
7.954807117813127E7 0.003204331413850453 0.015650319243579642 0.9967956685861498 -0.015650319243579642 0.9967956685861498 -0.015650319243579642 0.003204331413850453 0.015650319243579642
8.074856323562416E7 0.003216824537413735 0.015885334367706477 0.9967831754625862 -0.015885334367706477 0.9967831754625862 -0.015885334367706477 0.003216824537413735 0.015885334367706477
8.196717240342227E7 0.0032296845285490366 0.016123845217285118 0.9967703154714511 -0.016123845217285118 0.9967703154714511 -0.016123845217285118 0.0032296845285490366 0.016123845217285118
8.320417209415154E7 0.003242921792806455 0.016365902409822403 0.9967570782071935 -0.016365902409822403 0.9967570782071935 -0.016365902409822403 0.003242921792806455 0.016365902409822403
8.445983984661816E7 0.003256547010632996 0.01661155724313229 0.996743452989367 -0.01661155724313229 0.996743452989367 -0.01661155724313229 0.003256547010632996 0.01661155724313229
8.573445738807854E7 0.003270571143581763 0.016860861702770586 0.9967294288564185 -0.016860861702770586 0.9967294288564185 -0.016860861702770586 0.003270571143581763 0.016860861702770586
8.702831069744885E7 0.0032850054406114706 0.017113868469517086 0.9967149945593883 -0.017113868469517086 0.9967149945593883 -0.017113868469517086 0.0032850054406114706 0.017113868469517086
8.834169006946853E7 0.0032998614444756076 0.017370630926906633 0.9967001385555243 -0.017370630926906636 0.9967001385555243 -0.017370630926906636 0.0032998614444756076 0.017370630926906633
8.96748901798321E7 0.003315150998200557 0.017631203168810894 0.9966848490017995 -0.017631203168810894 0.9966848490017995 -0.017631203168810894 0.003315150998200557 0.017631203168810894
9.1028210151304E7 0.0033308862516519652 0.01789564000707284 0.996669113748348 -0.01789564000707284 0.996669113748348 -0.01789564000707284 0.0033308862516519652 0.01789564000707284
9.240195362083109E7 0.00334707966818861 0.018163996979196323 0.9966529203318113 -0.018163996979196323 0.9966529203318113 -0.018163996979196323 0.00334707966818861 0.018163996979196323
9.379642880766791E7 0.0033637440314030734 0.018436330356093395 0.996636255968597 -0.018436330356093395 0.996636255968597 -0.018436330356093395 0.0033637440314030734 0.018436330356093395
9.521194858253023E7 0.003380892451948448 0.01871269714989213 0.9966191075480516 -0.018712697149892134 0.9966191075480516 -0.018712697149892134 0.003380892451948448 0.01871269714989213
9.664883053779216E7 0.0033985383744504377 0.01899315512180858 0.9966014616255495 -0.018993155121808578 0.9966014616255495 -0.018993155121808578 0.0033985383744504377 0.01899315512180858
9.810739705874248E7 0.003416695584504117 0.019277762790085952 0.9965833044154959 -0.019277762790085952 0.9965833044154959 -0.019277762790085952 0.003416695584504117 0.019277762790085952
9.958797539591652E7 0.0034353782157548656 0.019566579438005532 0.9965646217842452 -0.01956657943800553 0.9965646217842452 -0.01956657943800553 0.0034353782157548656 0.019566579438005532
1.0109089773851961E8 0.0034546007570629297 0.01985966512197346 0.996545399242937 -0.01985966512197346 0.996545399242937 -0.01985966512197346 0.0034546007570629297 0.01985966512197346
1.0261650128895843E8 0.003474378059751216 0.020157080679688192 0.9965256219402487 -0.02015708067968819 0.9965256219402487 -0.02015708067968819 0.003474378059751216 0.020157080679688192
1.0416512833849736E8 0.003494725344936125 0.020458887738393904 0.9965052746550637 -0.020458887738393904 0.9965052746550637 -0.020458887738393904 0.003494725344936125 0.020458887738393904
1.0573712634405641E8 0.0035156582109412966 0.020765148723225584 0.9964843417890586 -0.020765148723225584 0.9964843417890586 -0.020765148723225584 0.0035156582109412966 0.020765148723225584
1.0733284800616828E8 0.003537192640794456 0.021075926865651868 0.9964628073592057 -0.021075926865651868 0.9964628073592057 -0.021075926865651868 0.003537192640794456 0.021075926865651868
1.0895265134811176E8 0.0035593450098076744 0.02139128621202232 0.9964406549901923 -0.02139128621202232 0.9964406549901923 -0.02139128621202232 0.0035593450098076744 0.02139128621202232
1.1059689979623953E8 0.0035821320932417143 0.021711291632226258 0.9964178679067583 -0.021711291632226258 0.9964178679067583 -0.021711291632226258 0.0035821320932417143 0.021711291632226258
1.1226596226151802E8 0.0036055710740554056 0.022036008828470857 0.9963944289259445 -0.022036008828470857 0.9963944289259445 -0.022036008828470857 0.0036055710740554056 0.022036008828470857
1.1396021322229806E8 0.0036296795507413603 0.022365504344186646 0.9963703204492587 -0.022365504344186646 0.9963703204492587 -0.022365504344186646 0.0036296795507413603 0.022365504344186646
1.1568003280833441E8 0.003654475545249741 0.022699845573069095 0.9963455244547503 -0.022699845573069095 0.9963455244547503 -0.022699845573069095 0.003654475545249741 0.022699845573069095
1.1742580688607343E8 0.0036799775110022484 0.023039100768265718 0.9963200224889976 -0.02303910076826572 0.9963200224889976 -0.02303910076826572 0.0036799775110022484 0.023039100768265718
1.1919792714522783E8 0.0037062043409990136 0.023383339051718452 0.996293795659001 -0.02338333905171845 0.996293795659001 -0.02338333905171845 0.0037062043409990136 0.023383339051718452
1.2099679118665792E8 0.0037331753760215815 0.023732630423671554 0.9962668246239783 -0.023732630423671554 0.9962668246239783 -0.023732630423671554 0.0037331753760215815 0.023732630423671554
1.2282280261157903E8 0.003760910412935892 0.024087045772356375 0.996239089587064 -0.024087045772356375 0.996239089587064 -0.024087045772356375 0.003760910412935892 0.024087045772356375
1.2467637111211549E8 0.003789429713099727 0.024446656883864104 0.9962105702869002 -0.024446656883864104 0.9962105702869002 -0.024446656883864104 0.003789429713099727 0.024446656883864104
1.265579125632208E8 0.0038187540108799226 0.024811536452218848 0.99618124598912 -0.024811536452218848 0.99618124598912 -0.024811536452218848 0.0038187540108799226 0.024811536452218848
1.284678491159853E8 0.003848904522285406 0.025181758089663567 0.9961510954777147 -0.02518175808966357 0.9961510954777147 -0.02518175808966357 0.003848904522285406 0.025181758089663567
1.3040660929235186E8 0.0038799029537230204 0.025557396337172137 0.996120097046277 -0.025557396337172137 0.996120097046277 -0.025557396337172137 0.0038799029537230204 0.025557396337172137
1.3237462808126101E8 0.003911771510884003 0.02593852667520103 0.9960882284891159 -0.02593852667520103 0.9960882284891159 -0.02593852667520103 0.003911771510884003 0.02593852667520103
1.3437234703624701E8 0.003944532907770069 0.026325225534694952 0.9960554670922298 -0.026325225534694952 0.9960554670922298 -0.026325225534694952 0.003944532907770069 0.026325225534694952
1.364002143745067E8 0.003978210375869071 0.026717570308360913 0.9960217896241309 -0.026717570308360913 0.9960217896241309 -0.026717570308360913 0.003978210375869071 0.026717570308360913
1.3845868507746372E8 0.00401282767349148 0.027115639362226 0.9959871723265086 -0.027115639362226007 0.9959871723265086 -0.027115639362226007 0.00401282767349148 0.027115639362226
1.405482209928499E8 0.004048409095280026 0.02751951204749396 0.9959515909047199 -0.02751951204749396 0.9959515909047199 -0.02751951204749396 0.004048409095280026 0.02751951204749396
1.426692909383278E8 0.004084979481906329 0.02792926871271658 0.9959150205180937 -0.02792926871271658 0.9959150205180937 -0.02792926871271658 0.004084979481906329 0.02792926871271658
1.4482237080667645E8 0.004122564229969649 0.02834499071629582 0.9958774357700304 -0.028344990716295818 0.9958774357700304 -0.028344990716295818 0.004122564229969649 0.02834499071629582
1.4700794367256513E8 0.00416118930211437 0.028766760439332874 0.9958388106978855 -0.028766760439332874 0.9958388106978855 -0.028766760439332874 0.00416118930211437 0.028766760439332874
1.492264999009378E8 0.004200881237384458 0.029194661298840578 0.9957991187626156 -0.029194661298840584 0.9957991187626156 -0.029194661298840584 0.004200881237384458 0.029194661298840578
1.5147853725703382E8 0.004241667161834663 0.02962877776133558 0.9957583328381653 -0.02962877776133558 0.9957583328381653 -0.02962877776133558 0.004241667161834663 0.02962877776133558
1.5376456101806876E8 0.004283574799420044 0.030069195356826624 0.9957164252005799 -0.030069195356826624 0.9957164252005799 -0.030069195356826624 0.004283574799420044 0.030069195356826624
1.5608508408660066E8 0.004326632483187049 0.03051600069321513 0.995673367516813 -0.03051600069321513 0.995673367516813 -0.03051600069321513 0.004326632483187049 0.03051600069321513
1.5844062710560706E8 0.00437086916679136 0.030969281471124332 0.9956291308332087 -0.030969281471124335 0.9956291308332087 -0.030969281471124335 0.00437086916679136 0.030969281471124332
1.6083171857529896E8 0.004416314436369451 0.03142912649917227 0.9955836855636305 -0.03142912649917227 0.9955836855636305 -0.03142912649917227 0.004416314436369451 0.03142912649917227
1.632588949716973E8 0.004462998522792876 0.03189562570970403 0.9955370014772073 -0.03189562570970403 0.9955370014772073 -0.03189562570970403 0.004462998522792876 0.03189562570970403
1.6572270086699936E8 0.004510952314336271 0.03236887017499791 0.9954890476856638 -0.03236887017499791 0.9954890476856638 -0.03236887017499791 0.004510952314336271 0.03236887017499791
1.6822368905176118E8 0.004560207369792044 0.0328489521239591 0.995439792630208 -0.0328489521239591 0.995439792630208 -0.0328489521239591 0.004560207369792044 0.0328489521239591
1.7076242065892437E8 0.004610795932066824 0.03333596495931388 0.9953892040679332 -0.03333596495931388 0.9953892040679332 -0.03333596495931388 0.004610795932066824 0.03333596495931388
1.7333946528971428E8 0.004662750942296847 0.033830003275316274 0.9953372490577032 -0.033830003275316274 0.9953372490577032 -0.033830003275316274 0.004662750942296847 0.033830003275316274
1.7595540114143828E8 0.00471610605452154 0.034331162875977865 0.9952838939454784 -0.034331162875977865 0.9952838939454784 -0.034331162875977865 0.00471610605452154 0.034331162875977865
1.786108151372127E8 0.004770895650956627 0.03483954079383 0.9952291043490434 -0.03483954079383 0.9952291043490434 -0.03483954079383 0.004770895650956627 0.03483954079383
1.8130630305764765E8 0.004827154857910174 0.03535523530922597 0.9951728451420898 -0.03535523530922596 0.9951728451420898 -0.03535523530922596 0.004827154857910174 0.03535523530922597
1.840424696745189E8 0.004884919562387103 0.035878345970189546 0.995115080437613 -0.035878345970189546 0.995115080437613 -0.035878345970189546 0.004884919562387103 0.035878345970189546
1.8681992888645732E8 0.004944226429429609 0.03640897361281352 0.9950557735705703 -0.03640897361281352 0.9950557735705703 -0.03640897361281352 0.004944226429429609 0.03640897361281352
1.8963930385668582E8 0.005005112920242941 0.03694722038221065 0.994994887079757 -0.03694722038221065 0.994994887079757 -0.03694722038221065 0.005005112920242941 0.03694722038221065
1.92501227152835E8 0.005067617311157843 0.037493189754016325 0.994932382688842 -0.037493189754016325 0.994932382688842 -0.037493189754016325 0.005067617311157843 0.037493189754016325
1.9540634088886917E8 0.005131778713482734 0.038046986556440475 0.9948682212865174 -0.038046986556440475 0.9948682212865174 -0.038046986556440475 0.005131778713482734 0.038046986556440475
1.983552968691535E8 0.00519763709430042 0.03860871699286318 0.9948023629056996 -0.03860871699286318 0.9948023629056996 -0.03860871699286318 0.00519763709430042 0.03860871699286318
2.0134875673469606E8 0.005265233298265599 0.03917848866496584 0.9947347667017343 -0.03917848866496584 0.9947347667017343 -0.03917848866496584 0.005265233298265599 0.03917848866496584
2.0438739211159652E8 0.005334609070460865 0.039756410596386384 0.9946653909295392 -0.039756410596386384 0.9946653909295392 -0.039756410596386384 0.005334609070460865 0.039756410596386384
2.074718847617352E8 0.005405807080370131 0.040342593256884385 0.9945941929196299 -0.040342593256884385 0.9945941929196299 -0.040342593256884385 0.005405807080370131 0.040342593256884385
2.106029267357361E8 0.005478870947029478 0.040937148586998255 0.9945211290529706 -0.040937148586998255 0.9945211290529706 -0.040937148586998255 0.005478870947029478 0.040937148586998255
2.1378122052823865E8 0.005553845265416172 0.041540190023173024 0.9944461547345838 -0.04154019002317302 0.9944461547345838 -0.04154019002317302 0.005553845265416172 0.041540190023173024
2.1700747923551247E8 0.005630775634137391 0.04215183252333441 0.9943692243658625 -0.04215183252333441 0.9943692243658625 -0.04215183252333441 0.005630775634137391 0.04215183252333441
2.2028242671545094E8 0.0057097086844803795 0.04277219259287992 0.9942902913155196 -0.04277219259287991 0.9942902913155196 -0.04277219259287991 0.0057097086844803795 0.04277219259287992
2.23606797749979E8 0.005790692110886088 0.04340138831105523 0.9942093078891139 -0.04340138831105523 0.9942093078891139 -0.04340138831105523 0.005790692110886088 0.04340138831105523
2.2698133820991236E8 0.00587377470290808 0.04403953935767915 0.9941262252970919 -0.04403953935767915 0.9941262252970919 -0.04403953935767915 0.00587377470290808 0.04403953935767915
2.3040680522230446E8 0.005959006378718196 0.04468676704017729 0.994040993621282 -0.044686767040177294 0.994040993621282 -0.044686767040177294 0.005959006378718196 0.04468676704017729
2.338839673403185E8 0.006046438220219569 0.04534319432087959 0.9939535617797806 -0.0453431943208796 0.9939535617797806 -0.0453431943208796 0.006046438220219569 0.04534319432087959
2.37413604715664E8 0.0061361225098268656 0.04600894584453436 0.9938638774901732 -0.04600894584453436 0.9938638774901732 -0.04600894584453436 0.0061361225098268656 0.04600894584453436
2.4099650927363476E8 0.006228112768972061 0.0466841479659858 0.993771887231028 -0.046684147965985794 0.993771887231028 -0.046684147965985794 0.006228112768972061 0.0466841479659858
