!Murata Part Number: LQP02TQ3N1B02
!These Parameters are Measured in Series Mode Connection
!       o--[Z]--o
!Port1              Port2
!       o-------o
!
!Freq. Start=50[MHz] Stop=20[GHz], 401[Steps]
# Hz S RI R 50
!Freq.(Hz) S11(Real) S11(Imag) S21(Real) S21(Imag) S12(Real) S12(Imag) S22(Real) S22(Imag)
5.0E7 0.0032746354424430524 0.010554528396799615 0.9967253645575572 -0.010554528396799615 0.9967253645575572 -0.010554528396799615 0.0032746354424430524 0.010554528396799615
5.0754570186123446E7 0.0032804162483835247 0.010713453657624094 0.9967195837516165 -0.010713453657624094 0.9967195837516165 -0.010713453657624094 0.0032804162483835247 0.010713453657624094
5.152052789556263E7 0.0032863702605015217 0.010874761248556056 0.9967136297394986 -0.010874761248556058 0.9967136297394986 -0.010874761248556058 0.0032863702605015217 0.010874761248556056
5.229804498202928E7 0.00329250259056729 0.011038486410111925 0.9967074974094328 -0.011038486410111925 0.9967074974094328 -0.011038486410111925 0.00329250259056729 0.011038486410111925
5.308729589274893E7 0.0032988184966096816 0.011204664883907308 0.9967011815033904 -0.011204664883907308 0.9967011815033904 -0.011204664883907308 0.0032988184966096816 0.011204664883907308
5.388845770760058E7 0.003305323386833471 0.011373332918955354 0.9966946766131667 -0.011373332918955354 0.9966946766131667 -0.011373332918955354 0.003305323386833471 0.011373332918955354
5.470171017884717E7 0.0033120228236263503 0.011544527278012825 0.9966879771763737 -0.011544527278012825 0.9966879771763737 -0.011544527278012825 0.0033120228236263503 0.011544527278012825
5.5527235771465644E7 0.0033189225276568407 0.011718285243973222 0.996681077472343 -0.011718285243973222 0.996681077472343 -0.011718285243973222 0.0033189225276568407 0.011718285243973222
5.6365219704085544E7 0.0033260283820642517 0.011894644626306176 0.9966739716179358 -0.011894644626306176 0.9966739716179358 -0.011894644626306176 0.0033260283820642517 0.011894644626306176
5.721584999054556E7 0.0033333464367418294 0.01207364376754238 0.9966666535632581 -0.01207364376754238 0.9966666535632581 -0.01207364376754238 0.0033333464367418294 0.01207364376754238
5.807931748207712E7 0.0033408829127142257 0.012255321549803355 0.9966591170872857 -0.012255321549803355 0.9966591170872857 -0.012255321549803355 0.0033408829127142257 0.012255321549803355
5.8955815910124585E7 0.003348644206610258 0.012439717401375115 0.9966513557933897 -0.012439717401375115 0.9966513557933897 -0.012439717401375115 0.003348644206610258 0.012439717401375115
5.984554192981184E7 0.003356636895232053 0.012626871303325128 0.9966433631047678 -0.012626871303325128 0.9966433631047678 -0.012626871303325128 0.003356636895232053 0.012626871303325128
6.074869516406457E7 0.003364867740221476 0.012816823796161562 0.9966351322597785 -0.012816823796161562 0.9966351322597785 -0.012816823796161562 0.003364867740221476 0.012816823796161562
6.166547824839868E7 0.003373343692824735 0.013009615986534077 0.9966266563071753 -0.013009615986534077 0.9966266563071753 -0.013009615986534077 0.003373343692824735 0.013009615986534077
6.2596096876384385E7 0.003382071898756069 0.013205289553975395 0.9966179281012438 -0.013205289553975395 0.9966179281012438 -0.013205289553975395 0.003382071898756069 0.013205289553975395
6.354075984579668E7 0.0033910597031612264 0.013403886757682707 0.996608940296839 -0.013403886757682707 0.996608940296839 -0.013403886757682707 0.0033910597031612264 0.013403886757682707
6.449967910546205E7 0.0034003146556815037 0.013605450443338102 0.9965996853443185 -0.013605450443338102 0.9965996853443185 -0.013605450443338102 0.0034003146556815037 0.013605450443338102
6.547306980281226E7 0.0034098445156189915 0.013810024049967335 0.9965901554843811 -0.013810024049967335 0.9965901554843811 -0.013810024049967335 0.0034098445156189915 0.013810024049967335
6.646115033215589E7 0.003419657257203577 0.014017651616835946 0.9965803427427963 -0.01401765161683595 0.9965803427427963 -0.01401765161683595 0.003419657257203577 0.014017651616835946
6.746414238367817E7 0.003429761074962261 0.014228377790382132 0.9965702389250379 -0.014228377790382133 0.9965702389250379 -0.014228377790382133 0.003429761074962261 0.014228377790382132
6.848227099318038E7 0.0034401643891911688 0.014442247831185428 0.996559835610809 -0.014442247831185428 0.996559835610809 -0.014442247831185428 0.0034401643891911688 0.014442247831185428
6.951576459256999E7 0.0034508758515306524 0.014659307620970768 0.9965491241484694 -0.014659307620970768 0.9965491241484694 -0.014659307620970768 0.0034508758515306524 0.014659307620970768
7.056485506111258E7 0.003461904350643705 0.014879603669646942 0.9965380956493565 -0.014879603669646945 0.9965380956493565 -0.014879603669646945 0.003461904350643705 0.014879603669646942
7.162977777745734E7 0.0034732590179979176 0.01510318312237911 0.9965267409820022 -0.01510318312237911 0.9965267409820022 -0.01510318312237911 0.0034732590179979176 0.01510318312237911
7.271077167244768E7 0.003484949233751022 0.015330093766694662 0.9965150507662489 -0.015330093766694662 0.9965150507662489 -0.015330093766694662 0.003484949233751022 0.015330093766694662
7.380807928272885E7 0.003496984632740089 0.01556038403962208 0.9965030153672598 -0.01556038403962208 0.9965030153672598 -0.01556038403962208 0.003496984632740089 0.01556038403962208
7.492194680516452E7 0.003509375110574193 0.015794103034862256 0.996490624889426 -0.01579410303486226 0.996490624889426 -0.01579410303486226 0.003509375110574193 0.015794103034862256
7.60526241520746E7 0.0035221308298305117 0.016031300509992213 0.9964778691701695 -0.01603130050999221 0.9964778691701695 -0.01603130050999221 0.0035221308298305117 0.016031300509992213
7.720036500730675E7 0.0035352622263534403 0.016272026893700803 0.9964647377736465 -0.016272026893700803 0.9964647377736465 -0.016272026893700803 0.0035352622263534403 0.016272026893700803
7.836542688315398E7 0.003548780015656454 0.016516333293056552 0.9964512199843435 -0.016516333293056552 0.9964512199843435 -0.016516333293056552 0.003548780015656454 0.016516333293056552
7.954807117813127E7 0.0035626951994262527 0.0167642715008076 0.9964373048005738 -0.016764271500807598 0.9964373048005738 -0.016764271500807598 0.0035626951994262527 0.0167642715008076
8.074856323562416E7 0.003577019072128601 0.017015894002713968 0.9964229809278715 -0.017015894002713968 0.9964229809278715 -0.017015894002713968 0.003577019072128601 0.017015894002713968
8.196717240342227E7 0.0035917632277152876 0.0172712539849127 0.9964082367722847 -0.017271253984912697 0.9964082367722847 -0.017271253984912697 0.0035917632277152876 0.0172712539849127
8.320417209415154E7 0.003606939566431447 0.017530405341316283 0.9963930604335686 -0.01753040534131628 0.9963930604335686 -0.01753040534131628 0.003606939566431447 0.017530405341316283
8.445983984661816E7 0.0036225603017224998 0.017793402681045265 0.9963774396982773 -0.017793402681045265 0.9963774396982773 -0.017793402681045265 0.0036225603017224998 0.017793402681045265
8.573445738807854E7 0.003638637967239795 0.018060301335896076 0.9963613620327603 -0.018060301335896076 0.9963613620327603 -0.018060301335896076 0.003638637967239795 0.018060301335896076
8.702831069744885E7 0.003655185423944039 0.018331157367845102 0.9963448145760558 -0.0183311573678451 0.9963448145760558 -0.0183311573678451 0.003655185423944039 0.018331157367845102
8.834169006946853E7 0.003672215867305567 0.018606027576590876 0.9963277841326944 -0.018606027576590876 0.9963277841326944 -0.018606027576590876 0.003672215867305567 0.018606027576590876
8.96748901798321E7 0.003689742834600337 0.018884969507135804 0.9963102571653996 -0.0188849695071358 0.9963102571653996 -0.0188849695071358 0.003689742834600337 0.018884969507135804
9.1028210151304E7 0.003707780212300631 0.019168041457409687 0.9962922197876992 -0.019168041457409687 0.9962922197876992 -0.019168041457409687 0.003707780212300631 0.019168041457409687
9.240195362083109E7 0.0037263422435593473 0.019455302485937423 0.9962736577564407 -0.019455302485937423 0.9962736577564407 -0.019455302485937423 0.0037263422435593473 0.019455302485937423
9.379642880766791E7 0.0037454435357867563 0.019746812419553502 0.9962545564642132 -0.019746812419553502 0.9962545564642132 -0.019746812419553502 0.0037454435357867563 0.019746812419553502
9.521194858253023E7 0.003765099068318654 0.020042631861166588 0.9962349009316813 -0.02004263186116659 0.9962349009316813 -0.02004263186116659 0.003765099068318654 0.020042631861166588
9.664883053779216E7 0.0037853242001747744 0.020342822197577402 0.9962146757998251 -0.020342822197577402 0.9962146757998251 -0.020342822197577402 0.0037853242001747744 0.020342822197577402
9.810739705874248E7 0.0038061346779065157 0.020647445607354036 0.9961938653220936 -0.020647445607354036 0.9961938653220936 -0.020647445607354036 0.0038061346779065157 0.020647445607354036
9.958797539591652E7 0.00382754664353293 0.02095656506876879 0.9961724533564672 -0.02095656506876879 0.9961724533564672 -0.02095656506876879 0.00382754664353293 0.02095656506876879
1.0109089773851961E8 0.0038495766425641962 0.02127024436780148 0.9961504233574356 -0.02127024436780148 0.9961504233574356 -0.02127024436780148 0.0038495766425641962 0.02127024436780148
1.0261650128895843E8 0.0038722416321117586 0.02158854810621426 0.9961277583678881 -0.021588548106214262 0.9961277583678881 -0.021588548106214262 0.0038722416321117586 0.02158854810621426
1.0416512833849736E8 0.0038955589890846292 0.021911541709703854 0.9961044410109153 -0.021911541709703854 0.9961044410109153 -0.021911541709703854 0.0038955589890846292 0.021911541709703854
1.0573712634405641E8 0.00391954651847138 0.022239291436137287 0.9960804534815287 -0.022239291436137287 0.9960804534815287 -0.022239291436137287 0.00391954651847138 0.022239291436137287
1.0733284800616828E8 0.0039442224617077404 0.022571864383878044 0.9960557775382924 -0.022571864383878048 0.9960557775382924 -0.022571864383878048 0.0039442224617077404 0.022571864383878044
1.0895265134811176E8 0.003969605505129837 0.022909328500209807 0.9960303944948703 -0.022909328500209807 0.9960303944948703 -0.022909328500209807 0.003969605505129837 0.022909328500209807
1.1059689979623953E8 0.003995714788513508 0.02325175258986581 0.9960042852114867 -0.02325175258986581 0.9960042852114867 -0.02325175258986581 0.003995714788513508 0.02325175258986581
1.1226596226151802E8 0.004022569913700518 0.023599206323672326 0.9959774300862995 -0.023599206323672326 0.9959774300862995 -0.023599206323672326 0.004022569913700518 0.023599206323672326
1.1396021322229806E8 0.004050190953312742 0.02395176024731528 0.9959498090466872 -0.023951760247315275 0.9959498090466872 -0.023951760247315275 0.004050190953312742 0.02395176024731528
1.1568003280833441E8 0.004078598459556052 0.024309485790239675 0.9959214015404438 -0.02430948579023967 0.9959214015404438 -0.02430948579023967 0.004078598459556052 0.024309485790239675
1.1742580688607343E8 0.004107813473116036 0.024672455274692452 0.9958921865268839 -0.02467245527469245 0.9958921865268839 -0.02467245527469245 0.004107813473116036 0.024672455274692452
1.1919792714522783E8 0.0041378575321482595 0.025040741924919438 0.9958621424678517 -0.025040741924919438 0.9958621424678517 -0.025040741924919438 0.0041378575321482595 0.025040741924919438
1.2099679118665792E8 0.004168752681366453 0.025414419876528118 0.9958312473186336 -0.025414419876528118 0.9958312473186336 -0.025414419876528118 0.004168752681366453 0.025414419876528118
1.2282280261157903E8 0.00420052148123275 0.025793564186028663 0.9957994785187672 -0.025793564186028663 0.9957994785187672 -0.025793564186028663 0.00420052148123275 0.025793564186028663
1.2467637111211549E8 0.004233187017254764 0.02617825084056584 0.9957668129827454 -0.02617825084056584 0.9957668129827454 -0.02617825084056584 0.004233187017254764 0.02617825084056584
1.265579125632208E8 0.004266772909395258 0.02656855676785551 0.9957332270906046 -0.02656855676785551 0.9957332270906046 -0.02656855676785551 0.004266772909395258 0.02656855676785551
1.284678491159853E8 0.00430130332160106 0.026964559846339803 0.9956986966783989 -0.026964559846339803 0.9956986966783989 -0.026964559846339803 0.00430130332160106 0.026964559846339803
1.3040660929235186E8 0.004336802971458834 0.027366338915575814 0.9956631970285412 -0.027366338915575814 0.9956631970285412 -0.027366338915575814 0.004336802971458834 0.027366338915575814
1.3237462808126101E8 0.004373297139986438 0.027773973786872914 0.9956267028600135 -0.027773973786872914 0.9956267028600135 -0.027773973786872914 0.004373297139986438 0.027773973786872914
1.3437234703624701E8 0.004410811681569812 0.028187545254194805 0.9955891883184302 -0.0281875452541948 0.9955891883184302 -0.0281875452541948 0.004410811681569812 0.028187545254194805
1.364002143745067E8 0.004449373034056497 0.028607135105342425 0.9955506269659437 -0.02860713510534243 0.9955506269659437 -0.02860713510534243 0.004449373034056497 0.028607135105342425
1.3845868507746372E8 0.004489008229018378 0.029032826133434945 0.9955109917709816 -0.029032826133434945 0.9955109917709816 -0.029032826133434945 0.004489008229018378 0.029032826133434945
1.405482209928499E8 0.004529744902197461 0.02946470214870551 0.9954702550978026 -0.029464702148705516 0.9954702550978026 -0.029464702148705516 0.004529744902197461 0.02946470214870551
1.426692909383278E8 0.004571611304150274 0.029902847990630026 0.9954283886958498 -0.029902847990630026 0.9954283886958498 -0.029902847990630026 0.004571611304150274 0.029902847990630026
1.4482237080667645E8 0.004614636311107856 0.030347349540406163 0.9953853636888921 -0.03034734954040617 0.9953853636888921 -0.03034734954040617 0.004614636311107856 0.030347349540406163
1.4700794367256513E8 0.004658849436070171 0.030798293733801455 0.9953411505639298 -0.030798293733801455 0.9953411505639298 -0.030798293733801455 0.004658849436070171 0.030798293733801455
1.492264999009378E8 0.004704280840155417 0.03125576857438784 0.9952957191598446 -0.03125576857438784 0.9952957191598446 -0.03125576857438784 0.004704280840155417 0.03125576857438784
1.5147853725703382E8 0.004750961344226756 0.03171986314718189 0.9952490386557734 -0.03171986314718189 0.9952490386557734 -0.03171986314718189 0.004750961344226756 0.03171986314718189
1.5376456101806876E8 0.004798922440820672 0.03219066763270792 0.9952010775591793 -0.03219066763270791 0.9952010775591793 -0.03219066763270791 0.004798922440820672 0.03219066763270792
1.5608508408660066E8 0.0048481963064035015 0.03266827332150273 0.9951518036935965 -0.032668273321502725 0.9951518036935965 -0.032668273321502725 0.0048481963064035015 0.03266827332150273
1.5844062710560706E8 0.004898815813984508 0.03315277262907927 0.9951011841860153 -0.033152772629079265 0.9951011841860153 -0.033152772629079265 0.004898815813984508 0.03315277262907927
1.6083171857529896E8 0.004950814546116222 0.0336442591113666 0.9950491854538839 -0.0336442591113666 0.9950491854538839 -0.0336442591113666 0.004950814546116222 0.0336442591113666
1.632588949716973E8 0.005004226808314851 0.03414282748064262 0.994995773191685 -0.03414282748064261 0.994995773191685 -0.03414282748064261 0.005004226808314851 0.03414282748064262
1.6572270086699936E8 0.0050590876429359635 0.03464857362197578 0.9949409123570641 -0.034648573621975785 0.9949409123570641 -0.034648573621975785 0.0050590876429359635 0.03464857362197578
1.6822368905176118E8 0.005115432843542855 0.035161594610190354 0.9948845671564571 -0.03516159461019036 0.9948845671564571 -0.03516159461019036 0.005115432843542855 0.035161594610190354
1.7076242065892437E8 0.005173298969807468 0.03568198872736963 0.9948267010301926 -0.03568198872736963 0.9948267010301926 -0.03568198872736963 0.005173298969807468 0.03568198872736963
1.7333946528971428E8 0.005232723362985956 0.03620985548090921 0.9947672766370141 -0.03620985548090921 0.9947672766370141 -0.03620985548090921 0.005232723362985956 0.03620985548090921
1.7595540114143828E8 0.005293744162013495 0.03674529562213183 0.9947062558379863 -0.03674529562213183 0.9947062558379863 -0.03674529562213183 0.005293744162013495 0.03674529562213183
1.786108151372127E8 0.00535640032026528 0.03728841116547363 0.9946435996797348 -0.03728841116547363 0.9946435996797348 -0.03728841116547363 0.00535640032026528 0.03728841116547363
1.8130630305764765E8 0.005420731623032859 0.03783930540824861 0.9945792683769671 -0.03783930540824861 0.9945792683769671 -0.03783930540824861 0.005420731623032859 0.03783930540824861
1.840424696745189E8 0.00548677870576751 0.038398082950998114 0.9945132212942325 -0.038398082950998114 0.9945132212942325 -0.038398082950998114 0.00548677870576751 0.038398082950998114
1.8681992888645732E8 0.0055545830731443665 0.038964849718427716 0.9944454169268556 -0.038964849718427716 0.9944454169268556 -0.038964849718427716 0.0055545830731443665 0.038964849718427716
1.8963930385668582E8 0.005624187119003352 0.039539712980933193 0.9943758128809966 -0.039539712980933193 0.9943758128809966 -0.039539712980933193 0.005624187119003352 0.039539712980933193
1.92501227152835E8 0.005695634147224984 0.040122781376713275 0.9943043658527748 -0.040122781376713275 0.9943043658527748 -0.040122781376713275 0.005695634147224984 0.040122781376713275
1.9540634088886917E8 0.005768968393601106 0.04071416493446499 0.9942310316063989 -0.04071416493446499 0.9942310316063989 -0.04071416493446499 0.005768968393601106 0.04071416493446499
1.983552968691535E8 0.005844235048762413 0.041313975096653174 0.9941557649512374 -0.04131397509665317 0.9941557649512374 -0.04131397509665317 0.005844235048762413 0.041313975096653174
2.0134875673469606E8 0.0059214802822264295 0.041922324743343925 0.9940785197177737 -0.041922324743343925 0.9940785197177737 -0.041922324743343925 0.0059214802822264295 0.041922324743343925
2.0438739211159652E8 0.006000751267630938 0.04253932821658668 0.9939992487323691 -0.04253932821658668 0.9939992487323691 -0.04253932821658668 0.006000751267630938 0.04253932821658668
2.074718847617352E8 0.006082096209219352 0.043165101345327035 0.9939179037907806 -0.04316510134532703 0.9939179037907806 -0.04316510134532703 0.006082096209219352 0.043165101345327035
2.106029267357361E8 0.006165564369645467 0.04379976147082782 0.9938344356303546 -0.04379976147082782 0.9938344356303546 -0.04379976147082782 0.006165564369645467 0.04379976147082782
2.1378122052823865E8 0.00625120609916601 0.04444342747257268 0.993748793900834 -0.04444342747257268 0.993748793900834 -0.04444342747257268 0.00625120609916601 0.04444342747257268
2.1700747923551247E8 0.0063390728662899255 0.04509621979462124 0.9936609271337102 -0.04509621979462124 0.9936609271337102 -0.04509621979462124 0.0063390728662899255 0.04509621979462124
2.2028242671545094E8 0.0064292172899537 0.0457582604723815 0.9935707827100462 -0.0457582604723815 0.9935707827100462 -0.0457582604723815 0.0064292172899537 0.0457582604723815
2.23606797749979E8 0.006521693173292056 0.04642967315976036 0.9934783068267081 -0.04642967315976036 0.9934783068267081 -0.04642967315976036 0.006521693173292056 0.04642967315976036
2.2698133820991236E8 0.006616555539073014 0.047110583156648275 0.993383444460927 -0.047110583156648275 0.993383444460927 -0.047110583156648275 0.006616555539073014 0.047110583156648275
2.3040680522230446E8 0.006713860666865835 0.04780111743669032 0.9932861393331341 -0.04780111743669032 0.9932861393331341 -0.04780111743669032 0.006713860666865835 0.04780111743669032
2.338839673403185E8 0.00681366613200919 0.04850140467529037 0.9931863338679908 -0.04850140467529036 0.9931863338679908 -0.04850140467529036 0.00681366613200919 0.04850140467529037
2.37413604715664E8 0.006916030846445895 0.049211575277791575 0.993083969153554 -0.04921157527779158 0.993083969153554 -0.04921157527779158 0.006916030846445895 0.049211575277791575
2.4099650927363476E8 0.007021015101488623 0.049931761407770635 0.9929789848985113 -0.049931761407770635 0.9929789848985113 -0.049931761407770635 0.007021015101488623 0.049931761407770635
