!Murata Part Number: LQP02TQ0N9B02
!These Parameters are Measured in Series Mode Connection
!       o--[Z]--o
!Port1              Port2
!       o-------o
!
!Freq. Start=50[MHz] Stop=20[GHz], 401[Steps]
# Hz S RI R 50
!Freq.(Hz) S11(Real) S11(Imag) S21(Real) S21(Imag) S12(Real) S12(Imag) S22(Real) S22(Imag)
5.0E7 5.273997142934626E-4 0.003320599900230059 0.9994726002857065 -0.003320599900230059 0.9994726002857065 -0.003320599900230059 5.273997142934626E-4 0.003320599900230059
5.0754570186123446E7 5.296567948474075E-4 0.003370223757106321 0.9994703432051525 -0.003370223757106321 0.9994703432051525 -0.003370223757106321 5.296567948474075E-4 0.003370223757106321
5.152052789556263E7 5.319743722944266E-4 0.0034205766441470263 0.9994680256277056 -0.0034205766441470263 0.9994680256277056 -0.0034205766441470263 5.319743722944266E-4 0.0034205766441470263
5.229804498202928E7 5.343538548250863E-4 0.0034716688289143267 0.999465646145175 -0.0034716688289143267 0.999465646145175 -0.0034716688289143267 5.343538548250863E-4 0.0034716688289143267
5.308729589274893E7 5.367966726173352E-4 0.003523510711742811 0.9994632033273827 -0.003523510711742811 0.9994632033273827 -0.003523510711742811 5.367966726173352E-4 0.003523510711742811
5.388845770760058E7 5.393042776666988E-4 0.003576112827408495 0.9994606957223333 -0.003576112827408495 0.9994606957223333 -0.003576112827408495 5.393042776666988E-4 0.003576112827408495
5.470171017884717E7 5.418781435911979E-4 0.0036294858468416714 0.9994581218564088 -0.0036294858468416714 0.9994581218564088 -0.0036294858468416714 5.418781435911979E-4 0.0036294858468416714
5.5527235771465644E7 5.445197654109016E-4 0.0036836405788862447 0.9994554802345891 -0.0036836405788862447 0.9994554802345891 -0.0036836405788862447 5.445197654109016E-4 0.0036836405788862447
5.6365219704085544E7 5.472306593021395E-4 0.003738587972108242 0.9994527693406978 -0.0037385879721082414 0.9994527693406978 -0.0037385879721082414 5.472306593021395E-4 0.003738587972108242
5.721584999054556E7 5.500123623265452E-4 0.003794339116656319 0.9994499876376736 -0.003794339116656319 0.9994499876376736 -0.003794339116656319 5.500123623265452E-4 0.003794339116656319
5.807931748207712E7 5.52866432135229E-4 0.003850905246177159 0.9994471335678647 -0.0038509052461771593 0.9994471335678647 -0.0038509052461771593 5.52866432135229E-4 0.003850905246177159
5.8955815910124585E7 5.557944466485547E-4 0.003908297739788774 0.9994442055533513 -0.0039082977397887735 0.9994442055533513 -0.0039082977397887735 5.557944466485547E-4 0.003908297739788774
5.984554192981184E7 5.58798003712142E-4 0.003966528124114778 0.9994412019962877 -0.003966528124114778 0.9994412019962877 -0.003966528124114778 5.58798003712142E-4 0.003966528124114778
6.074869516406457E7 5.61878720729905E-4 0.004025608075382779 0.9994381212792702 -0.004025608075382779 0.9994381212792702 -0.004025608075382779 5.61878720729905E-4 0.004025608075382779
6.166547824839868E7 5.650382342751388E-4 0.00408554942159014 0.9994349617657249 -0.00408554942159014 0.9994349617657249 -0.00408554942159014 5.650382342751388E-4 0.00408554942159014
6.2596096876384385E7 5.682781996808464E-4 0.004146364144740384 0.9994317218003193 -0.004146364144740384 0.9994317218003193 -0.004146364144740384 5.682781996808464E-4 0.004146364144740384
6.354075984579668E7 5.716002906107322E-4 0.004208064383153561 0.9994283997093893 -0.004208064383153561 0.9994283997093893 -0.004208064383153561 5.716002906107322E-4 0.004208064383153561
6.449967910546205E7 5.750061986125081E-4 0.004270662433853968 0.9994249938013875 -0.004270662433853969 0.9994249938013875 -0.004270662433853969 5.750061986125081E-4 0.004270662433853968
6.547306980281226E7 5.784976326553945E-4 0.004334170755038607 0.9994215023673447 -0.004334170755038607 0.9994215023673447 -0.004334170755038607 5.784976326553945E-4 0.004334170755038607
6.646115033215589E7 5.820763186539435E-4 0.004398601968629775 0.9994179236813461 -0.004398601968629776 0.9994179236813461 -0.004398601968629776 5.820763186539435E-4 0.004398601968629775
6.746414238367817E7 5.857439989805778E-4 0.0044639688629151825 0.9994142560010193 -0.004463968862915182 0.9994142560010193 -0.004463968862915182 5.857439989805778E-4 0.0044639688629151825
6.848227099318038E7 5.895024319694961E-4 0.004530284395278958 0.9994104975680305 -0.004530284395278958 0.9994104975680305 -0.004530284395278958 5.895024319694961E-4 0.004530284395278958
6.951576459256999E7 5.933533914148767E-4 0.004597561695026886 0.9994066466085852 -0.004597561695026887 0.9994066466085852 -0.004597561695026887 5.933533914148767E-4 0.004597561695026886
7.056485506111258E7 5.972986660665795E-4 0.004665814066309063 0.9994027013339334 -0.004665814066309062 0.9994027013339334 -0.004665814066309062 5.972986660665795E-4 0.004665814066309063
7.162977777745734E7 6.013400591268648E-4 0.004735054991143244 0.9993986599408731 -0.004735054991143244 0.9993986599408731 -0.004735054991143244 6.013400591268648E-4 0.004735054991143244
7.271077167244768E7 6.054793877518865E-4 0.0048052981325418164 0.9993945206122481 -0.0048052981325418164 0.9993945206122481 -0.0048052981325418164 6.054793877518865E-4 0.0048052981325418164
7.380807928272885E7 6.09718482562065E-4 0.004876557337745394 0.9993902815174379 -0.004876557337745394 0.9993902815174379 -0.004876557337745394 6.09718482562065E-4 0.004876557337745394
7.492194680516452E7 6.140591871657081E-4 0.00494884664156579 0.9993859408128345 -0.00494884664156579 0.9993859408128345 -0.00494884664156579 6.140591871657081E-4 0.00494884664156579
7.60526241520746E7 6.185033577005365E-4 0.005022180269840873 0.9993814966422996 -0.005022180269840873 0.9993814966422996 -0.005022180269840873 6.185033577005365E-4 0.005022180269840873
7.720036500730675E7 6.23052862398091E-4 0.005096572643003735 0.9993769471376018 -0.005096572643003735 0.9993769471376018 -0.005096572643003735 6.23052862398091E-4 0.005096572643003735
7.836542688315398E7 6.277095811762461E-4 0.0051720383797682476 0.9993722904188238 -0.0051720383797682476 0.9993722904188238 -0.0051720383797682476 6.277095811762461E-4 0.0051720383797682476
7.954807117813127E7 6.32475405265353E-4 0.005248592300932827 0.9993675245947345 -0.005248592300932827 0.9993675245947345 -0.005248592300932827 6.32475405265353E-4 0.005248592300932827
8.074856323562416E7 6.373522368737935E-4 0.0053262494333039655 0.9993626477631261 -0.0053262494333039655 0.9993626477631261 -0.0053262494333039655 6.373522368737935E-4 0.0053262494333039655
8.196717240342227E7 6.423419888989747E-4 0.005405025013740734 0.999357658011101 -0.005405025013740735 0.999357658011101 -0.005405025013740735 6.423419888989747E-4 0.005405025013740734
8.320417209415154E7 6.474465846900329E-4 0.005484934493321087 0.9993525534153099 -0.005484934493321087 0.9993525534153099 -0.005484934493321087 6.474465846900329E-4 0.005484934493321087
8.445983984661816E7 6.526679578687239E-4 0.005565993541630395 0.9993473320421313 -0.005565993541630395 0.9993473320421313 -0.005565993541630395 6.526679578687239E-4 0.005565993541630395
8.573445738807854E7 6.580080522151792E-4 0.0056482180511723155 0.9993419919477846 -0.0056482180511723155 0.9993419919477846 -0.0056482180511723155 6.580080522151792E-4 0.0056482180511723155
8.702831069744885E7 6.63468821625361E-4 0.005731624141901478 0.9993365311783747 -0.005731624141901478 0.9993365311783747 -0.005731624141901478 6.63468821625361E-4 0.005731624141901478
8.834169006946853E7 6.690522301471989E-4 0.005816228165877165 0.9993309477698529 -0.005816228165877165 0.9993309477698529 -0.005816228165877165 6.690522301471989E-4 0.005816228165877165
8.96748901798321E7 6.747602521024876E-4 0.005902046712036596 0.9993252397478974 -0.005902046712036595 0.9993252397478974 -0.005902046712036595 6.747602521024876E-4 0.005902046712036596
9.1028210151304E7 6.805948723016979E-4 0.005989096611085866 0.9993194051276983 -0.005989096611085866 0.9993194051276983 -0.005989096611085866 6.805948723016979E-4 0.005989096611085866
9.240195362083109E7 6.865580863588837E-4 0.006077394940506113 0.999313441913641 -0.006077394940506112 0.999313441913641 -0.006077394940506112 6.865580863588837E-4 0.006077394940506113
9.379642880766791E7 6.926519011138626E-4 0.006166959029671868 0.9993073480988861 -0.006166959029671869 0.9993073480988861 -0.006166959029671869 6.926519011138626E-4 0.006166959029671868
9.521194858253023E7 6.98878335168783E-4 0.0062578064650780415 0.9993011216648311 -0.006257806465078041 0.9993011216648311 -0.006257806465078041 6.98878335168783E-4 0.0062578064650780415
9.664883053779216E7 7.052394195460992E-4 0.0063499550956713025 0.999294760580454 -0.006349955095671302 0.999294760580454 -0.006349955095671302 7.052394195460992E-4 0.0063499550956713025
9.810739705874248E7 7.117371984748181E-4 0.00644342303828109 0.9992882628015252 -0.00644342303828109 0.9992882628015252 -0.00644342303828109 7.117371984748181E-4 0.00644342303828109
9.958797539591652E7 7.183737303116843E-4 0.006538228683144902 0.9992816262696884 -0.006538228683144904 0.9992816262696884 -0.006538228683144904 7.183737303116843E-4 0.006538228683144902
1.0109089773851961E8 7.25151088603708E-4 0.006634390699521805 0.9992748489113963 -0.006634390699521803 0.9992748489113963 -0.006634390699521803 7.25151088603708E-4 0.006634390699521805
1.0261650128895843E8 7.320713632981322E-4 0.00673192804138763 0.9992679286367019 -0.00673192804138763 0.9992679286367019 -0.00673192804138763 7.320713632981322E-4 0.00673192804138763
1.0416512833849736E8 7.391366621055666E-4 0.00683085995320466 0.9992608633378944 -0.00683085995320466 0.9992608633378944 -0.00683085995320466 7.391366621055666E-4 0.00683085995320466
1.0573712634405641E8 7.463491120215974E-4 0.006931205975758025 0.9992536508879782 -0.006931205975758025 0.9992536508879782 -0.006931205975758025 7.463491120215974E-4 0.006931205975758025
1.0733284800616828E8 7.537108610116864E-4 0.007032985952050545 0.9992462891389884 -0.007032985952050545 0.9992462891389884 -0.007032985952050545 7.537108610116864E-4 0.007032985952050545
1.0895265134811176E8 7.612240798636497E-4 0.007136220033247128 0.9992387759201362 -0.007136220033247128 0.9992387759201362 -0.007136220033247128 7.612240798636497E-4 0.007136220033247128
1.1059689979623953E8 7.688909642114047E-4 0.007240928684659429 0.9992311090357886 -0.007240928684659427 0.9992311090357886 -0.007240928684659427 7.688909642114047E-4 0.007240928684659429
1.1226596226151802E8 7.767137367330189E-4 0.0073471326917609 0.9992232862632671 -0.007347132691760898 0.9992232862632671 -0.007347132691760898 7.767137367330189E-4 0.0073471326917609
1.1396021322229806E8 7.846946495254078E-4 0.007454853166222075 0.9992153053504745 -0.007454853166222075 0.9992153053504745 -0.007454853166222075 7.846946495254078E-4 0.007454853166222075
1.1568003280833441E8 7.928359866572574E-4 0.007564111551955433 0.999207164013343 -0.007564111551955433 0.999207164013343 -0.007564111551955433 7.928359866572574E-4 0.007564111551955433
1.1742580688607343E8 8.011400669009675E-4 0.0076749296311589355 0.9991988599330989 -0.007674929631158934 0.9991988599330989 -0.007674929631158934 8.011400669009675E-4 0.0076749296311589355
1.1919792714522783E8 8.096092466435502E-4 0.0077873295303470536 0.9991903907533564 -0.0077873295303470536 0.9991903907533564 -0.0077873295303470536 8.096092466435502E-4 0.0077873295303470536
1.2099679118665792E8 8.18245922975547E-4 0.00790133372635786 0.9991817540770244 -0.007901333726357861 0.9991817540770244 -0.007901333726357861 8.18245922975547E-4 0.00790133372635786
1.2282280261157903E8 8.270525369561144E-4 0.008016965052324737 0.999172947463044 -0.00801696505232474 0.999172947463044 -0.00801696505232474 8.270525369561144E-4 0.008016965052324737
1.2467637111211549E8 8.360315770514702E-4 0.008134246703601033 0.9991639684229485 -0.008134246703601033 0.9991639684229485 -0.008134246703601033 8.360315770514702E-4 0.008134246703601033
1.265579125632208E8 8.451855827429345E-4 0.008253202243626136 0.9991548144172571 -0.008253202243626136 0.9991548144172571 -0.008253202243626136 8.451855827429345E-4 0.008253202243626136
1.284678491159853E8 8.545171482998063E-4 0.00837385560972151 0.9991454828517001 -0.00837385560972151 0.9991454828517001 -0.00837385560972151 8.545171482998063E-4 0.00837385560972151
1.3040660929235186E8 8.640289267113296E-4 0.008496231118805334 0.9991359710732887 -0.008496231118805334 0.9991359710732887 -0.008496231118805334 8.640289267113296E-4 0.008496231118805334
1.3237462808126101E8 8.737236337709945E-4 0.008620353473014764 0.9991262763662291 -0.008620353473014764 0.9991262763662291 -0.008620353473014764 8.737236337709945E-4 0.008620353473014764
1.3437234703624701E8 8.836040523054212E-4 0.008746247765225054 0.9991163959476944 -0.008746247765225054 0.9991163959476944 -0.008746247765225054 8.836040523054212E-4 0.008746247765225054
1.364002143745067E8 8.936730365391026E-4 0.00887393948445528 0.9991063269634609 -0.008873939484455279 0.9991063269634609 -0.008873939484455279 8.936730365391026E-4 0.00887393948445528
1.3845868507746372E8 9.039335165853079E-4 0.009003454521150964 0.9990960664834149 -0.009003454521150964 0.9990960664834149 -0.009003454521150964 9.039335165853079E-4 0.009003454521150964
1.405482209928499E8 9.143885030525021E-4 0.009134819172334323 0.9990856114969475 -0.009134819172334325 0.9990856114969475 -0.009134819172334325 9.143885030525021E-4 0.009134819172334323
1.426692909383278E8 9.250410917547454E-4 0.009268060146613766 0.9990749589082453 -0.009268060146613766 0.9990749589082453 -0.009268060146613766 9.250410917547454E-4 0.009268060146613766
1.4482237080667645E8 9.358944685136669E-4 0.009403204569044844 0.9990641055314863 -0.009403204569044844 0.9990641055314863 -0.009403204569044844 9.358944685136669E-4 0.009403204569044844
1.4700794367256513E8 9.4695191403878E-4 0.009540279985835823 0.9990530480859613 -0.009540279985835825 0.9990530480859613 -0.009540279985835825 9.4695191403878E-4 0.009540279985835823
1.492264999009378E8 9.582168088721654E-4 0.009679314368891856 0.9990417831911278 -0.009679314368891858 0.9990417831911278 -0.009679314368891858 9.582168088721654E-4 0.009679314368891856
1.5147853725703382E8 9.696926383828389E-4 0.009820336120192869 0.9990303073616171 -0.009820336120192869 0.9990303073616171 -0.009820336120192869 9.696926383828389E-4 0.009820336120192869
1.5376456101806876E8 9.813829977954776E-4 0.009963374076001084 0.9990186170022043 -0.009963374076001086 0.9990186170022043 -0.009963374076001086 9.813829977954776E-4 0.009963374076001084
1.5608508408660066E8 9.932915972376546E-4 0.010108457510895516 0.9990067084027622 -0.010108457510895515 0.9990067084027622 -0.010108457510895515 9.932915972376546E-4 0.010108457510895516
1.5844062710560706E8 0.0010054222667892018 0.010255616141631573 0.9989945777332109 -0.010255616141631575 0.9989945777332109 -0.010255616141631575 0.0010054222667892018 0.010255616141631573
1.6083171857529896E8 0.0010177789615169912 0.010404880130825576 0.9989822210384831 -0.010404880130825578 0.9989822210384831 -0.010404880130825578 0.0010177789615169912 0.010404880130825576
1.632588949716973E8 0.001030365766478035 0.010556280090464675 0.9989696342335218 -0.010556280090464673 0.9989696342335218 -0.010556280090464673 0.001030365766478035 0.010556280090464675
1.6572270086699936E8 0.001043186901673669 0.010709847085244511 0.9989568130983264 -0.010709847085244511 0.9989568130983264 -0.010709847085244511 0.001043186901673669 0.010709847085244511
1.6822368905176118E8 0.0010562467269373738 0.01086561263573781 0.9989437532730626 -0.01086561263573781 0.9989437532730626 -0.01086561263573781 0.0010562467269373738 0.01086561263573781
1.7076242065892437E8 0.0010695497467388202 0.011023608721398707 0.9989304502532611 -0.011023608721398707 0.9989304502532611 -0.011023608721398707 0.0010695497467388202 0.011023608721398707
1.7333946528971428E8 0.001083100614886737 0.011183867783408808 0.9989168993851132 -0.011183867783408808 0.9989168993851132 -0.011183867783408808 0.001083100614886737 0.011183867783408808
1.7595540114143828E8 0.001096904139113378 0.011346422727372367 0.9989030958608868 -0.011346422727372367 0.9989030958608868 -0.011346422727372367 0.001096904139113378 0.011346422727372367
1.786108151372127E8 0.0011109652855236035 0.011511306925869304 0.9988890347144763 -0.011511306925869304 0.9988890347144763 -0.011511306925869304 0.0011109652855236035 0.011511306925869304
1.8130630305764765E8 0.0011252891828919238 0.011678554220876112 0.9988747108171081 -0.011678554220876112 0.9988747108171081 -0.011678554220876112 0.0011252891828919238 0.011678554220876112
1.840424696745189E8 0.001139881126791299 0.01184819892606595 0.9988601188732088 -0.011848198926065949 0.9988601188732088 -0.011848198926065949 0.001139881126791299 0.01184819892606595
1.8681992888645732E8 0.0011547465835379824 0.012020275829000613 0.9988452534164619 -0.012020275829000613 0.9988452534164619 -0.012020275829000613 0.0011547465835379824 0.012020275829000613
1.8963930385668582E8 0.0011698911939373368 0.012194820193228286 0.9988301088060627 -0.012194820193228288 0.9988301088060627 -0.012194820193228288 0.0011698911939373368 0.012194820193228286
1.92501227152835E8 0.0011853207768161825 0.012371867760302059 0.9988146792231838 -0.012371867760302059 0.9988146792231838 -0.012371867760302059 0.0011853207768161825 0.012371867760302059
1.9540634088886917E8 0.0012010413323280643 0.01255145475173569 0.998798958667672 -0.01255145475173569 0.998798958667672 -0.01255145475173569 0.0012010413323280643 0.01255145475173569
1.983552968691535E8 0.0012170590450186138 0.012733617870913884 0.9987829409549814 -0.012733617870913882 0.9987829409549814 -0.012733617870913882 0.0012170590450186138 0.012733617870913884
2.0134875673469606E8 0.0012333802866391192 0.012918394304975699 0.9987666197133609 -0.012918394304975699 0.9987666197133609 -0.012918394304975699 0.0012333802866391192 0.012918394304975699
2.0438739211159652E8 0.001250011618697377 0.013105821726690595 0.9987499883813026 -0.013105821726690593 0.9987499883813026 -0.013105821726690593 0.001250011618697377 0.013105821726690595
2.074718847617352E8 0.001266959794735963 0.01329593829634771 0.998733040205264 -0.013295938296347707 0.998733040205264 -0.013295938296347707 0.001266959794735963 0.01329593829634771
2.106029267357361E8 0.0012842317623291048 0.013488782663679755 0.9987157682376708 -0.013488782663679755 0.9987157682376708 -0.013488782663679755 0.0012842317623291048 0.013488782663679755
2.1378122052823865E8 0.0013018346647905624 0.013684393969843986 0.9986981653352094 -0.013684393969843986 0.9986981653352094 -0.013684393969843986 0.0013018346647905624 0.013684393969843986
2.1700747923551247E8 0.0013197758425860528 0.013882811849483326 0.998680224157414 -0.013882811849483322 0.998680224157414 -0.013882811849483322 0.0013197758425860528 0.013882811849483326
2.2028242671545094E8 0.0013380628344450414 0.014084076432891557 0.998661937165555 -0.014084076432891557 0.998661937165555 -0.014084076432891557 0.0013380628344450414 0.014084076432891557
2.23606797749979E8 0.0013567033781680007 0.01428822834830719 0.9986432966218319 -0.014288228348307187 0.9986432966218319 -0.014288228348307187 0.0013567033781680007 0.01428822834830719
2.2698133820991236E8 0.001375705411126563 0.014495308724361238 0.9986242945888736 -0.01449530872436124 0.9986242945888736 -0.01449530872436124 0.001375705411126563 0.014495308724361238
2.3040680522230446E8 0.0013950770704553616 0.014705359192704692 0.9986049229295447 -0.014705359192704692 0.9986049229295447 -0.014705359192704692 0.0013950770704553616 0.014705359192704692
2.338839673403185E8 0.0014148266929357501 0.01491842189084196 0.9985851733070641 -0.01491842189084196 0.9985851733070641 -0.01491842189084196 0.0014148266929357501 0.01491842189084196
2.37413604715664E8 0.0014349628145730255 0.01513453946519708 0.9985650371854269 -0.015134539465197078 0.9985650371854269 -0.015134539465197078 0.0014349628145730255 0.01513453946519708
