!Murata Part Number: LQP02TQ3N6B02
!These Parameters are Measured in Series Mode Connection
!       o--[Z]--o
!Port1              Port2
!       o-------o
!
!Freq. Start=50[MHz] Stop=20[GHz], 401[Steps]
# Hz S RI R 50
!Freq.(Hz) S11(Real) S11(Imag) S21(Real) S21(Imag) S12(Real) S12(Imag) S22(Real) S22(Imag)
5.0E7 0.00608698910766972 0.012197375459937092 0.9939130108923302 -0.012197375459937094 0.9939130108923302 -0.012197375459937094 0.00608698910766972 0.012197375459937092
5.0754570186123446E7 0.006095646815538878 0.012380243242841022 0.9939043531844611 -0.012380243242841022 0.9939043531844611 -0.012380243242841022 0.006095646815538878 0.012380243242841022
5.152052789556263E7 0.006104547971500614 0.012565821698284964 0.9938954520284992 -0.012565821698284962 0.9938954520284992 -0.012565821698284962 0.006104547971500614 0.012565821698284964
5.229804498202928E7 0.0061136989341072576 0.01275414992007244 0.9938863010658926 -0.01275414992007244 0.9938863010658926 -0.01275414992007244 0.0061136989341072576 0.01275414992007244
5.308729589274893E7 0.006123106205348607 0.012945267536972381 0.9938768937946513 -0.012945267536972381 0.9938768937946513 -0.012945267536972381 0.006123106205348607 0.012945267536972381
5.388845770760058E7 0.006132776433043956 0.013139214719918217 0.9938672235669562 -0.01313921471991822 0.9938672235669562 -0.01313921471991822 0.006132776433043956 0.013139214719918217
5.470171017884717E7 0.006142716413262562 0.01333603218935568 0.9938572835867373 -0.01333603218935568 0.9938572835867373 -0.01333603218935568 0.006142716413262562 0.01333603218935568
5.5527235771465644E7 0.0061529330927753275 0.013535761222745852 0.9938470669072246 -0.013535761222745848 0.9938470669072246 -0.013535761222745848 0.0061529330927753275 0.013535761222745852
5.6365219704085544E7 0.006163433571540697 0.013738443662230093 0.9938365664284593 -0.013738443662230093 0.9938365664284593 -0.013738443662230093 0.006163433571540697 0.013738443662230093
5.721584999054556E7 0.006174225105228266 0.013944121922463809 0.9938257748947718 -0.013944121922463809 0.9938257748947718 -0.013944121922463809 0.006174225105228266 0.013944121922463809
5.807931748207712E7 0.006185315107784058 0.014152838998625985 0.993814684892216 -0.014152838998625988 0.993814684892216 -0.014152838998625988 0.006185315107784058 0.014152838998625985
5.8955815910124585E7 0.006196711154041765 0.01436463847461193 0.9938032888459584 -0.01436463847461193 0.9938032888459584 -0.01436463847461193 0.006196711154041765 0.01436463847461193
5.984554192981184E7 0.006208420982384921 0.014579564531416499 0.9937915790176153 -0.014579564531416499 0.9937915790176153 -0.014579564531416499 0.006208420982384921 0.014579564531416499
6.074869516406457E7 0.006220452497465248 0.01479766195571533 0.9937795475025348 -0.01479766195571533 0.9937795475025348 -0.01479766195571533 0.006220452497465248 0.01479766195571533
6.166547824839868E7 0.0062328137729832705 0.015018976148651927 0.9937671862270167 -0.015018976148651927 0.9937671862270167 -0.015018976148651927 0.0062328137729832705 0.015018976148651927
6.2596096876384385E7 0.006245513054537553 0.015243553134838054 0.9937544869454626 -0.015243553134838056 0.9937544869454626 -0.015243553134838056 0.006245513054537553 0.015243553134838054
6.354075984579668E7 0.006258558762549769 0.015471439571575577 0.9937414412374501 -0.015471439571575577 0.9937414412374501 -0.015471439571575577 0.006258558762549769 0.015471439571575577
6.449967910546205E7 0.006271959495273323 0.01570268275830737 0.9937280405047266 -0.01570268275830737 0.9937280405047266 -0.01570268275830737 0.006271959495273323 0.01570268275830737
6.547306980281226E7 0.006285724031893866 0.015937330646305196 0.9937142759681062 -0.015937330646305196 0.9937142759681062 -0.015937330646305196 0.006285724031893866 0.015937330646305196
6.646115033215589E7 0.006299861335730827 0.016175431848602446 0.993700138664269 -0.016175431848602442 0.993700138664269 -0.016175431848602442 0.006299861335730827 0.016175431848602446
6.746414238367817E7 0.006314380557549756 0.016417035650179317 0.9936856194424503 -0.01641703565017932 0.9936856194424503 -0.01641703565017932 0.006314380557549756 0.016417035650179317
6.848227099318038E7 0.0063292910389959 0.0166621920184082 0.9936707089610041 -0.016662192018408198 0.9936707089610041 -0.016662192018408198 0.0063292910389959 0.0166621920184082
6.951576459256999E7 0.0063446023161603205 0.016910951613766555 0.9936553976838397 -0.016910951613766555 0.9936553976838397 -0.016910951613766555 0.0063446023161603205 0.016910951613766555
7.056485506111258E7 0.006360324123290488 0.017163365800824622 0.9936396758767095 -0.017163365800824622 0.9936396758767095 -0.017163365800824622 0.006360324123290488 0.017163365800824622
7.162977777745734E7 0.0063764663966581715 0.017419486659514833 0.9936235336033419 -0.017419486659514836 0.9936235336033419 -0.017419486659514836 0.0063764663966581715 0.017419486659514833
7.271077167244768E7 0.006393039278598086 0.01767936699668959 0.9936069607214018 -0.01767936699668959 0.9936069607214018 -0.01767936699668959 0.006393039278598086 0.01767936699668959
7.380807928272885E7 0.0064100531217317 0.017943060357973696 0.9935899468782684 -0.017943060357973696 0.9935899468782684 -0.017943060357973696 0.0064100531217317 0.017943060357973696
7.492194680516452E7 0.006427518493391195 0.018210621039917135 0.9935724815066088 -0.018210621039917135 0.9935724815066088 -0.018210621039917135 0.006427518493391195 0.018210621039917135
7.60526241520746E7 0.006445446180259545 0.01848210410245364 0.9935545538197404 -0.018482104102453635 0.9935545538197404 -0.018482104102453635 0.006445446180259545 0.01848210410245364
7.720036500730675E7 0.006463847193243316 0.01875756538166974 0.9935361528067569 -0.01875756538166974 0.9935361528067569 -0.01875756538166974 0.006463847193243316 0.01875756538166974
7.836542688315398E7 0.006482732772595581 0.019037061502888385 0.9935172672274044 -0.019037061502888388 0.9935172672274044 -0.019037061502888388 0.006482732772595581 0.019037061502888385
7.954807117813127E7 0.006502114393307107 0.019320649894070705 0.9934978856066928 -0.019320649894070705 0.9934978856066928 -0.019320649894070705 0.006502114393307107 0.019320649894070705
8.074856323562416E7 0.006522003770784673 0.019608388799538433 0.9934779962292153 -0.019608388799538433 0.9934779962292153 -0.019608388799538433 0.006522003770784673 0.019608388799538433
8.196717240342227E7 0.006542412866836007 0.019900337294018938 0.993457587133164 -0.01990033729401894 0.993457587133164 -0.01990033729401894 0.006542412866836007 0.019900337294018938
8.320417209415154E7 0.006563353895981591 0.020196555297013984 0.9934366461040183 -0.020196555297013984 0.9934366461040183 -0.020196555297013984 0.006563353895981591 0.020196555297013984
8.445983984661816E7 0.006584839332114049 0.020497103587492006 0.9934151606678858 -0.020497103587492002 0.9934151606678858 -0.020497103587492002 0.006584839332114049 0.020497103587492006
8.573445738807854E7 0.00660688191552653 0.0208020438189032 0.9933931180844735 -0.0208020438189032 0.9933931180844735 -0.0208020438189032 0.00660688191552653 0.0208020438189032
8.702831069744885E7 0.0066294946603318765 0.02111143853451527 0.9933705053396682 -0.02111143853451527 0.9933705053396682 -0.02111143853451527 0.0066294946603318765 0.02111143853451527
8.834169006946853E7 0.006652690862294898 0.02142535118306679 0.9933473091377051 -0.02142535118306679 0.9933473091377051 -0.02142535118306679 0.006652690862294898 0.02142535118306679
8.96748901798321E7 0.006676484107100383 0.021743846134733846 0.9933235158928997 -0.021743846134733846 0.9933235158928997 -0.021743846134733846 0.006676484107100383 0.021743846134733846
9.1028210151304E7 0.006700888279079877 0.02206698869740455 0.99329911172092 -0.02206698869740455 0.99329911172092 -0.02206698869740455 0.006700888279079877 0.02206698869740455
9.240195362083109E7 0.006725917570420298 0.02239484513325456 0.9932740824295796 -0.022394845133254564 0.9932740824295796 -0.022394845133254564 0.006725917570420298 0.02239484513325456
9.379642880766791E7 0.0067515864908779 0.022727482675615758 0.9932484135091222 -0.022727482675615758 0.9932484135091222 -0.022727482675615758 0.0067515864908779 0.022727482675615758
9.521194858253023E7 0.006777909878020777 0.02306496954612848 0.9932220901219792 -0.02306496954612848 0.9932220901219792 -0.02306496954612848 0.006777909878020777 0.02306496954612848
9.664883053779216E7 0.006804902908023465 0.02340737497216716 0.9931950970919766 -0.023407374972167164 0.9931950970919766 -0.023407374972167164 0.006804902908023465 0.02340737497216716
9.810739705874248E7 0.006832581107036672 0.023754769204526606 0.9931674188929632 -0.023754769204526606 0.9931674188929632 -0.023754769204526606 0.006832581107036672 0.023754769204526606
9.958797539591652E7 0.006860960363155318 0.024107223535356367 0.9931390396368447 -0.024107223535356367 0.9931390396368447 -0.024107223535356367 0.006860960363155318 0.024107223535356367
1.0109089773851961E8 0.006890056939007432 0.024464810316327953 0.9931099430609927 -0.024464810316327953 0.9931099430609927 -0.024464810316327953 0.006890056939007432 0.024464810316327953
1.0261650128895843E8 0.006919887484986226 0.024827602977019105 0.9930801125150137 -0.024827602977019105 0.9930801125150137 -0.024827602977019105 0.006919887484986226 0.024827602977019105
1.0416512833849736E8 0.0069504690531470275 0.02519567604349774 0.9930495309468528 -0.025195676043497737 0.9930495309468528 -0.025195676043497737 0.0069504690531470275 0.02519567604349774
1.0573712634405641E8 0.006981819111790237 0.025569105157087036 0.9930181808882098 -0.025569105157087036 0.9930181808882098 -0.025569105157087036 0.006981819111790237 0.025569105157087036
1.0733284800616828E8 0.0070139555607505654 0.02594796709329176 0.9929860444392493 -0.02594796709329175 0.9929860444392493 -0.02594796709329175 0.0070139555607505654 0.02594796709329176
1.0895265134811176E8 0.007046896747412299 0.026332339780864817 0.9929531032525876 -0.02633233978086481 0.9929531032525876 -0.02633233978086481 0.007046896747412299 0.026332339780864817
1.1059689979623953E8 0.0070806614834690185 0.026722302320992007 0.9929193385165309 -0.02672230232099201 0.9929193385165309 -0.02672230232099201 0.0070806614834690185 0.026722302320992007
1.1226596226151802E8 0.007115269062445647 0.027117935006571822 0.9928847309375545 -0.027117935006571822 0.9928847309375545 -0.027117935006571822 0.007115269062445647 0.027117935006571822
1.1396021322229806E8 0.007150739277999262 0.027519319341565998 0.9928492607220006 -0.027519319341565998 0.9928492607220006 -0.027519319341565998 0.007150739277999262 0.027519319341565998
1.1568003280833441E8 0.007187092443014195 0.027926538060396026 0.9928129075569856 -0.027926538060396026 0.9928129075569856 -0.027926538060396026 0.007187092443014195 0.027926538060396026
1.1742580688607343E8 0.007224349409505616 0.028339675147359827 0.9927756505904944 -0.02833967514735982 0.9927756505904944 -0.02833967514735982 0.007224349409505616 0.028339675147359827
1.1919792714522783E8 0.007262531589344618 0.02875881585604201 0.9927374684106555 -0.02875881585604201 0.9927374684106555 -0.02875881585604201 0.007262531589344618 0.02875881585604201
1.2099679118665792E8 0.007301660975816422 0.02918404672869096 0.9926983390241835 -0.02918404672869096 0.9926983390241835 -0.02918404672869096 0.007301660975816422 0.02918404672869096
1.2282280261157903E8 0.007341760166022096 0.029615455615535066 0.9926582398339779 -0.029615455615535073 0.9926582398339779 -0.029615455615535073 0.007341760166022096 0.029615455615535066
1.2467637111211549E8 0.0073828523841326455 0.030053131694010436 0.9926171476158674 -0.030053131694010433 0.9926171476158674 -0.030053131694010433 0.0073828523841326455 0.030053131694010436
1.265579125632208E8 0.007424961505503263 0.03049716548787227 0.9925750384944968 -0.03049716548787227 0.9925750384944968 -0.03049716548787227 0.007424961505503263 0.03049716548787227
1.284678491159853E8 0.007468112081653723 0.03094764888616159 0.9925318879183463 -0.030947648886161583 0.9925318879183463 -0.030947648886161583 0.007468112081653723 0.03094764888616159
1.3040660929235186E8 0.007512329366120028 0.031404675161999435 0.9924876706338801 -0.031404675161999435 0.9924876706338801 -0.031404675161999435 0.007512329366120028 0.031404675161999435
1.3237462808126101E8 0.007557639341180744 0.03186833899118086 0.9924423606588191 -0.03186833899118086 0.9924423606588191 -0.03186833899118086 0.007557639341180744 0.03186833899118086
1.3437234703624701E8 0.007604068745460307 0.03233873647054088 0.9923959312545397 -0.03233873647054088 0.9923959312545397 -0.03233873647054088 0.007604068745460307 0.03233873647054088
1.364002143745067E8 0.007651645102410379 0.03281596513606534 0.9923483548975897 -0.03281596513606534 0.9923483548975897 -0.03281596513606534 0.007651645102410379 0.03281596513606534
1.3845868507746372E8 0.007700396749669163 0.03330012398072043 0.992299603250331 -0.03330012398072043 0.992299603250331 -0.03330012398072043 0.007700396749669163 0.03330012398072043
1.405482209928499E8 0.007750352869297416 0.033791313471974005 0.9922496471307026 -0.033791313471974005 0.9922496471307026 -0.033791313471974005 0.007750352869297416 0.033791313471974005
1.426692909383278E8 0.0078015435188890534 0.03428963556898444 0.992198456481111 -0.03428963556898444 0.992198456481111 -0.03428963556898444 0.0078015435188890534 0.03428963556898444
1.4482237080667645E8 0.007853999663553254 0.034795193739431615 0.9921460003364467 -0.034795193739431615 0.9921460003364467 -0.034795193739431615 0.007853999663553254 0.034795193739431615
1.4700794367256513E8 0.007907753208764152 0.035308092975967 0.992092246791236 -0.035308092975967 0.992092246791236 -0.035308092975967 0.007907753208764152 0.035308092975967
1.492264999009378E8 0.007962837034073626 0.03582843981225963 0.9920371629659264 -0.03582843981225963 0.9920371629659264 -0.03582843981225963 0.007962837034073626 0.03582843981225963
1.5147853725703382E8 0.008019285027682168 0.03635634233861681 0.9919807149723181 -0.03635634233861681 0.9919807149723181 -0.03635634233861681 0.008019285027682168 0.03635634233861681
1.5376456101806876E8 0.008077132121862174 0.036891910217158215 0.9919228678781375 -0.036891910217158215 0.9919228678781375 -0.036891910217158215 0.008077132121862174 0.036891910217158215
1.5608508408660066E8 0.00813641432922806 0.0374352546965243 0.9918635856707718 -0.0374352546965243 0.9918635856707718 -0.0374352546965243 0.00813641432922806 0.0374352546965243
1.5844062710560706E8 0.008197168779847075 0.037986488626099775 0.991802831220153 -0.037986488626099775 0.991802831220153 -0.037986488626099775 0.008197168779847075 0.037986488626099775
1.6083171857529896E8 0.008259433759184987 0.03854572646973521 0.9917405662408151 -0.038545726469735205 0.9917405662408151 -0.038545726469735205 0.008259433759184987 0.03854572646973521
1.632588949716973E8 0.008323248746880618 0.03911308431894957 0.9916767512531195 -0.03911308431894957 0.9916767512531195 -0.03911308431894957 0.008323248746880618 0.03911308431894957
1.6572270086699936E8 0.008388654456343713 0.039688679905598635 0.9916113455436563 -0.039688679905598635 0.9916113455436563 -0.039688679905598635 0.008388654456343713 0.039688679905598635
1.6822368905176118E8 0.008455692875170725 0.040272632613994094 0.9915443071248291 -0.040272632613994094 0.9915443071248291 -0.040272632613994094 0.008455692875170725 0.040272632613994094
1.7076242065892437E8 0.008524407306373783 0.04086506349246035 0.9914755926936262 -0.04086506349246035 0.9914755926936262 -0.04086506349246035 0.008524407306373783 0.04086506349246035
1.7333946528971428E8 0.008594842410418474 0.041466095264314995 0.9914051575895816 -0.04146609526431499 0.9914051575895816 -0.04146609526431499 0.008594842410418474 0.041466095264314995
1.7595540114143828E8 0.008667044248066904 0.04207585233826168 0.991332955751933 -0.04207585233826168 0.991332955751933 -0.04207585233826168 0.008667044248066904 0.04207585233826168
1.786108151372127E8 0.00874106032402319 0.042694460818183275 0.9912589396759769 -0.04269446081818328 0.9912589396759769 -0.04269446081818328 0.00874106032402319 0.042694460818183275
1.8130630305764765E8 0.008816939631379347 0.043322048512324435 0.9911830603686204 -0.043322048512324435 0.9911830603686204 -0.043322048512324435 0.008816939631379347 0.043322048512324435
1.840424696745189E8 0.008894732696860457 0.04395874494185263 0.9911052673031394 -0.04395874494185264 0.9911052673031394 -0.04395874494185264 0.008894732696860457 0.04395874494185263
1.8681992888645732E8 0.008974491626868928 0.04460468134878772 0.9910255083731311 -0.04460468134878772 0.9910255083731311 -0.04460468134878772 0.008974491626868928 0.04460468134878772
1.8963930385668582E8 0.00905627015432874 0.045259990703289656 0.990943729845671 -0.04525999070328965 0.990943729845671 -0.04525999070328965 0.00905627015432874 0.045259990703289656
1.92501227152835E8 0.009140123686331363 0.045924807710294245 0.9908598763136686 -0.045924807710294245 0.9908598763136686 -0.045924807710294245 0.009140123686331363 0.045924807710294245
1.9540634088886917E8 0.009226109352586316 0.046599268815487246 0.9907738906474137 -0.046599268815487246 0.9907738906474137 -0.046599268815487246 0.009226109352586316 0.046599268815487246
1.983552968691535E8 0.009314286054680059 0.0472835122106058 0.99068571394532 -0.0472835122106058 0.99068571394532 -0.0472835122106058 0.009314286054680059 0.0472835122106058
2.0134875673469606E8 0.009404714516148256 0.047977677838057675 0.9905952854838518 -0.047977677838057675 0.9905952854838518 -0.047977677838057675 0.009404714516148256 0.047977677838057675
2.0438739211159652E8 0.009497457333367064 0.04868190739484678 0.9905025426666328 -0.048681907394846784 0.9905025426666328 -0.048681907394846784 0.009497457333367064 0.04868190739484678
2.074718847617352E8 0.009592579027270282 0.049396344335793756 0.9904074209727296 -0.049396344335793756 0.9904074209727296 -0.049396344335793756 0.009592579027270282 0.049396344335793756
2.106029267357361E8 0.009690146095899965 0.05012113387604003 0.9903098539041001 -0.050121133876040024 0.9903098539041001 -0.050121133876040024 0.009690146095899965 0.05012113387604003
2.1378122052823865E8 0.009790227067798933 0.050856422992822455 0.9902097729322009 -0.050856422992822455 0.9902097729322009 -0.050856422992822455 0.009790227067798933 0.050856422992822455
2.1700747923551247E8 0.009892892556254503 0.05160236042650581 0.9901071074437455 -0.051602360426505824 0.9901071074437455 -0.051602360426505824 0.009892892556254503 0.05160236042650581
2.2028242671545094E8 0.00999821531440312 0.05235909668085865 0.990001784685597 -0.052359096680858634 0.990001784685597 -0.052359096680858634 0.00999821531440312 0.05235909668085865
2.23606797749979E8 0.010106270291206606 0.05312678402255795 0.9898937297087933 -0.05312678402255795 0.9898937297087933 -0.05312678402255795 0.010106270291206606 0.05312678402255795
2.2698133820991236E8 0.010217134688310935 0.053905576479907236 0.989782865311689 -0.053905576479907236 0.989782865311689 -0.053905576479907236 0.010217134688310935 0.053905576479907236
2.3040680522230446E8 0.01033088801779901 0.05469562984075114 0.9896691119822008 -0.05469562984075113 0.9896691119822008 -0.05469562984075113 0.01033088801779901 0.05469562984075114
2.338839673403185E8 0.010447612160849277 0.055497101649569267 0.9895523878391508 -0.055497101649569267 0.9895523878391508 -0.055497101649569267 0.010447612160849277 0.055497101649569267
2.37413604715664E8 0.010567391427312306 0.05631015120373124 0.9894326085726877 -0.05631015120373124 0.9894326085726877 -0.05631015120373124 0.010567391427312306 0.05631015120373124
2.4099650927363476E8 0.010690312616217654 0.05713493954889356 0.9893096873837823 -0.057134939548893544 0.9893096873837823 -0.057134939548893544 0.010690312616217654 0.05713493954889356
2.446334848907889E8 0.01081646507722337 0.05797162947351852 0.9891835349227767 -0.05797162947351851 0.9891835349227767 -0.05797162947351851 0.01081646507722337 0.05797162947351852
