!Murata Part Number: LQP02TQ3N4B02
!These Parameters are Measured in Series Mode Connection
!       o--[Z]--o
!Port1              Port2
!       o-------o
!
!Freq. Start=50[MHz] Stop=20[GHz], 401[Steps]
# Hz S RI R 50
!Freq.(Hz) S11(Real) S11(Imag) S21(Real) S21(Imag) S12(Real) S12(Imag) S22(Real) S22(Imag)
5.0E7 0.00463649679186508 0.011602291967649149 0.9953635032081348 -0.011602291967649149 0.9953635032081348 -0.011602291967649149 0.00463649679186508 0.011602291967649149
5.0754570186123446E7 0.004644768503615764 0.011776287634031827 0.9953552314963842 -0.011776287634031829 0.9953552314963842 -0.011776287634031829 0.004644768503615764 0.011776287634031827
5.152052789556263E7 0.004653275645126722 0.011952863120204287 0.9953467243548735 -0.011952863120204287 0.9953467243548735 -0.011952863120204287 0.004653275645126722 0.011952863120204287
5.229804498202928E7 0.004662024491363462 0.01213205556231464 0.9953379755086365 -0.01213205556231464 0.9953379755086365 -0.01213205556231464 0.004662024491363462 0.01213205556231464
5.308729589274893E7 0.004671021462814392 0.012313902595885733 0.9953289785371856 -0.012313902595885735 0.9953289785371856 -0.012313902595885735 0.004671021462814392 0.012313902595885733
5.388845770760058E7 0.004680273127871101 0.012498442361905894 0.995319726872129 -0.012498442361905894 0.995319726872129 -0.012498442361905894 0.004680273127871101 0.012498442361905894
5.470171017884717E7 0.004689786205211712 0.012685713513021793 0.9953102137947885 -0.012685713513021793 0.9953102137947885 -0.012685713513021793 0.004689786205211712 0.012685713513021793
5.5527235771465644E7 0.004699567566187015 0.01287575521983873 0.995300432433813 -0.012875755219838726 0.995300432433813 -0.012875755219838726 0.004699567566187015 0.01287575521983873
5.6365219704085544E7 0.004709624237209266 0.013068607177334162 0.9952903757627906 -0.013068607177334159 0.9952903757627906 -0.013068607177334159 0.004709624237209266 0.013068607177334162
5.721584999054556E7 0.004719963402143746 0.013264309611390331 0.995280036597856 -0.013264309611390327 0.995280036597856 -0.013264309611390327 0.004719963402143746 0.013264309611390331
5.807931748207712E7 0.004730592404703428 0.01346290328545254 0.9952694075952966 -0.01346290328545254 0.9952694075952966 -0.01346290328545254 0.004730592404703428 0.01346290328545254
5.8955815910124585E7 0.00474151875084737 0.013664429507319678 0.9952584812491527 -0.013664429507319678 0.9952584812491527 -0.013664429507319678 0.00474151875084737 0.013664429507319678
5.984554192981184E7 0.004752750111183731 0.013868930136074088 0.9952472498888165 -0.013868930136074088 0.9952472498888165 -0.013868930136074088 0.004752750111183731 0.013868930136074088
6.074869516406457E7 0.0047642943233785935 0.014076447589157968 0.9952357056766215 -0.014076447589157968 0.9952357056766215 -0.014076447589157968 0.0047642943233785935 0.014076447589157968
6.166547824839868E7 0.0047761593945722935 0.014287024849604377 0.9952238406054278 -0.014287024849604375 0.9952238406054278 -0.014287024849604375 0.0047761593945722935 0.014287024849604377
6.2596096876384385E7 0.004788353503805081 0.014500705473430422 0.995211646496195 -0.014500705473430422 0.995211646496195 -0.014500705473430422 0.004788353503805081 0.014500705473430422
6.354075984579668E7 0.004800885004454648 0.014717533597201408 0.9951991149955454 -0.014717533597201408 0.9951991149955454 -0.014717533597201408 0.004800885004454648 0.014717533597201408
6.449967910546205E7 0.004813762426688353 0.014937553945774354 0.9951862375733115 -0.014937553945774354 0.9951862375733115 -0.014937553945774354 0.004813762426688353 0.014937553945774354
6.547306980281226E7 0.004826994479933483 0.01516081184023001 0.9951730055200665 -0.015160811840230007 0.9951730055200665 -0.015160811840230007 0.004826994479933483 0.01516081184023001
6.646115033215589E7 0.004840590055369541 0.015387353206002666 0.9951594099446306 -0.015387353206002666 0.9951594099446306 -0.015387353206002666 0.004840590055369541 0.015387353206002666
6.746414238367817E7 0.004854558228446955 0.015617224581217224 0.9951454417715528 -0.015617224581217221 0.9951454417715528 -0.015617224581217221 0.004854558228446955 0.015617224581217224
6.848227099318038E7 0.004868908261437448 0.015850473125243524 0.9951310917385627 -0.015850473125243524 0.9951310917385627 -0.015850473125243524 0.004868908261437448 0.015850473125243524
6.951576459256999E7 0.004883649606021739 0.01608714662747786 0.9951163503939783 -0.016087146627477865 0.9951163503939783 -0.016087146627477865 0.004883649606021739 0.01608714662747786
7.056485506111258E7 0.004898791905921099 0.016327293516362085 0.9951012080940789 -0.01632729351636208 0.9951012080940789 -0.01632729351636208 0.004898791905921099 0.016327293516362085
7.162977777745734E7 0.0049143449995800075 0.016570962868650674 0.99508565500042 -0.016570962868650674 0.99508565500042 -0.016570962868650674 0.0049143449995800075 0.016570962868650674
7.271077167244768E7 0.004930318922907855 0.016818204418936483 0.9950696810770923 -0.016818204418936483 0.9950696810770923 -0.016818204418936483 0.004930318922907855 0.016818204418936483
7.380807928272885E7 0.004946723912088585 0.017069068569445855 0.9950532760879113 -0.017069068569445855 0.9950532760879113 -0.017069068569445855 0.004946723912088585 0.017069068569445855
7.492194680516452E7 0.004963570406467936 0.017323606400113913 0.995036429593532 -0.017323606400113913 0.995036429593532 -0.017323606400113913 0.004963570406467936 0.017323606400113913
7.60526241520746E7 0.004980869051528808 0.017581869678950826 0.9950191309484713 -0.017581869678950826 0.9950191309484713 -0.017581869678950826 0.004980869051528808 0.017581869678950826
7.720036500730675E7 0.004998630701966424 0.017843910872709895 0.9950013692980334 -0.017843910872709895 0.9950013692980334 -0.017843910872709895 0.004998630701966424 0.017843910872709895
7.836542688315398E7 0.005016866424875623 0.01810978315786827 0.9949831335751242 -0.018109783157868275 0.9949831335751242 -0.018109783157868275 0.005016866424875623 0.01810978315786827
7.954807117813127E7 0.005035587503063866 0.01837954043193059 0.9949644124969361 -0.01837954043193059 0.9949644124969361 -0.01837954043193059 0.005035587503063866 0.01837954043193059
8.074856323562416E7 0.005054805438504424 0.018653237325066192 0.9949451945614955 -0.018653237325066192 0.9949451945614955 -0.018653237325066192 0.005054805438504424 0.018653237325066192
8.196717240342227E7 0.005074531955945324 0.018930929212089942 0.9949254680440545 -0.018930929212089942 0.9949254680440545 -0.018930929212089942 0.005074531955945324 0.018930929212089942
8.320417209415154E7 0.005094779006690701 0.019212672224796303 0.9949052209933092 -0.019212672224796303 0.9949052209933092 -0.019212672224796303 0.005094779006690701 0.019212672224796303
8.445983984661816E7 0.005115558772572223 0.019498523264656085 0.9948844412274278 -0.019498523264656085 0.9948844412274278 -0.019498523264656085 0.005115558772572223 0.019498523264656085
8.573445738807854E7 0.005136883670129461 0.019788540015884728 0.9948631163298706 -0.019788540015884728 0.9948631163298706 -0.019788540015884728 0.005136883670129461 0.019788540015884728
8.702831069744885E7 0.005158766355019063 0.020082780958890288 0.9948412336449809 -0.020082780958890288 0.9948412336449809 -0.020082780958890288 0.005158766355019063 0.020082780958890288
8.834169006946853E7 0.0051812197266737576 0.020381305384108726 0.9948187802733264 -0.020381305384108726 0.9948187802733264 -0.020381305384108726 0.0051812197266737576 0.020381305384108726
8.96748901798321E7 0.005204256933233281 0.020684173406233314 0.9947957430667665 -0.020684173406233314 0.9947957430667665 -0.020684173406233314 0.005204256933233281 0.020684173406233314
9.1028210151304E7 0.005227891376770424 0.020991445978844298 0.9947721086232295 -0.020991445978844298 0.9947721086232295 -0.020991445978844298 0.005227891376770424 0.020991445978844298
9.240195362083109E7 0.005252136718836334 0.02130318490944339 0.9947478632811635 -0.02130318490944339 0.9947478632811635 -0.02130318490944339 0.005252136718836334 0.02130318490944339
9.379642880766791E7 0.005277006886350456 0.021619452874897763 0.9947229931136494 -0.021619452874897763 0.9947229931136494 -0.021619452874897763 0.005277006886350456 0.021619452874897763
9.521194858253023E7 0.005302516077861167 0.02194031343729566 0.9946974839221386 -0.021940313437295658 0.9946974839221386 -0.021940313437295658 0.005302516077861167 0.02194031343729566
9.664883053779216E7 0.00532867877020444 0.022265831060216 0.9946713212297955 -0.022265831060216 0.9946713212297955 -0.022265831060216 0.00532867877020444 0.022265831060216
9.810739705874248E7 0.005355509725588409 0.02259607112541166 0.9946444902744116 -0.02259607112541166 0.9946444902744116 -0.02259607112541166 0.005355509725588409 0.02259607112541166
9.958797539591652E7 0.00538302399913284 0.022931099949905887 0.9946169760008673 -0.02293109994990589 0.9946169760008673 -0.02293109994990589 0.00538302399913284 0.022931099949905887
1.0109089773851961E8 0.00541123694689297 0.0232709848034989 0.994588763053107 -0.023270984803498904 0.994588763053107 -0.023270984803498904 0.00541123694689297 0.0232709848034989
1.0261650128895843E8 0.005440164234398087 0.023615793926680832 0.9945598357656019 -0.023615793926680832 0.9945598357656019 -0.023615793926680832 0.005440164234398087 0.023615793926680832
1.0416512833849736E8 0.0054698218457355716 0.023965596548945024 0.9945301781542645 -0.023965596548945024 0.9945301781542645 -0.023965596548945024 0.0054698218457355716 0.023965596548945024
1.0573712634405641E8 0.005500226093211762 0.024320462907494334 0.9944997739067883 -0.024320462907494334 0.9944997739067883 -0.024320462907494334 0.005500226093211762 0.024320462907494334
1.0733284800616828E8 0.005531393627621243 0.024680464266331054 0.9944686063723789 -0.024680464266331054 0.9944686063723789 -0.024680464266331054 0.005531393627621243 0.024680464266331054
1.0895265134811176E8 0.005563341449156478 0.025045672935719406 0.9944366585508436 -0.025045672935719403 0.9944366585508436 -0.025045672935719403 0.005563341449156478 0.025045672935719406
1.1059689979623953E8 0.005596086918989764 0.02541616229200745 0.9944039130810103 -0.02541616229200745 0.9944039130810103 -0.02541616229200745 0.005596086918989764 0.02541616229200745
1.1226596226151802E8 0.005629647771559559 0.0257920067977937 0.9943703522284406 -0.025792006797793705 0.9943703522284406 -0.025792006797793705 0.005629647771559559 0.0257920067977937
1.1396021322229806E8 0.005664042127592942 0.026173282022421192 0.9943359578724071 -0.026173282022421192 0.9943359578724071 -0.026173282022421192 0.005664042127592942 0.026173282022421192
1.1568003280833441E8 0.005699288507895881 0.026560064662780415 0.9943007114921042 -0.026560064662780415 0.9943007114921042 -0.026560064662780415 0.005699288507895881 0.026560064662780415
1.1742580688607343E8 0.005735405847942337 0.026952432564400004 0.9942645941520575 -0.026952432564400004 0.9942645941520575 -0.026952432564400004 0.005735405847942337 0.026952432564400004
1.1919792714522783E8 0.0057724135132928255 0.027350464742802578 0.9942275864867071 -0.027350464742802578 0.9942275864867071 -0.027350464742802578 0.0057724135132928255 0.027350464742802578
1.2099679118665792E8 0.005810331315872194 0.027754241405100567 0.9941896686841277 -0.027754241405100567 0.9941896686841277 -0.027754241405100567 0.005810331315872194 0.027754241405100567
1.2282280261157903E8 0.005849179531135582 0.028163843971805602 0.9941508204688642 -0.028163843971805602 0.9941508204688642 -0.028163843971805602 0.005849179531135582 0.028163843971805602
1.2467637111211549E8 0.005888978916150489 0.028579355098822853 0.9941110210838493 -0.028579355098822853 0.9941110210838493 -0.028579355098822853 0.005888978916150489 0.028579355098822853
1.265579125632208E8 0.005929750728621598 0.029000858699599556 0.9940702492713783 -0.02900085869959955 0.9940702492713783 -0.02900085869959955 0.005929750728621598 0.029000858699599556
1.284678491159853E8 0.005971516746883849 0.029428439967396035 0.9940284832531161 -0.02942843996739604 0.9940284832531161 -0.02942843996739604 0.005971516746883849 0.029428439967396035
1.3040660929235186E8 0.006014299290887662 0.029862185397645194 0.9939857007091125 -0.0298621853976452 0.9939857007091125 -0.0298621853976452 0.006014299290887662 0.029862185397645194
1.3237462808126101E8 0.006058121244198683 0.030302182810365078 0.9939418787558012 -0.030302182810365078 0.9939418787558012 -0.030302182810365078 0.006058121244198683 0.030302182810365078
1.3437234703624701E8 0.006103006077032705 0.030748521372588027 0.9938969939229674 -0.030748521372588027 0.9938969939229674 -0.030748521372588027 0.006103006077032705 0.030748521372588027
1.364002143745067E8 0.006148977870344562 0.031201291620768023 0.9938510221296555 -0.031201291620768023 0.9938510221296555 -0.031201291620768023 0.006148977870344562 0.031201291620768023
1.3845868507746372E8 0.006196061340987976 0.031660585483127605 0.993803938659012 -0.0316605854831276 0.993803938659012 -0.0316605854831276 0.006196061340987976 0.031660585483127605
1.405482209928499E8 0.006244281867961146 0.032126496301903396 0.9937557181320388 -0.032126496301903396 0.9937557181320388 -0.032126496301903396 0.006244281867961146 0.032126496301903396
1.426692909383278E8 0.006293665519750975 0.03259911885545015 0.9937063344802491 -0.03259911885545016 0.9937063344802491 -0.03259911885545016 0.006293665519750975 0.03259911885545015
1.4482237080667645E8 0.00634423908278655 0.03307854938016088 0.9936557609172136 -0.03307854938016088 0.9936557609172136 -0.03307854938016088 0.00634423908278655 0.03307854938016088
1.4700794367256513E8 0.0063960300910103655 0.03356488559216142 0.9936039699089897 -0.03356488559216142 0.9936039699089897 -0.03356488559216142 0.0063960300910103655 0.03356488559216142
1.492264999009378E8 0.006449066856573536 0.03405822670873678 0.9935509331434266 -0.03405822670873678 0.9935509331434266 -0.03405822670873678 0.006449066856573536 0.03405822670873678
1.5147853725703382E8 0.006503378501659075 0.03455867346944679 0.9934966214983412 -0.0345586734694468 0.9934966214983412 -0.0345586734694468 0.006503378501659075 0.03455867346944679
1.5376456101806876E8 0.0065589949914349535 0.035066328156888406 0.9934410050085649 -0.035066328156888406 0.9934410050085649 -0.035066328156888406 0.0065589949914349535 0.035066328156888406
1.5608508408660066E8 0.0066159471681367646 0.03558129461706287 0.9933840528318633 -0.035581294617062866 0.9933840528318633 -0.035581294617062866 0.0066159471681367646 0.03558129461706287
1.5844062710560706E8 0.00667426678627725 0.03610367827930526 0.9933257332137228 -0.03610367827930526 0.9933257332137228 -0.03610367827930526 0.00667426678627725 0.03610367827930526
1.6083171857529896E8 0.006733986548978284 0.03663358617573592 0.9932660134510218 -0.03663358617573592 0.9932660134510218 -0.03663358617573592 0.006733986548978284 0.03663358617573592
1.632588949716973E8 0.006795140145418632 0.03717112696019298 0.9932048598545814 -0.03717112696019298 0.9932048598545814 -0.03717112696019298 0.006795140145418632 0.03717112696019298
1.6572270086699936E8 0.006857762289389051 0.037716410926606755 0.9931422377106109 -0.037716410926606755 0.9931422377106109 -0.037716410926606755 0.006857762289389051 0.037716410926606755
1.6822368905176118E8 0.006921888758944321 0.03826955002677745 0.9930781112410556 -0.03826955002677744 0.9930781112410556 -0.03826955002677744 0.006921888758944321 0.03826955002677745
1.7076242065892437E8 0.006987556437140474 0.03883065788751949 0.9930124435628596 -0.03883065788751949 0.9930124435628596 -0.03883065788751949 0.006987556437140474 0.03883065788751949
1.7333946528971428E8 0.007054803353843509 0.039399849827136436 0.9929451966461563 -0.039399849827136436 0.9929451966461563 -0.039399849827136436 0.007054803353843509 0.039399849827136436
1.7595540114143828E8 0.007123668728594974 0.039977242871192566 0.9928763312714051 -0.039977242871192566 0.9928763312714051 -0.039977242871192566 0.007123668728594974 0.039977242871192566
1.786108151372127E8 0.007194193014518191 0.04056295576754838 0.9928058069854819 -0.04056295576754838 0.9928058069854819 -0.04056295576754838 0.007194193014518191 0.04056295576754838
1.8130630305764765E8 0.007266417943248165 0.04115710900062922 0.9927335820567517 -0.04115710900062922 0.9927335820567517 -0.04115710900062922 0.007266417943248165 0.04115710900062922
1.840424696745189E8 0.007340386570867191 0.041759824804897976 0.9926596134291329 -0.041759824804897976 0.9926596134291329 -0.041759824804897976 0.007340386570867191 0.041759824804897976
1.8681992888645732E8 0.007416143324827486 0.04237122717750403 0.9925838566751726 -0.04237122717750403 0.9925838566751726 -0.04237122717750403 0.007416143324827486 0.04237122717750403
1.8963930385668582E8 0.0074937340518419476 0.042991441890083935 0.9925062659481582 -0.042991441890083935 0.9925062659481582 -0.042991441890083935 0.0074937340518419476 0.042991441890083935
1.92501227152835E8 0.007573206066723321 0.04362059649968883 0.9924267939332765 -0.04362059649968882 0.9924267939332765 -0.04362059649968882 0.007573206066723321 0.04362059649968883
1.9540634088886917E8 0.00765460820215258 0.04425882035881802 0.9923453917978475 -0.04425882035881802 0.9923453917978475 -0.04425882035881802 0.00765460820215258 0.04425882035881802
1.983552968691535E8 0.007737990859356809 0.04490624462453769 0.9922620091406431 -0.04490624462453769 0.9922620091406431 -0.04490624462453769 0.007737990859356809 0.04490624462453769
2.0134875673469606E8 0.007823406059677546 0.04556300226666728 0.9921765939403223 -0.04556300226666728 0.9921765939403223 -0.04556300226666728 0.007823406059677546 0.04556300226666728
2.0438739211159652E8 0.007910907497010691 0.0462292280750165 0.9920890925029893 -0.0462292280750165 0.9920890925029893 -0.0462292280750165 0.007910907497010691 0.0462292280750165
2.074718847617352E8 0.008000550591099758 0.04690505866565808 0.9919994494089002 -0.04690505866565808 0.9919994494089002 -0.04690505866565808 0.008000550591099758 0.04690505866565808
2.106029267357361E8 0.008092392541665031 0.0475906324862234 0.991907607458335 -0.04759063248622341 0.991907607458335 -0.04759063248622341 0.008092392541665031 0.0475906324862234
2.1378122052823865E8 0.008186492383351899 0.048286089820208614 0.9918135076166481 -0.048286089820208614 0.9918135076166481 -0.048286089820208614 0.008186492383351899 0.048286089820208614
2.1700747923551247E8 0.008282911041482805 0.04899157279028093 0.9917170889585172 -0.048991572790280935 0.9917170889585172 -0.048991572790280935 0.008282911041482805 0.04899157279028093
2.2028242671545094E8 0.008381711388598206 0.04970722536057591 0.9916182886114019 -0.0497072253605759 0.9916182886114019 -0.0497072253605759 0.008381711388598206 0.04970722536057591
2.23606797749979E8 0.008482958301773327 0.05043319333797753 0.9915170416982267 -0.05043319333797753 0.9915170416982267 -0.05043319333797753 0.008482958301773327 0.05043319333797753
2.2698133820991236E8 0.008586718720698543 0.05116962437237362 0.9914132812793014 -0.05116962437237362 0.9914132812793014 -0.05116962437237362 0.008586718720698543 0.05116962437237362
2.3040680522230446E8 0.00869306170651293 0.05191666795588104 0.9913069382934871 -0.05191666795588104 0.9913069382934871 -0.05191666795588104 0.00869306170651293 0.05191666795588104
2.338839673403185E8 0.008802058501381615 0.05267447542103397 0.9911979414986185 -0.05267447542103397 0.9911979414986185 -0.05267447542103397 0.008802058501381615 0.05267447542103397
2.37413604715664E8 0.008913782588809276 0.053443199937931334 0.9910862174111907 -0.05344319993793133 0.9910862174111907 -0.05344319993793133 0.008913782588809276 0.053443199937931334
2.4099650927363476E8 0.009028309754683586 0.05422299651033814 0.9909716902453162 -0.05422299651033814 0.9909716902453162 -0.05422299651033814 0.009028309754683586 0.05422299651033814
