!Murata Part Number: LQP02TQ16NH02
!These Parameters are Measured in Series Mode Connection
!       o--[Z]--o
!Port1              Port2
!       o-------o
!
!Freq. Start=50[MHz] Stop=20[GHz], 401[Steps]
# Hz S RI R 50
!Freq.(Hz) S11(Real) S11(Imag) S21(Real) S21(Imag) S12(Real) S12(Imag) S22(Real) S22(Imag)
5.0E7 0.018176207302872206 0.05306845034164226 0.9818237926971278 -0.05306845034164227 0.9818237926971278 -0.05306845034164227 0.018176207302872206 0.05306845034164226
5.0754570186123446E7 0.018292150185346998 0.053849436374221266 0.9817078498146531 -0.053849436374221266 0.9817078498146531 -0.053849436374221266 0.018292150185346998 0.053849436374221266
5.152052789556263E7 0.018411262499405726 0.054641510892585704 0.9815887375005943 -0.054641510892585704 0.9815887375005943 -0.054641510892585704 0.018411262499405726 0.054641510892585704
5.229804498202928E7 0.018533625574520814 0.05544481787280648 0.9814663744254791 -0.05544481787280648 0.9814663744254791 -0.05544481787280648 0.018533625574520814 0.05544481787280648
5.308729589274893E7 0.018659322642300843 0.05625950287411767 0.981340677357699 -0.05625950287411767 0.981340677357699 -0.05625950287411767 0.018659322642300843 0.05625950287411767
5.388845770760058E7 0.01878843888312545 0.057085713055928126 0.9812115611168746 -0.05708571305592813 0.9812115611168746 -0.05708571305592813 0.01878843888312545 0.057085713055928126
5.470171017884717E7 0.018921061474614427 0.057923597195061724 0.9810789385253855 -0.057923597195061724 0.9810789385253855 -0.057923597195061724 0.018921061474614427 0.057923597195061724
5.5527235771465644E7 0.01905727964203101 0.05877330570319099 0.9809427203579689 -0.05877330570319099 0.9809427203579689 -0.05877330570319099 0.01905727964203101 0.05877330570319099
5.6365219704085544E7 0.019197184710721644 0.05963499064442158 0.9808028152892784 -0.05963499064442158 0.9808028152892784 -0.05963499064442158 0.019197184710721644 0.05963499064442158
5.721584999054556E7 0.019340870160697493 0.060508805752978366 0.9806591298393024 -0.06050880575297835 0.9806591298393024 -0.06050880575297835 0.019340870160697493 0.060508805752978366
5.807931748207712E7 0.01948843168346511 0.0613949064509375 0.980511568316535 -0.0613949064509375 0.980511568316535 -0.0613949064509375 0.01948843168346511 0.0613949064509375
5.8955815910124585E7 0.019639967241215923 0.06229344986594069 0.9803600327587839 -0.06229344986594069 0.9803600327587839 -0.06229344986594069 0.019639967241215923 0.06229344986594069
5.984554192981184E7 0.01979557712848566 0.06320459484882049 0.9802044228715142 -0.06320459484882049 0.9802044228715142 -0.06320459484882049 0.01979557712848566 0.06320459484882049
6.074869516406457E7 0.019955364036396285 0.064128501991057 0.9800446359636037 -0.064128501991057 0.9800446359636037 -0.064128501991057 0.019955364036396285 0.064128501991057
6.166547824839868E7 0.020119433119593483 0.06506533364197797 0.9798805668804067 -0.06506533364197797 0.9798805668804067 -0.06506533364197797 0.020119433119593483 0.06506533364197797
6.2596096876384385E7 0.020287892065993334 0.0660152539256048 0.9797121079340066 -0.06601525392560478 0.9797121079340066 -0.06601525392560478 0.020287892065993334 0.0660152539256048
6.354075984579668E7 0.020460851169451514 0.06697842875703901 0.9795391488305486 -0.06697842875703902 0.9795391488305486 -0.06697842875703902 0.020460851169451514 0.06697842875703901
6.449967910546205E7 0.020638423405466955 0.06795502585827229 0.9793615765945332 -0.06795502585827229 0.9793615765945332 -0.06795502585827229 0.020638423405466955 0.06795502585827229
6.547306980281226E7 0.0208207245100317 0.06894521477329556 0.9791792754899683 -0.06894521477329556 0.9791792754899683 -0.06894521477329556 0.0208207245100317 0.06894521477329556
6.646115033215589E7 0.021007873061735172 0.06994916688237102 0.9789921269382648 -0.06994916688237102 0.9789921269382648 -0.06994916688237102 0.021007873061735172 0.06994916688237102
6.746414238367817E7 0.021199990567229206 0.07096705541532161 0.9788000094327707 -0.07096705541532161 0.9788000094327707 -0.07096705541532161 0.021199990567229206 0.07096705541532161
6.848227099318038E7 0.02139720155015663 0.07199905546368228 0.9786027984498434 -0.07199905546368228 0.9786027984498434 -0.07199905546368228 0.02139720155015663 0.07199905546368228
6.951576459256999E7 0.021599633643641654 0.07304534399154683 0.9784003663563582 -0.07304534399154683 0.9784003663563582 -0.07304534399154683 0.021599633643641654 0.07304534399154683
7.056485506111258E7 0.0218074176864358 0.07410609984493408 0.9781925823135641 -0.07410609984493408 0.9781925823135641 -0.07410609984493408 0.0218074176864358 0.07410609984493408
7.162977777745734E7 0.022020687822806844 0.0751815037594862 0.977979312177193 -0.0751815037594862 0.977979312177193 -0.0751815037594862 0.022020687822806844 0.0751815037594862
7.271077167244768E7 0.02223958160625271 0.07627173836630356 0.9777604183937472 -0.07627173836630355 0.9777604183937472 -0.07627173836630355 0.02223958160625271 0.07627173836630356
7.380807928272885E7 0.022464240107113894 0.0773769881957081 0.9775357598928861 -0.0773769881957081 0.9775357598928861 -0.0773769881957081 0.022464240107113894 0.0773769881957081
7.492194680516452E7 0.022694808024150807 0.07849743967871962 0.9773051919758493 -0.07849743967871962 0.9773051919758493 -0.07849743967871962 0.022694808024150807 0.07849743967871962
7.60526241520746E7 0.022931433800143293 0.07963328114601897 0.9770685661998568 -0.07963328114601897 0.9770685661998568 -0.07963328114601897 0.022931433800143293 0.07963328114601897
7.720036500730675E7 0.023174269741560113 0.08078470282416288 0.97682573025844 -0.08078470282416288 0.97682573025844 -0.08078470282416288 0.023174269741560113 0.08078470282416288
7.836542688315398E7 0.02342347214233604 0.08195189682880726 0.9765765278576639 -0.08195189682880726 0.9765765278576639 -0.08195189682880726 0.02342347214233604 0.08195189682880726
7.954807117813127E7 0.02367920141178266 0.08313505715468666 0.9763207985882174 -0.08313505715468665 0.9763207985882174 -0.08313505715468665 0.02367920141178266 0.08313505715468666
8.074856323562416E7 0.023941622206648364 0.08433437966209092 0.9760583777933516 -0.08433437966209091 0.9760583777933516 -0.08433437966209091 0.023941622206648364 0.08433437966209092
8.196717240342227E7 0.024210903567329505 0.08555006205957212 0.9757890964326703 -0.08555006205957212 0.9757890964326703 -0.08555006205957212 0.024210903567329505 0.08555006205957212
8.320417209415154E7 0.024487219058222855 0.08678230388260937 0.9755127809417771 -0.08678230388260937 0.9755127809417771 -0.08678230388260937 0.024487219058222855 0.08678230388260937
8.445983984661816E7 0.0247707469121951 0.08803130646795224 0.9752292530878047 -0.08803130646795224 0.9752292530878047 -0.08803130646795224 0.0247707469121951 0.08803130646795224
8.573445738807854E7 0.025061670179132 0.0892972729233598 0.974938329820868 -0.0892972729233598 0.974938329820868 -0.0892972729233598 0.025061670179132 0.0892972729233598
8.702831069744885E7 0.02536017687851485 0.09058040809244723 0.9746398231214852 -0.09058040809244723 0.9746398231214852 -0.09058040809244723 0.02536017687851485 0.09058040809244723
8.834169006946853E7 0.0256664601559572 0.09188091851434864 0.9743335398440427 -0.09188091851434864 0.9743335398440427 -0.09188091851434864 0.0256664601559572 0.09188091851434864
8.96748901798321E7 0.025980718443620095 0.09319901237790268 0.9740192815563798 -0.09319901237790268 0.9740192815563798 -0.09319901237790268 0.025980718443620095 0.09319901237790268
9.1028210151304E7 0.026303155624408218 0.09453489947006549 0.9736968443755917 -0.09453489947006549 0.9736968443755917 -0.09453489947006549 0.026303155624408218 0.09453489947006549
9.240195362083109E7 0.02663398119983405 0.09588879111825435 0.973366018800166 -0.09588879111825435 0.973366018800166 -0.09588879111825435 0.02663398119983405 0.09588879111825435
9.379642880766791E7 0.026973410461421588 0.09726090012632616 0.9730265895385785 -0.09726090012632616 0.9730265895385785 -0.09726090012632616 0.026973410461421588 0.09726090012632616
9.521194858253023E7 0.02732166466550522 0.09865144070389506 0.972678335334495 -0.09865144070389506 0.972678335334495 -0.09865144070389506 0.02732166466550522 0.09865144070389506
9.664883053779216E7 0.027678971211264 0.10006062838869592 0.9723210287887359 -0.10006062838869595 0.9723210287887359 -0.10006062838869595 0.027678971211264 0.10006062838869592
9.810739705874248E7 0.028045563821815674 0.1014886799617023 0.9719544361781843 -0.1014886799617023 0.9719544361781843 -0.1014886799617023 0.028045563821815674 0.1014886799617023
9.958797539591652E7 0.028421682728179465 0.10293581335471107 0.9715783172718206 -0.10293581335471107 0.9715783172718206 -0.10293581335471107 0.028421682728179465 0.10293581335471107
1.0109089773851961E8 0.02880757485590165 0.10440224755011122 0.9711924251440982 -0.10440224755011122 0.9711924251440982 -0.10440224755011122 0.02880757485590165 0.10440224755011122
1.0261650128895843E8 0.029203494014122356 0.10588820247255684 0.9707965059858775 -0.10588820247255684 0.9707965059858775 -0.10588820247255684 0.029203494014122356 0.10588820247255684
1.0416512833849736E8 0.029609701086847916 0.1073938988722721 0.9703902989131521 -0.1073938988722721 0.9703902989131521 -0.1073938988722721 0.029609701086847916 0.1073938988722721
1.0573712634405641E8 0.030026464226178454 0.10891955819972188 0.9699735357738216 -0.10891955819972188 0.9699735357738216 -0.10891955819972188 0.030026464226178454 0.10891955819972188
1.0733284800616828E8 0.03045405904722643 0.11046540247138704 0.9695459409527734 -0.11046540247138703 0.9695459409527734 -0.11046540247138703 0.03045405904722643 0.11046540247138704
1.0895265134811176E8 0.030892768824448216 0.11203165412639332 0.9691072311755516 -0.11203165412639333 0.9691072311755516 -0.11203165412639333 0.030892768824448216 0.11203165412639332
1.1059689979623953E8 0.03134288468909791 0.11361853587374819 0.968657115310902 -0.11361853587374819 0.968657115310902 -0.11361853587374819 0.03134288468909791 0.11361853587374819
1.1226596226151802E8 0.03180470582749926 0.11522627052995017 0.9681952941725007 -0.11522627052995017 0.9681952941725007 -0.11522627052995017 0.03180470582749926 0.11522627052995017
1.1396021322229806E8 0.032278539679819876 0.11685508084674294 0.9677214603201802 -0.11685508084674294 0.9677214603201802 -0.11685508084674294 0.032278539679819876 0.11685508084674294
1.1568003280833441E8 0.032764702139019525 0.11850518932879574 0.9672352978609805 -0.11850518932879574 0.9672352978609805 -0.11850518932879574 0.032764702139019525 0.11850518932879574
1.1742580688607343E8 0.03326351774963294 0.12017681804110138 0.9667364822503669 -0.12017681804110138 0.9667364822503669 -0.12017681804110138 0.03326351774963294 0.12017681804110138
1.1919792714522783E8 0.03377531990603673 0.12187018840589195 0.9662246800939633 -0.12187018840589194 0.9662246800939633 -0.12187018840589194 0.03377531990603673 0.12187018840589195
1.2099679118665792E8 0.0343004510498383 0.12358552098888213 0.9656995489501616 -0.12358552098888215 0.9656995489501616 -0.12358552098888215 0.0343004510498383 0.12358552098888213
1.2282280261157903E8 0.0348392628660158 0.12532303527466176 0.9651607371339841 -0.1253230352746618 0.9651607371339841 -0.1253230352746618 0.0348392628660158 0.12532303527466176
1.2467637111211549E8 0.03539211647742586 0.12708294943106527 0.9646078835225742 -0.12708294943106524 0.9646078835225742 -0.12708294943106524 0.03539211647742586 0.12708294943106527
1.265579125632208E8 0.03595938263728779 0.12886548006235996 0.9640406173627123 -0.12886548006235996 0.9640406173627123 -0.12886548006235996 0.03595938263728779 0.12886548006235996
1.284678491159853E8 0.036541441919241954 0.1306708419511031 0.963458558080758 -0.1306708419511031 0.963458558080758 -0.1306708419511031 0.036541441919241954 0.1306708419511031
1.3040660929235186E8 0.03713868490457072 0.13249924778852765 0.9628613150954292 -0.13249924778852765 0.9628613150954292 -0.13249924778852765 0.03713868490457072 0.13249924778852765
1.3237462808126101E8 0.03775151236616075 0.1343509078933278 0.9622484876338392 -0.1343509078933278 0.9622484876338392 -0.1343509078933278 0.03775151236616075 0.1343509078933278
1.3437234703624701E8 0.03838033544877559 0.13622602991872532 0.9616196645512246 -0.1362260299187253 0.9616196645512246 -0.1362260299187253 0.03838033544877559 0.13622602991872532
1.364002143745067E8 0.03902557584519815 0.13812481854770794 0.9609744241548017 -0.13812481854770797 0.9609744241548017 -0.13812481854770797 0.03902557584519815 0.13812481854770794
1.3845868507746372E8 0.0396876659677928 0.14004747517634342 0.9603123340322071 -0.14004747517634342 0.9603123340322071 -0.14004747517634342 0.0396876659677928 0.14004747517634342
1.405482209928499E8 0.040367049115025894 0.14199419758507842 0.959632950884974 -0.1419941975850784 0.959632950884974 -0.1419941975850784 0.040367049115025894 0.14199419758507842
1.426692909383278E8 0.0410641796324756 0.14396517959795094 0.9589358203675244 -0.14396517959795094 0.9589358203675244 -0.14396517959795094 0.0410641796324756 0.14396517959795094
1.4482237080667645E8 0.04177952306784867 0.14596061072964708 0.9582204769321513 -0.14596061072964708 0.9582204769321513 -0.14596061072964708 0.04177952306784867 0.14596061072964708
1.4700794367256513E8 0.04251355631951376 0.14798067582035135 0.9574864436804861 -0.14798067582035138 0.9574864436804861 -0.14798067582035138 0.04251355631951376 0.14798067582035135
1.492264999009378E8 0.04326676777804745 0.15002555465834738 0.9567332322219524 -0.15002555465834735 0.9567332322219524 -0.15002555465834735 0.04326676777804745 0.15002555465834738
1.5147853725703382E8 0.04403965746028027 0.152095421590342 0.9559603425397196 -0.152095421590342 0.9559603425397196 -0.152095421590342 0.04403965746028027 0.152095421590342
1.5376456101806876E8 0.04483273713531576 0.15419044511949495 0.9551672628646842 -0.15419044511949495 0.9551672628646842 -0.15419044511949495 0.04483273713531576 0.15419044511949495
1.5608508408660066E8 0.04564653044198619 0.15631078749115418 0.9543534695580137 -0.15631078749115418 0.9543534695580137 -0.15631078749115418 0.04564653044198619 0.15631078749115418
1.5844062710560706E8 0.046481572997193764 0.15845660426630745 0.9535184270028062 -0.15845660426630745 0.9535184270028062 -0.15845660426630745 0.046481572997193764 0.15845660426630745
1.6083171857529896E8 0.04733841249457545 0.16062804388277938 0.9526615875054244 -0.16062804388277938 0.9526615875054244 -0.16062804388277938 0.04733841249457545 0.16062804388277938
1.632588949716973E8 0.04821760879291567 0.16282524720421865 0.9517823912070844 -0.16282524720421865 0.9517823912070844 -0.16282524720421865 0.04821760879291567 0.16282524720421865
1.6572270086699936E8 0.049119733993718266 0.16504834705693633 0.9508802660062817 -0.16504834705693633 0.9508802660062817 -0.16504834705693633 0.049119733993718266 0.16504834705693633
1.6822368905176118E8 0.05004537250733581 0.1672974677546765 0.9499546274926641 -0.1672974677546765 0.9499546274926641 -0.1672974677546765 0.05004537250733581 0.1672974677546765
1.7076242065892437E8 0.05099512110704144 0.16957272461141995 0.9490048788929585 -0.16957272461141995 0.9490048788929585 -0.16957272461141995 0.05099512110704144 0.16957272461141995
1.7333946528971428E8 0.051969588970414586 0.17187422344234254 0.9480304110295854 -0.17187422344234254 0.9480304110295854 -0.17187422344234254 0.051969588970414586 0.17187422344234254
1.7595540114143828E8 0.05296939770739922 0.17420206005307284 0.9470306022926008 -0.17420206005307284 0.9470306022926008 -0.17420206005307284 0.05296939770739922 0.17420206005307284
1.786108151372127E8 0.05399518137438031 0.17655631971741828 0.9460048186256197 -0.17655631971741828 0.9460048186256197 -0.17655631971741828 0.05399518137438031 0.17655631971741828
1.8130630305764765E8 0.05504758647361204 0.17893707664375505 0.9449524135263879 -0.17893707664375508 0.9449524135263879 -0.17893707664375508 0.05504758647361204 0.17893707664375505
1.840424696745189E8 0.05612727193731776 0.18134439343030198 0.9438727280626822 -0.181344393430302 0.9438727280626822 -0.181344393430302 0.05612727193731776 0.18134439343030198
1.8681992888645732E8 0.057234909095773785 0.1837783205095337 0.9427650909042262 -0.18377832050953372 0.9427650909042262 -0.18377832050953372 0.057234909095773785 0.1837783205095337
1.8963930385668582E8 0.05837118162867432 0.18623889558201148 0.9416288183713256 -0.18623889558201148 0.9416288183713256 -0.18623889558201148 0.05837118162867432 0.18623889558201148
1.92501227152835E8 0.059536785499069066 0.18872614303994986 0.940463214500931 -0.18872614303994986 0.940463214500931 -0.18872614303994986 0.059536785499069066 0.18872614303994986
1.9540634088886917E8 0.060732428869154816 0.1912400733808674 0.9392675711308451 -0.1912400733808674 0.9392675711308451 -0.1912400733808674 0.060732428869154816 0.1912400733808674
1.983552968691535E8 0.06195883199719575 0.1937806826117065 0.9380411680028042 -0.1937806826117065 0.9380411680028042 -0.1937806826117065 0.06195883199719575 0.1937806826117065
2.0134875673469606E8 0.06321672711484252 0.19634795164384816 0.9367832728851574 -0.19634795164384822 0.9367832728851574 -0.19634795164384822 0.06321672711484252 0.19634795164384816
2.0438739211159652E8 0.06450685828411555 0.1989418456794817 0.9354931417158845 -0.1989418456794817 0.9354931417158845 -0.1989418456794817 0.06450685828411555 0.1989418456794817
2.074718847617352E8 0.06582998123331714 0.20156231358983523 0.9341700187666828 -0.20156231358983523 0.9341700187666828 -0.20156231358983523 0.06582998123331714 0.20156231358983523
2.106029267357361E8 0.06718686317113688 0.20420928728581333 0.9328131368288631 -0.20420928728581333 0.9328131368288631 -0.20420928728581333 0.06718686317113688 0.20420928728581333
2.1378122052823865E8 0.06857828257821764 0.20688268108163044 0.9314217174217824 -0.2068826810816305 0.9314217174217824 -0.2068826810816305 0.06857828257821764 0.20688268108163044
2.1700747923551247E8 0.07000502897545517 0.2095823910520782 0.9299949710245449 -0.2095823910520782 0.9299949710245449 -0.2095823910520782 0.07000502897545517 0.2095823910520782
2.2028242671545094E8 0.07146790266831114 0.2123082943841052 0.9285320973316887 -0.2123082943841052 0.9285320973316887 -0.2123082943841052 0.07146790266831114 0.2123082943841052
2.23606797749979E8 0.07296771446643095 0.21506024872343918 0.927032285533569 -0.2150602487234392 0.927032285533569 -0.2150602487234392 0.07296771446643095 0.21506024872343918
2.2698133820991236E8 0.07450528537787132 0.21783809151702885 0.9254947146221287 -0.21783809151702885 0.9254947146221287 -0.21783809151702885 0.07450528537787132 0.21783809151702885
2.3040680522230446E8 0.07608144627725853 0.2206416393521274 0.9239185537227416 -0.2206416393521274 0.9239185537227416 -0.2206416393521274 0.07608144627725853 0.2206416393521274
2.338839673403185E8 0.07769703754721849 0.22347068729289238 0.9223029624527814 -0.22347068729289238 0.9223029624527814 -0.22347068729289238 0.07769703754721849 0.22347068729289238
2.37413604715664E8 0.07935290869244459 0.2263250082154238 0.9206470913075554 -0.22632500821542387 0.9206470913075554 -0.22632500821542387 0.07935290869244459 0.2263250082154238
2.4099650927363476E8 0.08104991792579183 0.22920435214220752 0.9189500820742081 -0.22920435214220752 0.9189500820742081 -0.22920435214220752 0.08104991792579183 0.22920435214220752
2.446334848907889E8 0.08278893172582188 0.2321084455769849 0.9172110682741781 -0.2321084455769849 0.9172110682741781 -0.2321084455769849 0.08278893172582188 0.2321084455769849
2.4832534757531032E8 0.08457082436525051 0.23503699084110935 0.9154291756347493 -0.23503699084110932 0.9154291756347493 -0.23503699084110932 0.08457082436525051 0.23503699084110935
2.5207292565009177E8 0.08639647740979173 0.2379896654125027 0.9136035225902083 -0.23798966541250266 0.9136035225902083 -0.23798966541250266 0.08639647740979173 0.2379896654125027
