!Murata Part Number: LQP02TQ2N5B02
!These Parameters are Measured in Series Mode Connection
!       o--[Z]--o
!Port1              Port2
!       o-------o
!
!Freq. Start=50[MHz] Stop=20[GHz], 401[Steps]
# Hz S RI R 50
!Freq.(Hz) S11(Real) S11(Imag) S21(Real) S21(Imag) S12(Real) S12(Imag) S22(Real) S22(Imag)
5.0E7 0.0023303587658640647 0.00862110585441256 0.9976696412341358 -0.00862110585441256 0.9976696412341358 -0.00862110585441256 0.0023303587658640647 0.00862110585441256
5.0754570186123446E7 0.0023345779778364733 0.008750954602945692 0.9976654220221635 -0.008750954602945692 0.9976654220221635 -0.008750954602945692 0.0023345779778364733 0.008750954602945692
5.152052789556263E7 0.0023389238655250042 0.008882751380267596 0.997661076134475 -0.008882751380267596 0.997661076134475 -0.008882751380267596 0.0023389238655250042 0.008882751380267596
5.229804498202928E7 0.002343400182446986 0.009016525067379596 0.997656599817553 -0.009016525067379596 0.997656599817553 -0.009016525067379596 0.002343400182446986 0.009016525067379596
5.308729589274893E7 0.0023480107903579178 0.009152304958440416 0.9976519892096419 -0.009152304958440416 0.9976519892096419 -0.009152304958440416 0.0023480107903579178 0.009152304958440416
5.388845770760058E7 0.002352759662195573 0.009290120766039623 0.9976472403378044 -0.009290120766039623 0.9976472403378044 -0.009290120766039623 0.002352759662195573 0.009290120766039623
5.470171017884717E7 0.0023576508850937385 0.00943000262651249 0.997642349114906 -0.00943000262651249 0.997642349114906 -0.00943000262651249 0.0023576508850937385 0.00943000262651249
5.5527235771465644E7 0.002362688663466634 0.009571981105295568 0.9976373113365332 -0.009571981105295566 0.9976373113365332 -0.009571981105295566 0.002362688663466634 0.009571981105295568
5.6365219704085544E7 0.002367877322165006 0.009716087202322227 0.9976321226778351 -0.009716087202322227 0.9976321226778351 -0.009716087202322227 0.002367877322165006 0.009716087202322227
5.721584999054556E7 0.002373221309704879 0.0098623523574574 0.9976267786902953 -0.0098623523574574 0.9976267786902953 -0.0098623523574574 0.002373221309704879 0.0098623523574574
5.807931748207712E7 0.0023787252015699135 0.010010808455970684 0.99762127479843 -0.010010808455970683 0.99762127479843 -0.010010808455970683 0.0023787252015699135 0.010010808455970684
5.8955815910124585E7 0.0023843937035882934 0.010161487834046998 0.9976156062964116 -0.010161487834046998 0.9976156062964116 -0.010161487834046998 0.0023843937035882934 0.010161487834046998
5.984554192981184E7 0.002390231655385004 0.010314423284333825 0.9976097683446147 -0.010314423284333825 0.9976097683446147 -0.010314423284333825 0.002390231655385004 0.010314423284333825
6.074869516406457E7 0.0023962440339103525 0.010469648061524152 0.9976037559660896 -0.010469648061524152 0.9976037559660896 -0.010469648061524152 0.0023962440339103525 0.010469648061524152
6.166547824839868E7 0.0024024359570455267 0.010627195887974108 0.9975975640429546 -0.010627195887974108 0.9975975640429546 -0.010627195887974108 0.0024024359570455267 0.010627195887974108
6.2596096876384385E7 0.0024088126872859232 0.010787100959354312 0.9975911873127141 -0.010787100959354312 0.9975911873127141 -0.010787100959354312 0.0024088126872859232 0.010787100959354312
6.354075984579668E7 0.002415379635502945 0.01094939795033382 0.9975846203644971 -0.010949397950333822 0.9975846203644971 -0.010949397950333822 0.002415379635502945 0.01094939795033382
6.449967910546205E7 0.0024221423647849145 0.011114122020295691 0.9975778576352151 -0.011114122020295691 0.9975778576352151 -0.011114122020295691 0.0024221423647849145 0.011114122020295691
6.547306980281226E7 0.002429106594357646 0.011281308819082913 0.9975708934056424 -0.011281308819082913 0.9975708934056424 -0.011281308819082913 0.002429106594357646 0.011281308819082913
6.646115033215589E7 0.002436278203585219 0.011450994492773684 0.9975637217964148 -0.011450994492773684 0.9975637217964148 -0.011450994492773684 0.002436278203585219 0.011450994492773684
6.746414238367817E7 0.0024436632360513616 0.01162321568948477 0.9975563367639486 -0.011623215689484772 0.9975563367639486 -0.011623215689484772 0.0024436632360513616 0.01162321568948477
6.848227099318038E7 0.0024512679037218166 0.011798009565201781 0.9975487320962783 -0.011798009565201781 0.9975487320962783 -0.011798009565201781 0.0024512679037218166 0.011798009565201781
6.951576459256999E7 0.0024590985911879686 0.011975413789635143 0.9975409014088121 -0.011975413789635143 0.9975409014088121 -0.011975413789635143 0.0024590985911879686 0.011975413789635143
7.056485506111258E7 0.0024671618599919174 0.012155466552100511 0.997532838140008 -0.01215546655210051 0.997532838140008 -0.01215546655210051 0.0024671618599919174 0.012155466552100511
7.162977777745734E7 0.0024754644530331086 0.012338206567422372 0.997524535546967 -0.012338206567422372 0.997524535546967 -0.012338206567422372 0.0024754644530331086 0.012338206567422372
7.271077167244768E7 0.002484013299056516 0.012523673081859596 0.9975159867009434 -0.012523673081859596 0.9975159867009434 -0.012523673081859596 0.002484013299056516 0.012523673081859596
7.380807928272885E7 0.0024928155172222887 0.012711905879051631 0.9975071844827776 -0.012711905879051631 0.9975071844827776 -0.012711905879051631 0.0024928155172222887 0.012711905879051631
7.492194680516452E7 0.002501878421756638 0.012902945285984072 0.9974981215782435 -0.012902945285984069 0.9974981215782435 -0.012902945285984069 0.002501878421756638 0.012902945285984072
7.60526241520746E7 0.002511209526683663 0.013096832178972414 0.9974887904733165 -0.013096832178972414 0.9974887904733165 -0.013096832178972414 0.002511209526683663 0.013096832178972414
7.720036500730675E7 0.0025208165506376804 0.013293607989662675 0.9974791834493625 -0.013293607989662675 0.9974791834493625 -0.013293607989662675 0.0025208165506376804 0.013293607989662675
7.836542688315398E7 0.0025307074217554566 0.01349331471104766 0.9974692925782445 -0.01349331471104766 0.9974692925782445 -0.01349331471104766 0.0025307074217554566 0.01349331471104766
7.954807117813127E7 0.002540890282647708 0.013695994903497745 0.9974591097173524 -0.013695994903497748 0.9974591097173524 -0.013695994903497748 0.002540890282647708 0.013695994903497745
8.074856323562416E7 0.0025513734954489896 0.01390169170080496 0.9974486265045511 -0.01390169170080496 0.9974486265045511 -0.01390169170080496 0.0025513734954489896 0.01390169170080496
8.196717240342227E7 0.0025621656469450344 0.01411044881623929 0.997437834353055 -0.01411044881623929 0.997437834353055 -0.01411044881623929 0.0025621656469450344 0.01411044881623929
8.320417209415154E7 0.0025732755537764187 0.014322310548616183 0.9974267244462237 -0.014322310548616185 0.9974267244462237 -0.014322310548616185 0.0025732755537764187 0.014322310548616183
8.445983984661816E7 0.00258471226771728 0.014537321788374186 0.9974152877322825 -0.014537321788374186 0.9974152877322825 -0.014537321788374186 0.00258471226771728 0.014537321788374186
8.573445738807854E7 0.0025964850810276927 0.014755528023661976 0.9974035149189722 -0.014755528023661976 0.9974035149189722 -0.014755528023661976 0.0025964850810276927 0.014755528023661976
8.702831069744885E7 0.0026086035318780855 0.014976975346433809 0.9973913964681218 -0.014976975346433807 0.9973913964681218 -0.014976975346433807 0.0026086035318780855 0.014976975346433809
8.834169006946853E7 0.002621077409844002 0.01520171045855284 0.9973789225901559 -0.015201710458552842 0.9973789225901559 -0.015201710458552842 0.002621077409844002 0.01520171045855284
8.96748901798321E7 0.0026339167614692406 0.01542978067790162 0.9973660832385308 -0.015429780677901623 0.9973660832385308 -0.015429780677901623 0.0026339167614692406 0.01542978067790162
9.1028210151304E7 0.002647131895895366 0.01566123394449955 0.9973528681041045 -0.015661233944499548 0.9973528681041045 -0.015661233944499548 0.002647131895895366 0.01566123394449955
9.240195362083109E7 0.002660733390555255 0.01589611882662666 0.9973392666094445 -0.01589611882662666 0.9973392666094445 -0.01589611882662666 0.002660733390555255 0.01589611882662666
9.379642880766791E7 0.0026747320969283234 0.016134484526954023 0.9973252679030717 -0.016134484526954023 0.9973252679030717 -0.016134484526954023 0.0026747320969283234 0.016134484526954023
9.521194858253023E7 0.0026891391463548012 0.016376380888680587 0.9973108608536452 -0.016376380888680587 0.9973108608536452 -0.016376380888680587 0.0026891391463548012 0.016376380888680587
9.664883053779216E7 0.0027039659559062647 0.016621858401676817 0.9972960340440937 -0.016621858401676817 0.9972960340440937 -0.016621858401676817 0.0027039659559062647 0.016621858401676817
9.810739705874248E7 0.0027192242343095315 0.016870968208635807 0.9972807757656904 -0.016870968208635807 0.9972807757656904 -0.016870968208635807 0.0027192242343095315 0.016870968208635807
9.958797539591652E7 0.0027349259879207084 0.017123762111232375 0.9972650740120792 -0.017123762111232375 0.9972650740120792 -0.017123762111232375 0.0027349259879207084 0.017123762111232375
1.0109089773851961E8 0.0027510835267461954 0.01738029257629149 0.9972489164732536 -0.01738029257629149 0.9972489164732536 -0.01738029257629149 0.0027510835267461954 0.01738029257629149
1.0261650128895843E8 0.0027677094705071 0.017640612741967134 0.997232290529493 -0.017640612741967134 0.997232290529493 -0.017640612741967134 0.0027677094705071 0.017640612741967134
1.0416512833849736E8 0.0027848167547435245 0.017904776423933514 0.9972151832452564 -0.017904776423933514 0.9972151832452564 -0.017904776423933514 0.0027848167547435245 0.017904776423933514
1.0573712634405641E8 0.0028024186369548826 0.018172838121590474 0.997197581363045 -0.018172838121590474 0.997197581363045 -0.018172838121590474 0.0028024186369548826 0.018172838121590474
1.0733284800616828E8 0.002820528702772382 0.018444853024285605 0.9971794712972276 -0.01844485302428561 0.9971794712972276 -0.01844485302428561 0.002820528702772382 0.018444853024285605
1.0895265134811176E8 0.0028391608721595974 0.018720877017555832 0.9971608391278405 -0.018720877017555832 0.9971608391278405 -0.018720877017555832 0.0028391608721595974 0.018720877017555832
1.1059689979623953E8 0.002858329405636978 0.019000966689391743 0.9971416705943629 -0.019000966689391746 0.9971416705943629 -0.019000966689391746 0.002858329405636978 0.019000966689391743
1.1226596226151802E8 0.002878048910526014 0.019285179336528444 0.9971219510894739 -0.019285179336528447 0.9971219510894739 -0.019285179336528447 0.002878048910526014 0.019285179336528444
1.1396021322229806E8 0.002898334347208675 0.019573572970766912 0.9971016656527912 -0.01957357297076691 0.9971016656527912 -0.01957357297076691 0.002898334347208675 0.019573572970766912
1.1568003280833441E8 0.0029192010353977253 0.019866206325330885 0.9970807989646024 -0.019866206325330885 0.9970807989646024 -0.019866206325330885 0.0029192010353977253 0.019866206325330885
1.1742580688607343E8 0.002940664660413379 0.020163138861264286 0.9970593353395866 -0.020163138861264286 0.9970593353395866 -0.020163138861264286 0.002940664660413379 0.020163138861264286
1.1919792714522783E8 0.002962741279461845 0.020464430773875296 0.9970372587205383 -0.0204644307738753 0.9970372587205383 -0.0204644307738753 0.002962741279461845 0.020464430773875296
1.2099679118665792E8 0.0029854473279111882 0.02077014299923336 0.9970145526720888 -0.02077014299923336 0.9970145526720888 -0.02077014299923336 0.0029854473279111882 0.02077014299923336
1.2282280261157903E8 0.0030087996255600898 0.02108033722072632 0.9969912003744399 -0.02108033722072632 0.9969912003744399 -0.02108033722072632 0.0030087996255600898 0.02108033722072632
1.2467637111211549E8 0.003032815382895066 0.021395075875685707 0.9969671846171049 -0.021395075875685704 0.9969671846171049 -0.021395075875685704 0.003032815382895066 0.021395075875685707
1.265579125632208E8 0.0030575122073318458 0.021714422162088392 0.996942487792668 -0.021714422162088392 0.996942487792668 -0.021714422162088392 0.0030575122073318458 0.021714422162088392
1.284678491159853E8 0.0030829081094367423 0.0220384400453441 0.9969170918905633 -0.022038440045344103 0.9969170918905633 -0.022038440045344103 0.0030829081094367423 0.0220384400453441
1.3040660929235186E8 0.003109021509124052 0.02236719426517889 0.996890978490876 -0.022367194265178886 0.996890978490876 -0.022367194265178886 0.003109021509124052 0.02236719426517889
1.3237462808126101E8 0.003135871241825724 0.022700750342625357 0.9968641287581744 -0.022700750342625357 0.9968641287581744 -0.022700750342625357 0.003135871241825724 0.022700750342625357
1.3437234703624701E8 0.0031634765646298495 0.023039174587131395 0.9968365234353703 -0.023039174587131395 0.9968365234353703 -0.023039174587131395 0.0031634765646298495 0.023039174587131395
1.364002143745067E8 0.003191857162384844 0.023382534103799937 0.9968081428376152 -0.023382534103799934 0.9968081428376152 -0.023382534103799934 0.003191857162384844 0.023382534103799937
1.3845868507746372E8 0.0032210331537666365 0.02373089680077354 0.9967789668462333 -0.02373089680077354 0.9967789668462333 -0.02373089680077354 0.0032210331537666365 0.02373089680077354
1.405482209928499E8 0.0032510250973065698 0.024084331396777715 0.9967489749026934 -0.024084331396777715 0.9967489749026934 -0.024084331396777715 0.0032510250973065698 0.024084331396777715
1.426692909383278E8 0.003281853997378313 0.024442907428838777 0.9967181460026217 -0.02444290742883878 0.9967181460026217 -0.02444290742883878 0.003281853997378313 0.024442907428838777
1.4482237080667645E8 0.003313541310142685 0.024806695260192357 0.9966864586898573 -0.024806695260192357 0.9966864586898573 -0.024806695260192357 0.003313541310142685 0.024806695260192357
1.4700794367256513E8 0.003346108949449924 0.025175766088399866 0.99665389105055 -0.025175766088399863 0.99665389105055 -0.025175766088399863 0.003346108949449924 0.025175766088399866
1.492264999009378E8 0.003379579292699746 0.025550191953691258 0.9966204207073003 -0.025550191953691258 0.9966204207073003 -0.025550191953691258 0.003379579292699746 0.025550191953691258
1.5147853725703382E8 0.0034139751866603583 0.025930045747553292 0.9965860248133397 -0.0259300457475533 0.9965860248133397 -0.0259300457475533 0.0034139751866603583 0.025930045747553292
1.5376456101806876E8 0.003449319953248545 0.026315401221583712 0.9965506800467515 -0.026315401221583712 0.9965506800467515 -0.026315401221583712 0.003449319953248545 0.026315401221583712
1.5608508408660066E8 0.0034856373952739717 0.02670633299663257 0.996514362604726 -0.026706332996632564 0.996514362604726 -0.026706332996632564 0.0034856373952739717 0.02670633299663257
1.5844062710560706E8 0.0035229518021519376 0.027102916572252857 0.9964770481978481 -0.027102916572252857 0.9964770481978481 -0.027102916572252857 0.0035229518021519376 0.027102916572252857
1.6083171857529896E8 0.003561287955590127 0.027505228336484045 0.9964387120444099 -0.027505228336484045 0.9964387120444099 -0.027505228336484045 0.003561287955590127 0.027505228336484045
1.632588949716973E8 0.0036006711352561693 0.0279133455759925 0.9963993288647436 -0.0279133455759925 0.9963993288647436 -0.0279133455759925 0.0036006711352561693 0.0279133455759925
1.6572270086699936E8 0.0036411271244342538 0.028327346486594067 0.9963588728755657 -0.028327346486594067 0.9963588728755657 -0.028327346486594067 0.0036411271244342538 0.028327346486594067
1.6822368905176118E8 0.0036826822156806856 0.02874731018418493 0.9963173177843193 -0.02874731018418493 0.9963173177843193 -0.02874731018418493 0.0036826822156806856 0.02874731018418493
1.7076242065892437E8 0.0037253632164898185 0.029173316716107716 0.9962746367835102 -0.029173316716107716 0.9962746367835102 -0.029173316716107716 0.0037253632164898185 0.029173316716107716
1.7333946528971428E8 0.0037691974549837167 0.029605447072980753 0.9962308025450164 -0.029605447072980753 0.9962308025450164 -0.029605447072980753 0.0037691974549837167 0.029605447072980753
1.7595540114143828E8 0.003814212785640653 0.030043783201018793 0.9961857872143594 -0.030043783201018793 0.9961857872143594 -0.030043783201018793 0.003814212785640653 0.030043783201018793
1.786108151372127E8 0.0038604375950797272 0.030488408014874742 0.9961395624049201 -0.030488408014874742 0.9961395624049201 -0.030488408014874742 0.0038604375950797272 0.030488408014874742
1.8130630305764765E8 0.003907900807920898 0.03093940541103214 0.996092099192079 -0.03093940541103214 0.996092099192079 -0.03093940541103214 0.003907900807920898 0.03093940541103214
1.840424696745189E8 0.003956631892742063 0.03139686028177877 0.9960433681072581 -0.03139686028177877 0.9960433681072581 -0.03139686028177877 0.003956631892742063 0.03139686028177877
1.8681992888645732E8 0.004006660868157188 0.03186085852979246 0.9959933391318428 -0.03186085852979246 0.9959933391318428 -0.03186085852979246 0.004006660868157188 0.03186085852979246
1.8963930385668582E8 0.00405801830904194 0.03233148708336998 0.995941981690958 -0.03233148708336998 0.995941981690958 -0.03233148708336998 0.00405801830904194 0.03233148708336998
1.92501227152835E8 0.004110735352935988 0.03280883391233075 0.9958892646470643 -0.032808833912330755 0.9958892646470643 -0.032808833912330755 0.004110735352935988 0.03280883391233075
1.9540634088886917E8 0.004164843706653725 0.03329298804462658 0.9958351562933464 -0.03329298804462658 0.9958351562933464 -0.03329298804462658 0.004164843706653725 0.03329298804462658
1.983552968691535E8 0.0042203756531381115 0.03378403958368894 0.995779624346862 -0.03378403958368894 0.995779624346862 -0.03378403958368894 0.0042203756531381115 0.03378403958368894
2.0134875673469606E8 0.004277364058595234 0.03428207972654499 0.9957226359414049 -0.03428207972654499 0.9957226359414049 -0.03428207972654499 0.004277364058595234 0.03428207972654499
2.0438739211159652E8 0.004335842379950187 0.03478720078273327 0.9956641576200497 -0.03478720078273327 0.9956641576200497 -0.03478720078273327 0.004335842379950187 0.03478720078273327
2.074718847617352E8 0.0043958446726679945 0.03529949619404895 0.9956041553273322 -0.03529949619404895 0.9956041553273322 -0.03529949619404895 0.0043958446726679945 0.03529949619404895
2.106029267357361E8 0.004457405598986525 0.03581906055514845 0.9955425944010136 -0.03581906055514845 0.9955425944010136 -0.03581906055514845 0.004457405598986525 0.03581906055514845
2.1378122052823865E8 0.00452056043661164 0.03634598963504209 0.9954794395633884 -0.03634598963504209 0.9954794395633884 -0.03634598963504209 0.00452056043661164 0.03634598963504209
2.1700747923551247E8 0.004585345087927963 0.036880380399501485 0.995414654912072 -0.03688038039950149 0.995414654912072 -0.03688038039950149 0.004585345087927963 0.036880380399501485
2.2028242671545094E8 0.004651796089782323 0.037422331034408486 0.9953482039102176 -0.037422331034408486 0.9953482039102176 -0.037422331034408486 0.004651796089782323 0.037422331034408486
2.23606797749979E8 0.004719950623900043 0.03797194097006935 0.9952800493760998 -0.03797194097006935 0.9952800493760998 -0.03797194097006935 0.004719950623900043 0.03797194097006935
2.2698133820991236E8 0.004789846527997834 0.038529310906516984 0.9952101534720023 -0.038529310906516984 0.9952101534720023 -0.038529310906516984 0.004789846527997834 0.038529310906516984
2.3040680522230446E8 0.004861522307660427 0.03909454283982156 0.9951384776923395 -0.03909454283982156 0.9951384776923395 -0.03909454283982156 0.004861522307660427 0.03909454283982156
2.338839673403185E8 0.0049350171490514915 0.03966774008942736 0.9950649828509486 -0.03966774008942736 0.9950649828509486 -0.03966774008942736 0.0049350171490514915 0.03966774008942736
2.37413604715664E8 0.005010370932532738 0.040249007326531396 0.9949896290674672 -0.040249007326531396 0.9949896290674672 -0.040249007326531396 0.005010370932532738 0.040249007326531396
2.4099650927363476E8 0.005087624247268467 0.040838450603516124 0.9949123757527314 -0.040838450603516124 0.9949123757527314 -0.040838450603516124 0.005087624247268467 0.040838450603516124
