!Murata Part Number: LQP02TQ2N6B02
!These Parameters are Measured in Series Mode Connection
!       o--[Z]--o
!Port1              Port2
!       o-------o
!
!Freq. Start=50[MHz] Stop=20[GHz], 401[Steps]
# Hz S RI R 50
!Freq.(Hz) S11(Real) S11(Imag) S21(Real) S21(Imag) S12(Real) S12(Imag) S22(Real) S22(Imag)
5.0E7 0.00283699452156584 0.0089771924146464 0.9971630054784343 -0.0089771924146464 0.9971630054784343 -0.0089771924146464 0.00283699452156584 0.0089771924146464
5.0754570186123446E7 0.0028415553466378876 0.009112392510074908 0.9971584446533621 -0.009112392510074908 0.9971584446533621 -0.009112392510074908 0.0028415553466378876 0.009112392510074908
5.152052789556263E7 0.0028462530904620658 0.009249620376697678 0.9971537469095381 -0.009249620376697678 0.9971537469095381 -0.009249620376697678 0.0028462530904620658 0.009249620376697678
5.229804498202928E7 0.002851091809254093 0.009388906053511196 0.997148908190746 -0.009388906053511198 0.997148908190746 -0.009388906053511198 0.002851091809254093 0.009388906053511196
5.308729589274893E7 0.002856075676147573 0.009530280008156327 0.9971439243238526 -0.009530280008156327 0.9971439243238526 -0.009530280008156327 0.002856075676147573 0.009530280008156327
5.388845770760058E7 0.002861208984371211 0.009673773142341491 0.9971387910156289 -0.009673773142341493 0.9971387910156289 -0.009673773142341493 0.002861208984371211 0.009673773142341491
5.470171017884717E7 0.002866496150501021 0.009819416797306227 0.9971335038494991 -0.009819416797306227 0.9971335038494991 -0.009819416797306227 0.002866496150501021 0.009819416797306227
5.5527235771465644E7 0.002871941717788594 0.009967242759324266 0.9971280582822116 -0.009967242759324266 0.9971280582822116 -0.009967242759324266 0.002871941717788594 0.009967242759324266
5.6365219704085544E7 0.0028775503595665085 0.010117283265245277 0.9971224496404336 -0.010117283265245277 0.9971224496404336 -0.010117283265245277 0.0028775503595665085 0.010117283265245277
5.721584999054556E7 0.0028833268827319265 0.01026957100807434 0.997116673117268 -0.01026957100807434 0.997116673117268 -0.01026957100807434 0.0028833268827319265 0.01026957100807434
5.807931748207712E7 0.0028892762313093676 0.010424139142588225 0.9971107237686905 -0.010424139142588225 0.9971107237686905 -0.010424139142588225 0.0028892762313093676 0.010424139142588225
5.8955815910124585E7 0.002895403490093654 0.010581021290987416 0.9971045965099063 -0.010581021290987416 0.9971045965099063 -0.010581021290987416 0.002895403490093654 0.010581021290987416
5.984554192981184E7 0.002901713888373926 0.010740251548582911 0.9970982861116261 -0.010740251548582911 0.9970982861116261 -0.010740251548582911 0.002901713888373926 0.010740251548582911
6.074869516406457E7 0.0029082128037396376 0.01090186448951661 0.9970917871962606 -0.010901864489516612 0.9970917871962606 -0.010901864489516612 0.0029082128037396376 0.01090186448951661
6.166547824839868E7 0.002914905765969352 0.011065895172514238 0.9970850942340306 -0.011065895172514238 0.9970850942340306 -0.011065895172514238 0.002914905765969352 0.011065895172514238
6.2596096876384385E7 0.0029217984610031248 0.011232379146669582 0.9970782015389971 -0.011232379146669582 0.9970782015389971 -0.011232379146669582 0.0029217984610031248 0.011232379146669582
6.354075984579668E7 0.00292889673499918 0.011401352457258805 0.9970711032650006 -0.011401352457258805 0.9970711032650006 -0.011401352457258805 0.00292889673499918 0.011401352457258805
6.449967910546205E7 0.002936206598475581 0.011572851651583683 0.9970637934015244 -0.011572851651583683 0.9970637934015244 -0.011572851651583683 0.002936206598475581 0.011572851651583683
6.547306980281226E7 0.002943734230537433 0.011746913784842277 0.9970562657694625 -0.011746913784842277 0.9970562657694625 -0.011746913784842277 0.002943734230537433 0.011746913784842277
6.646115033215589E7 0.00295148598319018 0.011923576426025989 0.9970485140168099 -0.011923576426025989 0.9970485140168099 -0.011923576426025989 0.00295148598319018 0.011923576426025989
6.746414238367817E7 0.0029594683857394116 0.012102877663841324 0.9970405316142605 -0.012102877663841322 0.9970405316142605 -0.012102877663841322 0.0029594683857394116 0.012102877663841324
6.848227099318038E7 0.0029676881492775573 0.012284856112655292 0.9970323118507224 -0.012284856112655292 0.9970323118507224 -0.012284856112655292 0.0029676881492775573 0.012284856112655292
6.951576459256999E7 0.002976152171257719 0.01246955091846279 0.9970238478287422 -0.012469550918462788 0.9970238478287422 -0.012469550918462788 0.002976152171257719 0.01246955091846279
7.056485506111258E7 0.002984867540154822 0.012657001764874653 0.9970151324598454 -0.012657001764874653 0.9970151324598454 -0.012657001764874653 0.002984867540154822 0.012657001764874653
7.162977777745734E7 0.0029938415402141613 0.012847248879124923 0.9970061584597859 -0.012847248879124923 0.9970061584597859 -0.012847248879124923 0.0029938415402141613 0.012847248879124923
7.271077167244768E7 0.0030030816562873217 0.013040333038095866 0.9969969183437127 -0.013040333038095868 0.9969969183437127 -0.013040333038095868 0.0030030816562873217 0.013040333038095866
7.380807928272885E7 0.003012595578755292 0.01323629557435925 0.9969874044212447 -0.013236295574359253 0.9969874044212447 -0.013236295574359253 0.003012595578755292 0.01323629557435925
7.492194680516452E7 0.003022391208538555 0.013435178382232446 0.9969776087914615 -0.01343517838223245 0.9969776087914615 -0.01343517838223245 0.003022391208538555 0.013435178382232446
7.60526241520746E7 0.003032476662193724 0.01363702392384791 0.9969675233378062 -0.01363702392384791 0.9969675233378062 -0.01363702392384791 0.003032476662193724 0.01363702392384791
7.720036500730675E7 0.0030428602770962653 0.013841875235234601 0.9969571397229037 -0.013841875235234601 0.9969571397229037 -0.013841875235234601 0.0030428602770962653 0.013841875235234601
7.836542688315398E7 0.0030535506167085795 0.014049775932409901 0.9969464493832914 -0.014049775932409901 0.9969464493832914 -0.014049775932409901 0.0030535506167085795 0.014049775932409901
7.954807117813127E7 0.003064556475932719 0.014260770217480682 0.9969354435240672 -0.014260770217480682 0.9969354435240672 -0.014260770217480682 0.003064556475932719 0.014260770217480682
8.074856323562416E7 0.003075886886546767 0.014474902884752148 0.9969241131134532 -0.014474902884752148 0.9969241131134532 -0.014474902884752148 0.003075886886546767 0.014474902884752148
8.196717240342227E7 0.0030875511227237587 0.014692219326843175 0.9969124488772763 -0.014692219326843175 0.9969124488772763 -0.014692219326843175 0.0030875511227237587 0.014692219326843175
8.320417209415154E7 0.0030995587066319644 0.014912765540807005 0.9969004412933681 -0.014912765540807005 0.9969004412933681 -0.014912765540807005 0.0030995587066319644 0.014912765540807005
8.445983984661816E7 0.0031119194141150195 0.015136588134255911 0.9968880805858849 -0.015136588134255911 0.9968880805858849 -0.015136588134255911 0.0031119194141150195 0.015136588134255911
8.573445738807854E7 0.0031246432804504067 0.015363734331489125 0.9968753567195494 -0.015363734331489125 0.9968753567195494 -0.015363734331489125 0.0031246432804504067 0.015363734331489125
8.702831069744885E7 0.003137740606184461 0.015594251979622721 0.9968622593938155 -0.015594251979622718 0.9968622593938155 -0.015594251979622718 0.003137740606184461 0.015594251979622721
8.834169006946853E7 0.003151221963042001 0.015828189554720803 0.9968487780369581 -0.015828189554720803 0.9968487780369581 -0.015828189554720803 0.003151221963042001 0.015828189554720803
8.96748901798321E7 0.0031650981999084395 0.016065596167927278 0.9968349018000917 -0.016065596167927278 0.9968349018000917 -0.016065596167927278 0.0031650981999084395 0.016065596167927278
9.1028210151304E7 0.003179380448882098 0.016306521571597614 0.9968206195511179 -0.016306521571597614 0.9968206195511179 -0.016306521571597614 0.003179380448882098 0.016306521571597614
9.240195362083109E7 0.003194080131394196 0.016551016165430157 0.9968059198686058 -0.016551016165430157 0.9968059198686058 -0.016551016165430157 0.003194080131394196 0.016551016165430157
9.379642880766791E7 0.0032092089643938693 0.01679913100259692 0.9967907910356061 -0.01679913100259692 0.9967907910356061 -0.01679913100259692 0.0032092089643938693 0.01679913100259692
9.521194858253023E7 0.003224778966595325 0.017050917795873703 0.9967752210334047 -0.017050917795873703 0.9967752210334047 -0.017050917795873703 0.003224778966595325 0.017050917795873703
9.664883053779216E7 0.0032408024647840655 0.01730642892376985 0.9967591975352161 -0.01730642892376985 0.9967591975352161 -0.01730642892376985 0.0032408024647840655 0.01730642892376985
9.810739705874248E7 0.0032572921001789786 0.01756571743665819 0.9967427078998209 -0.017565717436658187 0.9967427078998209 -0.017565717436658187 0.0032572921001789786 0.01756571743665819
9.958797539591652E7 0.0032742608348467787 0.017828837062905736 0.9967257391651532 -0.017828837062905736 0.9967257391651532 -0.017828837062905736 0.0032742608348467787 0.017828837062905736
1.0109089773851961E8 0.003291721958165253 0.01809584221500641 0.9967082780418348 -0.01809584221500641 0.9967082780418348 -0.01809584221500641 0.003291721958165253 0.01809584221500641
1.0261650128895843E8 0.0033096890933314587 0.018366787995716914 0.9966903109066685 -0.018366787995716914 0.9966903109066685 -0.018366787995716914 0.0033096890933314587 0.018366787995716914
1.0416512833849736E8 0.0033281762039109484 0.01864173020419785 0.9966718237960892 -0.01864173020419785 0.9966718237960892 -0.01864173020419785 0.0033281762039109484 0.01864173020419785
1.0573712634405641E8 0.003347197600423834 0.018920725342161746 0.9966528023995762 -0.018920725342161746 0.9966528023995762 -0.018920725342161746 0.003347197600423834 0.018920725342161746
1.0733284800616828E8 0.0033667679469634375 0.01920383062003088 0.9966332320530367 -0.01920383062003088 0.9966332320530367 -0.01920383062003088 0.0033667679469634375 0.01920383062003088
1.0895265134811176E8 0.0033869022678430826 0.019491103963107673 0.9966130977321569 -0.01949110396310767 0.9966130977321569 -0.01949110396310767 0.0033869022678430826 0.019491103963107673
1.1059689979623953E8 0.0034076159542664455 0.01978260401776105 0.9965923840457336 -0.01978260401776105 0.9965923840457336 -0.01978260401776105 0.0034076159542664455 0.01978260401776105
1.1226596226151802E8 0.0034289247710168258 0.020078390157632908 0.996571075228983 -0.020078390157632905 0.996571075228983 -0.020078390157632905 0.0034289247710168258 0.020078390157632908
1.1396021322229806E8 0.003450844863160511 0.020378522489868833 0.9965491551368395 -0.020378522489868833 0.9965491551368395 -0.020378522489868833 0.003450844863160511 0.020378522489868833
1.1568003280833441E8 0.0034733927627594472 0.02068306186137838 0.9965266072372406 -0.02068306186137838 0.9965266072372406 -0.02068306186137838 0.0034733927627594472 0.02068306186137838
1.1742580688607343E8 0.0034965853955882535 0.020992069865130334 0.9965034146044116 -0.020992069865130334 0.9965034146044116 -0.020992069865130334 0.0034965853955882535 0.020992069865130334
1.1919792714522783E8 0.003520440087850748 0.021305608846489427 0.9964795599121492 -0.021305608846489427 0.9964795599121492 -0.021305608846489427 0.003520440087850748 0.021305608846489427
1.2099679118665792E8 0.003544974572890957 0.021623741909601212 0.996455025427109 -0.021623741909601212 0.996455025427109 -0.021623741909601212 0.003544974572890957 0.021623741909601212
1.2282280261157903E8 0.0035702069978938425 0.02194653292383293 0.9964297930021062 -0.021946532923832935 0.9964297930021062 -0.021946532923832935 0.0035702069978938425 0.02194653292383293
1.2467637111211549E8 0.003596155930570864 0.02227404653027858 0.9964038440694293 -0.02227404653027858 0.9964038440694293 -0.02227404653027858 0.003596155930570864 0.02227404653027858
1.265579125632208E8 0.003622840365825762 0.022606348148337535 0.9963771596341741 -0.022606348148337535 0.9963771596341741 -0.022606348148337535 0.003622840365825762 0.022606348148337535
1.284678491159853E8 0.003650279732395974 0.022943503982376507 0.996349720267604 -0.022943503982376507 0.996349720267604 -0.022943503982376507 0.003650279732395974 0.022943503982376507
1.3040660929235186E8 0.003678493899465431 0.02328558102848578 0.9963215061005346 -0.023285581028485783 0.9963215061005346 -0.023285581028485783 0.003678493899465431 0.02328558102848578
1.3237462808126101E8 0.003707503183244622 0.023632647081341305 0.9962924968167555 -0.023632647081341305 0.9962924968167555 -0.023632647081341305 0.003707503183244622 0.023632647081341305
1.3437234703624701E8 0.003737328353514234 0.02398477074118532 0.9962626716464857 -0.023984770741185324 0.9962626716464857 -0.023984770741185324 0.003737328353514234 0.02398477074118532
1.364002143745067E8 0.003767990640128966 0.02434202142093897 0.9962320093598712 -0.02434202142093897 0.9962320093598712 -0.02434202142093897 0.003767990640128966 0.02434202142093897
1.3845868507746372E8 0.0037995117394786443 0.024704469353461562 0.9962004882605213 -0.02470446935346156 0.9962004882605213 -0.02470446935346156 0.0037995117394786443 0.024704469353461562
1.405482209928499E8 0.003831913820904166 0.025072185598971633 0.996168086179096 -0.025072185598971633 0.996168086179096 -0.025072185598971633 0.003831913820904166 0.025072185598971633
1.426692909383278E8 0.0038652195330665016 0.02544524205264674 0.9961347804669334 -0.02544524205264674 0.9961347804669334 -0.02544524205264674 0.0038652195330665016 0.02544524205264674
1.4482237080667645E8 0.0038994520102675597 0.02582371145241919 0.9961005479897326 -0.02582371145241919 0.9961005479897326 -0.02582371145241919 0.0038994520102675597 0.02582371145241919
1.4700794367256513E8 0.003934634878722512 0.026207667386986364 0.9960653651212772 -0.026207667386986364 0.9960653651212772 -0.026207667386986364 0.003934634878722512 0.026207667386986364
1.492264999009378E8 0.003970792262784013 0.026597184304055506 0.9960292077372159 -0.026597184304055506 0.9960292077372159 -0.026597184304055506 0.003970792262784013 0.026597184304055506
1.5147853725703382E8 0.004007948791119622 0.026992337518843283 0.9959920512088802 -0.02699233751884329 0.9959920512088802 -0.02699233751884329 0.004007948791119622 0.026992337518843283
1.5376456101806876E8 0.004046129602844852 0.027393203222852467 0.995953870397155 -0.027393203222852467 0.995953870397155 -0.027393203222852467 0.004046129602844852 0.027393203222852467
1.5608508408660066E8 0.004085360353615316 0.02779985849294802 0.9959146396463848 -0.027799858492948023 0.9959146396463848 -0.027799858492948023 0.004085360353615316 0.02779985849294802
1.5844062710560706E8 0.004125667221682689 0.028212381300756963 0.9958743327783173 -0.02821238130075697 0.9958743327783173 -0.02821238130075697 0.004125667221682689 0.028212381300756963
1.6083171857529896E8 0.00416707691392062 0.028630850522416932 0.9958329230860794 -0.02863085052241694 0.9958329230860794 -0.02863085052241694 0.00416707691392062 0.028630850522416932
1.632588949716973E8 0.004209616671828077 0.02905534594869928 0.9957903833281719 -0.02905534594869928 0.9957903833281719 -0.02905534594869928 0.004209616671828077 0.02905534594869928
1.6572270086699936E8 0.004253314277519229 0.029485948295533904 0.9957466857224808 -0.029485948295533897 0.9957466857224808 -0.029485948295533897 0.004253314277519229 0.029485948295533904
1.6822368905176118E8 0.004298198059710734 0.02992273921496384 0.9957018019402893 -0.029922739214963835 0.9957018019402893 -0.029922739214963835 0.004298198059710734 0.02992273921496384
1.7076242065892437E8 0.004344296899718972 0.030365801306558398 0.995655703100281 -0.03036580130655839 0.995655703100281 -0.03036580130655839 0.004344296899718972 0.030365801306558398
1.7333946528971428E8 0.0043916402374818446 0.030815218129314686 0.9956083597625183 -0.030815218129314686 0.9956083597625183 -0.030815218129314686 0.0043916402374818446 0.030815218129314686
1.7595540114143828E8 0.0044402580776217535 0.031271074214078105 0.9955597419223783 -0.031271074214078105 0.9955597419223783 -0.031271074214078105 0.0044402580776217535 0.031271074214078105
1.786108151372127E8 0.004490180995568628 0.0317334550765132 0.9955098190044314 -0.0317334550765132 0.9955098190044314 -0.0317334550765132 0.004490180995568628 0.0317334550765132
1.8130630305764765E8 0.00454144014376414 0.03220244723065673 0.9954585598562359 -0.03220244723065673 0.9954585598562359 -0.03220244723065673 0.00454144014376414 0.03220244723065673
1.840424696745189E8 0.004594067257970682 0.032678138203085336 0.9954059327420295 -0.032678138203085336 0.9954059327420295 -0.032678138203085336 0.004594067257970682 0.032678138203085336
1.8681992888645732E8 0.004648094663711486 0.03316061654773115 0.9953519053362885 -0.03316061654773115 0.9953519053362885 -0.03316061654773115 0.004648094663711486 0.03316061654773115
1.8963930385668582E8 0.00470355528287057 0.0336499718613781 0.9952964447171294 -0.033649971861378095 0.9952964447171294 -0.033649971861378095 0.00470355528287057 0.0336499718613781
1.92501227152835E8 0.0047604826404844865 0.034146294799872724 0.9952395173595154 -0.034146294799872724 0.9952395173595154 -0.034146294799872724 0.0047604826404844865 0.034146294799872724
1.9540634088886917E8 0.004818910871760414 0.03464967709508275 0.9951810891282395 -0.03464967709508275 0.9951810891282395 -0.03464967709508275 0.004818910871760414 0.03464967709508275
1.983552968691535E8 0.0048788747293584565 0.035160211572636844 0.9951211252706417 -0.035160211572636844 0.9951211252706417 -0.035160211572636844 0.0048788747293584565 0.035160211572636844
2.0134875673469606E8 0.004940409590979099 0.03567799217047883 0.9950595904090208 -0.03567799217047884 0.9950595904090208 -0.03567799217047884 0.004940409590979099 0.03567799217047883
2.0438739211159652E8 0.00500355146729998 0.03620311395826862 0.9949964485327 -0.03620311395826862 0.9949964485327 -0.03620311395826862 0.00500355146729998 0.03620311395826862
2.074718847617352E8 0.005068337010309631 0.036735673157661936 0.9949316629896904 -0.03673567315766193 0.9949316629896904 -0.03673567315766193 0.005068337010309631 0.036735673157661936
2.106029267357361E8 0.005134803522089197 0.037275767163500007 0.9948651964779106 -0.037275767163500007 0.9948651964779106 -0.037275767163500007 0.005134803522089197 0.037275767163500007
2.1378122052823865E8 0.005202988964096745 0.03782349456593925 0.9947970110359033 -0.03782349456593925 0.9947970110359033 -0.03782349456593925 0.005202988964096745 0.03782349456593925
2.1700747923551247E8 0.005272931967012194 0.03837895517354899 0.9947270680329878 -0.03837895517354899 0.9947270680329878 -0.03837895517354899 0.005272931967012194 0.03837895517354899
2.2028242671545094E8 0.005344671841204802 0.038942250037405264 0.994655328158795 -0.03894225003740526 0.994655328158795 -0.03894225003740526 0.005344671841204802 0.038942250037405264
2.23606797749979E8 0.005418248587888531 0.03951348147620519 0.9945817514121115 -0.03951348147620519 0.9945817514121115 -0.03951348147620519 0.005418248587888531 0.03951348147620519
2.2698133820991236E8 0.00549370291103438 0.04009275310242513 0.9945062970889657 -0.04009275310242513 0.9945062970889657 -0.04009275310242513 0.00549370291103438 0.04009275310242513
2.3040680522230446E8 0.005571076230112584 0.04068016984954396 0.9944289237698876 -0.040680169849543965 0.9944289237698876 -0.040680169849543965 0.005571076230112584 0.04068016984954396
2.338839673403185E8 0.005650410693740984 0.041275838000348994 0.9943495893062589 -0.041275838000348994 0.9943495893062589 -0.041275838000348994 0.005650410693740984 0.041275838000348994
2.37413604715664E8 0.005731749194319696 0.04187986521634017 0.9942682508056802 -0.04187986521634017 0.9942682508056802 -0.04187986521634017 0.005731749194319696 0.04187986521634017
2.4099650927363476E8 0.0058151353837355875 0.04249236056824429 0.9941848646162644 -0.04249236056824429 0.9941848646162644 -0.04249236056824429 0.0058151353837355875 0.04249236056824429
