!Murata Part Number: LQP02TQ12NH02
!These Parameters are Measured in Series Mode Connection
!       o--[Z]--o
!Port1              Port2
!       o-------o
!
!Freq. Start=50[MHz] Stop=20[GHz], 401[Steps]
# Hz S RI R 50
!Freq.(Hz) S11(Real) S11(Imag) S21(Real) S21(Imag) S12(Real) S12(Imag) S22(Real) S22(Imag)
5.0E7 0.014103672284681963 0.04000625364574452 0.9858963277153182 -0.040006253645744526 0.9858963277153182 -0.040006253645744526 0.014103672284681963 0.04000625364574452
5.0754570186123446E7 0.014171701069986956 0.04059729480946815 0.9858282989300131 -0.04059729480946815 0.9858282989300131 -0.04059729480946815 0.014171701069986956 0.04059729480946815
5.152052789556263E7 0.014241543519653739 0.04119693958988601 0.9857584564803463 -0.04119693958988602 0.9857584564803463 -0.04119693958988602 0.014241543519653739 0.04119693958988601
5.229804498202928E7 0.014313249501445262 0.04180530914241603 0.9856867504985549 -0.04180530914241603 0.9856867504985549 -0.04180530914241603 0.014313249501445262 0.04180530914241603
5.308729589274893E7 0.014386870315717901 0.04242252615236425 0.9856131296842822 -0.042422526152364255 0.9856131296842822 -0.042422526152364255 0.014386870315717901 0.04242252615236425
5.388845770760058E7 0.014462458737104923 0.0430487148424381 0.9855375412628951 -0.0430487148424381 0.9855375412628951 -0.0430487148424381 0.014462458737104923 0.0430487148424381
5.470171017884717E7 0.014540069057042576 0.04368400097953048 0.9854599309429575 -0.043684000979530485 0.9854599309429575 -0.043684000979530485 0.014540069057042576 0.04368400097953048
5.5527235771465644E7 0.014619757127124638 0.044328511880748635 0.9853802428728755 -0.044328511880748635 0.9853802428728755 -0.044328511880748635 0.014619757127124638 0.044328511880748635
5.6365219704085544E7 0.014701580403271143 0.04498237641866365 0.9852984195967289 -0.04498237641866365 0.9852984195967289 -0.04498237641866365 0.014701580403271143 0.04498237641866365
5.721584999054556E7 0.014785597990695709 0.04564572502575744 0.9852144020093043 -0.04564572502575744 0.9852144020093043 -0.04564572502575744 0.014785597990695709 0.04564572502575744
5.807931748207712E7 0.014871870689655712 0.04631868969804552 0.9851281293103444 -0.04631868969804552 0.9851281293103444 -0.04631868969804552 0.014871870689655712 0.04631868969804552
5.8955815910124585E7 0.01496046104196917 0.047001403997855774 0.9850395389580309 -0.047001403997855774 0.9850395389580309 -0.047001403997855774 0.01496046104196917 0.047001403997855774
5.984554192981184E7 0.01505143337828186 0.04769400305574475 0.9849485666217181 -0.047694003055744755 0.9849485666217181 -0.047694003055744755 0.01505143337828186 0.04769400305574475
6.074869516406457E7 0.015144853866068156 0.04839662357153436 0.9848551461339319 -0.04839662357153436 0.9848551461339319 -0.04839662357153436 0.015144853866068156 0.04839662357153436
6.166547824839868E7 0.015240790558349005 0.04910940381445378 0.984759209441651 -0.04910940381445378 0.984759209441651 -0.04910940381445378 0.015240790558349005 0.04910940381445378
6.2596096876384385E7 0.015339313443111128 0.04983248362237302 0.9846606865568888 -0.04983248362237302 0.9846606865568888 -0.04983248362237302 0.015339313443111128 0.04983248362237302
6.354075984579668E7 0.015440494493411115 0.05056600440011573 0.9845595055065888 -0.05056600440011573 0.9845595055065888 -0.05056600440011573 0.015440494493411115 0.05056600440011573
6.449967910546205E7 0.015544407718149371 0.05131010911684069 0.9844555922818509 -0.05131010911684069 0.9844555922818509 -0.05131010911684069 0.015544407718149371 0.05131010911684069
6.547306980281226E7 0.015651129213498965 0.052064942302483055 0.984348870786501 -0.052064942302483055 0.984348870786501 -0.052064942302483055 0.015651129213498965 0.052064942302483055
6.646115033215589E7 0.015760737214975604 0.05283065004324777 0.9842392627850245 -0.05283065004324777 0.9842392627850245 -0.05283065004324777 0.015760737214975604 0.05283065004324777
6.746414238367817E7 0.015873312150135422 0.053607379976148485 0.9841266878498646 -0.053607379976148485 0.9841266878498646 -0.053607379976148485 0.015873312150135422 0.053607379976148485
6.848227099318038E7 0.015988936691889073 0.05439528128258807 0.9840110633081108 -0.05439528128258807 0.9840110633081108 -0.05439528128258807 0.015988936691889073 0.05439528128258807
6.951576459256999E7 0.016107695812420955 0.05519450468097659 0.983892304187579 -0.05519450468097659 0.983892304187579 -0.05519450468097659 0.016107695812420955 0.05519450468097659
7.056485506111258E7 0.016229676837704245 0.05600520241838446 0.9837703231622961 -0.05600520241838446 0.9837703231622961 -0.05600520241838446 0.016229676837704245 0.05600520241838446
7.162977777745734E7 0.016354969502604056 0.05682752826123032 0.983645030497396 -0.05682752826123032 0.983645030497396 -0.05682752826123032 0.016354969502604056 0.05682752826123032
7.271077167244768E7 0.01648366600656192 0.05766163748500323 0.9835163339934382 -0.05766163748500323 0.9835163339934382 -0.05766163748500323 0.01648366600656192 0.05766163748500323
7.380807928272885E7 0.016615861069857116 0.05850768686302004 0.983384138930143 -0.058507686863020054 0.983384138930143 -0.058507686863020054 0.016615861069857116 0.05850768686302004
7.492194680516452E7 0.016751651990441877 0.05936583465422044 0.9832483480095583 -0.05936583465422044 0.9832483480095583 -0.05936583465422044 0.016751651990441877 0.05936583465422044
7.60526241520746E7 0.01689113870134968 0.06023624059000199 0.9831088612986503 -0.06023624059000199 0.9831088612986503 -0.06023624059000199 0.01689113870134968 0.06023624059000199
7.720036500730675E7 0.017034423828677415 0.061119065860098826 0.9829655761713226 -0.06111906586009883 0.9829655761713226 -0.06111906586009883 0.017034423828677415 0.061119065860098826
7.836542688315398E7 0.017181612750144917 0.06201447309750804 0.9828183872498553 -0.06201447309750804 0.9828183872498553 -0.06201447309750804 0.017181612750144917 0.06201447309750804
7.954807117813127E7 0.017332813654237167 0.0629226263624684 0.9826671863457629 -0.0629226263624684 0.9826671863457629 -0.0629226263624684 0.017332813654237167 0.0629226263624684
8.074856323562416E7 0.01748813759993723 0.06384369112549652 0.9825118624000628 -0.06384369112549652 0.9825118624000628 -0.06384369112549652 0.01748813759993723 0.06384369112549652
8.196717240342227E7 0.017647698577060028 0.06477783424948544 0.98235230142294 -0.06477783424948545 0.98235230142294 -0.06477783424948545 0.017647698577060028 0.06477783424948544
8.320417209415154E7 0.0178116135672002 0.06572522397087163 0.9821883864327997 -0.06572522397087162 0.9821883864327997 -0.06572522397087162 0.0178116135672002 0.06572522397087163
8.445983984661816E7 0.017980002605309384 0.06668602987987512 0.9820199973946906 -0.06668602987987514 0.9820199973946906 -0.06668602987987514 0.017980002605309384 0.06668602987987512
8.573445738807854E7 0.018152988841921836 0.06766042289981931 0.9818470111580783 -0.06766042289981931 0.9818470111580783 -0.06766042289981931 0.018152988841921836 0.06766042289981931
8.702831069744885E7 0.018330698606049467 0.06864857526553418 0.9816693013939506 -0.06864857526553418 0.9816693013939506 -0.06864857526553418 0.018330698606049467 0.06864857526553418
8.834169006946853E7 0.018513261468771254 0.06965066050084923 0.9814867385312287 -0.06965066050084923 0.9814867385312287 -0.06965066050084923 0.018513261468771254 0.06965066050084923
8.96748901798321E7 0.01870081030754439 0.07066685339517881 0.9812991896924556 -0.07066685339517881 0.9812991896924556 -0.07066685339517881 0.01870081030754439 0.07066685339517881
9.1028210151304E7 0.018893481371268936 0.07169732997920507 0.9811065186287312 -0.07169732997920508 0.9811065186287312 -0.07169732997920508 0.018893481371268936 0.07169732997920507
9.240195362083109E7 0.01909141434613993 0.07274226749965942 0.98090858565386 -0.07274226749965942 0.98090858565386 -0.07274226749965942 0.01909141434613993 0.07274226749965942
9.379642880766791E7 0.019294752422325843 0.07380184439320522 0.9807052475776739 -0.07380184439320522 0.9807052475776739 -0.07380184439320522 0.019294752422325843 0.07380184439320522
9.521194858253023E7 0.01950364236151517 0.07487624025942106 0.9804963576384848 -0.07487624025942106 0.9804963576384848 -0.07487624025942106 0.01950364236151517 0.07487624025942106
9.664883053779216E7 0.019718234565377305 0.07596563583288402 0.9802817654346228 -0.07596563583288402 0.9802817654346228 -0.07596563583288402 0.019718234565377305 0.07596563583288402
9.810739705874248E7 0.019938683144987795 0.07707021295434845 0.9800613168550121 -0.07707021295434845 0.9800613168550121 -0.07707021295434845 0.019938683144987795 0.07707021295434845
9.958797539591652E7 0.020165145991272324 0.07819015454101594 0.9798348540087276 -0.07819015454101594 0.9798348540087276 -0.07819015454101594 0.020165145991272324 0.07819015454101594
1.0109089773851961E8 0.020397784846528173 0.079325644555888 0.9796022151534719 -0.079325644555888 0.9796022151534719 -0.079325644555888 0.020397784846528173 0.079325644555888
1.0261650128895843E8 0.020636765377086422 0.08047686797619058 0.9793632346229136 -0.08047686797619058 0.9793632346229136 -0.08047686797619058 0.020636765377086422 0.08047686797619058
1.0416512833849736E8 0.020882257247182793 0.0816440107608571 0.9791177427528172 -0.0816440107608571 0.9791177427528172 -0.0816440107608571 0.020882257247182793 0.0816440107608571
1.0573712634405641E8 0.021134434194109788 0.08282725981705213 0.9788655658058902 -0.08282725981705212 0.9788655658058902 -0.08282725981705212 0.021134434194109788 0.08282725981705213
1.0733284800616828E8 0.021393474104727736 0.08402680296571396 0.9786065258952721 -0.08402680296571396 0.9786065258952721 -0.08402680296571396 0.021393474104727736 0.08402680296571396
1.0895265134811176E8 0.021659559093417057 0.08524282890609067 0.9783404409065828 -0.08524282890609067 0.9783404409065828 -0.08524282890609067 0.021659559093417057 0.08524282890609067
1.1059689979623953E8 0.021932875581559805 0.08647552717923825 0.9780671244184401 -0.08647552717923825 0.9780671244184401 -0.08647552717923825 0.021932875581559805 0.08647552717923825
1.1226596226151802E8 0.022213614378642343 0.08772508813044397 0.9777863856213578 -0.08772508813044397 0.9777863856213578 -0.08772508813044397 0.022213614378642343 0.08772508813044397
1.1396021322229806E8 0.022501970765077654 0.08899170287053274 0.9774980292349222 -0.08899170287053272 0.9774980292349222 -0.08899170287053272 0.022501970765077654 0.08899170287053274
1.1568003280833441E8 0.022798144576849512 0.09027556323600648 0.9772018554231505 -0.09027556323600648 0.9772018554231505 -0.09027556323600648 0.022798144576849512 0.09027556323600648
1.1742580688607343E8 0.023102340292086562 0.0915768617479597 0.9768976597079134 -0.0915768617479597 0.9768976597079134 -0.0915768617479597 0.023102340292086562 0.0915768617479597
1.1919792714522783E8 0.023414767119678877 0.09289579156970612 0.9765852328803211 -0.09289579156970613 0.9765852328803211 -0.09289579156970613 0.023414767119678877 0.09289579156970612
1.2099679118665792E8 0.023735639090054453 0.09423254646304237 0.9762643609099455 -0.09423254646304237 0.9762643609099455 -0.09423254646304237 0.023735639090054453 0.09423254646304237
1.2282280261157903E8 0.024065175148237517 0.0955873207430651 0.9759348248517624 -0.0955873207430651 0.9759348248517624 -0.0955873207430651 0.024065175148237517 0.0955873207430651
1.2467637111211549E8 0.024403599249314813 0.09696030923144783 0.9755964007506851 -0.09696030923144783 0.9755964007506851 -0.09696030923144783 0.024403599249314813 0.09696030923144783
1.265579125632208E8 0.024751140456439814 0.09835170720807164 0.9752488595435602 -0.09835170720807161 0.9752488595435602 -0.09835170720807161 0.024751140456439814 0.09835170720807164
1.284678491159853E8 0.02510803304150857 0.09976171036089328 0.9748919669584913 -0.09976171036089326 0.9748919669584913 -0.09976171036089326 0.02510803304150857 0.09976171036089328
1.3040660929235186E8 0.025474516588643352 0.10119051473391995 0.9745254834113567 -0.10119051473391998 0.9745254834113567 -0.10119051473391998 0.025474516588643352 0.10119051473391995
1.3237462808126101E8 0.025850836100623227 0.10263831667314713 0.9741491638993767 -0.10263831667314711 0.9741491638993767 -0.10263831667314711 0.025850836100623227 0.10263831667314713
1.3437234703624701E8 0.026237242108401854 0.1041053127703006 0.9737627578915983 -0.1041053127703006 0.9737627578915983 -0.1041053127703006 0.026237242108401854 0.1041053127703006
1.364002143745067E8 0.02663399078385425 0.10559169980420918 0.9733660092161458 -0.10559169980420918 0.9733660092161458 -0.10559169980420918 0.02663399078385425 0.10559169980420918
1.3845868507746372E8 0.027041344055893795 0.10709767467961763 0.9729586559441062 -0.10709767467961763 0.9729586559441062 -0.10709767467961763 0.027041344055893795 0.10709767467961763
1.405482209928499E8 0.027459569730100365 0.10862343436323163 0.9725404302698996 -0.10862343436323163 0.9725404302698996 -0.10862343436323163 0.027459569730100365 0.10862343436323163
1.426692909383278E8 0.027888941611998397 0.11016917581677105 0.9721110583880017 -0.11016917581677102 0.9721110583880017 -0.11016917581677102 0.027888941611998397 0.11016917581677105
1.4482237080667645E8 0.02832973963411981 0.11173509592678485 0.9716702603658801 -0.11173509592678488 0.9716702603658801 -0.11173509592678488 0.02832973963411981 0.11173509592678485
1.4700794367256513E8 0.028782249986984063 0.11332139143096744 0.9712177500130159 -0.11332139143096744 0.9712177500130159 -0.11332139143096744 0.028782249986984063 0.11332139143096744
1.492264999009378E8 0.02924676525411958 0.11492825884068943 0.9707532347458805 -0.11492825884068944 0.9707532347458805 -0.11492825884068944 0.02924676525411958 0.11492825884068943
1.5147853725703382E8 0.029723584551245012 0.11655589435944086 0.9702764154487549 -0.11655589435944086 0.9702764154487549 -0.11655589435944086 0.029723584551245012 0.11655589435944086
1.5376456101806876E8 0.030213013669719894 0.11820449379686154 0.96978698633028 -0.11820449379686154 0.96978698633028 -0.11820449379686154 0.030213013669719894 0.11820449379686154
1.5608508408660066E8 0.030715365224362287 0.1198742524780099 0.9692846347756378 -0.1198742524780099 0.9692846347756378 -0.1198742524780099 0.030715365224362287 0.1198742524780099
1.5844062710560706E8 0.031230958805720126 0.12156536514750346 0.96876904119428 -0.12156536514750346 0.96876904119428 -0.12156536514750346 0.031230958805720126 0.12156536514750346
1.6083171857529896E8 0.031760121136868 0.12327802586813981 0.9682398788631319 -0.1232780258681398 0.9682398788631319 -0.1232780258681398 0.031760121136868 0.12327802586813981
1.632588949716973E8 0.032303186234784634 0.12501242791358488 0.9676968137652152 -0.1250124279135849 0.9676968137652152 -0.1250124279135849 0.032303186234784634 0.12501242791358488
1.6572270086699936E8 0.0328604955763483 0.12676876365469505 0.9671395044236516 -0.12676876365469505 0.9671395044236516 -0.12676876365469505 0.0328604955763483 0.12676876365469505
1.6822368905176118E8 0.03343239826896668 0.12854722443901515 0.9665676017310332 -0.12854722443901512 0.9665676017310332 -0.12854722443901512 0.03343239826896668 0.12854722443901515
1.7076242065892437E8 0.034019251225835885 0.13034800046297781 0.9659807487741641 -0.13034800046297781 0.9659807487741641 -0.13034800046297781 0.034019251225835885 0.13034800046297781
1.7333946528971428E8 0.03462141934579665 0.13217128063630298 0.9653785806542031 -0.13217128063630298 0.9653785806542031 -0.13217128063630298 0.03462141934579665 0.13217128063630298
1.7595540114143828E8 0.03523927569773107 0.1340172524380825 0.964760724302269 -0.1340172524380825 0.964760724302269 -0.1340172524380825 0.03523927569773107 0.1340172524380825
1.786108151372127E8 0.035873201709411565 0.13588610176401095 0.9641267982905884 -0.13588610176401095 0.9641267982905884 -0.13588610176401095 0.035873201709411565 0.13588610176401095
1.8130630305764765E8 0.03652358736068394 0.13777801276421076 0.963476412639316 -0.13777801276421076 0.963476412639316 -0.13777801276421076 0.03652358736068394 0.13777801276421076
1.840424696745189E8 0.03719083138083119 0.13969316767107862 0.9628091686191689 -0.13969316767107862 0.9628091686191689 -0.13969316767107862 0.03719083138083119 0.13969316767107862
1.8681992888645732E8 0.037875341449929704 0.14163174661656977 0.9621246585500703 -0.14163174661656977 0.9621246585500703 -0.14163174661656977 0.037875341449929704 0.14163174661656977
1.8963930385668582E8 0.038577534403970416 0.1435939274383209 0.9614224655960297 -0.1435939274383209 0.9614224655960297 -0.1435939274383209 0.038577534403970416 0.1435939274383209
1.92501227152835E8 0.03929783644347792 0.14557988547400305 0.960702163556522 -0.14557988547400305 0.960702163556522 -0.14557988547400305 0.03929783644347792 0.14557988547400305
1.9540634088886917E8 0.04003668334531767 0.14758979334328678 0.9599633166546823 -0.1475897933432868 0.9599633166546823 -0.1475897933432868 0.04003668334531767 0.14758979334328678
1.983552968691535E8 0.0407945206773374 0.14962382071679425 0.9592054793226625 -0.14962382071679425 0.9592054793226625 -0.14962382071679425 0.0407945206773374 0.14962382071679425
2.0134875673469606E8 0.04157180401544353 0.15168213407141212 0.9584281959845565 -0.15168213407141212 0.9584281959845565 -0.15168213407141212 0.04157180401544353 0.15168213407141212
2.0438739211159652E8 0.042368999162664955 0.1537648964313353 0.957631000837335 -0.1537648964313353 0.957631000837335 -0.1537648964313353 0.042368999162664955 0.1537648964313353
2.074718847617352E8 0.04318658236970782 0.15587226709421417 0.9568134176302922 -0.15587226709421417 0.9568134176302922 -0.15587226709421417 0.04318658236970782 0.15587226709421417
2.106029267357361E8 0.044025040556456105 0.15800440134178484 0.9559749594435439 -0.15800440134178484 0.9559749594435439 -0.15800440134178484 0.044025040556456105 0.15800440134178484
2.1378122052823865E8 0.04488487153381907 0.16016145013436808 0.955115128466181 -0.16016145013436808 0.955115128466181 -0.16016145013436808 0.04488487153381907 0.16016145013436808
2.1700747923551247E8 0.04576658422527722 0.16234355978863577 0.9542334157747229 -0.16234355978863577 0.9542334157747229 -0.16234355978863577 0.04576658422527722 0.16234355978863577
2.2028242671545094E8 0.046670698887423694 0.1645508716380581 0.9533293011125763 -0.1645508716380581 0.9533293011125763 -0.1645508716380581 0.046670698887423694 0.1645508716380581
2.23606797749979E8 0.04759774732874649 0.16678352167546512 0.9524022526712537 -0.16678352167546512 0.9524022526712537 -0.16678352167546512 0.04759774732874649 0.16678352167546512
2.2698133820991236E8 0.04854827312584244 0.1690416401771765 0.9514517268741577 -0.1690416401771765 0.9514517268741577 -0.1690416401771765 0.04854827312584244 0.1690416401771765
2.3040680522230446E8 0.04952283183620262 0.17132535130818358 0.9504771681637973 -0.17132535130818358 0.9504771681637973 -0.17132535130818358 0.04952283183620262 0.17132535130818358
2.338839673403185E8 0.05052199120665362 0.17363477270789235 0.9494780087933464 -0.17363477270789235 0.9494780087933464 -0.17363477270789235 0.05052199120665362 0.17363477270789235
2.37413604715664E8 0.05154633137649054 0.1759700150559771 0.9484536686235095 -0.17597001505597712 0.9484536686235095 -0.17597001505597712 0.05154633137649054 0.1759700150559771
2.4099650927363476E8 0.052596445074283245 0.17833118161792574 0.9474035549257166 -0.17833118161792572 0.9474035549257166 -0.17833118161792572 0.052596445074283245 0.17833118161792574
2.446334848907889E8 0.05367293780729035 0.1807183677699048 0.9463270621927097 -0.18071836776990477 0.9463270621927097 -0.18071836776990477 0.05367293780729035 0.1807183677699048
2.4832534757531032E8 0.05477642804236488 0.18313166050261326 0.9452235719576352 -0.18313166050261326 0.9452235719576352 -0.18313166050261326 0.05477642804236488 0.18313166050261326
