!Murata Part Number: LQP02TQ14NH02
!These Parameters are Measured in Series Mode Connection
!       o--[Z]--o
!Port1              Port2
!       o-------o
!
!Freq. Start=50[MHz] Stop=20[GHz], 401[Steps]
# Hz S RI R 50
!Freq.(Hz) S11(Real) S11(Imag) S21(Real) S21(Imag) S12(Real) S12(Imag) S22(Real) S22(Imag)
5.0E7 0.016214045227844903 0.04772598222507699 0.983785954772155 -0.047725982225077 0.983785954772155 -0.047725982225077 0.016214045227844903 0.04772598222507699
5.0754570186123446E7 0.016324014420221324 0.04841394687686803 0.9836759855797786 -0.048413946876868036 0.9836759855797786 -0.048413946876868036 0.016324014420221324 0.04841394687686803
5.152052789556263E7 0.01643649918081101 0.04911139183967685 0.9835635008191891 -0.04911139183967685 0.9835635008191891 -0.04911139183967685 0.01643649918081101 0.04911139183967685
5.229804498202928E7 0.016551550426296986 0.049818445401721104 0.983448449573703 -0.049818445401721104 0.983448449573703 -0.049818445401721104 0.016551550426296986 0.049818445401721104
5.308729589274893E7 0.01666922033478957 0.050535237949323616 0.9833307796652105 -0.050535237949323616 0.9833307796652105 -0.050535237949323616 0.01666922033478957 0.050535237949323616
5.388845770760058E7 0.01678956240901917 0.05126190200669018 0.9832104375909808 -0.05126190200669017 0.9832104375909808 -0.05126190200669017 0.01678956240901917 0.05126190200669018
5.470171017884717E7 0.01691263154267183 0.05199857227480231 0.9830873684573281 -0.0519985722748023 0.9830873684573281 -0.0519985722748023 0.01691263154267183 0.05199857227480231
5.5527235771465644E7 0.017038484089894744 0.05274538566926645 0.9829615159101054 -0.05274538566926646 0.9829615159101054 -0.05274538566926646 0.017038484089894744 0.05274538566926645
5.6365219704085544E7 0.017167177937990424 0.053502481356959335 0.9828328220620095 -0.053502481356959335 0.9828328220620095 -0.053502481356959335 0.017167177937990424 0.053502481356959335
5.721584999054556E7 0.017298772583309287 0.05427000079130612 0.9827012274166906 -0.05427000079130612 0.9827012274166906 -0.05427000079130612 0.017298772583309287 0.05427000079130612
5.807931748207712E7 0.017433329210340825 0.0550480877460265 0.982566670789659 -0.0550480877460265 0.982566670789659 -0.0550480877460265 0.017433329210340825 0.0550480877460265
5.8955815910124585E7 0.017570910773994555 0.05583688834718291 0.9824290892260055 -0.0558368883471829 0.9824290892260055 -0.0558368883471829 0.017570910773994555 0.05583688834718291
5.984554192981184E7 0.01771158208505226 0.0566365511033648 0.9822884179149479 -0.0566365511033648 0.9822884179149479 -0.0566365511033648 0.01771158208505226 0.0566365511033648
6.074869516406457E7 0.017855409898763608 0.05744722693384353 0.9821445901012364 -0.05744722693384352 0.9821445901012364 -0.05744722693384352 0.017855409898763608 0.05744722693384353
6.166547824839868E7 0.018002463006548185 0.05826906919453355 0.9819975369934519 -0.05826906919453355 0.9819975369934519 -0.05826906919453355 0.018002463006548185 0.05826906919453355
6.2596096876384385E7 0.018152812330757252 0.05910223370159747 0.9818471876692426 -0.05910223370159747 0.9818471876692426 -0.05910223370159747 0.018152812330757252 0.05910223370159747
6.354075984579668E7 0.018306531022440266 0.059946878752536056 0.9816934689775597 -0.05994687875253607 0.9816934689775597 -0.05994687875253607 0.018306531022440266 0.059946878752536056
6.449967910546205E7 0.018463694562051852 0.060803165144606305 0.981536305437948 -0.06080316514460629 0.981536305437948 -0.06080316514460629 0.018463694562051852 0.060803165144606305
6.547306980281226E7 0.018624380863027146 0.06167125619041608 0.9813756191369728 -0.06167125619041608 0.9813756191369728 -0.06167125619041608 0.018624380863027146 0.06167125619041608
6.646115033215589E7 0.0187886703781454 0.0625513177305484 0.9812113296218544 -0.0625513177305484 0.9812113296218544 -0.0625513177305484 0.0187886703781454 0.0625513177305484
6.746414238367817E7 0.01895664620859429 0.06344351814307271 0.9810433537914056 -0.06344351814307271 0.9810433537914056 -0.06344351814307271 0.01895664620859429 0.06344351814307271
6.848227099318038E7 0.01912839421564081 0.06434802834980774 0.9808716057843591 -0.06434802834980774 0.9808716057843591 -0.06434802834980774 0.01912839421564081 0.06434802834980774
6.951576459256999E7 0.01930400313480835 0.06526502181920617 0.9806959968651916 -0.06526502181920617 0.9806959968651916 -0.06526502181920617 0.01930400313480835 0.06526502181920617
7.056485506111258E7 0.019483564692453957 0.06619467456573776 0.980516435307546 -0.06619467456573776 0.980516435307546 -0.06619467456573776 0.019483564692453957 0.06619467456573776
7.162977777745734E7 0.019667173724635216 0.06713716514565568 0.9803328262753648 -0.0671371651456557 0.9803328262753648 -0.0671371651456557 0.019667173724635216 0.06713716514565568
7.271077167244768E7 0.019854928298151938 0.06809267464903712 0.9801450717018482 -0.06809267464903712 0.9801450717018482 -0.06809267464903712 0.019854928298151938 0.06809267464903712
7.380807928272885E7 0.02004692983364456 0.06906138668799718 0.9799530701663554 -0.06906138668799718 0.9799530701663554 -0.06906138668799718 0.02004692983364456 0.06906138668799718
7.492194680516452E7 0.020243283230628746 0.07004348738098293 0.9797567167693714 -0.07004348738098293 0.9797567167693714 -0.07004348738098293 0.020243283230628746 0.07004348738098293
7.60526241520746E7 0.020444096994343564 0.07103916533306151 0.9795559030056562 -0.07103916533306151 0.9795559030056562 -0.07103916533306151 0.020444096994343564 0.07103916533306151
7.720036500730675E7 0.020649483364290278 0.07204861161212454 0.9793505166357097 -0.07204861161212456 0.9793505166357097 -0.07204861161212456 0.020649483364290278 0.07204861161212454
7.836542688315398E7 0.02085955844433761 0.0730720197209375 0.9791404415556623 -0.07307201972093749 0.9791404415556623 -0.07307201972093749 0.02085955844433761 0.0730720197209375
7.954807117813127E7 0.021074442334270888 0.07410958556497094 0.9789255576657291 -0.07410958556497094 0.9789255576657291 -0.07410958556497094 0.021074442334270888 0.07410958556497094
8.074856323562416E7 0.021294259262662832 0.07516150741595669 0.9787057407373371 -0.07516150741595669 0.9787057407373371 -0.07516150741595669 0.021294259262662832 0.07516150741595669
8.196717240342227E7 0.021519137720946015 0.07622798587111843 0.9784808622790541 -0.07622798587111843 0.9784808622790541 -0.07622798587111843 0.021519137720946015 0.07622798587111843
8.320417209415154E7 0.02174921059856959 0.07730922380803294 0.9782507894014305 -0.07730922380803294 0.9782507894014305 -0.07730922380803294 0.02174921059856959 0.07730922380803294
8.445983984661816E7 0.021984615319125708 0.07840542633508289 0.9780153846808742 -0.07840542633508289 0.9780153846808742 -0.07840542633508289 0.021984615319125708 0.07840542633508289
8.573445738807854E7 0.02222549397733459 0.07951680073746724 0.9777745060226654 -0.07951680073746724 0.9777745060226654 -0.07951680073746724 0.02222549397733459 0.07951680073746724
8.702831069744885E7 0.022471993476781638 0.08064355641874002 0.9775280065232185 -0.08064355641874002 0.9775280065232185 -0.08064355641874002 0.022471993476781638 0.08064355641874002
8.834169006946853E7 0.022724265668303587 0.08178590483785099 0.9772757343316965 -0.08178590483785099 0.9772757343316965 -0.08178590483785099 0.022724265668303587 0.08178590483785099
8.96748901798321E7 0.02298246748892612 0.08294405944166551 0.9770175325110738 -0.0829440594416655 0.9770175325110738 -0.0829440594416655 0.02298246748892612 0.08294405944166551
9.1028210151304E7 0.023246761101259582 0.08411823559294214 0.9767532388987404 -0.08411823559294214 0.9767532388987404 -0.08411823559294214 0.023246761101259582 0.08411823559294214
9.240195362083109E7 0.02351731403326475 0.08530865049374867 0.9764826859667353 -0.08530865049374865 0.9764826859667353 -0.08530865049374865 0.02351731403326475 0.08530865049374867
9.379642880766791E7 0.023794299318305397 0.08651552310429712 0.9762057006816945 -0.08651552310429712 0.9762057006816945 -0.08651552310429712 0.023794299318305397 0.08651552310429712
9.521194858253023E7 0.024077895635409442 0.08773907405717864 0.9759221043645907 -0.08773907405717865 0.9759221043645907 -0.08773907405717865 0.024077895635409442 0.08773907405717864
9.664883053779216E7 0.024368287449665266 0.08897952556697811 0.9756317125503347 -0.08897952556697811 0.9756317125503347 -0.08897952556697811 0.024368287449665266 0.08897952556697811
9.810739705874248E7 0.02466566515268412 0.09023710133524586 0.9753343348473159 -0.09023710133524586 0.9753343348473159 -0.09023710133524586 0.02466566515268412 0.09023710133524586
9.958797539591652E7 0.024970225203064314 0.09151202645080296 0.9750297747969358 -0.09151202645080296 0.9750297747969358 -0.09151202645080296 0.024970225203064314 0.09151202645080296
1.0109089773851961E8 0.025282170266796047 0.0928045272853517 0.9747178297332039 -0.0928045272853517 0.9747178297332039 -0.0928045272853517 0.025282170266796047 0.0928045272853517
1.0261650128895843E8 0.025601709357550045 0.09411483138436016 0.9743982906424498 -0.09411483138436016 0.9743982906424498 -0.09411483138436016 0.025601709357550045 0.09411483138436016
1.0416512833849736E8 0.02592905797679508 0.09544316735318496 0.974070942023205 -0.09544316735318496 0.974070942023205 -0.09544316735318496 0.02592905797679508 0.09544316735318496
1.0573712634405641E8 0.026264438253692828 0.09678976473839153 0.9737355617463072 -0.09678976473839153 0.9737355617463072 -0.09678976473839153 0.026264438253692828 0.09678976473839153
1.0733284800616828E8 0.026608079084719235 0.09815485390422539 0.9733919209152808 -0.09815485390422539 0.9733919209152808 -0.09815485390422539 0.026608079084719235 0.09815485390422539
1.0895265134811176E8 0.026960216272963224 0.09953866590418246 0.9730397837270368 -0.09953866590418245 0.9730397837270368 -0.09953866590418245 0.026960216272963224 0.09953866590418246
1.1059689979623953E8 0.027321092667053362 0.10094143234761961 0.9726789073329465 -0.10094143234761961 0.9726789073329465 -0.10094143234761961 0.027321092667053362 0.10094143234761961
1.1226596226151802E8 0.027690958299662994 0.10236338526134127 0.972309041700337 -0.10236338526134127 0.972309041700337 -0.10236338526134127 0.027690958299662994 0.10236338526134127
1.1396021322229806E8 0.028070070525542383 0.10380475694608915 0.9719299294744576 -0.10380475694608918 0.9719299294744576 -0.10380475694608918 0.028070070525542383 0.10380475694608915
1.1568003280833441E8 0.028458694159024835 0.10526577982785734 0.9715413058409751 -0.10526577982785734 0.9715413058409751 -0.10526577982785734 0.028458694159024835 0.10526577982785734
1.1742580688607343E8 0.028857101610950314 0.10674668630394696 0.9711428983890497 -0.10674668630394696 0.9711428983890497 -0.10674668630394696 0.028857101610950314 0.10674668630394696
1.1919792714522783E8 0.029265573024946225 0.10824770858366711 0.9707344269750537 -0.10824770858366711 0.9707344269750537 -0.10824770858366711 0.029265573024946225 0.10824770858366711
1.2099679118665792E8 0.029684396413000278 0.10976907852358378 0.9703156035869999 -0.10976907852358378 0.9703156035869999 -0.10976907852358378 0.029684396413000278 0.10976907852358378
1.2282280261157903E8 0.030113867790254965 0.11131102745720971 0.9698861322097451 -0.11131102745720974 0.9698861322097451 -0.11131102745720974 0.030113867790254965 0.11131102745720971
1.2467637111211549E8 0.03055429130894592 0.11287378601902306 0.9694457086910541 -0.11287378601902304 0.9694457086910541 -0.11287378601902304 0.03055429130894592 0.11287378601902306
1.265579125632208E8 0.03100597939140021 0.11445758396269606 0.9689940206085996 -0.11445758396269604 0.9689940206085996 -0.11445758396269604 0.03100597939140021 0.11445758396269606
1.284678491159853E8 0.03146925286200143 0.1160626499734101 0.9685307471379987 -0.11606264997341012 0.9685307471379987 -0.11606264997341012 0.03146925286200143 0.1160626499734101
1.3040660929235186E8 0.03194444107802019 0.11768921147412639 0.9680555589219798 -0.11768921147412639 0.9680555589219798 -0.11768921147412639 0.03194444107802019 0.11768921147412639
1.3237462808126101E8 0.032431882059199016 0.11933749442567979 0.9675681179408011 -0.11933749442567979 0.9675681179408011 -0.11933749442567979 0.032431882059199016 0.11933749442567979
1.3437234703624701E8 0.03293192261596956 0.1210077231205561 0.9670680773840304 -0.1210077231205561 0.9670680773840304 -0.1210077231205561 0.03293192261596956 0.1210077231205561
1.364002143745067E8 0.03344491847617013 0.1227001199702123 0.96655508152383 -0.12270011997021231 0.96655508152383 -0.12270011997021231 0.03344491847617013 0.1227001199702123
1.3845868507746372E8 0.033971234410119205 0.12441490528579555 0.9660287655898806 -0.12441490528579555 0.9660287655898806 -0.12441490528579555 0.033971234410119205 0.12441490528579555
1.405482209928499E8 0.03451124435388851 0.126152297052114 0.9654887556461113 -0.126152297052114 0.9654887556461113 -0.126152297052114 0.03451124435388851 0.126152297052114
1.426692909383278E8 0.03506533153060718 0.1279125106947139 0.9649346684693929 -0.1279125106947139 0.9649346684693929 -0.1279125106947139 0.03506533153060718 0.1279125106947139
1.4482237080667645E8 0.03563388856961456 0.12969575883991388 0.9643661114303855 -0.12969575883991388 0.9643661114303855 -0.12969575883991388 0.03563388856961456 0.12969575883991388
1.4700794367256513E8 0.03621731762326714 0.1315022510676523 0.9637826823767328 -0.13150225106765231 0.9637826823767328 -0.13150225106765231 0.03621731762326714 0.1315022510676523
1.492264999009378E8 0.03681603048118987 0.13333219365700055 0.9631839695188101 -0.13333219365700055 0.9631839695188101 -0.13333219365700055 0.03681603048118987 0.13333219365700055
1.5147853725703382E8 0.037430448681749676 0.1351857893242019 0.9625695513182505 -0.1351857893242019 0.9625695513182505 -0.1351857893242019 0.037430448681749676 0.1351857893242019
1.5376456101806876E8 0.03806100362051383 0.1370632369530964 0.9619389963794861 -0.13706323695309638 0.9619389963794861 -0.13706323695309638 0.03806100362051383 0.1370632369530964
1.5608508408660066E8 0.03870813665544288 0.13896473131779913 0.9612918633445572 -0.13896473131779913 0.9612918633445572 -0.13896473131779913 0.03870813665544288 0.13896473131779913
1.5844062710560706E8 0.03937229920855217 0.14089046279750148 0.9606277007914479 -0.14089046279750148 0.9606277007914479 -0.14089046279750148 0.03937229920855217 0.14089046279750148
1.6083171857529896E8 0.04005395286376434 0.1428406170832771 0.9599460471362359 -0.14284061708327714 0.9599460471362359 -0.14284061708327714 0.04005395286376434 0.1428406170832771
1.632588949716973E8 0.04075356946065863 0.14481537487677565 0.9592464305393413 -0.14481537487677568 0.9592464305393413 -0.14481537487677568 0.04075356946065863 0.14481537487677565
1.6572270086699936E8 0.041471631183811794 0.14681491158070145 0.9585283688161882 -0.14681491158070145 0.9585283688161882 -0.14681491158070145 0.041471631183811794 0.14681491158070145
1.6822368905176118E8 0.0422086306474101 0.14883939698097973 0.9577913693525898 -0.14883939698097973 0.9577913693525898 -0.14883939698097973 0.0422086306474101 0.14883939698097973
1.7076242065892437E8 0.042965070974801074 0.15088899492052768 0.9570349290251989 -0.15088899492052768 0.9570349290251989 -0.15088899492052768 0.042965070974801074 0.15088899492052768
1.7333946528971428E8 0.043741465872639336 0.15296386296455547 0.9562585341273607 -0.15296386296455547 0.9562585341273607 -0.15296386296455547 0.043741465872639336 0.15296386296455547
1.7595540114143828E8 0.044538339699270554 0.15506415205733692 0.9554616603007294 -0.15506415205733692 0.9554616603007294 -0.15506415205733692 0.044538339699270554 0.15506415205733692
1.786108151372127E8 0.04535622752698588 0.15719000617040327 0.9546437724730139 -0.15719000617040324 0.9546437724730139 -0.15719000617040324 0.04535622752698588 0.15719000617040327
1.8130630305764765E8 0.04619567519776868 0.1593415619421256 0.9538043248022312 -0.1593415619421256 0.9538043248022312 -0.1593415619421256 0.04619567519776868 0.1593415619421256
1.840424696745189E8 0.047057239372145725 0.1615189483086682 0.9529427606278542 -0.1615189483086682 0.9529427606278542 -0.1615189483086682 0.047057239372145725 0.1615189483086682
1.8681992888645732E8 0.04794148757074703 0.1637222861263107 0.9520585124292531 -0.16372228612631073 0.9520585124292531 -0.16372228612631073 0.04794148757074703 0.1637222861263107
1.8963930385668582E8 0.04884899820816887 0.16595168778515126 0.9511510017918311 -0.16595168778515124 0.9511510017918311 -0.16595168778515124 0.04884899820816887 0.16595168778515126
1.92501227152835E8 0.0497803606187297 0.168207256814222 0.9502196393812703 -0.168207256814222 0.9502196393812703 -0.168207256814222 0.0497803606187297 0.168207256814222
1.9540634088886917E8 0.05073617507370123 0.1704890874780643 0.9492638249262987 -0.1704890874780643 0.9492638249262987 -0.1704890874780643 0.05073617507370123 0.1704890874780643
1.983552968691535E8 0.05171705278959211 0.17279726436482765 0.9482829472104077 -0.17279726436482762 0.9482829472104077 -0.17279726436482762 0.05171705278959211 0.17279726436482765
2.0134875673469606E8 0.05272361592705938 0.1751318619659767 0.9472763840729406 -0.1751318619659767 0.9472763840729406 -0.1751318619659767 0.05272361592705938 0.1751318619659767
2.0438739211159652E8 0.053756497580018006 0.177492944247706 0.9462435024199819 -0.177492944247706 0.9462435024199819 -0.177492944247706 0.053756497580018006 0.177492944247706
2.074718847617352E8 0.054816341754519035 0.1798805642141819 0.9451836582454811 -0.17988056421418191 0.9451836582454811 -0.17988056421418191 0.054816341754519035 0.1798805642141819
2.106029267357361E8 0.05590380333696568 0.1822947634627478 0.9440961966630342 -0.1822947634627478 0.9440961966630342 -0.1822947634627478 0.05590380333696568 0.1822947634627478
2.1378122052823865E8 0.057019548051237164 0.18473557173124763 0.9429804519487627 -0.18473557173124763 0.9429804519487627 -0.18473557173124763 0.057019548051237164 0.18473557173124763
2.1700747923551247E8 0.05816425240429293 0.1872030064376395 0.941835747595707 -0.1872030064376395 0.941835747595707 -0.1872030064376395 0.05816425240429293 0.1872030064376395
2.2028242671545094E8 0.059338603619831704 0.18969707221208756 0.9406613963801684 -0.18969707221208762 0.9406613963801684 -0.18969707221208762 0.059338603619831704 0.18969707221208756
2.23606797749979E8 0.06054329955958407 0.1922177604217377 0.9394567004404158 -0.1922177604217377 0.9394567004404158 -0.1922177604217377 0.06054329955958407 0.1922177604217377
2.2698133820991236E8 0.061779048631822944 0.19476504868839753 0.9382209513681772 -0.19476504868839753 0.9382209513681772 -0.19476504868839753 0.061779048631822944 0.19476504868839753
2.3040680522230446E8 0.0630465696866806 0.19733890039935645 0.9369534303133193 -0.19733890039935642 0.9369534303133193 -0.19733890039935642 0.0630465696866806 0.19733890039935645
2.338839673403185E8 0.06434659189786839 0.19993926421159322 0.9356534081021315 -0.1999392642115932 0.9356534081021315 -0.1999392642115932 0.06434659189786839 0.19993926421159322
2.37413604715664E8 0.06567985463040257 0.20256607354963543 0.9343201453695975 -0.20256607354963543 0.9343201453695975 -0.20256607354963543 0.06567985463040257 0.20256607354963543
2.4099650927363476E8 0.06704710729394685 0.20521924609734157 0.9329528927060531 -0.20521924609734155 0.9329528927060531 -0.20521924609734155 0.06704710729394685 0.20521924609734157
2.446334848907889E8 0.06844910918138968 0.20789868328389008 0.9315508908186103 -0.20789868328389008 0.9315508908186103 -0.20789868328389008 0.06844910918138968 0.20789868328389008
2.4832534757531032E8 0.06988662929228458 0.21060426976426733 0.9301133707077156 -0.21060426976426738 0.9301133707077156 -0.21060426976426738 0.06988662929228458 0.21060426976426733
2.5207292565009177E8 0.0713604461407871 0.21333587289455277 0.9286395538592129 -0.21333587289455272 0.9286395538592129 -0.21333587289455272 0.0713604461407871 0.21333587289455277
