!Murata Part Number: LQP02TQ3N8B02
!These Parameters are Measured in Series Mode Connection
!       o--[Z]--o
!Port1              Port2
!       o-------o
!
!Freq. Start=50[MHz] Stop=20[GHz], 401[Steps]
# Hz S RI R 50
!Freq.(Hz) S11(Real) S11(Imag) S21(Real) S21(Imag) S12(Real) S12(Imag) S22(Real) S22(Imag)
5.0E7 0.0050847001541749716 0.0129365808715881 0.994915299845825 -0.012936580871588098 0.994915299845825 -0.012936580871588098 0.0050847001541749716 0.0129365808715881
5.0754570186123446E7 0.005094558652343589 0.013130487759874875 0.9949054413476565 -0.013130487759874875 0.9949054413476565 -0.013130487759874875 0.005094558652343589 0.013130487759874875
5.152052789556263E7 0.0051046967896418525 0.013327266085165525 0.994895303210358 -0.013327266085165525 0.994895303210358 -0.013327266085165525 0.0051046967896418525 0.013327266085165525
5.229804498202928E7 0.005115121979787854 0.01352695707566178 0.9948848780202121 -0.01352695707566178 0.9948848780202121 -0.01352695707566178 0.005115121979787854 0.01352695707566178
5.308729589274893E7 0.005125841807479129 0.013729602512667579 0.994874158192521 -0.013729602512667577 0.994874158192521 -0.013729602512667577 0.005125841807479129 0.013729602512667579
5.388845770760058E7 0.005136864031243739 0.013935244737460972 0.9948631359687564 -0.013935244737460972 0.9948631359687564 -0.013935244737460972 0.005136864031243739 0.013935244737460972
5.470171017884717E7 0.005148196586307541 0.014143926658292833 0.9948518034136925 -0.014143926658292833 0.9948518034136925 -0.014143926658292833 0.005148196586307541 0.014143926658292833
5.5527235771465644E7 0.00515984758747866 0.01435569175751877 0.9948401524125212 -0.014355691757518767 0.9948401524125212 -0.014355691757518767 0.00515984758747866 0.01435569175751877
5.6365219704085544E7 0.005171825332050309 0.014570584098871183 0.9948281746679497 -0.014570584098871183 0.9948281746679497 -0.014570584098871183 0.005171825332050309 0.014570584098871183
5.721584999054556E7 0.005184138302723742 0.014788648334878635 0.9948158616972763 -0.014788648334878633 0.9948158616972763 -0.014788648334878633 0.005184138302723742 0.014788648334878635
5.807931748207712E7 0.005196795170553181 0.015009929714439992 0.9948032048294466 -0.01500992971443999 0.9948032048294466 -0.01500992971443999 0.005196795170553181 0.015009929714439992
5.8955815910124585E7 0.005209804797915112 0.015234474090561138 0.9947901952020849 -0.015234474090561142 0.9947901952020849 -0.015234474090561142 0.005209804797915112 0.015234474090561138
5.984554192981184E7 0.0052231762415048165 0.01546232792826247 0.9947768237584953 -0.01546232792826247 0.9947768237584953 -0.01546232792826247 0.0052231762415048165 0.01546232792826247
6.074869516406457E7 0.005236918755363351 0.015693538312665425 0.9947630812446367 -0.015693538312665425 0.9947630812446367 -0.015693538312665425 0.005236918755363351 0.015693538312665425
6.166547824839868E7 0.005251041793938808 0.015928152957266982 0.994748958206061 -0.015928152957266982 0.994748958206061 -0.015928152957266982 0.005251041793938808 0.015928152957266982
6.2596096876384385E7 0.005265555015186157 0.016166220212410883 0.9947344449848138 -0.016166220212410883 0.9947344449848138 -0.016166220212410883 0.005265555015186157 0.016166220212410883
6.354075984579668E7 0.005280468283710592 0.016407789073965052 0.9947195317162895 -0.016407789073965052 0.9947195317162895 -0.016407789073965052 0.005280468283710592 0.016407789073965052
6.449967910546205E7 0.00529579167395995 0.01665290919221451 0.99470420832604 -0.01665290919221451 0.99470420832604 -0.01665290919221451 0.00529579167395995 0.01665290919221451
6.547306980281226E7 0.00531153547347237 0.016901630880979665 0.9946884645265277 -0.016901630880979665 0.9946884645265277 -0.016901630880979665 0.00531153547347237 0.016901630880979665
6.646115033215589E7 0.0053277101861861 0.01715400512696971 0.9946722898138138 -0.017154005126969712 0.9946722898138138 -0.017154005126969712 0.0053277101861861 0.01715400512696971
6.746414238367817E7 0.005344326535819166 0.01741008359938139 0.9946556734641809 -0.017410083599381395 0.9946556734641809 -0.017410083599381395 0.005344326535819166 0.01741008359938139
6.848227099318038E7 0.005361395469327224 0.017669918659753064 0.9946386045306728 -0.017669918659753064 0.9946386045306728 -0.017669918659753064 0.005361395469327224 0.017669918659753064
6.951576459256999E7 0.005378928160448949 0.017933563372084616 0.9946210718395511 -0.017933563372084613 0.9946210718395511 -0.017933563372084613 0.005378928160448949 0.017933563372084616
7.056485506111258E7 0.005396936013349003 0.018201071513233257 0.9946030639866511 -0.018201071513233257 0.9946030639866511 -0.018201071513233257 0.005396936013349003 0.018201071513233257
7.162977777745734E7 0.005415430666369617 0.018472497583595756 0.9945845693336305 -0.018472497583595756 0.9945845693336305 -0.018472497583595756 0.005415430666369617 0.018472497583595756
7.271077167244768E7 0.005434423995902712 0.01874789681808724 0.9945655760040973 -0.01874789681808724 0.9945655760040973 -0.01874789681808724 0.005434423995902712 0.01874789681808724
7.380807928272885E7 0.005453928120395405 0.019027325197426635 0.9945460718796045 -0.01902732519742664 0.9945460718796045 -0.01902732519742664 0.005453928120395405 0.019027325197426635
7.492194680516452E7 0.005473955404502838 0.019310839459738955 0.9945260445954973 -0.01931083945973895 0.9945260445954973 -0.01931083945973895 0.005473955404502838 0.019310839459738955
7.60526241520746E7 0.005494518463403146 0.019598497112483917 0.9945054815365969 -0.019598497112483917 0.9945054815365969 -0.019598497112483917 0.005494518463403146 0.019598497112483917
7.720036500730675E7 0.005515630167290513 0.0198903564447205 0.9944843698327096 -0.0198903564447205 0.9944843698327096 -0.0198903564447205 0.005515630167290513 0.0198903564447205
7.836542688315398E7 0.005537303646063285 0.0201864765397165 0.9944626963539367 -0.0201864765397165 0.9944626963539367 -0.0201864765397165 0.005537303646063285 0.0201864765397165
7.954807117813127E7 0.005559552294225153 0.02048691728791157 0.9944404477057749 -0.020486917287911573 0.9944404477057749 -0.020486917287911573 0.005559552294225153 0.02048691728791157
8.074856323562416E7 0.005582389776018492 0.020791739400242017 0.9944176102239816 -0.020791739400242017 0.9944176102239816 -0.020791739400242017 0.005582389776018492 0.020791739400242017
8.196717240342227E7 0.005605830030810079 0.02110100442183469 0.9943941699691898 -0.021101004421834692 0.9943941699691898 -0.021101004421834692 0.005605830030810079 0.02110100442183469
8.320417209415154E7 0.005629887278750371 0.02141477474607688 0.9943701127212495 -0.02141477474607688 0.9943701127212495 -0.02141477474607688 0.005629887278750371 0.02141477474607688
8.445983984661816E7 0.005654576026728667 0.021733113629068115 0.9943454239732713 -0.021733113629068112 0.9943454239732713 -0.021733113629068112 0.005654576026728667 0.021733113629068115
8.573445738807854E7 0.005679911074647496 0.022056085204459085 0.9943200889253525 -0.022056085204459085 0.9943200889253525 -0.022056085204459085 0.005679911074647496 0.022056085204459085
8.702831069744885E7 0.005705907522040572 0.022383754498681872 0.9942940924779594 -0.022383754498681872 0.9942940924779594 -0.022383754498681872 0.005705907522040572 0.022383754498681872
8.834169006946853E7 0.00573258077505965 0.02271618744657449 0.9942674192249404 -0.02271618744657449 0.9942674192249404 -0.02271618744657449 0.00573258077505965 0.02271618744657449
8.96748901798321E7 0.005759946553856553 0.023053450907401955 0.9942400534461434 -0.023053450907401955 0.9942400534461434 -0.023053450907401955 0.005759946553856553 0.023053450907401955
9.1028210151304E7 0.005788020900387546 0.023395612681274432 0.9942119790996126 -0.023395612681274436 0.9942119790996126 -0.023395612681274436 0.005788020900387546 0.023395612681274432
9.240195362083109E7 0.0058168201866680225 0.023742741525961973 0.9941831798133318 -0.023742741525961973 0.9941831798133318 -0.023742741525961973 0.0058168201866680225 0.023742741525961973
9.379642880766791E7 0.005846361123506337 0.024094907174103994 0.9941536388764936 -0.024094907174103994 0.9941536388764936 -0.024094907174103994 0.005846361123506337 0.024094907174103994
9.521194858253023E7 0.005876660769746113 0.024452180350809805 0.9941233392302538 -0.024452180350809805 0.9941233392302538 -0.024452180350809805 0.005876660769746113 0.024452180350809805
9.664883053779216E7 0.005907736542047228 0.02481463279164545 0.9940922634579529 -0.02481463279164545 0.9940922634579529 -0.02481463279164545 0.005907736542047228 0.02481463279164545
9.810739705874248E7 0.005939606225235952 0.025182337261000002 0.994060393774764 -0.025182337261 0.994060393774764 -0.025182337261 0.005939606225235952 0.025182337261000002
9.958797539591652E7 0.005972287983255271 0.025555367570823027 0.9940277120167447 -0.025555367570823027 0.9940277120167447 -0.025555367570823027 0.005972287983255271 0.025555367570823027
1.0109089773851961E8 0.006005800370746666 0.0259337985997232 0.9939941996292534 -0.0259337985997232 0.9939941996292534 -0.0259337985997232 0.006005800370746666 0.0259337985997232
1.0261650128895843E8 0.006040162345294878 0.026317706312415957 0.9939598376547051 -0.026317706312415957 0.9939598376547051 -0.026317706312415957 0.006040162345294878 0.026317706312415957
1.0416512833849736E8 0.006075393280367132 0.02670716777950646 0.9939246067196328 -0.02670716777950646 0.9939246067196328 -0.02670716777950646 0.006075393280367132 0.02670716777950646
1.0573712634405641E8 0.006111512978978425 0.027102261197592337 0.9938884870210215 -0.027102261197592337 0.9938884870210215 -0.027102261197592337 0.006111512978978425 0.027102261197592337
1.0733284800616828E8 0.00614854168811404 0.027503065909668393 0.993851458311886 -0.027503065909668386 0.993851458311886 -0.027503065909668386 0.00614854168811404 0.027503065909668393
1.0895265134811176E8 0.006186500113940358 0.0279096624258138 0.9938134998860596 -0.0279096624258138 0.9938134998860596 -0.0279096624258138 0.006186500113940358 0.0279096624258138
1.1059689979623953E8 0.006225409437834431 0.028322132444140568 0.9937745905621655 -0.028322132444140568 0.9937745905621655 -0.028322132444140568 0.006225409437834431 0.028322132444140568
1.1226596226151802E8 0.006265291333262122 0.02874055887197952 0.9937347086667379 -0.02874055887197952 0.9937347086667379 -0.02874055887197952 0.006265291333262122 0.02874055887197952
1.1396021322229806E8 0.0063061679835339935 0.02916502584727894 0.9936938320164661 -0.02916502584727894 0.9936938320164661 -0.02916502584727894 0.0063061679835339935 0.02916502584727894
1.1568003280833441E8 0.006348062100467145 0.02959561876018857 0.9936519378995329 -0.02959561876018857 0.9936519378995329 -0.02959561876018857 0.006348062100467145 0.02959561876018857
1.1742580688607343E8 0.006390996943980063 0.030032424274800136 0.9936090030560201 -0.030032424274800136 0.9936090030560201 -0.030032424274800136 0.006390996943980063 0.030032424274800136
1.1919792714522783E8 0.006434996342646553 0.03047553035101395 0.9935650036573536 -0.03047553035101395 0.9935650036573536 -0.03047553035101395 0.006434996342646553 0.03047553035101395
1.2099679118665792E8 0.006480084715233319 0.030925026266499085 0.9935199152847665 -0.030925026266499085 0.9935199152847665 -0.030925026266499085 0.006480084715233319 0.030925026266499085
1.2282280261157903E8 0.006526287093244398 0.03138100263871369 0.9934737129067556 -0.03138100263871369 0.9934737129067556 -0.03138100263871369 0.006526287093244398 0.03138100263871369
1.2467637111211549E8 0.006573629144494055 0.031843551446949954 0.993426370855506 -0.031843551446949954 0.993426370855506 -0.031843551446949954 0.006573629144494055 0.031843551446949954
1.265579125632208E8 0.0066221371977281 0.032312766054367344 0.9933778628022719 -0.032312766054367344 0.9933778628022719 -0.032312766054367344 0.0066221371977281 0.032312766054367344
1.284678491159853E8 0.0066718382683116795 0.03278874122997646 0.9933281617316884 -0.03278874122997646 0.9933281617316884 -0.03278874122997646 0.0066718382683116795 0.03278874122997646
1.3040660929235186E8 0.00672276008499993 0.033271573170534606 0.9932772399150003 -0.033271573170534606 0.9932772399150003 -0.033271573170534606 0.00672276008499993 0.033271573170534606
1.3237462808126101E8 0.006774931117805697 0.03376135952231355 0.9932250688821944 -0.03376135952231356 0.9932250688821944 -0.03376135952231356 0.006774931117805697 0.03376135952231355
1.3437234703624701E8 0.006828380606976671 0.0342581994026992 0.9931716193930232 -0.0342581994026992 0.9931716193930232 -0.0342581994026992 0.006828380606976671 0.0342581994026992
1.364002143745067E8 0.00688313859309219 0.03476219342158205 0.9931168614069079 -0.034762193421582044 0.9931168614069079 -0.034762193421582044 0.00688313859309219 0.03476219342158205
1.3845868507746372E8 0.0069392359482877775 0.0352734437024973 0.9930607640517123 -0.0352734437024973 0.9930607640517123 -0.0352734437024973 0.0069392359482877775 0.0352734437024973
1.405482209928499E8 0.006996704408613536 0.03579205390347309 0.9930032955913866 -0.0357920539034731 0.9930032955913866 -0.0357920539034731 0.006996704408613536 0.03579205390347309
1.426692909383278E8 0.007055576607530302 0.036318129237545314 0.9929444233924696 -0.036318129237545314 0.9929444233924696 -0.036318129237545314 0.007055576607530302 0.036318129237545314
1.4482237080667645E8 0.007115886110545338 0.036851776492897365 0.9928841138894547 -0.036851776492897365 0.9928841138894547 -0.036851776492897365 0.007115886110545338 0.036851776492897365
1.4700794367256513E8 0.0071776674509874735 0.037393104052584274 0.9928223325490125 -0.037393104052584274 0.9928223325490125 -0.037393104052584274 0.0071776674509874735 0.037393104052584274
1.492264999009378E8 0.007240956166919401 0.03794222191380009 0.9927590438330807 -0.03794222191380009 0.9927590438330807 -0.03794222191380009 0.007240956166919401 0.03794222191380009
1.5147853725703382E8 0.0073057888391830725 0.03849924170664894 0.992694211160817 -0.03849924170664894 0.992694211160817 -0.03849924170664894 0.0073057888391830725 0.03849924170664894
1.5376456101806876E8 0.007372203130572214 0.039064276712380566 0.9926277968694279 -0.03906427671238057 0.9926277968694279 -0.03906427671238057 0.007372203130572214 0.039064276712380566
1.5608508408660066E8 0.007440237826124276 0.039637441881052136 0.9925597621738756 -0.039637441881052136 0.9925597621738756 -0.039637441881052136 0.007440237826124276 0.039637441881052136
1.5844062710560706E8 0.007509932874522585 0.04021885384857946 0.9924900671254773 -0.04021885384857946 0.9924900671254773 -0.04021885384857946 0.007509932874522585 0.04021885384857946
1.6083171857529896E8 0.007581329430597813 0.040808630953141765 0.9924186705694023 -0.040808630953141765 0.9924186705694023 -0.040808630953141765 0.007581329430597813 0.040808630953141765
1.632588949716973E8 0.007654469898916795 0.0414068932509055 0.9923455301010834 -0.0414068932509055 0.9923455301010834 -0.0414068932509055 0.007654469898916795 0.0414068932509055
1.6572270086699936E8 0.007729397978445268 0.04201376253103449 0.9922706020215548 -0.04201376253103449 0.9922706020215548 -0.04201376253103449 0.007729397978445268 0.04201376253103449
1.6822368905176118E8 0.0078061587082703015 0.042629362329954686 0.9921938412917297 -0.042629362329954686 0.9921938412917297 -0.042629362329954686 0.0078061587082703015 0.042629362329954686
1.7076242065892437E8 0.0078847985143672 0.04325381794484387 0.9921152014856328 -0.04325381794484387 0.9921152014856328 -0.04325381794484387 0.0078847985143672 0.04325381794484387
1.7333946528971428E8 0.007965365257395043 0.043887256446318156 0.9920346347426051 -0.043887256446318156 0.9920346347426051 -0.043887256446318156 0.007965365257395043 0.043887256446318156
1.7595540114143828E8 0.00804790828150445 0.0445298066902886 0.9919520917184955 -0.0445298066902886 0.9919520917184955 -0.0445298066902886 0.00804790828150445 0.0445298066902886
1.786108151372127E8 0.008132478464140913 0.045181599328963415 0.9918675215358589 -0.045181599328963415 0.9918675215358589 -0.045181599328963415 0.008132478464140913 0.045181599328963415
1.8130630305764765E8 0.008219128266826876 0.04584276682097261 0.9917808717331733 -0.04584276682097261 0.9917808717331733 -0.04584276682097261 0.008219128266826876 0.04584276682097261
1.840424696745189E8 0.00830791178690556 0.04651344344059331 0.9916920882130944 -0.04651344344059331 0.9916920882130944 -0.04651344344059331 0.00830791178690556 0.04651344344059331
1.8681992888645732E8 0.008398884810230055 0.04719376528605668 0.99160111518977 -0.04719376528605668 0.99160111518977 -0.04719376528605668 0.008398884810230055 0.04719376528605668
1.8963930385668582E8 0.008492104864781275 0.04788387028691764 0.9915078951352188 -0.047883870286917644 0.9915078951352188 -0.047883870286917644 0.008492104864781275 0.04788387028691764
1.92501227152835E8 0.008587631275198897 0.048583898210471106 0.9914123687248011 -0.048583898210471106 0.9914123687248011 -0.048583898210471106 0.008587631275198897 0.048583898210471106
1.9540634088886917E8 0.008685525218210208 0.049293990667199646 0.9913144747817897 -0.049293990667199646 0.9913144747817897 -0.049293990667199646 0.008685525218210208 0.049293990667199646
1.983552968691535E8 0.008785849778942352 0.0500142911152384 0.9912141502210576 -0.05001429111523839 0.9912141502210576 -0.05001429111523839 0.008785849778942352 0.0500142911152384
2.0134875673469606E8 0.008888670008104447 0.05074494486384519 0.9911113299918956 -0.050744944863845204 0.9911113299918956 -0.050744944863845204 0.008888670008104447 0.05074494486384519
2.0438739211159652E8 0.008994052980027135 0.051486099075864385 0.9910059470199729 -0.051486099075864385 0.9910059470199729 -0.051486099075864385 0.008994052980027135 0.051486099075864385
2.074718847617352E8 0.009102067851548034 0.052237902769173984 0.9908979321484521 -0.052237902769173984 0.9908979321484521 -0.052237902769173984 0.009102067851548034 0.052237902769173984
2.106029267357361E8 0.00921278592173283 0.05300050681710706 0.9907872140782671 -0.05300050681710706 0.9907872140782671 -0.05300050681710706 0.00921278592173283 0.05300050681710706
2.1378122052823865E8 0.009326280692423096 0.053774063947838804 0.9906737193075768 -0.0537740639478388 0.9906737193075768 -0.0537740639478388 0.009326280692423096 0.053774063947838804
2.1700747923551247E8 0.00944262792960308 0.05455872874273161 0.990557372070397 -0.05455872874273161 0.990557372070397 -0.05455872874273161 0.00944262792960308 0.05455872874273161
2.2028242671545094E8 0.00956190572557911 0.05535465763363111 0.990438094274421 -0.05535465763363111 0.990438094274421 -0.05535465763363111 0.00956190572557911 0.05535465763363111
2.23606797749979E8 0.009684194561966642 0.05616200889910622 0.9903158054380334 -0.05616200889910621 0.9903158054380334 -0.05616200889910621 0.009684194561966642 0.05616200889910622
2.2698133820991236E8 0.009809577373481529 0.0569809426596277 0.9901904226265186 -0.0569809426596277 0.9901904226265186 -0.0569809426596277 0.009809577373481529 0.0569809426596277
2.3040680522230446E8 0.009938139612533209 0.057811620871678585 0.9900618603874667 -0.057811620871678585 0.9900618603874667 -0.057811620871678585 0.009938139612533209 0.057811620871678585
2.338839673403185E8 0.010069969314619303 0.05865420732079118 0.9899300306853807 -0.05865420732079118 0.9899300306853807 -0.05865420732079118 0.010069969314619303 0.05865420732079118
2.37413604715664E8 0.01020515716452229 0.05950886761350509 0.9897948428354778 -0.05950886761350509 0.9897948428354778 -0.05950886761350509 0.01020515716452229 0.05950886761350509
2.4099650927363476E8 0.010343796563310442 0.060375769168240334 0.9896562034366897 -0.060375769168240334 0.9896562034366897 -0.060375769168240334 0.010343796563310442 0.060375769168240334
2.446334848907889E8 0.010485983696146742 0.061255081205080664 0.9895140163038533 -0.06125508120508065 0.9895140163038533 -0.06125508120508065 0.010485983696146742 0.061255081205080664
