!Murata Part Number: LQP02TQ2N2B02
!These Parameters are Measured in Series Mode Connection
!       o--[Z]--o
!Port1              Port2
!       o-------o
!
!Freq. Start=50[MHz] Stop=20[GHz], 401[Steps]
# Hz S RI R 50
!Freq.(Hz) S11(Real) S11(Imag) S21(Real) S21(Imag) S12(Real) S12(Imag) S22(Real) S22(Imag)
5.0E7 0.0021604752332388378 0.00784450885176607 0.9978395247667611 -0.00784450885176607 0.9978395247667611 -0.00784450885176607 0.0021604752332388378 0.00784450885176607
5.0754570186123446E7 0.0021670273446015497 0.007961669860911085 0.9978329726553985 -0.007961669860911085 0.9978329726553985 -0.007961669860911085 0.0021670273446015497 0.007961669860911085
5.152052789556263E7 0.002173760382744655 0.008080547765744617 0.9978262396172554 -0.008080547765744617 0.9978262396172554 -0.008080547765744617 0.002173760382744655 0.008080547765744617
5.229804498202928E7 0.0021806788388674596 0.008201166477616404 0.9978193211611326 -0.008201166477616406 0.9978193211611326 -0.008201166477616406 0.0021806788388674596 0.008201166477616404
5.308729589274893E7 0.002187787288532966 0.00832355020105432 0.9978122127114669 -0.00832355020105432 0.9978122127114669 -0.00832355020105432 0.002187787288532966 0.00832355020105432
5.388845770760058E7 0.0021950903918371697 0.008447723436623377 0.9978049096081629 -0.008447723436623379 0.9978049096081629 -0.008447723436623379 0.0021950903918371697 0.008447723436623377
5.470171017884717E7 0.002202592893498803 0.008573710983844449 0.9977974071065011 -0.008573710983844449 0.9977974071065011 -0.008573710983844449 0.002202592893498803 0.008573710983844449
5.5527235771465644E7 0.00221029962286626 0.00870153794417853 0.9977897003771338 -0.008701537944178531 0.9977897003771338 -0.008701537944178531 0.00221029962286626 0.00870153794417853
5.6365219704085544E7 0.002218215493838561 0.008831229724082637 0.9977817845061613 -0.008831229724082635 0.9977817845061613 -0.008831229724082635 0.002218215493838561 0.008831229724082637
5.721584999054556E7 0.0022263455046973757 0.008962812038144042 0.9977736544953028 -0.008962812038144044 0.9977736544953028 -0.008962812038144044 0.0022263455046973757 0.008962812038144042
5.807931748207712E7 0.0022346947378471425 0.009096310912299626 0.9977653052621529 -0.009096310912299626 0.9977653052621529 -0.009096310912299626 0.0022346947378471425 0.009096310912299626
5.8955815910124585E7 0.002243268359460759 0.009231752687148076 0.9977567316405392 -0.009231752687148076 0.9977567316405392 -0.009231752687148076 0.002243268359460759 0.009231752687148076
5.984554192981184E7 0.0022520716190282484 0.009369164021362569 0.9977479283809717 -0.009369164021362569 0.9977479283809717 -0.009369164021362569 0.0022520716190282484 0.009369164021362569
6.074869516406457E7 0.0022611098488063046 0.009508571895212384 0.9977388901511938 -0.009508571895212384 0.9977388901511938 -0.009508571895212384 0.0022611098488063046 0.009508571895212384
6.166547824839868E7 0.0022703884631667544 0.009650003614202287 0.9977296115368334 -0.009650003614202287 0.9977296115368334 -0.009650003614202287 0.0022703884631667544 0.009650003614202287
6.2596096876384385E7 0.002279912957842356 0.009793486812838799 0.9977200870421576 -0.009793486812838797 0.9977200870421576 -0.009793486812838797 0.002279912957842356 0.009793486812838799
6.354075984579668E7 0.002289688909068735 0.009939049458533243 0.9977103110909313 -0.009939049458533243 0.9977103110909313 -0.009939049458533243 0.002289688909068735 0.009939049458533243
6.449967910546205E7 0.0022997219726215976 0.010086719855651623 0.9977002780273783 -0.010086719855651623 0.9977002780273783 -0.010086719855651623 0.0022997219726215976 0.010086719855651623
6.547306980281226E7 0.0023100178827488963 0.010236526649722041 0.9976899821172509 -0.010236526649722041 0.9976899821172509 -0.010236526649722041 0.0023100178827488963 0.010236526649722041
6.646115033215589E7 0.0023205824509980205 0.010388498831810738 0.9976794175490021 -0.010388498831810738 0.9976794175490021 -0.010388498831810738 0.0023205824509980205 0.010388498831810738
6.746414238367817E7 0.0023314215649387075 0.010542665743078291 0.9976685784350614 -0.010542665743078291 0.9976685784350614 -0.010542665743078291 0.0023314215649387075 0.010542665743078291
6.848227099318038E7 0.0023425411867828935 0.010699057079527988 0.9976574588132171 -0.010699057079527988 0.9976574588132171 -0.010699057079527988 0.0023425411867828935 0.010699057079527988
6.951576459256999E7 0.002353947351903363 0.01085770289695866 0.9976460526480966 -0.01085770289695866 0.9976460526480966 -0.01085770289695866 0.002353947351903363 0.01085770289695866
7.056485506111258E7 0.002365646167253784 0.011018633616134914 0.9976343538327461 -0.011018633616134914 0.9976343538327461 -0.011018633616134914 0.002365646167253784 0.011018633616134914
7.162977777745734E7 0.002377643809693373 0.011181880028187744 0.9976223561903067 -0.011181880028187745 0.9976223561903067 -0.011181880028187745 0.002377643809693373 0.011181880028187744
7.271077167244768E7 0.0023899465242202727 0.011347473300259184 0.9976100534757797 -0.011347473300259184 0.9976100534757797 -0.011347473300259184 0.0023899465242202727 0.011347473300259184
7.380807928272885E7 0.0024025606221185418 0.011515444981404723 0.9975974393778816 -0.011515444981404723 0.9975974393778816 -0.011515444981404723 0.0024025606221185418 0.011515444981404723
7.492194680516452E7 0.002415492479024488 0.011685827008767462 0.9975845075209754 -0.01168582700876746 0.9975845075209754 -0.01168582700876746 0.002415492479024488 0.011685827008767462
7.60526241520746E7 0.0024287485329191295 0.011858651714038644 0.9975712514670808 -0.011858651714038644 0.9975712514670808 -0.011858651714038644 0.0024287485329191295 0.011858651714038644
7.720036500730675E7 0.0024423352820543676 0.012033951830218582 0.9975576647179456 -0.012033951830218584 0.9975576647179456 -0.012033951830218584 0.0024423352820543676 0.012033951830218582
7.836542688315398E7 0.00245625928282167 0.012211760498693054 0.9975437407171784 -0.012211760498693054 0.9975437407171784 -0.012211760498693054 0.00245625928282167 0.012211760498693054
7.954807117813127E7 0.0024705271475729774 0.012392111276639492 0.997529472852427 -0.012392111276639492 0.997529472852427 -0.012392111276639492 0.0024705271475729774 0.012392111276639492
8.074856323562416E7 0.002485145542404791 0.012575038144777905 0.9975148544575951 -0.012575038144777903 0.9975148544575951 -0.012575038144777903 0.002485145542404791 0.012575038144777905
8.196717240342227E7 0.0025001211849174075 0.01276057551548095 0.9974998788150827 -0.01276057551548095 0.9974998788150827 -0.01276057551548095 0.0025001211849174075 0.01276057551548095
8.320417209415154E7 0.0025154608419626296 0.012948758241257831 0.9974845391580375 -0.012948758241257831 0.9974845391580375 -0.012948758241257831 0.0025154608419626296 0.012948758241257831
8.445983984661816E7 0.002531171327394337 0.013139621623626106 0.9974688286726057 -0.013139621623626106 0.9974688286726057 -0.013139621623626106 0.002531171327394337 0.013139621623626106
8.573445738807854E7 0.0025472594998376765 0.013333201422385511 0.9974527405001621 -0.013333201422385511 0.9974527405001621 -0.013333201422385511 0.0025472594998376765 0.013333201422385511
8.702831069744885E7 0.002563732260493806 0.01352953386530718 0.9974362677395062 -0.01352953386530718 0.9974362677395062 -0.01352953386530718 0.002563732260493806 0.01352953386530718
8.834169006946853E7 0.00258059655099851 0.01372865565825151 0.9974194034490015 -0.013728655658251512 0.9974194034490015 -0.013728655658251512 0.00258059655099851 0.01372865565825151
8.96748901798321E7 0.002597859351354196 0.013930603995726966 0.9974021406486456 -0.013930603995726966 0.9974021406486456 -0.013930603995726966 0.002597859351354196 0.013930603995726966
9.1028210151304E7 0.0026155276779561724 0.014135416571901715 0.9973844723220436 -0.014135416571901711 0.9973844723220436 -0.014135416571901711 0.0026155276779561724 0.014135416571901715
9.240195362083109E7 0.0026336085817353382 0.014343131592078937 0.9973663914182646 -0.014343131592078933 0.9973663914182646 -0.014343131592078933 0.0026336085817353382 0.014343131592078937
9.379642880766791E7 0.0026521091464407212 0.01455378778464594 0.9973478908535592 -0.01455378778464594 0.9973478908535592 -0.01455378778464594 0.0026521091464407212 0.01455378778464594
9.521194858253023E7 0.0026710364870865468 0.01476742441350594 0.9973289635129136 -0.014767424413505943 0.9973289635129136 -0.014767424413505943 0.0026710364870865468 0.01476742441350594
9.664883053779216E7 0.0026903977485897425 0.014984081291000569 0.9973096022514102 -0.014984081291000565 0.9973096022514102 -0.014984081291000565 0.0026903977485897425 0.014984081291000569
9.810739705874248E7 0.0027102001046249552 0.015203798791329388 0.9972897998953751 -0.015203798791329392 0.9972897998953751 -0.015203798791329392 0.0027102001046249552 0.015203798791329388
9.958797539591652E7 0.0027304507567252794 0.01542661786447184 0.9972695492432748 -0.01542661786447184 0.9972695492432748 -0.01542661786447184 0.0027304507567252794 0.01542661786447184
1.0109089773851961E8 0.002751156933657971 0.015652580050615192 0.997248843066342 -0.015652580050615192 0.997248843066342 -0.015652580050615192 0.002751156933657971 0.015652580050615192
1.0261650128895843E8 0.00277232589110534 0.01588172749509053 0.9972276741088946 -0.01588172749509053 0.9972276741088946 -0.01588172749509053 0.00277232589110534 0.01588172749509053
1.0416512833849736E8 0.002793964911681995 0.0161141029638171 0.9972060350883181 -0.0161141029638171 0.9972060350883181 -0.0161141029638171 0.002793964911681995 0.0161141029638171
1.0573712634405641E8 0.0028160813053203265 0.01634974985925357 0.9971839186946797 -0.01634974985925357 0.9971839186946797 -0.01634974985925357 0.0028160813053203265 0.01634974985925357
1.0733284800616828E8 0.0028386824100568153 0.01658871223685261 0.9971613175899431 -0.01658871223685261 0.9971613175899431 -0.01658871223685261 0.0028386824100568153 0.01658871223685261
1.0895265134811176E8 0.0028617755932523006 0.016831034822013244 0.9971382244067476 -0.016831034822013244 0.9971382244067476 -0.016831034822013244 0.0028617755932523006 0.016831034822013244
1.1059689979623953E8 0.002885368253279782 0.01707676302752349 0.9971146317467202 -0.01707676302752349 0.9971146317467202 -0.01707676302752349 0.002885368253279782 0.01707676302752349
1.1226596226151802E8 0.0029094678217135386 0.01732594297148313 0.9970905321782865 -0.01732594297148313 0.9970905321782865 -0.01732594297148313 0.0029094678217135386 0.01732594297148313
1.1396021322229806E8 0.002934081766053509 0.017578621495694665 0.9970659182339467 -0.017578621495694665 0.9970659182339467 -0.017578621495694665 0.002934081766053509 0.017578621495694665
1.1568003280833441E8 0.0029592175930187948 0.01783484618450776 0.9970407824069812 -0.01783484618450776 0.9970407824069812 -0.01783484618450776 0.0029592175930187948 0.01783484618450776
1.1742580688607343E8 0.0029848828524438793 0.01809466538410033 0.9970151171475562 -0.01809466538410033 0.9970151171475562 -0.01809466538410033 0.0029848828524438793 0.01809466538410033
1.1919792714522783E8 0.00301108514181076 0.018358128222176782 0.9969889148581892 -0.018358128222176782 0.9969889148581892 -0.018358128222176782 0.00301108514181076 0.018358128222176782
1.2099679118665792E8 0.003037832111449581 0.018625284628061803 0.9969621678885504 -0.018625284628061803 0.9969621678885504 -0.018625284628061803 0.003037832111449581 0.018625284628061803
1.2282280261157903E8 0.0030651314704394374 0.01889618535316511 0.9969348685295606 -0.01889618535316511 0.9969348685295606 -0.01889618535316511 0.0030651314704394374 0.01889618535316511
1.2467637111211549E8 0.003092990993240135 0.019170881991790827 0.99690700900676 -0.019170881991790827 0.99690700900676 -0.019170881991790827 0.003092990993240135 0.019170881991790827
1.265579125632208E8 0.0031214185270842573 0.019449427002261946 0.9968785814729157 -0.019449427002261946 0.9968785814729157 -0.019449427002261946 0.0031214185270842573 0.019449427002261946
1.284678491159853E8 0.0031504220001576516 0.01973187372832884 0.9968495779998425 -0.01973187372832884 0.9968495779998425 -0.01973187372832884 0.0031504220001576516 0.01973187372832884
1.3040660929235186E8 0.0031800094305945536 0.020018276420827673 0.9968199905694056 -0.020018276420827673 0.9968199905694056 -0.020018276420827673 0.0031800094305945536 0.020018276420827673
1.3237462808126101E8 0.003210188936311918 0.02030869025955323 0.996789811063688 -0.02030869025955323 0.996789811063688 -0.02030869025955323 0.003210188936311918 0.02030869025955323
1.3437234703624701E8 0.0032409687457052045 0.02060317137530772 0.9967590312542948 -0.020603171375307722 0.9967590312542948 -0.020603171375307722 0.0032409687457052045 0.02060317137530772
1.364002143745067E8 0.0032723572092258012 0.020901776872085918 0.9967276427907743 -0.020901776872085918 0.9967276427907743 -0.020901776872085918 0.0032723572092258012 0.020901776872085918
1.3845868507746372E8 0.003304362811857652 0.021204564849355016 0.9966956371881424 -0.021204564849355016 0.9966956371881424 -0.021204564849355016 0.003304362811857652 0.021204564849355016
1.405482209928499E8 0.0033369941865080224 0.021511594424385515 0.9966630058134921 -0.021511594424385515 0.9966630058134921 -0.021511594424385515 0.0033369941865080224 0.021511594424385515
1.426692909383278E8 0.003370260128324567 0.021822925754588843 0.9966297398716754 -0.021822925754588843 0.9966297398716754 -0.021822925754588843 0.003370260128324567 0.021822925754588843
1.4482237080667645E8 0.0034041696099478074 0.02213862005981561 0.9965958303900522 -0.02213862005981561 0.9965958303900522 -0.02213862005981561 0.0034041696099478074 0.02213862005981561
1.4700794367256513E8 0.0034387317977050535 0.022458739644567644 0.9965612682022951 -0.022458739644567644 0.9965612682022951 -0.022458739644567644 0.0034387317977050535 0.022458739644567644
1.492264999009378E8 0.0034739560687485466 0.022783347920076212 0.9965260439312513 -0.022783347920076216 0.9965260439312513 -0.022783347920076216 0.0034739560687485466 0.022783347920076212
1.5147853725703382E8 0.0035098520291372668 0.023112509426198576 0.9964901479708628 -0.023112509426198576 0.9964901479708628 -0.023112509426198576 0.0035098520291372668 0.023112509426198576
1.5376456101806876E8 0.003546429532858449 0.023446289853084456 0.9964535704671417 -0.02344628985308446 0.9964535704671417 -0.02344628985308446 0.003546429532858449 0.023446289853084456
1.5608508408660066E8 0.003583698701781325 0.02378475606256438 0.9964163012982186 -0.023784756062564378 0.9964163012982186 -0.023784756062564378 0.003583698701781325 0.02378475606256438
1.5844062710560706E8 0.0036216699465322203 0.024127976109212322 0.9963783300534675 -0.024127976109212322 0.9963783300534675 -0.024127976109212322 0.0036216699465322203 0.024127976109212322
1.6083171857529896E8 0.003660353988276533 0.02447601926103558 0.9963396460117234 -0.02447601926103558 0.9963396460117234 -0.02447601926103558 0.003660353988276533 0.02447601926103558
1.632588949716973E8 0.0036997618813897092 0.024828956019745805 0.9963002381186102 -0.024828956019745805 0.9963002381186102 -0.024828956019745805 0.0036997618813897092 0.024828956019745805
1.6572270086699936E8 0.0037399050369959284 0.025186858140566763 0.9962600949630043 -0.025186858140566766 0.9962600949630043 -0.025186858140566766 0.0037399050369959284 0.025186858140566763
1.6822368905176118E8 0.003780795247349833 0.025549798651535546 0.99621920475265 -0.025549798651535546 0.99621920475265 -0.025549798651535546 0.003780795247349833 0.025549798651535546
1.7076242065892437E8 0.003822444711033457 0.025917851872256203 0.9961775552889666 -0.025917851872256203 0.9961775552889666 -0.025917851872256203 0.003822444711033457 0.025917851872256203
1.7333946528971428E8 0.00386486605893743 0.026291093432066908 0.9961351339410626 -0.026291093432066908 0.9961351339410626 -0.026291093432066908 0.00386486605893743 0.026291093432066908
1.7595540114143828E8 0.003908072380992564 0.026669600287583986 0.9960919276190073 -0.026669600287583986 0.9960919276190073 -0.026669600287583986 0.003908072380992564 0.026669600287583986
1.786108151372127E8 0.003952077253615335 0.027053450739589535 0.9960479227463847 -0.027053450739589535 0.9960479227463847 -0.027053450739589535 0.003952077253615335 0.027053450739589535
1.8130630305764765E8 0.003996894767828089 0.027442724449231397 0.9960031052321718 -0.027442724449231397 0.9960031052321718 -0.027442724449231397 0.003996894767828089 0.027442724449231397
1.840424696745189E8 0.00404253955801272 0.027837502453508425 0.9959574604419872 -0.027837502453508425 0.9959574604419872 -0.027837502453508425 0.00404253955801272 0.027837502453508425
1.8681992888645732E8 0.004089026831254474 0.028237867180016918 0.9959109731687457 -0.028237867180016925 0.9959109731687457 -0.028237867180016925 0.004089026831254474 0.028237867180016918
1.8963930385668582E8 0.004136372397230826 0.028643902460937672 0.9958636276027693 -0.028643902460937672 0.9958636276027693 -0.028643902460937672 0.004136372397230826 0.028643902460937672
1.92501227152835E8 0.004184592698599017 0.029055693546247287 0.9958154073014011 -0.029055693546247287 0.9958154073014011 -0.029055693546247287 0.004184592698599017 0.029055693546247287
1.9540634088886917E8 0.004233704841834668 0.029473327116140827 0.9957662951581655 -0.029473327116140827 0.9957662951581655 -0.029473327116140827 0.004233704841834668 0.029473327116140827
1.983552968691535E8 0.0042837266284732 0.029896891292657345 0.9957162733715266 -0.029896891292657345 0.9957162733715266 -0.029896891292657345 0.0042837266284732 0.029896891292657345
2.0134875673469606E8 0.0043346765867053 0.030326475650503733 0.9956653234132946 -0.03032647565050374 0.9956653234132946 -0.03032647565050374 0.0043346765867053 0.030326475650503733
2.0438739211159652E8 0.004386574003277594 0.030762171227076453 0.9956134259967223 -0.030762171227076453 0.9956134259967223 -0.030762171227076453 0.004386574003277594 0.030762171227076453
2.074718847617352E8 0.004439438955649977 0.031204070531684946 0.9955605610443498 -0.031204070531684946 0.9955605610443498 -0.031204070531684946 0.004439438955649977 0.031204070531684946
2.106029267357361E8 0.004493292344361586 0.03165226755398492 0.9955067076556383 -0.03165226755398491 0.9955067076556383 -0.03165226755398491 0.004493292344361586 0.03165226755398492
2.1378122052823865E8 0.004548155925558444 0.03210685777163331 0.9954518440744415 -0.03210685777163331 0.9954518440744415 -0.03210685777163331 0.004548155925558444 0.03210685777163331
2.1700747923551247E8 0.004604052343636942 0.03256793815718136 0.9953959476563632 -0.03256793815718137 0.9953959476563632 -0.03256793815718137 0.004604052343636942 0.03256793815718136
2.2028242671545094E8 0.00466100516395908 0.03303560718422568 0.9953389948360409 -0.03303560718422568 0.9953389948360409 -0.03303560718422568 0.00466100516395908 0.03303560718422568
2.23606797749979E8 0.004719038905597211 0.033509964832841424 0.9952809610944028 -0.033509964832841424 0.9952809610944028 -0.033509964832841424 0.004719038905597211 0.033509964832841424
2.2698133820991236E8 0.004778179074068287 0.03399111259432528 0.9952218209259317 -0.03399111259432527 0.9952218209259317 -0.03399111259432527 0.004778179074068287 0.03399111259432528
2.3040680522230446E8 0.004838452194020074 0.03447915347527899 0.9951615478059801 -0.03447915347527899 0.9951615478059801 -0.03447915347527899 0.004838452194020074 0.03447915347527899
2.338839673403185E8 0.0048998858418346615 0.03497419200106835 0.9951001141581652 -0.03497419200106835 0.9951001141581652 -0.03497419200106835 0.0048998858418346615 0.03497419200106835
2.37413604715664E8 0.004962508678117532 0.035476334218695 0.9950374913218826 -0.035476334218695 0.9950374913218826 -0.035476334218695 0.004962508678117532 0.035476334218695
2.4099650927363476E8 0.005026350480043646 0.03598568769912117 0.9949736495199564 -0.03598568769912117 0.9949736495199564 -0.03598568769912117 0.005026350480043646 0.03598568769912117
