!Murata Part Number: LQP02TQ0N5B02
!These Parameters are Measured in Series Mode Connection
!       o--[Z]--o
!Port1              Port2
!       o-------o
!
!Freq. Start=50[MHz] Stop=20[GHz], 401[Steps]
# Hz S RI R 50
!Freq.(Hz) S11(Real) S11(Imag) S21(Real) S21(Imag) S12(Real) S12(Imag) S22(Real) S22(Imag)
5.0E7 2.7521586640404E-4 0.0018729888589017593 0.9997247841335959 -0.0018729888589017597 0.9997247841335959 -0.0018729888589017597 2.7521586640404E-4 0.0018729888589017593
5.0754570186123446E7 2.759648986184082E-4 0.0019011220707437933 0.9997240351013819 -0.0019011220707437935 0.9997240351013819 -0.0019011220707437935 2.759648986184082E-4 0.0019011220707437933
5.152052789556263E7 2.7673481358389616E-4 0.0019296742492557284 0.999723265186416 -0.0019296742492557284 0.999723265186416 -0.0019296742492557284 2.7673481358389616E-4 0.0019296742492557284
5.229804498202928E7 2.7752614105501657E-4 0.0019586514955140123 0.9997224738589449 -0.001958651495514012 0.9997224738589449 -0.001958651495514012 2.7752614105501657E-4 0.0019586514955140123
5.308729589274893E7 2.783394213963935E-4 0.001988059994937241 0.9997216605786037 -0.001988059994937241 0.9997216605786037 -0.001988059994937241 2.783394213963935E-4 0.001988059994937241
5.388845770760058E7 2.791752056480806E-4 0.002017906018362686 0.9997208247943518 -0.002017906018362686 0.9997208247943518 -0.002017906018362686 2.791752056480806E-4 0.002017906018362686
5.470171017884717E7 2.8003405558336183E-4 0.0020481959231393415 0.9997199659444167 -0.0020481959231393415 0.9997199659444167 -0.0020481959231393415 2.8003405558336183E-4 0.0020481959231393415
5.5527235771465644E7 2.809165437586755E-4 0.0020789361542382047 0.9997190834562414 -0.0020789361542382047 0.9997190834562414 -0.0020789361542382047 2.809165437586755E-4 0.0020789361542382047
5.6365219704085544E7 2.818232535553099E-4 0.002110133245380552 0.9997181767464448 -0.002110133245380552 0.9997181767464448 -0.002110133245380552 2.818232535553099E-4 0.002110133245380552
5.721584999054556E7 2.8275477921252683E-4 0.002141793820184992 0.9997172452207875 -0.002141793820184992 0.9997172452207875 -0.002141793820184992 2.8275477921252683E-4 0.002141793820184992
5.807931748207712E7 2.8371172585178695E-4 0.0021739245933341516 0.9997162882741483 -0.0021739245933341516 0.9997162882741483 -0.0021739245933341516 2.8371172585178695E-4 0.0021739245933341516
5.8955815910124585E7 2.846947094917653E-4 0.0022065323717618815 0.9997153052905081 -0.002206532371761881 0.9997153052905081 -0.002206532371761881 2.846947094917653E-4 0.0022065323717618815
5.984554192981184E7 2.857043570538673E-4 0.002239624055861931 0.9997142956429461 -0.0022396240558619314 0.9997142956429461 -0.0022396240558619314 2.857043570538673E-4 0.002239624055861931
6.074869516406457E7 2.8674130635797444E-4 0.002273206640719054 0.9997132586936422 -0.002273206640719054 0.9997132586936422 -0.002273206640719054 2.8674130635797444E-4 0.002273206640719054
6.166547824839868E7 2.8780620610818633E-4 0.0023072872173636304 0.9997121937938918 -0.0023072872173636304 0.9997121937938918 -0.0023072872173636304 2.8780620610818633E-4 0.0023072872173636304
6.2596096876384385E7 2.888997158683416E-4 0.002341872974050844 0.9997111002841317 -0.002341872974050844 0.9997111002841317 -0.002341872974050844 2.888997158683416E-4 0.002341872974050844
6.354075984579668E7 2.9002250602715304E-4 0.002376971197565606 0.9997099774939728 -0.002376971197565606 0.9997099774939728 -0.002376971197565606 2.9002250602715304E-4 0.002376971197565606
6.449967910546205E7 2.911752577528131E-4 0.002412589274554375 0.9997088247422472 -0.002412589274554375 0.9997088247422472 -0.002412589274554375 2.911752577528131E-4 0.002412589274554375
6.547306980281226E7 2.923586629369905E-4 0.0024487346928851544 0.9997076413370628 -0.0024487346928851544 0.9997076413370628 -0.0024487346928851544 2.923586629369905E-4 0.0024487346928851544
6.646115033215589E7 2.935734241281665E-4 0.0024854150430369346 0.9997064265758718 -0.0024854150430369346 0.9997064265758718 -0.0024854150430369346 2.935734241281665E-4 0.0024854150430369346
6.746414238367817E7 2.94820254454329E-4 0.0025226380195199354 0.9997051797455455 -0.0025226380195199354 0.9997051797455455 -0.0025226380195199354 2.94820254454329E-4 0.0025226380195199354
6.848227099318038E7 2.960998775350959E-4 0.002560411422328052 0.9997039001224649 -0.002560411422328052 0.9997039001224649 -0.002560411422328052 2.960998775350959E-4 0.002560411422328052
6.951576459256999E7 2.9741302738339775E-4 0.0025987431584249196 0.9997025869726166 -0.00259874315842492 0.9997025869726166 -0.00259874315842492 2.9741302738339775E-4 0.0025987431584249196
7.056485506111258E7 2.9876044829693106E-4 0.0026376412432651116 0.9997012395517031 -0.0026376412432651116 0.9997012395517031 -0.0026376412432651116 2.9876044829693106E-4 0.0026376412432651116
7.162977777745734E7 3.0014289473965394E-4 0.0026771138023519666 0.9996998571052603 -0.002677113802351967 0.9996998571052603 -0.002677113802351967 3.0014289473965394E-4 0.0026771138023519666
7.271077167244768E7 3.015611312136884E-4 0.0027171690728336442 0.9996984388687864 -0.0027171690728336442 0.9996984388687864 -0.0027171690728336442 3.015611312136884E-4 0.0027171690728336442
7.380807928272885E7 3.0301593212207295E-4 0.002757815405138986 0.999696984067878 -0.0027578154051389864 0.999696984067878 -0.0027578154051389864 3.0301593212207295E-4 0.002757815405138986
7.492194680516452E7 3.0450808162289843E-4 0.0027990612646548265 0.9996954919183773 -0.0027990612646548265 0.9996954919183773 -0.0027990612646548265 3.0450808162289843E-4 0.0027990612646548265
7.60526241520746E7 3.0603837347546514E-4 0.0028409152334464218 0.9996939616265246 -0.002840915233446422 0.9996939616265246 -0.002840915233446422 3.0603837347546514E-4 0.0028409152334464218
7.720036500730675E7 3.076076108791904E-4 0.002883386012022666 0.9996923923891208 -0.002883386012022666 0.9996923923891208 -0.002883386012022666 3.076076108791904E-4 0.002883386012022666
7.836542688315398E7 3.0921660630611264E-4 0.0029264824211478095 0.999690783393694 -0.0029264824211478095 0.999690783393694 -0.0029264824211478095 3.0921660630611264E-4 0.0029264824211478095
7.954807117813127E7 3.108661813279441E-4 0.0029702134037013837 0.9996891338186721 -0.0029702134037013837 0.9996891338186721 -0.0029702134037013837 3.108661813279441E-4 0.0029702134037013837
8.074856323562416E7 3.125571664387447E-4 0.0030145880265880437 0.9996874428335613 -0.0030145880265880433 0.9996874428335613 -0.0030145880265880433 3.125571664387447E-4 0.0030145880265880437
8.196717240342227E7 3.1429040087440783E-4 0.0030596154826990317 0.9996857095991255 -0.0030596154826990317 0.9996857095991255 -0.0030596154826990317 3.1429040087440783E-4 0.0030596154826990317
8.320417209415154E7 3.16066732430279E-4 0.003105305092926982 0.9996839332675697 -0.003105305092926982 0.9996839332675697 -0.003105305092926982 3.16066732430279E-4 0.003105305092926982
8.445983984661816E7 3.178870172783542E-4 0.0031516663082356974 0.9996821129827216 -0.0031516663082356974 0.9996821129827216 -0.0031516663082356974 3.178870172783542E-4 0.0031516663082356974
8.573445738807854E7 3.197521197856358E-4 0.0031987087117865843 0.9996802478802144 -0.0031987087117865843 0.9996802478802144 -0.0031987087117865843 3.197521197856358E-4 0.0031987087117865843
8.702831069744885E7 3.2166291233536336E-4 0.003246442021123312 0.9996783370876647 -0.003246442021123312 0.9996783370876647 -0.003246442021123312 3.2166291233536336E-4 0.003246442021123312
8.834169006946853E7 3.236202751529673E-4 0.003294876090416249 0.9996763797248469 -0.003294876090416249 0.9996763797248469 -0.003294876090416249 3.236202751529673E-4 0.003294876090416249
8.96748901798321E7 3.256250961387358E-4 0.003344020912768166 0.9996743749038612 -0.0033440209127681667 0.9996743749038612 -0.0033440209127681667 3.256250961387358E-4 0.003344020912768166
9.1028210151304E7 3.276782707093207E-4 0.003393886622582622 0.9996723217292908 -0.003393886622582622 0.9996723217292908 -0.003393886622582622 3.276782707093207E-4 0.003393886622582622
9.240195362083109E7 3.2978070165034287E-4 0.0034444834979962978 0.9996702192983498 -0.0034444834979962986 0.9996702192983498 -0.0034444834979962986 3.2978070165034287E-4 0.0034444834979962978
9.379642880766791E7 3.3193329898249585E-4 0.0034958219633765596 0.9996680667010173 -0.0034958219633765596 0.9996680667010173 -0.0034958219633765596 3.3193329898249585E-4 0.0034958219633765596
9.521194858253023E7 3.3413697984367935E-4 0.0035479125918853 0.9996658630201564 -0.0035479125918853 0.9996658630201564 -0.0035479125918853 3.3413697984367935E-4 0.0035479125918853
9.664883053779216E7 3.3639266838981537E-4 0.0036007661081100552 0.9996636073316102 -0.003600766108110056 0.9996636073316102 -0.003600766108110056 3.3639266838981537E-4 0.0036007661081100552
9.810739705874248E7 3.387012957171328E-4 0.0036543933907632127 0.9996612987042828 -0.0036543933907632136 0.9996612987042828 -0.0036543933907632136 3.387012957171328E-4 0.0036543933907632127
9.958797539591652E7 3.4106379980881327E-4 0.0037088054754499875 0.9996589362001911 -0.0037088054754499875 0.9996589362001911 -0.0037088054754499875 3.4106379980881327E-4 0.0037088054754499875
1.0109089773851961E8 3.434811255090046E-4 0.003764013557505682 0.9996565188744909 -0.003764013557505681 0.9996565188744909 -0.003764013557505681 3.434811255090046E-4 0.003764013557505682
1.0261650128895843E8 3.459542245273067E-4 0.0038200289949025224 0.9996540457754726 -0.0038200289949025233 0.9996540457754726 -0.0038200289949025233 3.459542245273067E-4 0.0038200289949025224
1.0416512833849736E8 3.4848405547691937E-4 0.003876863311226229 0.9996515159445232 -0.003876863311226229 0.9996515159445232 -0.003876863311226229 3.4848405547691937E-4 0.003876863311226229
1.0573712634405641E8 3.5107158394972446E-4 0.003934528198722209 0.9996489284160504 -0.003934528198722209 0.9996489284160504 -0.003934528198722209 3.5107158394972446E-4 0.003934528198722209
1.0733284800616828E8 3.537177826316293E-4 0.003993035521411088 0.9996462822173684 -0.003993035521411088 0.9996462822173684 -0.003993035521411088 3.537177826316293E-4 0.003993035521411088
1.0895265134811176E8 3.564236314615534E-4 0.0040523973182730235 0.9996435763685384 -0.0040523973182730235 0.9996435763685384 -0.0040523973182730235 3.564236314615534E-4 0.0040523973182730235
1.1059689979623953E8 3.591901178374641E-4 0.004112625806500043 0.9996408098821625 -0.004112625806500043 0.9996408098821625 -0.004112625806500043 3.591901178374641E-4 0.004112625806500043
1.1226596226151802E8 3.6201823687288527E-4 0.004173733384815337 0.9996379817631272 -0.004173733384815337 0.9996379817631272 -0.004173733384815337 3.6201823687288527E-4 0.004173733384815337
1.1396021322229806E8 3.6490899170729603E-4 0.00423573263685826 0.9996350910082926 -0.00423573263685826 0.9996350910082926 -0.00423573263685826 3.6490899170729603E-4 0.00423573263685826
1.1568003280833441E8 3.6786339387380235E-4 0.0042986363346334214 0.9996321366061262 -0.004298636334633422 0.9996321366061262 -0.004298636334633422 3.6786339387380235E-4 0.0042986363346334214
1.1742580688607343E8 3.7088246372742804E-4 0.004362457442022087 0.9996291175362726 -0.004362457442022087 0.9996291175362726 -0.004362457442022087 3.7088246372742804E-4 0.004362457442022087
1.1919792714522783E8 3.739672309372899E-4 0.004427209118353735 0.9996260327690627 -0.004427209118353735 0.9996260327690627 -0.004427209118353735 3.739672309372899E-4 0.004427209118353735
1.2099679118665792E8 3.771187350458245E-4 0.004492904722035386 0.9996228812649542 -0.004492904722035386 0.9996228812649542 -0.004492904722035386 3.771187350458245E-4 0.004492904722035386
1.2282280261157903E8 3.80338026098127E-4 0.00455955781423605 0.9996196619739018 -0.00455955781423605 0.9996196619739018 -0.00455955781423605 3.80338026098127E-4 0.00455955781423605
1.2467637111211549E8 3.8362616534429823E-4 0.0046271821626233155 0.9996163738346557 -0.0046271821626233155 0.9996163738346557 -0.0046271821626233155 3.8362616534429823E-4 0.0046271821626233155
1.265579125632208E8 3.8698422601754224E-4 0.004695791745148903 0.9996130157739826 -0.004695791745148903 0.9996130157739826 -0.004695791745148903 3.8698422601754224E-4 0.004695791745148903
1.284678491159853E8 3.904132941905423E-4 0.00476540075387963 0.9996095867058093 -0.004765400753879629 0.9996095867058093 -0.004765400753879629 3.904132941905423E-4 0.00476540075387963
1.3040660929235186E8 3.939144697124318E-4 0.004836023598870125 0.9996060855302876 -0.004836023598870125 0.9996060855302876 -0.004836023598870125 3.939144697124318E-4 0.004836023598870125
1.3237462808126101E8 3.974888672284206E-4 0.004907674912073237 0.9996025111327715 -0.004907674912073238 0.9996025111327715 -0.004907674912073238 3.974888672284206E-4 0.004907674912073237
1.3437234703624701E8 4.011376172838647E-4 0.004980369551283985 0.9995988623827161 -0.004980369551283984 0.9995988623827161 -0.004980369551283984 4.011376172838647E-4 0.004980369551283985
1.364002143745067E8 4.048618675142562E-4 0.005054122604112536 0.9995951381324858 -0.005054122604112536 0.9995951381324858 -0.005054122604112536 4.048618675142562E-4 0.005054122604112536
1.3845868507746372E8 4.0866278392230675E-4 0.0051289493919817065 0.9995913372160777 -0.0051289493919817065 0.9995913372160777 -0.0051289493919817065 4.0866278392230675E-4 0.0051289493919817065
1.405482209928499E8 4.125415522429273E-4 0.0052048654741440594 0.999587458447757 -0.0052048654741440594 0.999587458447757 -0.0052048654741440594 4.125415522429273E-4 0.0052048654741440594
1.426692909383278E8 4.1649937939655223E-4 0.005281886651713773 0.9995835006206033 -0.005281886651713773 0.9995835006206033 -0.005281886651713773 4.1649937939655223E-4 0.005281886651713773
1.4482237080667645E8 4.2053749503086576E-4 0.005360028971708136 0.999579462504969 -0.005360028971708137 0.999579462504969 -0.005360028971708137 4.2053749503086576E-4 0.005360028971708136
1.4700794367256513E8 4.2465715315057436E-4 0.005439308731093547 0.9995753428468495 -0.005439308731093547 0.9995753428468495 -0.005439308731093547 4.2465715315057436E-4 0.005439308731093547
1.492264999009378E8 4.288596338344623E-4 0.005519742480830809 0.9995711403661655 -0.0055197424808308086 0.9995711403661655 -0.0055197424808308086 4.288596338344623E-4 0.005519742480830809
1.5147853725703382E8 4.3314624503851593E-4 0.005601347029914447 0.9995668537549617 -0.005601347029914447 0.9995668537549617 -0.005601347029914447 4.3314624503851593E-4 0.005601347029914447
1.5376456101806876E8 4.3751832448346995E-4 0.005684139449400835 0.9995624816755165 -0.005684139449400834 0.9995624816755165 -0.005684139449400834 4.3751832448346995E-4 0.005684139449400835
1.5608508408660066E8 4.419772416246737E-4 0.005768137076419907 0.9995580227583752 -0.005768137076419906 0.9995580227583752 -0.005768137076419906 4.419772416246737E-4 0.005768137076419907
1.5844062710560706E8 4.465243997017127E-4 0.005853357518165357 0.9995534756002983 -0.005853357518165357 0.9995534756002983 -0.005853357518165357 4.465243997017127E-4 0.005853357518165357
1.6083171857529896E8 4.5116123786477405E-4 0.005939818655858306 0.9995488387621352 -0.005939818655858306 0.9995488387621352 -0.005939818655858306 4.5116123786477405E-4 0.005939818655858306
1.632588949716973E8 4.5588923337427223E-4 0.0060275386486795595 0.9995441107666257 -0.0060275386486795595 0.9995441107666257 -0.0060275386486795595 4.5588923337427223E-4 0.0060275386486795595
1.6572270086699936E8 4.6070990386982253E-4 0.0061165359376658636 0.9995392900961303 -0.0061165359376658636 0.9995392900961303 -0.0061165359376658636 4.6070990386982253E-4 0.0061165359376658636
1.6822368905176118E8 4.6562480970418135E-4 0.006206829249565654 0.9995343751902956 -0.006206829249565654 0.9995343751902956 -0.006206829249565654 4.6562480970418135E-4 0.006206829249565654
1.7076242065892437E8 4.706355563373658E-4 0.006298437600650177 0.9995293644436626 -0.006298437600650177 0.9995293644436626 -0.006298437600650177 4.706355563373658E-4 0.006298437600650177
1.7333946528971428E8 4.757437967857314E-4 0.006391380300476102 0.9995242562032144 -0.006391380300476102 0.9995242562032144 -0.006391380300476102 4.757437967857314E-4 0.006391380300476102
1.7595540114143828E8 4.809512341204032E-4 0.006485676955596117 0.9995190487658795 -0.006485676955596115 0.9995190487658795 -0.006485676955596115 4.809512341204032E-4 0.006485676955596117
1.786108151372127E8 4.862596240090723E-4 0.0065813474732143665 0.9995137403759909 -0.0065813474732143665 0.9995137403759909 -0.0065813474732143665 4.862596240090723E-4 0.0065813474732143665
1.8130630305764765E8 4.916707772948211E-4 0.006678412064783991 0.9995083292227052 -0.006678412064783991 0.9995083292227052 -0.006678412064783991 4.916707772948211E-4 0.006678412064783991
1.840424696745189E8 4.97186562605316E-4 0.006776891249544431 0.9995028134373948 -0.006776891249544433 0.9995028134373948 -0.006776891249544433 4.97186562605316E-4 0.006776891249544431
1.8681992888645732E8 5.028089089854201E-4 0.006876805857996735 0.9994971910910146 -0.006876805857996734 0.9994971910910146 -0.006876805857996734 5.028089089854201E-4 0.006876805857996735
1.8963930385668582E8 5.085398085460033E-4 0.0069781770353154575 0.999491460191454 -0.0069781770353154575 0.999491460191454 -0.0069781770353154575 5.085398085460033E-4 0.0069781770353154575
1.92501227152835E8 5.143813191215098E-4 0.007081026244696345 0.9994856186808783 -0.007081026244696345 0.9994856186808783 -0.007081026244696345 5.143813191215098E-4 0.007081026244696345
1.9540634088886917E8 5.203355669286511E-4 0.007185375270639552 0.9994796644330713 -0.0071853752706395515 0.9994796644330713 -0.0071853752706395515 5.203355669286511E-4 0.007185375270639552
1.983552968691535E8 5.264047492184331E-4 0.007291246222168538 0.9994735952507817 -0.007291246222168538 0.9994735952507817 -0.007291246222168538 5.264047492184331E-4 0.007291246222168538
2.0134875673469606E8 5.325911369136129E-4 0.007398661535985612 0.9994674088630865 -0.007398661535985612 0.9994674088630865 -0.007398661535985612 5.325911369136129E-4 0.007398661535985612
2.0438739211159652E8 5.388970772236067E-4 0.007507643979565398 0.9994611029227765 -0.007507643979565398 0.9994611029227765 -0.007507643979565398 5.388970772236067E-4 0.007507643979565398
2.074718847617352E8 5.453249962288272E-4 0.007618216654188265 0.9994546750037712 -0.007618216654188265 0.9994546750037712 -0.007618216654188265 5.453249962288272E-4 0.007618216654188265
2.106029267357361E8 5.518774014264343E-4 0.007730402997916279 0.9994481225985735 -0.007730402997916277 0.9994481225985735 -0.007730402997916277 5.518774014264343E-4 0.007730402997916279
2.1378122052823865E8 5.585568842295305E-4 0.007844226788514829 0.9994414431157703 -0.007844226788514829 0.9994414431157703 -0.007844226788514829 5.585568842295305E-4 0.007844226788514829
2.1700747923551247E8 5.653661224118994E-4 0.007959712146323681 0.999434633877588 -0.007959712146323681 0.999434633877588 -0.007959712146323681 5.653661224118994E-4 0.007959712146323681
2.2028242671545094E8 5.723078824905192E-4 0.008076883537081785 0.9994276921175093 -0.008076883537081784 0.9994276921175093 -0.008076883537081784 5.723078824905192E-4 0.008076883537081785
2.23606797749979E8 5.79385022038231E-4 0.008195765774710716 0.9994206149779619 -0.008195765774710716 0.9994206149779619 -0.008195765774710716 5.79385022038231E-4 0.008195765774710716
2.2698133820991236E8 5.866004919191323E-4 0.008316384024062281 0.9994133995080808 -0.00831638402406228 0.9994133995080808 -0.00831638402406228 5.866004919191323E-4 0.008316384024062281
2.3040680522230446E8 5.939573384394981E-4 0.008438763803636203 0.9994060426615604 -0.008438763803636203 0.9994060426615604 -0.008438763803636203 5.939573384394981E-4 0.008438763803636203
2.338839673403185E8 6.01458705407288E-4 0.008562930988274601 0.9993985412945926 -0.008562930988274601 0.9993985412945926 -0.008562930988274601 6.01458705407288E-4 0.008562930988274601
