!Murata Part Number: LQP02TQ2N4B02
!These Parameters are Measured in Series Mode Connection
!       o--[Z]--o
!Port1              Port2
!       o-------o
!
!Freq. Start=50[MHz] Stop=20[GHz], 401[Steps]
# Hz S RI R 50
!Freq.(Hz) S11(Real) S11(Imag) S21(Real) S21(Imag) S12(Real) S12(Imag) S22(Real) S22(Imag)
5.0E7 0.002862558475682951 0.008230176076776542 0.997137441524317 -0.008230176076776542 0.997137441524317 -0.008230176076776542 0.002862558475682951 0.008230176076776542
5.0754570186123446E7 0.0028663974009654376 0.008354144752142441 0.9971336025990346 -0.008354144752142443 0.9971336025990346 -0.008354144752142443 0.0028663974009654376 0.008354144752142441
5.152052789556263E7 0.0028703514269046125 0.008479973644113766 0.9971296485730953 -0.008479973644113764 0.9971296485730953 -0.008479973644113764 0.0028703514269046125 0.008479973644113766
5.229804498202928E7 0.002874423954952633 0.008607690352914333 0.9971255760450474 -0.008607690352914333 0.9971255760450474 -0.008607690352914333 0.002874423954952633 0.008607690352914333
5.308729589274893E7 0.0028786184841414547 0.008737322874771122 0.9971213815158585 -0.008737322874771124 0.9971213815158585 -0.008737322874771124 0.0028786184841414547 0.008737322874771122
5.388845770760058E7 0.0028829386137103567 0.008868899607037817 0.9971170613862896 -0.008868899607037819 0.9971170613862896 -0.008868899607037819 0.0028829386137103567 0.008868899607037817
5.470171017884717E7 0.0028873880457943825 0.009002449353363116 0.9971126119542055 -0.009002449353363116 0.9971126119542055 -0.009002449353363116 0.0028873880457943825 0.009002449353363116
5.5527235771465644E7 0.0028919705881744725 0.00913800132890334 0.9971080294118254 -0.009138001328903338 0.9971080294118254 -0.009138001328903338 0.0028919705881744725 0.00913800132890334
5.6365219704085544E7 0.0028966901570901702 0.009275585165579076 0.9971033098429097 -0.009275585165579076 0.9971033098429097 -0.009275585165579076 0.0028966901570901702 0.009275585165579076
5.721584999054556E7 0.0029015507801156996 0.009415230917375403 0.9970984492198843 -0.009415230917375403 0.9970984492198843 -0.009415230917375403 0.0029015507801156996 0.009415230917375403
5.807931748207712E7 0.002906556599100172 0.009556969065685242 0.9970934434008999 -0.009556969065685242 0.9970934434008999 -0.009556969065685242 0.002906556599100172 0.009556969065685242
5.8955815910124585E7 0.002911711873172686 0.009700830524695477 0.9970882881268273 -0.009700830524695477 0.9970882881268273 -0.009700830524695477 0.002911711873172686 0.009700830524695477
5.984554192981184E7 0.0029170209818130534 0.009846846646815354 0.9970829790181871 -0.009846846646815356 0.9970829790181871 -0.009846846646815356 0.0029170209818130534 0.009846846646815354
6.074869516406457E7 0.002922488427988792 0.009995049228146613 0.9970775115720111 -0.009995049228146612 0.9970775115720111 -0.009995049228146612 0.002922488427988792 0.009995049228146613
6.166547824839868E7 0.0029281188413590956 0.010145470513995015 0.9970718811586409 -0.010145470513995015 0.9970718811586409 -0.010145470513995015 0.0029281188413590956 0.010145470513995015
6.2596096876384385E7 0.0029339169815463437 0.010298143204422643 0.9970660830184537 -0.010298143204422641 0.9970660830184537 -0.010298143204422641 0.0029339169815463437 0.010298143204422643
6.354075984579668E7 0.0029398877414757384 0.010453100459840546 0.9970601122585243 -0.010453100459840546 0.9970601122585243 -0.010453100459840546 0.0029398877414757384 0.010453100459840546
6.449967910546205E7 0.002946036150783587 0.010610375906641151 0.9970539638492165 -0.010610375906641151 0.9970539638492165 -0.010610375906641151 0.002946036150783587 0.010610375906641151
6.547306980281226E7 0.002952367379294718 0.010770003642870007 0.9970476326207055 -0.010770003642870007 0.9970476326207055 -0.010770003642870007 0.002952367379294718 0.010770003642870007
6.646115033215589E7 0.0029588867405694404 0.010932018243936293 0.9970411132594307 -0.010932018243936295 0.9970411132594307 -0.010932018243936295 0.0029588867405694404 0.010932018243936293
6.746414238367817E7 0.002965599695520423 0.011096454768361557 0.9970344003044797 -0.011096454768361559 0.9970344003044797 -0.011096454768361559 0.002965599695520423 0.011096454768361557
6.848227099318038E7 0.0029725118560998227 0.011263348763566267 0.9970274881439002 -0.011263348763566267 0.9970274881439002 -0.011263348763566267 0.0029725118560998227 0.011263348763566267
6.951576459256999E7 0.0029796289890569034 0.011432736271693585 0.9970203710109429 -0.011432736271693583 0.9970203710109429 -0.011432736271693583 0.0029796289890569034 0.011432736271693585
7.056485506111258E7 0.0029869570197663528 0.011604653835469977 0.9970130429802336 -0.011604653835469977 0.9970130429802336 -0.011604653835469977 0.0029869570197663528 0.011604653835469977
7.162977777745734E7 0.0029945020361274205 0.011779138504102104 0.9970054979638725 -0.011779138504102104 0.9970054979638725 -0.011779138504102104 0.0029945020361274205 0.011779138504102104
7.271077167244768E7 0.0030022702925339576 0.01195622783920969 0.996997729707466 -0.01195622783920969 0.996997729707466 -0.01195622783920969 0.0030022702925339576 0.01195622783920969
7.380807928272885E7 0.0030102682139153403 0.012135959920793851 0.9969897317860846 -0.012135959920793851 0.9969897317860846 -0.012135959920793851 0.0030102682139153403 0.012135959920793851
7.492194680516452E7 0.0030185023998482055 0.01231837335324059 0.996981497600152 -0.012318373353240592 0.996981497600152 -0.012318373353240592 0.0030185023998482055 0.01231837335324059
7.60526241520746E7 0.0030269796287388565 0.012503507271359168 0.9969730203712611 -0.012503507271359168 0.9969730203712611 -0.012503507271359168 0.0030269796287388565 0.012503507271359168
7.720036500730675E7 0.003035706862076125 0.012691401346455045 0.9969642931379238 -0.012691401346455045 0.9969642931379238 -0.012691401346455045 0.003035706862076125 0.012691401346455045
7.836542688315398E7 0.003044691248754352 0.012882095792437232 0.9969553087512455 -0.012882095792437228 0.9969553087512455 -0.012882095792437228 0.003044691248754352 0.012882095792437232
7.954807117813127E7 0.003053940129466172 0.013075631371959877 0.9969460598705336 -0.013075631371959877 0.9969460598705336 -0.013075631371959877 0.003053940129466172 0.013075631371959877
8.074856323562416E7 0.003063461041164588 0.013272049402598135 0.9969365389588353 -0.013272049402598135 0.9969365389588353 -0.013272049402598135 0.003063461041164588 0.013272049402598135
8.196717240342227E7 0.003073261721593836 0.013471391763058232 0.996926738278406 -0.013471391763058232 0.996926738278406 -0.013471391763058232 0.003073261721593836 0.013471391763058232
8.320417209415154E7 0.0030833501138884177 0.01367370089942201 0.9969166498861117 -0.01367370089942201 0.9969166498861117 -0.01367370089942201 0.0030833501138884177 0.01367370089942201
8.445983984661816E7 0.003093734371239617 0.013879019831426021 0.9969062656287603 -0.013879019831426021 0.9969062656287603 -0.013879019831426021 0.003093734371239617 0.013879019831426021
8.573445738807854E7 0.0031044228616287175 0.014087392158775757 0.9968955771383713 -0.014087392158775757 0.9968955771383713 -0.014087392158775757 0.0031044228616287175 0.014087392158775757
8.702831069744885E7 0.0031154241726260826 0.014298862067495236 0.9968845758273738 -0.014298862067495236 0.9968845758273738 -0.014298862067495236 0.0031154241726260826 0.014298862067495236
8.834169006946853E7 0.003126747116255213 0.014513474336312875 0.9968732528837448 -0.014513474336312879 0.9968732528837448 -0.014513474336312879 0.003126747116255213 0.014513474336312875
8.96748901798321E7 0.003138400733920742 0.014731274343084232 0.9968615992660794 -0.014731274343084232 0.9968615992660794 -0.014731274343084232 0.003138400733920742 0.014731274343084232
9.1028210151304E7 0.003150394301399347 0.014952308071252626 0.9968496056986007 -0.014952308071252626 0.9968496056986007 -0.014952308071252626 0.003150394301399347 0.014952308071252626
9.240195362083109E7 0.0031627373338924884 0.015176622116348897 0.9968372626661076 -0.015176622116348897 0.9968372626661076 -0.015176622116348897 0.0031627373338924884 0.015176622116348897
9.379642880766791E7 0.0031754395911397504 0.015404263692531442 0.9968245604088602 -0.015404263692531442 0.9968245604088602 -0.015404263692531442 0.0031754395911397504 0.015404263692531442
9.521194858253023E7 0.0031885110825916273 0.01563528063916824 0.9968114889174083 -0.01563528063916824 0.9968114889174083 -0.01563528063916824 0.0031885110825916273 0.01563528063916824
9.664883053779216E7 0.0032019620726404605 0.01586972142746262 0.9967980379273595 -0.01586972142746262 0.9967980379273595 -0.01586972142746262 0.0032019620726404605 0.01586972142746262
9.810739705874248E7 0.003215803085908266 0.016107635167124653 0.996784196914092 -0.01610763516712465 0.996784196914092 -0.01610763516712465 0.003215803085908266 0.016107635167124653
9.958797539591652E7 0.0032300449125901294 0.01634907161309064 0.9967699550874098 -0.01634907161309064 0.9967699550874098 -0.01634907161309064 0.0032300449125901294 0.01634907161309064
1.0109089773851961E8 0.0032446986138518806 0.016594081172293117 0.9967553013861481 -0.016594081172293114 0.9967553013861481 -0.016594081172293114 0.0032446986138518806 0.016594081172293117
1.0261650128895843E8 0.003259775527280695 0.01684271491048415 0.9967402244727191 -0.01684271491048415 0.9967402244727191 -0.01684271491048415 0.003259775527280695 0.01684271491048415
1.0416512833849736E8 0.0032752872723874034 0.017095024559115265 0.9967247127276128 -0.01709502455911527 0.9967247127276128 -0.01709502455911527 0.0032752872723874034 0.017095024559115265
1.0573712634405641E8 0.0032912457561591777 0.01735106252227715 0.9967087542438408 -0.017351062522277146 0.9967087542438408 -0.017351062522277146 0.0032912457561591777 0.01735106252227715
1.0733284800616828E8 0.003307663178661474 0.01761088188370326 0.9966923368213384 -0.017610881883703258 0.9966923368213384 -0.017610881883703258 0.003307663178661474 0.01761088188370326
1.0895265134811176E8 0.0033245520386880746 0.01787453641384121 0.9966754479613119 -0.01787453641384121 0.9966754479613119 -0.01787453641384121 0.0033245520386880746 0.01787453641384121
1.1059689979623953E8 0.0033419251394581884 0.018142080576996483 0.9966580748605418 -0.01814208057699648 0.9966580748605418 -0.01814208057699648 0.0033419251394581884 0.018142080576996483
1.1226596226151802E8 0.003359795594359768 0.018413569538553477 0.9966402044056403 -0.01841356953855348 0.9966402044056403 -0.01841356953855348 0.003359795594359768 0.018413569538553477
1.1396021322229806E8 0.003378176832738216 0.018689059172279022 0.9966218231672619 -0.01868905917227902 0.9966218231672619 -0.01868905917227902 0.003378176832738216 0.018689059172279022
1.1568003280833441E8 0.0033970826057299576 0.01896860606771398 0.9966029173942701 -0.018968606067713976 0.9966029173942701 -0.018968606067713976 0.0033970826057299576 0.01896860606771398
1.1742580688607343E8 0.003416526992140467 0.019252267537659316 0.9965834730078595 -0.019252267537659313 0.9965834730078595 -0.019252267537659313 0.003416526992140467 0.019252267537659316
1.1919792714522783E8 0.003436524404366625 0.019540101625762814 0.9965634755956334 -0.019540101625762814 0.9965634755956334 -0.019540101625762814 0.003436524404366625 0.019540101625762814
1.2099679118665792E8 0.0034570895943635085 0.019832167114213546 0.9965429104056365 -0.01983216711421355 0.9965429104056365 -0.01983216711421355 0.0034570895943635085 0.019832167114213546
1.2282280261157903E8 0.003478237659656076 0.02012852353155156 0.9965217623403438 -0.020128523531551562 0.9965217623403438 -0.020128523531551562 0.003478237659656076 0.02012852353155156
1.2467637111211549E8 0.003499984049396509 0.02042923116060053 0.9965000159506036 -0.02042923116060053 0.9965000159506036 -0.02042923116060053 0.003499984049396509 0.02042923116060053
1.265579125632208E8 0.003522344570468348 0.02073435104653168 0.9964776554295317 -0.020734351046531683 0.9964776554295317 -0.020734351046531683 0.003522344570468348 0.02073435104653168
1.284678491159853E8 0.0035453353936390503 0.021043945005067847 0.9964546646063609 -0.021043945005067847 0.9964546646063609 -0.021043945005067847 0.0035453353936390503 0.021043945005067847
1.3040660929235186E8 0.0035689730597629745 0.02135807563083678 0.9964310269402371 -0.02135807563083678 0.9964310269402371 -0.02135807563083678 0.0035689730597629745 0.02135807563083678
1.3237462808126101E8 0.003593274486037378 0.021676806305883367 0.9964067255139625 -0.021676806305883367 0.9964067255139625 -0.021676806305883367 0.003593274486037378 0.021676806305883367
1.3437234703624701E8 0.003618256972314569 0.022000201208351017 0.9963817430276853 -0.022000201208351017 0.9963817430276853 -0.022000201208351017 0.003618256972314569 0.022000201208351017
1.364002143745067E8 0.0036439382074738955 0.02232832532134247 0.9963560617925262 -0.02232832532134247 0.9963560617925262 -0.02232832532134247 0.0036439382074738955 0.02232832532134247
1.3845868507746372E8 0.003670336275858043 0.0226612444419714 0.9963296637241418 -0.0226612444419714 0.9963296637241418 -0.0226612444419714 0.003670336275858043 0.0226612444419714
1.405482209928499E8 0.0036974696637786884 0.02299902519061582 0.9963025303362213 -0.02299902519061582 0.9963025303362213 -0.02299902519061582 0.0036974696637786884 0.02299902519061582
1.426692909383278E8 0.003725357266097371 0.02334173502038512 0.9962746427339026 -0.02334173502038512 0.9962746427339026 -0.02334173502038512 0.003725357266097371 0.02334173502038512
1.4482237080667645E8 0.0037540183928883317 0.02368944222681306 0.9962459816071116 -0.02368944222681306 0.9962459816071116 -0.02368944222681306 0.0037540183928883317 0.02368944222681306
1.4700794367256513E8 0.0037834727761907913 0.024042215957788857 0.9962165272238092 -0.024042215957788857 0.9962165272238092 -0.024042215957788857 0.0037834727761907913 0.024042215957788857
1.492264999009378E8 0.0038137405768591736 0.024400126223739223 0.996186259423141 -0.02440012622373922 0.996186259423141 -0.02440012622373922 0.0038137405768591736 0.024400126223739223
1.5147853725703382E8 0.003844842391520723 0.024763243908074346 0.9961551576084793 -0.02476324390807435 0.9961551576084793 -0.02476324390807435 0.003844842391520723 0.024763243908074346
1.5376456101806876E8 0.00387679925965094 0.0251316407779109 0.9961232007403491 -0.0251316407779109 0.9961232007403491 -0.0251316407779109 0.00387679925965094 0.0251316407779109
1.5608508408660066E8 0.003909632670778416 0.025505389495085566 0.9960903673292217 -0.025505389495085566 0.9960903673292217 -0.025505389495085566 0.003909632670778416 0.025505389495085566
1.5844062710560706E8 0.003943364571831662 0.02588456362747223 0.9960566354281684 -0.02588456362747223 0.9960566354281684 -0.02588456362747223 0.003943364571831662 0.02588456362747223
1.6083171857529896E8 0.003978017374641798 0.026269237660616646 0.9960219826253582 -0.026269237660616646 0.9960219826253582 -0.026269237660616646 0.003978017374641798 0.026269237660616646
1.632588949716973E8 0.004013613963616083 0.02665948700970172 0.9959863860363839 -0.02665948700970172 0.9959863860363839 -0.02665948700970172 0.004013613963616083 0.02665948700970172
1.6572270086699936E8 0.004050177703598587 0.027055388031857065 0.9959498222964015 -0.027055388031857065 0.9959498222964015 -0.027055388031857065 0.004050177703598587 0.027055388031857065
1.6822368905176118E8 0.004087732447935504 0.027457018038825623 0.9959122675520646 -0.027457018038825626 0.9959122675520646 -0.027457018038825626 0.004087732447935504 0.027457018038825623
1.7076242065892437E8 0.00412630254676401 0.02786445531000074 0.9958736974532361 -0.02786445531000074 0.9958736974532361 -0.02786445531000074 0.00412630254676401 0.02786445531000074
1.7333946528971428E8 0.004165912855544792 0.02827777910584575 0.9958340871444553 -0.02827777910584575 0.9958340871444553 -0.02827777910584575 0.004165912855544792 0.02827777910584575
1.7595540114143828E8 0.004206588743859842 0.02869706968170879 0.9957934112561402 -0.028697069681708792 0.9957934112561402 -0.028697069681708792 0.004206588743859842 0.02869706968170879
1.786108151372127E8 0.004248356104498384 0.029122408302044073 0.9957516438955016 -0.029122408302044073 0.9957516438955016 -0.029122408302044073 0.004248356104498384 0.029122408302044073
1.8130630305764765E8 0.004291241362855195 0.029553877255050775 0.9957087586371448 -0.029553877255050775 0.9957087586371448 -0.029553877255050775 0.004291241362855195 0.029553877255050775
1.840424696745189E8 0.004335271486666967 0.029991559867739923 0.9956647285133332 -0.029991559867739923 0.9956647285133332 -0.029991559867739923 0.004335271486666967 0.029991559867739923
1.8681992888645732E8 0.004380473996113684 0.030435540521438622 0.9956195260038864 -0.03043554052143863 0.9956195260038864 -0.03043554052143863 0.004380473996113684 0.030435540521438622
1.8963930385668582E8 0.004426876974313373 0.030885904667740452 0.9955731230256865 -0.030885904667740452 0.9955731230256865 -0.030885904667740452 0.004426876974313373 0.030885904667740452
1.92501227152835E8 0.00447450907823978 0.031342738844909186 0.9955254909217602 -0.031342738844909186 0.9955254909217602 -0.031342738844909186 0.00447450907823978 0.031342738844909186
1.9540634088886917E8 0.00452339955009391 0.03180613069474271 0.995476600449906 -0.03180613069474272 0.995476600449906 -0.03180613069474272 0.00452339955009391 0.03180613069474271
1.983552968691535E8 0.0045735782291615595 0.03227616897990193 0.9954264217708385 -0.03227616897990193 0.9954264217708385 -0.03227616897990193 0.0045735782291615595 0.03227616897990193
2.0134875673469606E8 0.0046250755641900265 0.03275294360170888 0.9953749244358101 -0.032752943601708884 0.9953749244358101 -0.032752943601708884 0.0046250755641900265 0.03275294360170888
2.0438739211159652E8 0.004677922626318463 0.03323654561841626 0.9953220773736814 -0.033236545618416255 0.9953220773736814 -0.033236545618416255 0.004677922626318463 0.03323654561841626
2.074718847617352E8 0.00473215112259712 0.03372706726394934 0.9952678488774029 -0.03372706726394934 0.9952678488774029 -0.03372706726394934 0.00473215112259712 0.03372706726394934
2.106029267357361E8 0.004787793410131873 0.03422460196711967 0.9952122065898681 -0.03422460196711966 0.9952122065898681 -0.03422460196711966 0.004787793410131873 0.03422460196711967
2.1378122052823865E8 0.004844882510891084 0.03472924437130818 0.995155117489109 -0.03472924437130818 0.995155117489109 -0.03472924437130818 0.004844882510891084 0.03472924437130818
2.1700747923551247E8 0.004903452127212657 0.035241090354613584 0.9950965478727876 -0.035241090354613584 0.9950965478727876 -0.035241090354613584 0.004903452127212657 0.035241090354613584
2.2028242671545094E8 0.004963536658049711 0.03576023705046016 0.9950364633419504 -0.03576023705046016 0.9950364633419504 -0.03576023705046016 0.004963536658049711 0.03576023705046016
2.23606797749979E8 0.005025171215993769 0.03628678286865711 0.994974828784006 -0.03628678286865711 0.994974828784006 -0.03628678286865711 0.005025171215993769 0.03628678286865711
2.2698133820991236E8 0.005088391645114723 0.03682082751689988 0.9949116083548852 -0.03682082751689988 0.9949116083548852 -0.03682082751689988 0.005088391645114723 0.03682082751689988
2.3040680522230446E8 0.005153234539657057 0.03736247202270189 0.994846765460343 -0.03736247202270189 0.994846765460343 -0.03736247202270189 0.005153234539657057 0.03736247202270189
2.338839673403185E8 0.005219737263631794 0.037911818755742864 0.9947802627363683 -0.037911818755742864 0.9947802627363683 -0.037911818755742864 0.005219737263631794 0.037911818755742864
2.37413604715664E8 0.0052879379713437055 0.038468971450618825 0.9947120620286563 -0.038468971450618825 0.9947120620286563 -0.038468971450618825 0.0052879379713437055 0.038468971450618825
2.4099650927363476E8 0.005357875628892927 0.039034035229975755 0.9946421243711072 -0.039034035229975755 0.9946421243711072 -0.039034035229975755 0.005357875628892927 0.039034035229975755
