!Murata Part Number: LQP02TQ3N5B02
!These Parameters are Measured in Series Mode Connection
!       o--[Z]--o
!Port1              Port2
!       o-------o
!
!Freq. Start=50[MHz] Stop=20[GHz], 401[Steps]
# Hz S RI R 50
!Freq.(Hz) S11(Real) S11(Imag) S21(Real) S21(Imag) S12(Real) S12(Imag) S22(Real) S22(Imag)
5.0E7 0.004849625576084188 0.011958509455406455 0.9951503744239157 -0.011958509455406455 0.9951503744239157 -0.011958509455406455 0.004849625576084188 0.011958509455406455
5.0754570186123446E7 0.00485840349826564 0.01213780694722579 0.9951415965017343 -0.01213780694722579 0.9951415965017343 -0.01213780694722579 0.00485840349826564 0.01213780694722579
5.152052789556263E7 0.004867431163695395 0.01231976117562728 0.9951325688363047 -0.012319761175627282 0.9951325688363047 -0.012319761175627282 0.004867431163695395 0.01231976117562728
5.229804498202928E7 0.004876715223527131 0.012504410316811706 0.9951232847764728 -0.012504410316811708 0.9951232847764728 -0.012504410316811708 0.004876715223527131 0.012504410316811706
5.308729589274893E7 0.0048862624828688835 0.012691793057950445 0.9951137375171312 -0.012691793057950445 0.9951137375171312 -0.012691793057950445 0.0048862624828688835 0.012691793057950445
5.388845770760058E7 0.004896079903285338 0.012881948603353635 0.9951039200967146 -0.012881948603353635 0.9951039200967146 -0.012881948603353635 0.004896079903285338 0.012881948603353635
5.470171017884717E7 0.004906174605302397 0.013074916680742092 0.9950938253946976 -0.013074916680742092 0.9950938253946976 -0.013074916680742092 0.004906174605302397 0.013074916680742092
5.5527235771465644E7 0.004916553870913814 0.013270737547628707 0.9950834461290862 -0.01327073754762871 0.9950834461290862 -0.01327073754762871 0.004916553870913814 0.013270737547628707
5.6365219704085544E7 0.004927225146089625 0.013469451997815256 0.9950727748539103 -0.013469451997815256 0.9950727748539103 -0.013469451997815256 0.004927225146089625 0.013469451997815256
5.721584999054556E7 0.0049381960432865885 0.01367110136801097 0.9950618039567134 -0.013671101368010967 0.9950618039567134 -0.013671101368010967 0.0049381960432865885 0.01367110136801097
5.807931748207712E7 0.004949474343960886 0.013875727544579627 0.9950505256560392 -0.013875727544579627 0.9950505256560392 -0.013875727544579627 0.004949474343960886 0.013875727544579627
5.8955815910124585E7 0.004961068001083762 0.014083372970422062 0.9950389319989164 -0.014083372970422066 0.9950389319989164 -0.014083372970422066 0.004961068001083762 0.014083372970422062
5.984554192981184E7 0.004972985141661041 0.014294080652001651 0.9950270148583389 -0.01429408065200165 0.9950270148583389 -0.01429408065200165 0.004972985141661041 0.014294080652001651
6.074869516406457E7 0.004985234069257774 0.014507894166520341 0.9950147659307422 -0.014507894166520341 0.9950147659307422 -0.014507894166520341 0.004985234069257774 0.014507894166520341
6.166547824839868E7 0.004997823266529722 0.014724857669253485 0.9950021767334702 -0.014724857669253485 0.9950021767334702 -0.014724857669253485 0.004997823266529722 0.014724857669253485
6.2596096876384385E7 0.005010761397763779 0.014945015901051847 0.9949892386022362 -0.014945015901051847 0.9949892386022362 -0.014945015901051847 0.005010761397763779 0.014945015901051847
6.354075984579668E7 0.005024057311429782 0.01516841419601957 0.9949759426885701 -0.015168414196019567 0.9949759426885701 -0.015168414196019567 0.005024057311429782 0.01516841419601957
6.449967910546205E7 0.005037720042746891 0.015395098489377259 0.9949622799572533 -0.015395098489377259 0.9949622799572533 -0.015395098489377259 0.005037720042746891 0.015395098489377259
6.547306980281226E7 0.005051758816267962 0.01562511532551964 0.9949482411837323 -0.01562511532551964 0.9949482411837323 -0.01562511532551964 0.005051758816267962 0.01562511532551964
6.646115033215589E7 0.005066183048486181 0.015858511866277583 0.9949338169515137 -0.015858511866277583 0.9949338169515137 -0.015858511866277583 0.005066183048486181 0.015858511866277583
6.746414238367817E7 0.005081002350468648 0.016095335899394488 0.9949189976495313 -0.016095335899394488 0.9949189976495313 -0.016095335899394488 0.005081002350468648 0.016095335899394488
6.848227099318038E7 0.005096226530522326 0.016335635847227366 0.9949037734694778 -0.016335635847227366 0.9949037734694778 -0.016335635847227366 0.005096226530522326 0.016335635847227366
6.951576459256999E7 0.005111865596898562 0.01657946077568337 0.9948881344031013 -0.01657946077568337 0.9948881344031013 -0.01657946077568337 0.005111865596898562 0.01657946077568337
7.056485506111258E7 0.005127929760542938 0.01682686040340232 0.994872070239457 -0.01682686040340232 0.994872070239457 -0.01682686040340232 0.005127929760542938 0.01682686040340232
7.162977777745734E7 0.005144429437898194 0.017077885111196393 0.9948555705621018 -0.017077885111196393 0.9948555705621018 -0.017077885111196393 0.005144429437898194 0.017077885111196393
7.271077167244768E7 0.005161375253768672 0.017332585951758107 0.9948386247462313 -0.017332585951758107 0.9948386247462313 -0.017332585951758107 0.005161375253768672 0.017332585951758107
7.380807928272885E7 0.005178778044255641 0.017591014659647772 0.9948212219557443 -0.017591014659647772 0.9948212219557443 -0.017591014659647772 0.005178778044255641 0.017591014659647772
7.492194680516452E7 0.005196648859773816 0.017853223661571868 0.9948033511402262 -0.017853223661571868 0.9948033511402262 -0.017853223661571868 0.005196648859773816 0.017853223661571868
7.60526241520746E7 0.005214998968160204 0.01811926608696347 0.99478500103184 -0.01811926608696347 0.99478500103184 -0.01811926608696347 0.005214998968160204 0.01811926608696347
7.720036500730675E7 0.005233839857887637 0.018389195778876332 0.9947661601421125 -0.018389195778876332 0.9947661601421125 -0.018389195778876332 0.005233839857887637 0.018389195778876332
7.836542688315398E7 0.005253183241396089 0.018663067305203566 0.9947468167586039 -0.018663067305203566 0.9947468167586039 -0.018663067305203566 0.005253183241396089 0.018663067305203566
7.954807117813127E7 0.005273041058556172 0.018940935970232123 0.9947269589414438 -0.018940935970232123 0.9947269589414438 -0.018940935970232123 0.005273041058556172 0.018940935970232123
8.074856323562416E7 0.005293425480280138 0.019222857826543784 0.9947065745197199 -0.019222857826543784 0.9947065745197199 -0.019222857826543784 0.005293425480280138 0.019222857826543784
8.196717240342227E7 0.005314348912296907 0.01950888968727329 0.9946856510877031 -0.01950888968727329 0.9946856510877031 -0.01950888968727329 0.005314348912296907 0.01950888968727329
8.320417209415154E7 0.005335823999108754 0.01979908913873374 0.9946641760008913 -0.01979908913873374 0.9946641760008913 -0.01979908913873374 0.005335823999108754 0.01979908913873374
8.445983984661816E7 0.0053578636281483814 0.02009351455341882 0.9946421363718518 -0.02009351455341882 0.9946421363718518 -0.02009351455341882 0.0053578636281483814 0.02009351455341882
8.573445738807854E7 0.005380480934156317 0.020392225103391157 0.9946195190658437 -0.02039222510339116 0.9946195190658437 -0.02039222510339116 0.005380480934156317 0.020392225103391157
8.702831069744885E7 0.005403689303799776 0.020695280774065305 0.9945963106962001 -0.020695280774065305 0.9945963106962001 -0.020695280774065305 0.005403689303799776 0.020695280774065305
8.834169006946853E7 0.005427502380555121 0.021002742378392957 0.9945724976194449 -0.021002742378392954 0.9945724976194449 -0.021002742378392954 0.005427502380555121 0.021002742378392957
8.96748901798321E7 0.005451934069877385 0.021314671571457614 0.9945480659301226 -0.021314671571457614 0.9945480659301226 -0.021314671571457614 0.005451934069877385 0.021314671571457614
9.1028210151304E7 0.00547699854468137 0.021631130865484655 0.9945230014553186 -0.021631130865484655 0.9945230014553186 -0.021631130865484655 0.00547699854468137 0.021631130865484655
9.240195362083109E7 0.00550271025115989 0.021952183645271815 0.9944972897488402 -0.021952183645271815 0.9944972897488402 -0.021952183645271815 0.00550271025115989 0.021952183645271815
9.379642880766791E7 0.005529083914965895 0.022277894184044057 0.9944709160850342 -0.022277894184044057 0.9944709160850342 -0.022277894184044057 0.005529083914965895 0.022277894184044057
9.521194858253023E7 0.005556134547786209 0.022608327659735604 0.9944438654522139 -0.022608327659735604 0.9944438654522139 -0.022608327659735604 0.005556134547786209 0.022608327659735604
9.664883053779216E7 0.005583877454335505 0.02294355017170052 0.9944161225456645 -0.02294355017170052 0.9944161225456645 -0.02294355017170052 0.005583877454335505 0.02294355017170052
9.810739705874248E7 0.005612328239800232 0.023283628757851806 0.9943876717601998 -0.023283628757851806 0.9943876717601998 -0.023283628757851806 0.005612328239800232 0.023283628757851806
9.958797539591652E7 0.005641502817762887 0.023628631412227652 0.9943584971822372 -0.023628631412227655 0.9943584971822372 -0.023628631412227655 0.005641502817762887 0.023628631412227652
1.0109089773851961E8 0.005671417418637854 0.023978627102981636 0.9943285825813623 -0.023978627102981636 0.9943285825813623 -0.023978627102981636 0.005671417418637854 0.023978627102981636
1.0261650128895843E8 0.0057020885986508035 0.024333685790792293 0.9942979114013493 -0.024333685790792293 0.9942979114013493 -0.024333685790792293 0.0057020885986508035 0.024333685790792293
1.0416512833849736E8 0.005733533249394035 0.024693878447685363 0.9942664667506059 -0.02469387844768536 0.9942664667506059 -0.02469387844768536 0.005733533249394035 0.024693878447685363
1.0573712634405641E8 0.005765768607990792 0.02505927707626047 0.9942342313920092 -0.02505927707626047 0.9942342313920092 -0.02505927707626047 0.005765768607990792 0.02505927707626047
1.0733284800616828E8 0.005798812267901821 0.02542995472931206 0.9942011877320982 -0.025429954729312056 0.9942011877320982 -0.025429954729312056 0.005798812267901821 0.02542995472931206
1.0895265134811176E8 0.005832682190407794 0.025805985529832178 0.9941673178095921 -0.025805985529832178 0.9941673178095921 -0.025805985529832178 0.005832682190407794 0.025805985529832178
1.1059689979623953E8 0.005867396716801129 0.026187444691381102 0.9941326032831987 -0.026187444691381106 0.9941326032831987 -0.026187444691381106 0.005867396716801129 0.026187444691381102
1.1226596226151802E8 0.005902974581320941 0.02657440853880938 0.9940970254186791 -0.02657440853880938 0.9940970254186791 -0.02657440853880938 0.005902974581320941 0.02657440853880938
1.1396021322229806E8 0.0059394349248644415 0.026966954529313008 0.9940605650751355 -0.026966954529313008 0.9940605650751355 -0.026966954529313008 0.0059394349248644415 0.026966954529313008
1.1568003280833441E8 0.005976797309507934 0.02736516127380119 0.9940232026904922 -0.027365161273801196 0.9940232026904922 -0.027365161273801196 0.005976797309507934 0.02736516127380119
1.1742580688607343E8 0.006015081733869975 0.02776910855855426 0.99398491826613 -0.02776910855855426 0.99398491826613 -0.02776910855855426 0.006015081733869975 0.02776910855855426
1.1919792714522783E8 0.006054308649348631 0.028178877367146943 0.9939456913506514 -0.02817887736714694 0.9939456913506514 -0.02817887736714694 0.006054308649348631 0.028178877367146943
1.2099679118665792E8 0.006094498977263999 0.02859454990261032 0.993905501022736 -0.02859454990261032 0.993905501022736 -0.02859454990261032 0.006094498977263999 0.02859454990261032
1.2282280261157903E8 0.006135674126936123 0.029016209609803795 0.9938643258730641 -0.029016209609803795 0.9938643258730641 -0.029016209609803795 0.006135674126936123 0.029016209609803795
1.2467637111211549E8 0.006177856014727326 0.029443941197966065 0.9938221439852726 -0.02944394119796607 0.9938221439852726 -0.02944394119796607 0.006177856014727326 0.029443941197966065
1.265579125632208E8 0.006221067084076803 0.02987783066341288 0.9937789329159231 -0.02987783066341288 0.9937789329159231 -0.02987783066341288 0.006221067084076803 0.02987783066341288
1.284678491159853E8 0.006265330326553612 0.030317965312346578 0.9937346696734465 -0.030317965312346578 0.9937346696734465 -0.030317965312346578 0.006265330326553612 0.030317965312346578
1.3040660929235186E8 0.00631066930395299 0.0307644337837417 0.9936893306960473 -0.0307644337837417 0.9936893306960473 -0.0307644337837417 0.00631066930395299 0.0307644337837417
1.3237462808126101E8 0.006357108171458893 0.031217326072268625 0.993642891828541 -0.031217326072268625 0.993642891828541 -0.031217326072268625 0.006357108171458893 0.031217326072268625
1.3437234703624701E8 0.0064046717018938866 0.03167673355121588 0.9935953282981062 -0.03167673355121588 0.9935953282981062 -0.03167673355121588 0.0064046717018938866 0.03167673355121588
1.364002143745067E8 0.006453385311075697 0.032142748995370576 0.9935466146889241 -0.032142748995370576 0.9935466146889241 -0.032142748995370576 0.006453385311075697 0.032142748995370576
1.3845868507746372E8 0.006503275084297442 0.032615466603815306 0.9934967249157027 -0.032615466603815306 0.9934967249157027 -0.032615466603815306 0.006503275084297442 0.032615466603815306
1.405482209928499E8 0.006554367803946527 0.03309498202259825 0.9934456321960532 -0.03309498202259825 0.9934456321960532 -0.03309498202259825 0.006554367803946527 0.03309498202259825
1.426692909383278E8 0.0066066909782748606 0.03358139236723319 0.9933933090217251 -0.03358139236723319 0.9933933090217251 -0.03358139236723319 0.0066066909782748606 0.03358139236723319
1.4482237080667645E8 0.006660272871330887 0.03407479624498477 0.993339727128669 -0.03407479624498477 0.993339727128669 -0.03407479624498477 0.006660272871330887 0.03407479624498477
1.4700794367256513E8 0.006715142534061349 0.03457529377689444 0.9932848574659388 -0.03457529377689444 0.9932848574659388 -0.03457529377689444 0.006715142534061349 0.03457529377689444
1.492264999009378E8 0.006771329836588508 0.03508298661950156 0.9932286701634115 -0.03508298661950156 0.9932286701634115 -0.03508298661950156 0.006771329836588508 0.03508298661950156
1.5147853725703382E8 0.006828865501666097 0.03559797798621488 0.9931711344983339 -0.03559797798621488 0.9931711344983339 -0.03559797798621488 0.006828865501666097 0.03559797798621488
1.5376456101806876E8 0.006887781139314883 0.03612037266828906 0.993112218860685 -0.03612037266828906 0.993112218860685 -0.03612037266828906 0.006887781139314883 0.03612037266828906
1.5608508408660066E8 0.006948109282636349 0.03665027705536128 0.9930518907173636 -0.03665027705536128 0.9930518907173636 -0.03665027705536128 0.006948109282636349 0.03665027705536128
1.5844062710560706E8 0.007009883424800836 0.03718779915550419 0.9929901165751991 -0.03718779915550419 0.9929901165751991 -0.03718779915550419 0.007009883424800836 0.03718779915550419
1.6083171857529896E8 0.007073138057204038 0.037733048614750984 0.992926861942796 -0.037733048614750984 0.992926861942796 -0.037733048614750984 0.007073138057204038 0.037733048614750984
1.632588949716973E8 0.0071379087087838616 0.03828613673605048 0.992862091291216 -0.038286136736050476 0.992862091291216 -0.038286136736050476 0.0071379087087838616 0.03828613673605048
1.6572270086699936E8 0.0072042319864873815 0.03884717649761025 0.9927957680135125 -0.038847176497610256 0.9927957680135125 -0.038847176497610256 0.0072042319864873815 0.03884717649761025
1.6822368905176118E8 0.00727214561687582 0.039416282570587415 0.992727854383124 -0.039416282570587415 0.992727854383124 -0.039416282570587415 0.00727214561687582 0.039416282570587415
1.7076242065892437E8 0.007341688488853771 0.03999357133608841 0.9926583115111463 -0.039993571336088406 0.9926583115111463 -0.039993571336088406 0.007341688488853771 0.03999357133608841
1.7333946528971428E8 0.0074129006975070695 0.040579160901439766 0.9925870993024929 -0.040579160901439766 0.9925870993024929 -0.040579160901439766 0.0074129006975070695 0.040579160901439766
1.7595540114143828E8 0.007485823589032428 0.04117317111569456 0.9925141764109675 -0.04117317111569456 0.9925141764109675 -0.04117317111569456 0.007485823589032428 0.04117317111569456
1.786108151372127E8 0.0075604998067405485 0.04177572358434007 0.9924395001932594 -0.04177572358434007 0.9924395001932594 -0.04177572358434007 0.0075604998067405485 0.04177572358434007
1.8130630305764765E8 0.007636973338113384 0.04238694168317467 0.9923630266618867 -0.042386941683174674 0.9923630266618867 -0.042386941683174674 0.007636973338113384 0.04238694168317467
1.840424696745189E8 0.00771528956289524 0.04300695057132351 0.9922847104371048 -0.04300695057132351 0.9922847104371048 -0.04300695057132351 0.00771528956289524 0.04300695057132351
1.8681992888645732E8 0.007795495302196766 0.04363587720336461 0.9922045046978032 -0.04363587720336461 0.9922045046978032 -0.04363587720336461 0.007795495302196766 0.04363587720336461
1.8963930385668582E8 0.007877638868590307 0.04427385034053933 0.9921223611314097 -0.044273850340539336 0.9921223611314097 -0.044273850340539336 0.007877638868590307 0.04427385034053933
1.92501227152835E8 0.007961770117174733 0.04492100056102226 0.9920382298828253 -0.04492100056102226 0.9920382298828253 -0.04492100056102226 0.007961770117174733 0.04492100056102226
1.9540634088886917E8 0.008047940497587943 0.04557746026922934 0.9919520595024122 -0.04557746026922934 0.9919520595024122 -0.04557746026922934 0.008047940497587943 0.04557746026922934
1.983552968691535E8 0.008136203106944887 0.04624336370414236 0.991863796893055 -0.04624336370414236 0.991863796893055 -0.04624336370414236 0.008136203106944887 0.04624336370414236
2.0134875673469606E8 0.00822661274367978 0.0469188469466331 0.99177338725632 -0.0469188469466331 0.99177338725632 -0.0469188469466331 0.00822661274367978 0.0469188469466331
2.0438739211159652E8 0.008319225962271153 0.0476040479257696 0.9916807740377288 -0.0476040479257696 0.9916807740377288 -0.0476040479257696 0.008319225962271153 0.0476040479257696
2.074718847617352E8 0.008414101128829144 0.04829910642409009 0.9915858988711708 -0.04829910642409009 0.9915858988711708 -0.04829910642409009 0.008414101128829144 0.04829910642409009
2.106029267357361E8 0.008511298477525447 0.04900416408183223 0.9914887015224746 -0.049004164081832224 0.9914887015224746 -0.049004164081832224 0.008511298477525447 0.04900416408183223
2.1378122052823865E8 0.00861088016784689 0.04971936440010571 0.9913891198321529 -0.049719364400105714 0.9913891198321529 -0.049719364400105714 0.00861088016784689 0.04971936440010571
2.1700747923551247E8 0.00871291034265498 0.05044485274299904 0.9912870896573449 -0.05044485274299904 0.9912870896573449 -0.05044485274299904 0.00871291034265498 0.05044485274299904
2.2028242671545094E8 0.008817455187034806 0.05118077633861184 0.9911825448129653 -0.05118077633861182 0.9911825448129653 -0.05118077633861182 0.008817455187034806 0.05118077633861184
2.23606797749979E8 0.008924582987918117 0.05192728427900562 0.9910754170120819 -0.05192728427900562 0.9910754170120819 -0.05192728427900562 0.008924582987918117 0.05192728427900562
2.2698133820991236E8 0.009034364194466744 0.05268452751906784 0.9909656358055333 -0.05268452751906784 0.9909656358055333 -0.05268452751906784 0.009034364194466744 0.05268452751906784
2.3040680522230446E8 0.009146871479203943 0.05345265887428304 0.9908531285207959 -0.05345265887428304 0.9908531285207959 -0.05345265887428304 0.009146871479203943 0.05345265887428304
2.338839673403185E8 0.009262179799883086 0.0542318330174085 0.9907378202001168 -0.05423183301740849 0.9907378202001168 -0.05423183301740849 0.009262179799883086 0.0542318330174085
2.37413604715664E8 0.009380366462084413 0.05502220647405003 0.9906196335379156 -0.05502220647405003 0.9906196335379156 -0.05502220647405003 0.009380366462084413 0.05502220647405003
2.4099650927363476E8 0.009501511182532486 0.05582393761713591 0.9904984888174676 -0.05582393761713591 0.9904984888174676 -0.05582393761713591 0.009501511182532486 0.05582393761713591
2.446334848907889E8 0.00962569615312856 0.05663718666028641 0.9903743038468715 -0.05663718666028641 0.9903743038468715 -0.05663718666028641 0.00962569615312856 0.05663718666028641
