!Murata Part Number: LQP02TQ8N2H02
!These Parameters are Measured in Series Mode Connection
!       o--[Z]--o
!Port1              Port2
!       o-------o
!
!Freq. Start=50[MHz] Stop=20[GHz], 401[Steps]
# Hz S RI R 50
!Freq.(Hz) S11(Real) S11(Imag) S21(Real) S21(Imag) S12(Real) S12(Imag) S22(Real) S22(Imag)
5.0E7 0.009104084452794889 0.027642405599351164 0.9908959155472049 -0.027642405599351164 0.9908959155472049 -0.027642405599351164 0.009104084452794889 0.027642405599351164
5.0754570186123446E7 0.009141869691128514 0.028049473987356563 0.9908581303088715 -0.028049473987356566 0.9908581303088715 -0.028049473987356566 0.009141869691128514 0.028049473987356563
5.152052789556263E7 0.009180542094366749 0.028462441001447104 0.9908194579056332 -0.0284624410014471 0.9908194579056332 -0.0284624410014471 0.009180542094366749 0.028462441001447104
5.229804498202928E7 0.009220122431091412 0.028881392459007362 0.9907798775689084 -0.028881392459007362 0.9907798775689084 -0.028881392459007362 0.009220122431091412 0.028881392459007362
5.308729589274893E7 0.009260632092331272 0.029306415476333225 0.9907393679076688 -0.029306415476333225 0.9907393679076688 -0.029306415476333225 0.009260632092331272 0.029306415476333225
5.388845770760058E7 0.009302093115023098 0.029737598483889172 0.9906979068849769 -0.02973759848388918 0.9906979068849769 -0.02973759848388918 0.009302093115023098 0.029737598483889172
5.470171017884717E7 0.0093445282060184 0.03017503124129338 0.9906554717939816 -0.03017503124129338 0.9906554717939816 -0.03017503124129338 0.0093445282060184 0.03017503124129338
5.5527235771465644E7 0.00938796076662239 0.030618804852022313 0.9906120392333777 -0.030618804852022313 0.9906120392333777 -0.030618804852022313 0.00938796076662239 0.030618804852022313
5.6365219704085544E7 0.009432414917651236 0.03106901177782858 0.9905675850823488 -0.03106901177782858 0.9905675850823488 -0.03106901177782858 0.009432414917651236 0.03106901177782858
5.721584999054556E7 0.009477915524994019 0.031525745852868124 0.9905220844750059 -0.031525745852868124 0.9905220844750059 -0.031525745852868124 0.009477915524994019 0.031525745852868124
5.807931748207712E7 0.009524488225665718 0.0319891022975344 0.9904755117743345 -0.0319891022975344 0.9904755117743345 -0.0319891022975344 0.009524488225665718 0.0319891022975344
5.8955815910124585E7 0.009572159454338203 0.0324591777319998 0.9904278405456619 -0.0324591777319998 0.9904278405456619 -0.0324591777319998 0.009572159454338203 0.0324591777319998
5.984554192981184E7 0.009620956470336775 0.032936070189466565 0.9903790435296633 -0.03293607018946656 0.9903790435296633 -0.03293607018946656 0.009620956470336775 0.032936070189466565
6.074869516406457E7 0.009670907385090745 0.0334198791291311 0.9903290926149093 -0.0334198791291311 0.9903290926149093 -0.0334198791291311 0.009670907385090745 0.0334198791291311
6.166547824839868E7 0.009722041190027612 0.033910705448868456 0.9902779588099723 -0.03391070544886845 0.9902779588099723 -0.03391070544886845 0.009722041190027612 0.033910705448868456
6.2596096876384385E7 0.009774387784901795 0.03440865149764478 0.9902256122150981 -0.03440865149764478 0.9902256122150981 -0.03440865149764478 0.009774387784901795 0.03440865149764478
6.354075984579668E7 0.009827978006550466 0.03491382108766839 0.9901720219934496 -0.03491382108766839 0.9901720219934496 -0.03491382108766839 0.009827978006550466 0.03491382108766839
6.449967910546205E7 0.00988284365807075 0.035426319506291104 0.9901171563419293 -0.035426319506291104 0.9901171563419293 -0.035426319506291104 0.00988284365807075 0.035426319506291104
6.547306980281226E7 0.009939017538414583 0.03594625352767342 0.9900609824615855 -0.03594625352767342 0.9900609824615855 -0.03594625352767342 0.009939017538414583 0.03594625352767342
6.646115033215589E7 0.009996533472400036 0.03647373142422933 0.9900034665276001 -0.03647373142422933 0.9900034665276001 -0.03647373142422933 0.009996533472400036 0.03647373142422933
6.746414238367817E7 0.010055426341139541 0.037008862977866236 0.9899445736588605 -0.03700886297786623 0.9899445736588605 -0.03700886297786623 0.010055426341139541 0.037008862977866236
6.848227099318038E7 0.01011573211288912 0.03755175949103861 0.9898842678871108 -0.03755175949103861 0.9898842678871108 -0.03755175949103861 0.01011573211288912 0.03755175949103861
6.951576459256999E7 0.01017748787432456 0.03810253379763368 0.9898225121256754 -0.03810253379763368 0.9898225121256754 -0.03810253379763368 0.01017748787432456 0.03810253379763368
7.056485506111258E7 0.010240731862253862 0.038661300273708406 0.9897592681377462 -0.038661300273708406 0.9897592681377462 -0.038661300273708406 0.010240731862253862 0.038661300273708406
7.162977777745734E7 0.010305503495778216 0.03922817484809785 0.9896944965042218 -0.03922817484809785 0.9896944965042218 -0.03922817484809785 0.010305503495778216 0.03922817484809785
7.271077167244768E7 0.010371843408917027 0.03980327501291539 0.9896281565910828 -0.03980327501291539 0.9896281565910828 -0.03980327501291539 0.010371843408917027 0.03980327501291539
7.380807928272885E7 0.01043979348371555 0.04038671983396457 0.9895602065162845 -0.04038671983396458 0.9895602065162845 -0.04038671983396458 0.01043979348371555 0.04038671983396457
7.492194680516452E7 0.0105093968838573 0.04097862996108282 0.9894906031161425 -0.04097862996108282 0.9894906031161425 -0.04097862996108282 0.0105093968838573 0.04097862996108282
7.60526241520746E7 0.010580698088806774 0.04157912763843681 0.9894193019111931 -0.041579127638436804 0.9894193019111931 -0.041579127638436804 0.010580698088806774 0.04157912763843681
7.720036500730675E7 0.01065374292851127 0.04218833671478747 0.9893462570714886 -0.04218833671478747 0.9893462570714886 -0.04218833671478747 0.01065374292851127 0.04218833671478747
7.836542688315398E7 0.010728578618694392 0.0428063826537431 0.9892714213813054 -0.0428063826537431 0.9892714213813054 -0.0428063826537431 0.010728578618694392 0.0428063826537431
7.954807117813127E7 0.010805253796777046 0.043433392544016174 0.9891947462032231 -0.043433392544016174 0.9891947462032231 -0.043433392544016174 0.010805253796777046 0.043433392544016174
8.074856323562416E7 0.010883818558465269 0.044069495109698646 0.9891161814415346 -0.04406949510969864 0.9891161814415346 -0.04406949510969864 0.010883818558465269 0.044069495109698646
8.196717240342227E7 0.010964324495047768 0.04471482072056861 0.9890356755049522 -0.04471482072056861 0.9890356755049522 -0.04471482072056861 0.010964324495047768 0.04471482072056861
8.320417209415154E7 0.011046824731449103 0.04536950140243826 0.9889531752685509 -0.045369501402438256 0.9889531752685509 -0.045369501402438256 0.011046824731449103 0.04536950140243826
8.445983984661816E7 0.011131373965088 0.046033670847551146 0.988868626034912 -0.046033670847551146 0.988868626034912 -0.046033670847551146 0.011131373965088 0.046033670847551146
8.573445738807854E7 0.011218028505593326 0.04670746442503417 0.9887819714944065 -0.04670746442503417 0.9887819714944065 -0.04670746442503417 0.011218028505593326 0.04670746442503417
8.702831069744885E7 0.011306846315433052 0.04739101919140542 0.9886931536845668 -0.04739101919140542 0.9886931536845668 -0.04739101919140542 0.011306846315433052 0.04739101919140542
8.834169006946853E7 0.011397887051514838 0.04808447390113695 0.9886021129484852 -0.04808447390113695 0.9886021129484852 -0.04808447390113695 0.011397887051514838 0.04808447390113695
8.96748901798321E7 0.0114912121078191 0.048787969017267306 0.9885087878921809 -0.048787969017267306 0.9885087878921809 -0.048787969017267306 0.0114912121078191 0.048787969017267306
9.1028210151304E7 0.011586884659128318 0.04950164672205481 0.9884131153408716 -0.0495016467220548 0.9884131153408716 -0.0495016467220548 0.011586884659128318 0.04950164672205481
9.240195362083109E7 0.01168496970591826 0.05022565092765809 0.9883150302940817 -0.05022565092765811 0.9883150302940817 -0.05022565092765811 0.01168496970591826 0.05022565092765809
9.379642880766791E7 0.01178553412047927 0.05096012728682714 0.9882144658795208 -0.05096012728682714 0.9882144658795208 -0.05096012728682714 0.01178553412047927 0.05096012728682714
9.521194858253023E7 0.011888646694337155 0.05170522320358176 0.9881113533056628 -0.05170522320358174 0.9881113533056628 -0.05170522320358174 0.011888646694337155 0.05170522320358176
9.664883053779216E7 0.011994378187045187 0.05246108784385164 0.9880056218129547 -0.05246108784385164 0.9880056218129547 -0.05246108784385164 0.011994378187045187 0.05246108784385164
9.810739705874248E7 0.012102801376419666 0.0532278721460454 0.9878971986235803 -0.0532278721460454 0.9878971986235803 -0.0532278721460454 0.012102801376419666 0.0532278721460454
9.958797539591652E7 0.012213991110292687 0.05400572883151188 0.9877860088897072 -0.05400572883151188 0.9877860088897072 -0.05400572883151188 0.012213991110292687 0.05400572883151188
1.0109089773851961E8 0.012328024359856407 0.0547948124148516 0.9876719756401436 -0.0547948124148516 0.9876719756401436 -0.0547948124148516 0.012328024359856407 0.0547948124148516
1.0261650128895843E8 0.012444980274673344 0.055595279214030284 0.9875550197253267 -0.055595279214030284 0.9875550197253267 -0.055595279214030284 0.012444980274673344 0.055595279214030284
1.0416512833849736E8 0.012564940239427527 0.056407287360241684 0.9874350597605726 -0.056407287360241684 0.9874350597605726 -0.056407287360241684 0.012564940239427527 0.056407287360241684
1.0573712634405641E8 0.012687987932490735 0.05723099680746049 0.9873120120675091 -0.05723099680746049 0.9873120120675091 -0.05723099680746049 0.012687987932490735 0.05723099680746049
1.0733284800616828E8 0.012814209386377654 0.058066569341621 0.9871857906136224 -0.058066569341621 0.9871857906136224 -0.058066569341621 0.012814209386377654 0.058066569341621
1.0895265134811176E8 0.0129436930501625 0.05891416858935086 0.9870563069498374 -0.05891416858935086 0.9870563069498374 -0.05891416858935086 0.0129436930501625 0.05891416858935086
1.1059689979623953E8 0.013076529853928744 0.059773960026184875 0.9869234701460714 -0.059773960026184875 0.9869234701460714 -0.059773960026184875 0.013076529853928744 0.059773960026184875
1.1226596226151802E8 0.013212813275321297 0.06064611098417556 0.9867871867246787 -0.06064611098417556 0.9867871867246787 -0.06064611098417556 0.013212813275321297 0.06064611098417556
1.1396021322229806E8 0.013352639408268838 0.061530790658814526 0.9866473605917311 -0.061530790658814526 0.9866473605917311 -0.061530790658814526 0.013352639408268838 0.061530790658814526
1.1568003280833441E8 0.013496107033941331 0.0624281701151702 0.9865038929660586 -0.0624281701151702 0.9865038929660586 -0.0624281701151702 0.013496107033941331 0.0624281701151702
1.1742580688607343E8 0.013643317694004984 0.06333842229314407 0.986356682305995 -0.06333842229314407 0.986356682305995 -0.06333842229314407 0.013643317694004984 0.06333842229314407
1.1919792714522783E8 0.013794375766233803 0.06426172201174067 0.9862056242337662 -0.06426172201174066 0.9862056242337662 -0.06426172201174066 0.013794375766233803 0.06426172201174067
1.2099679118665792E8 0.013949388542533202 0.06519824597224182 0.9860506114574668 -0.06519824597224183 0.9860506114574668 -0.06519824597224183 0.013949388542533202 0.06519824597224182
1.2282280261157903E8 0.014108466309427381 0.06614817276017053 0.9858915336905728 -0.06614817276017053 0.9858915336905728 -0.06614817276017053 0.014108466309427381 0.06614817276017053
1.2467637111211549E8 0.014271722431058013 0.06711168284592427 0.985728277568942 -0.06711168284592427 0.985728277568942 -0.06711168284592427 0.014271722431058013 0.06711168284592427
1.265579125632208E8 0.01443927343473706 0.06808895858395361 0.9855607265652628 -0.0680889585839536 0.9855607265652628 -0.0680889585839536 0.01443927343473706 0.06808895858395361
1.284678491159853E8 0.01461123909909187 0.06908018421035617 0.9853887609009082 -0.06908018421035617 0.9853887609009082 -0.06908018421035617 0.01461123909909187 0.06908018421035617
1.3040660929235186E8 0.014787742544835631 0.07008554583875327 0.9852122574551644 -0.07008554583875327 0.9852122574551644 -0.07008554583875327 0.014787742544835631 0.07008554583875327
1.3237462808126101E8 0.014968910328190484 0.07110523145431072 0.9850310896718095 -0.07110523145431072 0.9850310896718095 -0.07110523145431072 0.014968910328190484 0.07110523145431072
1.3437234703624701E8 0.0151548725369856 0.07213943090576298 0.9848451274630146 -0.07213943090576298 0.9848451274630146 -0.07213943090576298 0.0151548725369856 0.07213943090576298
1.364002143745067E8 0.015345762889445816 0.07318833589529505 0.9846542371105542 -0.07318833589529507 0.9846542371105542 -0.07318833589529507 0.015345762889445816 0.07318833589529505
1.3845868507746372E8 0.015541718835681244 0.07425213996613522 0.9844582811643189 -0.07425213996613522 0.9844582811643189 -0.07425213996613522 0.015541718835681244 0.07425213996613522
1.405482209928499E8 0.015742881661881113 0.07533103848770582 0.9842571183381188 -0.07533103848770582 0.9842571183381188 -0.07533103848770582 0.015742881661881113 0.07533103848770582
1.426692909383278E8 0.01594939659720959 0.07642522863818103 0.9840506034027906 -0.07642522863818105 0.9840506034027906 -0.07642522863818105 0.01594939659720959 0.07642522863818103
1.4482237080667645E8 0.016161412923393816 0.07753490938429353 0.9838385870766062 -0.07753490938429353 0.9838385870766062 -0.07753490938429353 0.016161412923393816 0.07753490938429353
1.4700794367256513E8 0.016379084086988772 0.07866028145823518 0.9836209159130112 -0.07866028145823518 0.9836209159130112 -0.07866028145823518 0.016379084086988772 0.07866028145823518
1.492264999009378E8 0.016602567814295966 0.07980154733149071 0.983397432185704 -0.0798015473314907 0.983397432185704 -0.0798015473314907 0.016602567814295966 0.07980154733149071
1.5147853725703382E8 0.01683202622890691 0.08095891118544622 0.983167973771093 -0.08095891118544622 0.983167973771093 -0.08095891118544622 0.01683202622890691 0.08095891118544622
1.5376456101806876E8 0.017067625971835174 0.08213257887861124 0.9829323740281649 -0.08213257887861125 0.9829323740281649 -0.08213257887861125 0.017067625971835174 0.08213257887861124
1.5608508408660066E8 0.01730953832419409 0.08332275791029287 0.982690461675806 -0.08332275791029287 0.982690461675806 -0.08332275791029287 0.01730953832419409 0.08332275791029287
1.5844062710560706E8 0.017557939332370955 0.08452965738056221 0.9824420606676291 -0.08452965738056221 0.9824420606676291 -0.08452965738056221 0.017557939332370955 0.08452965738056221
1.6083171857529896E8 0.017813009935641114 0.08575348794635115 0.9821869900643588 -0.08575348794635115 0.9821869900643588 -0.08575348794635115 0.017813009935641114 0.08575348794635115
1.632588949716973E8 0.018074936096159695 0.0869944617735199 0.9819250639038404 -0.08699446177351991 0.9819250639038404 -0.08699446177351991 0.018074936096159695 0.0869944617735199
1.6572270086699936E8 0.018343908931261664 0.08825279248473619 0.9816560910687384 -0.08825279248473619 0.9816560910687384 -0.08825279248473619 0.018343908931261664 0.08825279248473619
1.6822368905176118E8 0.018620124847994926 0.08952869510300718 0.981379875152005 -0.08952869510300718 0.981379875152005 -0.08952869510300718 0.018620124847994926 0.08952869510300718
1.7076242065892437E8 0.018903785679805024 0.09082238599070838 0.981096214320195 -0.09082238599070838 0.981096214320195 -0.09082238599070838 0.018903785679805024 0.09082238599070838
1.7333946528971428E8 0.01919509882528386 0.09213408278395338 0.9808049011747161 -0.09213408278395338 0.9808049011747161 -0.09213408278395338 0.01919509882528386 0.09213408278395338
1.7595540114143828E8 0.019494277388889456 0.09346400432215196 0.9805057226111106 -0.09346400432215196 0.9805057226111106 -0.09346400432215196 0.019494277388889456 0.09346400432215196
1.786108151372127E8 0.019801540323537665 0.09481237057260465 0.9801984596764622 -0.09481237057260465 0.9801984596764622 -0.09481237057260465 0.019801540323537665 0.09481237057260465
1.8130630305764765E8 0.020117112574961786 0.09617940254998486 0.9798828874250382 -0.09617940254998486 0.9798828874250382 -0.09617940254998486 0.020117112574961786 0.09617940254998486
1.840424696745189E8 0.020441225227730675 0.09756532223056164 0.9795587747722693 -0.09756532223056164 0.9795587747722693 -0.09756532223056164 0.020441225227730675 0.09756532223056164
1.8681992888645732E8 0.02077411565281083 0.09897035246101842 0.979225884347189 -0.09897035246101842 0.979225884347189 -0.09897035246101842 0.02077411565281083 0.09897035246101842
1.8963930385668582E8 0.021116027656553342 0.1003947168617261 0.9788839723434468 -0.1003947168617261 0.9788839723434468 -0.1003947168617261 0.021116027656553342 0.1003947168617261
1.92501227152835E8 0.021467211630981788 0.10183863972432995 0.978532788369018 -0.10183863972432992 0.978532788369018 -0.10183863972432992 0.021467211630981788 0.10183863972432995
1.9540634088886917E8 0.021827924705252966 0.10330234590351504 0.978172075294747 -0.10330234590351502 0.978172075294747 -0.10330234590351502 0.021827924705252966 0.10330234590351504
1.983552968691535E8 0.022198430898157644 0.10478606070281349 0.9778015691018422 -0.10478606070281349 0.9778015691018422 -0.10478606070281349 0.022198430898157644 0.10478606070281349
2.0134875673469606E8 0.022579001271524974 0.10629000975432344 0.977420998728475 -0.10629000975432344 0.977420998728475 -0.10629000975432344 0.022579001271524974 0.10629000975432344
2.0438739211159652E8 0.022969914084389916 0.10781441889220937 0.9770300859156102 -0.10781441889220937 0.9770300859156102 -0.10781441889220937 0.022969914084389916 0.10781441889220937
2.074718847617352E8 0.023371454947779088 0.10935951401985686 0.9766285450522209 -0.10935951401985684 0.9766285450522209 -0.10935951401985684 0.023371454947779088 0.10935951401985686
2.106029267357361E8 0.02378391697996707 0.11092552097055737 0.976216083020033 -0.11092552097055737 0.976216083020033 -0.11092552097055737 0.02378391697996707 0.11092552097055737
2.1378122052823865E8 0.02420760096205125 0.11251266536160007 0.9757923990379487 -0.11251266536160007 0.9757923990379487 -0.11251266536160007 0.02420760096205125 0.11251266536160007
2.1700747923551247E8 0.02464281549369006 0.11412117244165185 0.9753571845063098 -0.11412117244165185 0.9753571845063098 -0.11412117244165185 0.02464281549369006 0.11412117244165185
2.2028242671545094E8 0.025089877148845315 0.11575126693130579 0.9749101228511546 -0.11575126693130579 0.9749101228511546 -0.11575126693130579 0.025089877148845315 0.11575126693130579
2.23606797749979E8 0.02554911063136693 0.1174031728566839 0.9744508893686332 -0.1174031728566839 0.9744508893686332 -0.1174031728566839 0.02554911063136693 0.1174031728566839
2.2698133820991236E8 0.026020848930253568 0.11907711337597882 0.9739791510697464 -0.11907711337597882 0.9739791510697464 -0.11907711337597882 0.026020848930253568 0.11907711337597882
2.3040680522230446E8 0.026505433474420487 0.12077331059882344 0.9734945665255794 -0.12077331059882344 0.9734945665255794 -0.12077331059882344 0.026505433474420487 0.12077331059882344
2.338839673403185E8 0.027003214286801348 0.12249198539837686 0.9729967857131987 -0.12249198539837686 0.9729967857131987 -0.12249198539837686 0.027003214286801348 0.12249198539837686
2.37413604715664E8 0.02751455013760803 0.12423335721601947 0.9724854498623922 -0.12423335721601947 0.9724854498623922 -0.12423335721601947 0.02751455013760803 0.12423335721601947
2.4099650927363476E8 0.028039808696568386 0.1259976438585488 0.9719601913034315 -0.1259976438585488 0.9719601913034315 -0.1259976438585488 0.028039808696568386 0.1259976438585488
2.446334848907889E8 0.028579366683958458 0.12778506128777173 0.9714206333160416 -0.1277850612877717 0.9714206333160416 -0.1277850612877717 0.028579366683958458 0.12778506128777173
2.4832534757531032E8 0.0291336100202419 0.12959582340238804 0.9708663899797583 -0.12959582340238804 0.9708663899797583 -0.12959582340238804 0.0291336100202419 0.12959582340238804
