!Murata Part Number: LQP02TQ2N8B02
!These Parameters are Measured in Series Mode Connection
!       o--[Z]--o
!Port1              Port2
!       o-------o
!
!Freq. Start=50[MHz] Stop=20[GHz], 401[Steps]
# Hz S RI R 50
!Freq.(Hz) S11(Real) S11(Imag) S21(Real) S21(Imag) S12(Real) S12(Imag) S22(Real) S22(Imag)
5.0E7 0.0029643652286443813 0.009618782521043055 0.9970356347713556 -0.009618782521043057 0.9970356347713556 -0.009618782521043057 0.0029643652286443813 0.009618782521043055
5.0754570186123446E7 0.0029697939175937545 0.009763563044623755 0.9970302060824061 -0.009763563044623755 0.9970302060824061 -0.009763563044623755 0.0029697939175937545 0.009763563044623755
5.152052789556263E7 0.0029753849501777743 0.00991051138262345 0.9970246150498223 -0.00991051138262345 0.9970246150498223 -0.00991051138262345 0.0029753849501777743 0.00991051138262345
5.229804498202928E7 0.002981143098208721 0.01005965949038819 0.9970188569017914 -0.01005965949038819 0.9970188569017914 -0.01005965949038819 0.002981143098208721 0.01005965949038819
5.308729589274893E7 0.00298707326881787 0.010211039772630107 0.997012926731182 -0.010211039772630107 0.997012926731182 -0.010211039772630107 0.00298707326881787 0.010211039772630107
5.388845770760058E7 0.0029931805080024277 0.010364685088849692 0.9970068194919975 -0.010364685088849692 0.9970068194919975 -0.010364685088849692 0.0029931805080024277 0.010364685088849692
5.470171017884717E7 0.002999470004248492 0.010520628758788442 0.9970005299957514 -0.010520628758788442 0.9970005299957514 -0.010520628758788442 0.002999470004248492 0.010520628758788442
5.5527235771465644E7 0.0030059470922307366 0.010678904567910883 0.9969940529077693 -0.010678904567910884 0.9969940529077693 -0.010678904567910884 0.0030059470922307366 0.010678904567910883
5.6365219704085544E7 0.003012617256589351 0.010839546772914694 0.9969873827434107 -0.010839546772914694 0.9969873827434107 -0.010839546772914694 0.003012617256589351 0.010839546772914694
5.721584999054556E7 0.003019486135784773 0.01100259010726787 0.9969805138642155 -0.011002590107267871 0.9969805138642155 -0.011002590107267871 0.003019486135784773 0.01100259010726787
5.807931748207712E7 0.003026559526030647 0.011168069786771572 0.9969734404739693 -0.011168069786771572 0.9969734404739693 -0.011168069786771572 0.003026559526030647 0.011168069786771572
5.8955815910124585E7 0.0030338433853053957 0.011336021515147501 0.9969661566146946 -0.011336021515147503 0.9969661566146946 -0.011336021515147503 0.0030338433853053957 0.011336021515147501
5.984554192981184E7 0.003041343837442682 0.011506481489648482 0.9969586561625574 -0.011506481489648482 0.9969586561625574 -0.011506481489648482 0.003041343837442682 0.011506481489648482
6.074869516406457E7 0.003049067176300974 0.011679486406690932 0.9969509328236993 -0.011679486406690934 0.9969509328236993 -0.011679486406690934 0.003049067176300974 0.011679486406690932
6.166547824839868E7 0.0030570198700123506 0.011855073467507953 0.9969429801299877 -0.011855073467507955 0.9969429801299877 -0.011855073467507955 0.0030570198700123506 0.011855073467507953
6.2596096876384385E7 0.003065208565310536 0.012033280383821609 0.9969347914346894 -0.012033280383821609 0.9969347914346894 -0.012033280383821609 0.003065208565310536 0.012033280383821609
6.354075984579668E7 0.003073640091938136 0.012214145383533164 0.9969263599080617 -0.012214145383533163 0.9969263599080617 -0.012214145383533163 0.003073640091938136 0.012214145383533164
6.449967910546205E7 0.0030823214671328496 0.012397707216429762 0.9969176785328672 -0.012397707216429764 0.9969176785328672 -0.012397707216429764 0.0030823214671328496 0.012397707216429762
6.547306980281226E7 0.0030912599001924035 0.01258400515990634 0.9969087400998077 -0.01258400515990634 0.9969087400998077 -0.01258400515990634 0.0030912599001924035 0.01258400515990634
6.646115033215589E7 0.0031004627971177668 0.012773079024701319 0.9968995372028822 -0.012773079024701315 0.9968995372028822 -0.012773079024701315 0.0031004627971177668 0.012773079024701319
6.746414238367817E7 0.0031099377653341425 0.01296496916064478 0.9968900622346659 -0.012964969160644779 0.9968900622346659 -0.012964969160644779 0.0031099377653341425 0.01296496916064478
6.848227099318038E7 0.003119692618489052 0.01315971646241775 0.9968803073815109 -0.013159716462417752 0.9968803073815109 -0.013159716462417752 0.003119692618489052 0.01315971646241775
6.951576459256999E7 0.0031297353813267374 0.013357362375321378 0.9968702646186732 -0.013357362375321378 0.9968702646186732 -0.013357362375321378 0.0031297353813267374 0.013357362375321378
7.056485506111258E7 0.0031400742946379365 0.013557948901054663 0.9968599257053622 -0.013557948901054663 0.9968599257053622 -0.013557948901054663 0.0031400742946379365 0.013557948901054663
7.162977777745734E7 0.003150717820283953 0.013761518603499542 0.996849282179716 -0.013761518603499539 0.996849282179716 -0.013761518603499539 0.003150717820283953 0.013761518603499542
7.271077167244768E7 0.0031616746462937886 0.013968114614512226 0.9968383253537062 -0.013968114614512226 0.9968383253537062 -0.013968114614512226 0.0031616746462937886 0.013968114614512226
7.380807928272885E7 0.00317295369203297 0.014177780639719624 0.9968270463079669 -0.014177780639719624 0.9968270463079669 -0.014177780639719624 0.00317295369203297 0.014177780639719624
7.492194680516452E7 0.003184564113442499 0.01439056096431987 0.9968154358865576 -0.014390560964319872 0.9968154358865576 -0.014390560964319872 0.003184564113442499 0.01439056096431987
7.60526241520746E7 0.003196515308346223 0.014606500458886035 0.9968034846916539 -0.014606500458886037 0.9968034846916539 -0.014606500458886037 0.003196515308346223 0.014606500458886035
7.720036500730675E7 0.0032088169218247855 0.014825644585172226 0.9967911830781753 -0.014825644585172226 0.9967911830781753 -0.014825644585172226 0.0032088169218247855 0.014825644585172226
7.836542688315398E7 0.0032214788516540175 0.015048039401921332 0.9967785211483461 -0.015048039401921332 0.9967785211483461 -0.015048039401921332 0.0032214788516540175 0.015048039401921332
7.954807117813127E7 0.0032345112538056504 0.015273731570673894 0.9967654887461944 -0.015273731570673894 0.9967654887461944 -0.015273731570673894 0.0032345112538056504 0.015273731570673894
8.074856323562416E7 0.003247924548007861 0.015502768361577705 0.9967520754519922 -0.015502768361577702 0.9967520754519922 -0.015502768361577702 0.003247924548007861 0.015502768361577705
8.196717240342227E7 0.003261729423363085 0.01573519765919776 0.996738270576637 -0.01573519765919776 0.996738270576637 -0.01573519765919776 0.003261729423363085 0.01573519765919776
8.320417209415154E7 0.003275936844020384 0.015971067968326855 0.9967240631559797 -0.015971067968326855 0.9967240631559797 -0.015971067968326855 0.003275936844020384 0.015971067968326855
8.445983984661816E7 0.0032905580548993145 0.016210428419796474 0.9967094419451008 -0.016210428419796474 0.9967094419451008 -0.016210428419796474 0.0032905580548993145 0.016210428419796474
8.573445738807854E7 0.0033056045874622826 0.016453328776288897 0.9966943954125377 -0.016453328776288897 0.9966943954125377 -0.016453328776288897 0.0033056045874622826 0.016453328776288897
8.702831069744885E7 0.0033210882655319855 0.016699819438150756 0.9966789117344681 -0.016699819438150756 0.9966789117344681 -0.016699819438150756 0.0033210882655319855 0.016699819438150756
8.834169006946853E7 0.003337021211150515 0.016949951449209154 0.9966629787888496 -0.016949951449209154 0.9966629787888496 -0.016949951449209154 0.003337021211150515 0.016949951449209154
8.96748901798321E7 0.0033534158504764386 0.0172037765025915 0.9966465841495237 -0.017203776502591504 0.9966465841495237 -0.017203776502591504 0.0033534158504764386 0.0172037765025915
9.1028210151304E7 0.0033702849197160332 0.017461346946550625 0.9966297150802841 -0.017461346946550625 0.9966297150802841 -0.017461346946550625 0.0033702849197160332 0.017461346946550625
9.240195362083109E7 0.0033876414710847166 0.017722715790296988 0.9966123585289154 -0.017722715790296988 0.9966123585289154 -0.017722715790296988 0.0033876414710847166 0.017722715790296988
9.379642880766791E7 0.003405498878794509 0.017987936709840256 0.9965945011212054 -0.017987936709840256 0.9965945011212054 -0.017987936709840256 0.003405498878794509 0.017987936709840256
9.521194858253023E7 0.0034238708450632965 0.018257064053842975 0.9965761291549369 -0.018257064053842975 0.9965761291549369 -0.018257064053842975 0.0034238708450632965 0.018257064053842975
9.664883053779216E7 0.0034427714061414398 0.01853015284948932 0.9965572285938586 -0.01853015284948932 0.9965572285938586 -0.01853015284948932 0.0034427714061414398 0.01853015284948932
9.810739705874248E7 0.003462214938351285 0.01880725880837247 0.9965377850616486 -0.01880725880837247 0.9965377850616486 -0.01880725880837247 0.003462214938351285 0.01880725880837247
9.958797539591652E7 0.0034822161641349264 0.01908843833240475 0.9965177838358651 -0.019088438332404752 0.9965177838358651 -0.019088438332404752 0.0034822161641349264 0.01908843833240475
1.0109089773851961E8 0.0035027901581055495 0.019373748519754982 0.9964972098418944 -0.01937374851975498 0.9964972098418944 -0.01937374851975498 0.0035027901581055495 0.019373748519754982
1.0261650128895843E8 0.0035239523530976257 0.01966324717081815 0.9964760476469022 -0.019663247170818146 0.9964760476469022 -0.019663247170818146 0.0035239523530976257 0.01966324717081815
1.0416512833849736E8 0.003545718546211198 0.01995699279422317 0.9964542814537888 -0.01995699279422317 0.9964542814537888 -0.01995699279422317 0.003545718546211198 0.01995699279422317
1.0573712634405641E8 0.0035681049048454775 0.020255044612884906 0.9964318950951544 -0.020255044612884906 0.9964318950951544 -0.020255044612884906 0.0035681049048454775 0.020255044612884906
1.0733284800616828E8 0.003591127972717038 0.020557462570107564 0.9964088720272831 -0.02055746257010756 0.9964088720272831 -0.02055746257010756 0.003591127972717038 0.020557462570107564
1.0895265134811176E8 0.0036148046758579084 0.020864307335746884 0.996385195324142 -0.020864307335746884 0.996385195324142 -0.020864307335746884 0.0036148046758579084 0.020864307335746884
1.1059689979623953E8 0.003639152328589012 0.02117564031243965 0.9963608476714112 -0.02117564031243965 0.9963608476714112 -0.02117564031243965 0.003639152328589012 0.02117564031243965
1.1226596226151802E8 0.0036641886394645187 0.021491523641909423 0.9963358113605354 -0.021491523641909423 0.9963358113605354 -0.021491523641909423 0.0036641886394645187 0.021491523641909423
1.1396021322229806E8 0.003689931717182845 0.021812020211358484 0.9963100682828172 -0.021812020211358488 0.9963100682828172 -0.021812020211358488 0.003689931717182845 0.021812020211358484
1.1568003280833441E8 0.003716400076460302 0.022137193659956464 0.9962835999235397 -0.022137193659956467 0.9962835999235397 -0.022137193659956467 0.003716400076460302 0.022137193659956464
1.1742580688607343E8 0.003743612643863684 0.022467108385437338 0.9962563873561363 -0.022467108385437338 0.9962563873561363 -0.022467108385437338 0.003743612643863684 0.022467108385437338
1.1919792714522783E8 0.003771588763598342 0.022801829550816808 0.9962284112364017 -0.022801829550816808 0.9962284112364017 -0.022801829550816808 0.003771588763598342 0.022801829550816808
1.2099679118665792E8 0.003800348203248831 0.02314142309124355 0.9961996517967513 -0.02314142309124355 0.9961996517967513 -0.02314142309124355 0.003800348203248831 0.02314142309124355
1.2282280261157903E8 0.003829911159469545 0.02348595572099819 0.9961700888405306 -0.02348595572099819 0.9961700888405306 -0.02348595572099819 0.003829911159469545 0.02348595572099819
1.2467637111211549E8 0.0038602982636233843 0.023835494940655164 0.9961397017363766 -0.023835494940655167 0.9961397017363766 -0.023835494940655167 0.0038602982636233843 0.023835494940655164
1.265579125632208E8 0.003891530587367025 0.024190109044423265 0.9961084694126331 -0.024190109044423265 0.9961084694126331 -0.024190109044423265 0.003891530587367025 0.024190109044423265
1.284678491159853E8 0.003923629648182116 0.024549867127681778 0.9960763703518178 -0.024549867127681778 0.9960763703518178 -0.024549867127681778 0.003923629648182116 0.024549867127681778
1.3040660929235186E8 0.003956617414852413 0.024914839094730155 0.9960433825851476 -0.024914839094730155 0.9960433825851476 -0.024914839094730155 0.003956617414852413 0.024914839094730155
1.3237462808126101E8 0.003990516312887756 0.02528509566676977 0.9960094836871122 -0.025285095666769772 0.9960094836871122 -0.025285095666769772 0.003990516312887756 0.02528509566676977
1.3437234703624701E8 0.0040253492298967086 0.025660708390137718 0.9959746507701033 -0.025660708390137718 0.9959746507701033 -0.025660708390137718 0.0040253492298967086 0.025660708390137718
1.364002143745067E8 0.00406113952091065 0.02604174964481311 0.9959388604790893 -0.02604174964481311 0.9959388604790893 -0.02604174964481311 0.00406113952091065 0.02604174964481311
1.3845868507746372E8 0.004097911013663348 0.02642829265321775 0.9959020889863367 -0.02642829265321775 0.9959020889863367 -0.02642829265321775 0.004097911013663348 0.02642829265321775
1.405482209928499E8 0.004135688013831105 0.02682041148933346 0.995864311986169 -0.02682041148933346 0.995864311986169 -0.02682041148933346 0.004135688013831105 0.02682041148933346
1.426692909383278E8 0.004174495310239956 0.027218181088159595 0.9958255046897599 -0.027218181088159595 0.9958255046897599 -0.027218181088159595 0.004174495310239956 0.027218181088159595
1.4482237080667645E8 0.0042143581800478495 0.02762167725553507 0.995785641819952 -0.027621677255535063 0.995785641819952 -0.027621677255535063 0.0042143581800478495 0.02762167725553507
1.4700794367256513E8 0.004255302393911168 0.02803097667834996 0.9957446976060889 -0.02803097667834996 0.9957446976060889 -0.02803097667834996 0.004255302393911168 0.02803097667834996
1.492264999009378E8 0.004297354221146617 0.028446156935172485 0.9957026457788534 -0.028446156935172485 0.9957026457788534 -0.028446156935172485 0.004297354221146617 0.028446156935172485
1.5147853725703382E8 0.004340540434901275 0.028867296507318136 0.9956594595650989 -0.028867296507318136 0.9956594595650989 -0.028867296507318136 0.004340540434901275 0.028867296507318136
1.5376456101806876E8 0.004384888317345353 0.02929447479038804 0.9956151116826546 -0.02929447479038804 0.9956151116826546 -0.02929447479038804 0.004384888317345353 0.02929447479038804
1.5608508408660066E8 0.004430425664904224 0.02972777210630447 0.9955695743350957 -0.02972777210630447 0.9955695743350957 -0.02972777210630447 0.004430425664904224 0.02972777210630447
1.5844062710560706E8 0.004477180793548299 0.030167269715871782 0.9955228192064518 -0.030167269715871782 0.9955228192064518 -0.030167269715871782 0.004477180793548299 0.030167269715871782
1.6083171857529896E8 0.004525182544161487 0.030613049831891538 0.9954748174558385 -0.030613049831891538 0.9954748174558385 -0.030613049831891538 0.004525182544161487 0.030613049831891538
1.632588949716973E8 0.004574460288011228 0.031065195632860847 0.9954255397119889 -0.031065195632860847 0.9954255397119889 -0.031065195632860847 0.004574460288011228 0.031065195632860847
1.6572270086699936E8 0.004625043932345433 0.03152379127728309 0.9953749560676546 -0.03152379127728309 0.9953749560676546 -0.03152379127728309 0.004625043932345433 0.03152379127728309
1.6822368905176118E8 0.004676963926144117 0.03198892191862032 0.995323036073856 -0.03198892191862032 0.995323036073856 -0.03198892191862032 0.004676963926144117 0.03198892191862032
1.7076242065892437E8 0.004730251266056028 0.03246067372091655 0.9952697487339441 -0.03246067372091656 0.9952697487339441 -0.03246067372091656 0.004730251266056028 0.03246067372091655
1.7333946528971428E8 0.004784937502553219 0.032939133875120916 0.9952150624974468 -0.03293913387512092 0.9952150624974468 -0.03293913387512092 0.004784937502553219 0.032939133875120916
1.7595540114143828E8 0.004841054746339124 0.03342439061613928 0.9951589452536608 -0.033424390616139284 0.9951589452536608 -0.033424390616139284 0.004841054746339124 0.03342439061613928
1.786108151372127E8 0.004898635675048567 0.03391653324064253 0.9951013643249513 -0.03391653324064254 0.9951013643249513 -0.03391653324064254 0.004898635675048567 0.03391653324064253
1.8130630305764765E8 0.004957713540280802 0.034415652125658815 0.9950422864597194 -0.034415652125658815 0.9950422864597194 -0.034415652125658815 0.004957713540280802 0.034415652125658815
1.840424696745189E8 0.005018322175009637 0.03492183874797616 0.9949816778249904 -0.03492183874797616 0.9949816778249904 -0.03492183874797616 0.005018322175009637 0.03492183874797616
1.8681992888645732E8 0.005080496001417532 0.035435185704381214 0.9949195039985825 -0.035435185704381214 0.9949195039985825 -0.035435185704381214 0.005080496001417532 0.035435185704381214
1.8963930385668582E8 0.005144270039203528 0.035955786732758094 0.9948557299607964 -0.035955786732758094 0.9948557299607964 -0.035955786732758094 0.005144270039203528 0.035955786732758094
1.92501227152835E8 0.005209679914417653 0.036483736734070044 0.9947903200855824 -0.036483736734070044 0.9947903200855824 -0.036483736734070044 0.005209679914417653 0.036483736734070044
1.9540634088886917E8 0.005276761868877556 0.03701913179524515 0.9947232381311224 -0.03701913179524515 0.9947232381311224 -0.03701913179524515 0.005276761868877556 0.03701913179524515
1.983552968691535E8 0.005345552770225773 0.03756206921298501 0.9946544472297743 -0.037562069212985015 0.9946544472297743 -0.037562069212985015 0.005345552770225773 0.03756206921298501
2.0134875673469606E8 0.005416090122689175 0.038112647518513905 0.9945839098773108 -0.038112647518513905 0.9945839098773108 -0.038112647518513905 0.005416090122689175 0.038112647518513905
2.0438739211159652E8 0.0054884120786046564 0.03867096650328292 0.9945115879213953 -0.03867096650328293 0.9945115879213953 -0.03867096650328293 0.0054884120786046564 0.03867096650328292
2.074718847617352E8 0.00556255745077806 0.039237127245641344 0.994437442549222 -0.03923712724564134 0.994437442549222 -0.03923712724564134 0.00556255745077806 0.039237127245641344
2.106029267357361E8 0.005638565725745932 0.03981123213848505 0.9943614342742542 -0.03981123213848506 0.9943614342742542 -0.03981123213848506 0.005638565725745932 0.03981123213848505
2.1378122052823865E8 0.00571647707801221 0.04039338491788862 0.9942835229219877 -0.04039338491788862 0.9942835229219877 -0.04039338491788862 0.00571647707801221 0.04039338491788862
2.1700747923551247E8 0.005796332385334439 0.040983690692724214 0.9942036676146655 -0.040983690692724214 0.9942036676146655 -0.040983690692724214 0.005796332385334439 0.040983690692724214
2.2028242671545094E8 0.005878173245136344 0.041582255975267976 0.9941218267548636 -0.04158225597526797 0.9941218267548636 -0.04158225597526797 0.005878173245136344 0.041582255975267976
2.23606797749979E8 0.005962041992125792 0.042189188712790086 0.9940379580078743 -0.042189188712790086 0.9940379580078743 -0.042189188712790086 0.005962041992125792 0.042189188712790086
2.2698133820991236E8 0.006047981717199115 0.04280459832012173 0.9939520182828008 -0.04280459832012172 0.9939520182828008 -0.04280459832012172 0.006047981717199115 0.04280459832012173
2.3040680522230446E8 0.006136036287714551 0.043428595713187974 0.9938639637122851 -0.04342859571318797 0.9938639637122851 -0.04342859571318797 0.006136036287714551 0.043428595713187974
2.338839673403185E8 0.006226250369219157 0.0440612933434913 0.9937737496307809 -0.044061293343491306 0.9937737496307809 -0.044061293343491306 0.006226250369219157 0.0440612933434913
2.37413604715664E8 0.006318669448714995 0.044702805233527106 0.993681330551285 -0.044702805233527106 0.993681330551285 -0.044702805233527106 0.006318669448714995 0.044702805233527106
2.4099650927363476E8 0.006413339859551411 0.045353247013107306 0.9935866601404486 -0.045353247013107306 0.9935866601404486 -0.045353247013107306 0.006413339859551411 0.045353247013107306
