!Murata Part Number: LQP02TQ4N0B02
!These Parameters are Measured in Series Mode Connection
!       o--[Z]--o
!Port1              Port2
!       o-------o
!
!Freq. Start=50[MHz] Stop=20[GHz], 401[Steps]
# Hz S RI R 50
!Freq.(Hz) S11(Real) S11(Imag) S21(Real) S21(Imag) S12(Real) S12(Imag) S22(Real) S22(Imag)
5.0E7 0.005227004491320466 0.01364514368148128 0.9947729955086796 -0.013645143681481283 0.9947729955086796 -0.013645143681481283 0.005227004491320466 0.01364514368148128
5.0754570186123446E7 0.005238140610661065 0.013849403676217698 0.9947618593893389 -0.013849403676217696 0.9947618593893389 -0.013849403676217696 0.005238140610661065 0.013849403676217698
5.152052789556263E7 0.005249587840301193 0.01405667875421593 0.9947504121596988 -0.01405667875421593 0.9947504121596988 -0.01405667875421593 0.005249587840301193 0.01405667875421593
5.229804498202928E7 0.005261354193258096 0.014267011930273391 0.9947386458067421 -0.014267011930273391 0.9947386458067421 -0.014267011930273391 0.005261354193258096 0.014267011930273391
5.308729589274893E7 0.005273447857259538 0.014480446793494129 0.9947265521427404 -0.014480446793494129 0.9947265521427404 -0.014480446793494129 0.005273447857259538 0.014480446793494129
5.388845770760058E7 0.005285877197353835 0.014697027514808465 0.9947141228026464 -0.014697027514808463 0.9947141228026464 -0.014697027514808463 0.005285877197353835 0.014697027514808465
5.470171017884717E7 0.005298650758539962 0.014916798854663663 0.9947013492414599 -0.014916798854663663 0.9947013492414599 -0.014916798854663663 0.005298650758539962 0.014916798854663663
5.5527235771465644E7 0.005311777268421185 0.015139806170894379 0.9946882227315788 -0.015139806170894379 0.9946882227315788 -0.015139806170894379 0.005311777268421185 0.015139806170894379
5.6365219704085544E7 0.005325265639885791 0.01536609542678122 0.9946747343601143 -0.01536609542678122 0.9946747343601143 -0.01536609542678122 0.005325265639885791 0.01536609542678122
5.721584999054556E7 0.005339124973819351 0.015595713199306563 0.9946608750261806 -0.015595713199306563 0.9946608750261806 -0.015595713199306563 0.005339124973819351 0.015595713199306563
5.807931748207712E7 0.005353364561853419 0.015828706687616986 0.9946466354381467 -0.015828706687616986 0.9946466354381467 -0.015828706687616986 0.005353364561853419 0.015828706687616986
5.8955815910124585E7 0.005367993889156068 0.01606512372170128 0.9946320061108437 -0.01606512372170128 0.9946320061108437 -0.01606512372170128 0.005367993889156068 0.01606512372170128
5.984554192981184E7 0.005383022637270644 0.01630501277129427 0.9946169773627295 -0.01630501277129427 0.9946169773627295 -0.01630501277129427 0.005383022637270644 0.01630501277129427
6.074869516406457E7 0.005398460687009396 0.016548422955015636 0.9946015393129904 -0.016548422955015636 0.9946015393129904 -0.016548422955015636 0.005398460687009396 0.016548422955015636
6.166547824839868E7 0.005414318121409802 0.016795404049754215 0.9945856818785903 -0.016795404049754215 0.9945856818785903 -0.016795404049754215 0.005414318121409802 0.016795404049754215
6.2596096876384385E7 0.005430605228761815 0.017046006500307295 0.9945693947712382 -0.017046006500307295 0.9945693947712382 -0.017046006500307295 0.005430605228761815 0.017046006500307295
6.354075984579668E7 0.005447332505715354 0.0173002814292855 0.9945526674942847 -0.017300281429285497 0.9945526674942847 -0.017300281429285497 0.005447332505715354 0.0173002814292855
6.449967910546205E7 0.005464510660477999 0.017558280647292902 0.994535489339522 -0.017558280647292902 0.994535489339522 -0.017558280647292902 0.005464510660477999 0.017558280647292902
6.547306980281226E7 0.005482150616113851 0.017820056663392855 0.994517849383886 -0.017820056663392855 0.994517849383886 -0.017820056663392855 0.005482150616113851 0.017820056663392855
6.646115033215589E7 0.005500263513955386 0.018085662695869278 0.9944997364860444 -0.018085662695869278 0.9944997364860444 -0.018085662695869278 0.005500263513955386 0.018085662695869278
6.746414238367817E7 0.005518860717141013 0.018355152683293248 0.9944811392828592 -0.018355152683293244 0.9944811392828592 -0.018355152683293244 0.005518860717141013 0.018355152683293248
6.848227099318038E7 0.005537953814292165 0.018628581295904816 0.9944620461857079 -0.018628581295904816 0.9944620461857079 -0.018628581295904816 0.005537953814292165 0.018628581295904816
6.951576459256999E7 0.0055575546233444925 0.018906003947319148 0.9944424453766554 -0.018906003947319148 0.9944424453766554 -0.018906003947319148 0.0055575546233444925 0.018906003947319148
7.056485506111258E7 0.005577675195548981 0.01918747680656622 0.994422324804451 -0.01918747680656622 0.994422324804451 -0.01918747680656622 0.005577675195548981 0.01918747680656622
7.162977777745734E7 0.00559832781965965 0.019473056810472664 0.9944016721803401 -0.01947305681047266 0.9944016721803401 -0.01947305681047266 0.00559832781965965 0.019473056810472664
7.271077167244768E7 0.005619525026325576 0.019762801676394035 0.9943804749736745 -0.019762801676394035 0.9943804749736745 -0.019762801676394035 0.005619525026325576 0.019762801676394035
7.380807928272885E7 0.005641279592706028 0.020056769915305014 0.994358720407294 -0.020056769915305014 0.994358720407294 -0.020056769915305014 0.005641279592706028 0.020056769915305014
7.492194680516452E7 0.005663604547328501 0.02035502084525464 0.9943363954526714 -0.02035502084525464 0.9943363954526714 -0.02035502084525464 0.005663604547328501 0.02035502084525464
7.60526241520746E7 0.005686513175210396 0.020657614605192838 0.9943134868247895 -0.020657614605192838 0.9943134868247895 -0.020657614605192838 0.005686513175210396 0.020657614605192838
7.720036500730675E7 0.005710019023266199 0.020964612169173554 0.9942899809767338 -0.020964612169173554 0.9942899809767338 -0.020964612169173554 0.005710019023266199 0.020964612169173554
7.836542688315398E7 0.005734135906022903 0.021276075360939378 0.9942658640939771 -0.021276075360939374 0.9942658640939771 -0.021276075360939374 0.005734135906022903 0.021276075360939378
7.954807117813127E7 0.005758877911667382 0.021592066868891036 0.9942411220883327 -0.021592066868891036 0.9942411220883327 -0.021592066868891036 0.005758877911667382 0.021592066868891036
8.074856323562416E7 0.005784259408450335 0.021912650261444313 0.9942157405915497 -0.021912650261444313 0.9942157405915497 -0.021912650261444313 0.005784259408450335 0.021912650261444313
8.196717240342227E7 0.005810295051472248 0.02223789000277584 0.9941897049485275 -0.022237890002775835 0.9941897049485275 -0.022237890002775835 0.005810295051472248 0.02223789000277584
8.320417209415154E7 0.005836999789877731 0.022567851468958018 0.9941630002101222 -0.022567851468958018 0.9941630002101222 -0.022567851468958018 0.005836999789877731 0.022567851468958018
8.445983984661816E7 0.005864388874485099 0.022902600964481584 0.9941356111255149 -0.022902600964481584 0.9941356111255149 -0.022902600964481584 0.005864388874485099 0.022902600964481584
8.573445738807854E7 0.00589247786587906 0.023242205739163736 0.9941075221341211 -0.023242205739163736 0.9941075221341211 -0.023242205739163736 0.00589247786587906 0.023242205739163736
8.702831069744885E7 0.005921282642994646 0.023586734005437367 0.9940787173570053 -0.023586734005437367 0.9940787173570053 -0.023586734005437367 0.005921282642994646 0.023586734005437367
8.834169006946853E7 0.0059508194122212124 0.023936254956016055 0.9940491805877789 -0.023936254956016055 0.9940491805877789 -0.023936254956016055 0.0059508194122212124 0.023936254956016055
8.96748901798321E7 0.005981104717055686 0.024290838781927532 0.9940188952829443 -0.024290838781927532 0.9940188952829443 -0.024290838781927532 0.005981104717055686 0.024290838781927532
9.1028210151304E7 0.006012155448334573 0.024650556690907086 0.9939878445516653 -0.024650556690907086 0.9939878445516653 -0.024650556690907086 0.006012155448334573 0.024650556690907086
9.240195362083109E7 0.006043988855074296 0.025015480926139703 0.9939560111449257 -0.025015480926139703 0.9939560111449257 -0.025015480926139703 0.006043988855074296 0.025015480926139703
9.379642880766791E7 0.006076622555949735 0.025385684785339452 0.9939233774440503 -0.02538568478533945 0.9939233774440503 -0.02538568478533945 0.006076622555949735 0.025385684785339452
9.521194858253023E7 0.0061100745514405495 0.025761242640151328 0.9938899254485594 -0.025761242640151328 0.9938899254485594 -0.025761242640151328 0.0061100745514405495 0.025761242640151328
9.664883053779216E7 0.006144363236674879 0.026142229955860127 0.993855636763325 -0.02614222995586012 0.993855636763325 -0.02614222995586012 0.006144363236674879 0.026142229955860127
9.810739705874248E7 0.006179507414999514 0.026528723311388253 0.9938204925850007 -0.026528723311388256 0.9938204925850007 -0.026528723311388256 0.006179507414999514 0.026528723311388253
9.958797539591652E7 0.006215526312305374 0.026920800419563237 0.9937844736876947 -0.026920800419563237 0.9937844736876947 -0.026920800419563237 0.006215526312305374 0.026920800419563237
1.0109089773851961E8 0.006252439592136447 0.027318540147633495 0.9937475604078636 -0.027318540147633495 0.9937475604078636 -0.027318540147633495 0.006252439592136447 0.027318540147633495
1.0261650128895843E8 0.00629026737160949 0.027722022538009133 0.9937097326283905 -0.02772202253800914 0.9937097326283905 -0.02772202253800914 0.00629026737160949 0.027722022538009133
1.0416512833849736E8 0.006329030238171202 0.02813132882920304 0.993670969761829 -0.02813132882920304 0.993670969761829 -0.02813132882920304 0.006329030238171202 0.02813132882920304
1.0573712634405641E8 0.006368749267218331 0.0285465414769458 0.9936312507327818 -0.028546541476945804 0.9936312507327818 -0.028546541476945804 0.006368749267218331 0.0285465414769458
1.0733284800616828E8 0.006409446040605104 0.02896774417544606 0.9935905539593949 -0.02896774417544606 0.9935905539593949 -0.02896774417544606 0.006409446040605104 0.02896774417544606
1.0895265134811176E8 0.006451142666061224 0.029395021878767018 0.9935488573339387 -0.029395021878767018 0.9935488573339387 -0.029395021878767018 0.006451142666061224 0.029395021878767018
1.1059689979623953E8 0.006493861797541971 0.029828460822287434 0.993506138202458 -0.029828460822287434 0.993506138202458 -0.029828460822287434 0.006493861797541971 0.029828460822287434
1.1226596226151802E8 0.006537626656530926 0.030268148544215327 0.9934623733434691 -0.03026814854421533 0.9934623733434691 -0.03026814854421533 0.006537626656530926 0.030268148544215327
1.1396021322229806E8 0.00658246105431362 0.03071417390712014 0.9934175389456865 -0.03071417390712014 0.9934175389456865 -0.03071417390712014 0.00658246105431362 0.03071417390712014
1.1568003280833441E8 0.0066283894152392095 0.03116662711944892 0.9933716105847606 -0.03116662711944892 0.9933716105847606 -0.03116662711944892 0.0066283894152392095 0.03116662711944892
1.1742580688607343E8 0.006675436800985242 0.031625599756990974 0.9933245631990147 -0.03162559975699097 0.9933245631990147 -0.03162559975699097 0.006675436800985242 0.031625599756990974
1.1919792714522783E8 0.00672362893583865 0.032091184784254205 0.9932763710641614 -0.032091184784254205 0.9932763710641614 -0.032091184784254205 0.00672362893583865 0.032091184784254205
1.2099679118665792E8 0.006772992233004375 0.032563476575716316 0.9932270077669957 -0.032563476575716316 0.9932270077669957 -0.032563476575716316 0.006772992233004375 0.032563476575716316
1.2282280261157903E8 0.00682355382195088 0.03304257093691331 0.9931764461780491 -0.03304257093691331 0.9931764461780491 -0.03304257093691331 0.00682355382195088 0.03304257093691331
1.2467637111211549E8 0.006875341576799935 0.03352856512532735 0.9931246584232 -0.03352856512532735 0.9931246584232 -0.03352856512532735 0.006875341576799935 0.03352856512532735
1.265579125632208E8 0.006928384145765983 0.03402155787103628 0.9930716158542341 -0.03402155787103628 0.9930716158542341 -0.03402155787103628 0.006928384145765983 0.03402155787103628
1.284678491159853E8 0.006982710981648394 0.034521649397086615 0.9930172890183515 -0.03452164939708661 0.9930172890183515 -0.03452164939708661 0.006982710981648394 0.034521649397086615
1.3040660929235186E8 0.007038352373378114 0.035028941439552805 0.992961647626622 -0.03502894143955281 0.992961647626622 -0.03502894143955281 0.007038352373378114 0.035028941439552805
1.3237462808126101E8 0.007095339478617965 0.035543537267245205 0.9929046605213823 -0.035543537267245205 0.9929046605213823 -0.035543537267245205 0.007095339478617965 0.035543537267245205
1.3437234703624701E8 0.007153704357414393 0.03606554170103038 0.9928462956425855 -0.03606554170103038 0.9928462956425855 -0.03606554170103038 0.007153704357414393 0.03606554170103038
1.364002143745067E8 0.0072134800068963485 0.036595061132727695 0.9927865199931039 -0.036595061132727695 0.9927865199931039 -0.036595061132727695 0.0072134800068963485 0.036595061132727695
1.3845868507746372E8 0.0072747003970155405 0.03713220354354755 0.9927252996029845 -0.03713220354354756 0.9927252996029845 -0.03713220354354756 0.0072747003970155405 0.03713220354354755
1.405482209928499E8 0.007337400507320607 0.03767707852203709 0.9926625994926793 -0.03767707852203709 0.9926625994926793 -0.03767707852203709 0.007337400507320607 0.03767707852203709
1.426692909383278E8 0.007401616364756305 0.0382297972815006 0.9925983836352437 -0.0382297972815006 0.9925983836352437 -0.0382297972815006 0.007401616364756305 0.0382297972815006
1.4482237080667645E8 0.007467385082477728 0.03879047267686385 0.9925326149175221 -0.03879047267686385 0.9925326149175221 -0.03879047267686385 0.007467385082477728 0.03879047267686385
1.4700794367256513E8 0.00753474489966807 0.039359219220951445 0.9924652551003319 -0.039359219220951445 0.9924652551003319 -0.039359219220951445 0.00753474489966807 0.039359219220951445
1.492264999009378E8 0.007603735222347789 0.03993615310014947 0.9923962647776522 -0.03993615310014947 0.9923962647776522 -0.03993615310014947 0.007603735222347789 0.03993615310014947
1.5147853725703382E8 0.007674396665162149 0.040521392189426325 0.9923256033348379 -0.040521392189426325 0.9923256033348379 -0.040521392189426325 0.007674396665162149 0.040521392189426325
1.5376456101806876E8 0.007746771094133327 0.04111505606668632 0.9922532289058665 -0.04111505606668632 0.9922532289058665 -0.04111505606668632 0.007746771094133327 0.04111505606668632
1.5608508408660066E8 0.00782090167036306 0.041717266026432685 0.992179098329637 -0.041717266026432685 0.992179098329637 -0.041717266026432685 0.00782090167036306 0.041717266026432685
1.5844062710560706E8 0.007896832894671389 0.04232814509271784 0.9921031671053285 -0.04232814509271784 0.9921031671053285 -0.04232814509271784 0.007896832894671389 0.04232814509271784
1.6083171857529896E8 0.007974610653157157 0.04294781803136105 0.9920253893468429 -0.042947818031361044 0.9920253893468429 -0.042947818031361044 0.007974610653157157 0.04294781803136105
1.632588949716973E8 0.008054282263665728 0.04357641136141434 0.9919457177363343 -0.04357641136141433 0.9919457177363343 -0.04357641136141433 0.008054282263665728 0.04357641136141434
1.6572270086699936E8 0.008135896523150119 0.044214053365860435 0.9918641034768498 -0.044214053365860435 0.9918641034768498 -0.044214053365860435 0.008135896523150119 0.044214053365860435
1.6822368905176118E8 0.008219503755911796 0.044860874101526685 0.9917804962440884 -0.04486087410152669 0.9917804962440884 -0.04486087410152669 0.008219503755911796 0.044860874101526685
1.7076242065892437E8 0.008305155862708245 0.04551700540820133 0.9916948441372916 -0.04551700540820133 0.9916948441372916 -0.04551700540820133 0.008305155862708245 0.04551700540820133
1.7333946528971428E8 0.008392906370715202 0.04618258091693983 0.9916070936292849 -0.04618258091693983 0.9916070936292849 -0.04618258091693983 0.008392906370715202 0.04618258091693983
1.7595540114143828E8 0.008482810484332174 0.04685773605754935 0.9915171895156677 -0.04685773605754935 0.9915171895156677 -0.04685773605754935 0.008482810484332174 0.04685773605754935
1.786108151372127E8 0.008574925136821211 0.04754260806524217 0.9914250748631789 -0.04754260806524217 0.9914250748631789 -0.04754260806524217 0.008574925136821211 0.04754260806524217
1.8130630305764765E8 0.008669309042769758 0.048237335986448346 0.9913306909572303 -0.048237335986448346 0.9913306909572303 -0.048237335986448346 0.008669309042769758 0.048237335986448346
1.840424696745189E8 0.00876602275136997 0.04894206068377993 0.9912339772486303 -0.04894206068377993 0.9912339772486303 -0.04894206068377993 0.00876602275136997 0.04894206068377993
1.8681992888645732E8 0.008865128700507856 0.049656924840138984 0.991134871299492 -0.049656924840138984 0.991134871299492 -0.049656924840138984 0.008865128700507856 0.049656924840138984
1.8963930385668582E8 0.008966691271657504 0.0503820729619633 0.9910333087283426 -0.0503820729619633 0.9910333087283426 -0.0503820729619633 0.008966691271657504 0.0503820729619633
1.92501227152835E8 0.009070776845576521 0.051117651381602756 0.9909292231544237 -0.051117651381602756 0.9909292231544237 -0.051117651381602756 0.009070776845576521 0.051117651381602756
1.9540634088886917E8 0.009177453858800859 0.05186380825882126 0.9908225461411991 -0.05186380825882126 0.9908225461411991 -0.05186380825882126 0.009177453858800859 0.05186380825882126
1.983552968691535E8 0.00928679286093821 0.05262069358141765 0.9907132071390617 -0.05262069358141764 0.9907132071390617 -0.05262069358141764 0.00928679286093821 0.05262069358141765
2.0134875673469606E8 0.009398866572761084 0.053388459164960766 0.9906011334272388 -0.053388459164960766 0.9906011334272388 -0.053388459164960766 0.009398866572761084 0.053388459164960766
2.0438739211159652E8 0.009513749945101728 0.054167258651632015 0.9904862500548984 -0.054167258651632015 0.9904862500548984 -0.054167258651632015 0.009513749945101728 0.054167258651632015
2.074718847617352E8 0.009631520218552897 0.05495724750817014 0.9903684797814473 -0.05495724750817014 0.9903684797814473 -0.05495724750817014 0.009631520218552897 0.05495724750817014
2.106029267357361E8 0.009752256983979597 0.05575858302291158 0.9902477430160205 -0.05575858302291158 0.9902477430160205 -0.05575858302291158 0.009752256983979597 0.05575858302291158
2.1378122052823865E8 0.009876042243848337 0.056571424301919325 0.9901239577561517 -0.056571424301919325 0.9901239577561517 -0.056571424301919325 0.009876042243848337 0.056571424301919325
2.1700747923551247E8 0.010002960474381995 0.05739593226419385 0.989997039525618 -0.057395932264193865 0.989997039525618 -0.057395932264193865 0.010002960474381995 0.05739593226419385
2.2028242671545094E8 0.010133098688549062 0.0582322696359573 0.9898669013114508 -0.0582322696359573 0.9898669013114508 -0.0582322696359573 0.010133098688549062 0.0582322696359573
2.23606797749979E8 0.010266546499897887 0.059080600944003074 0.9897334535001021 -0.059080600944003074 0.9897334535001021 -0.059080600944003074 0.010266546499897887 0.059080600944003074
2.2698133820991236E8 0.010403396187246968 0.05994109250810134 0.9895966038127528 -0.05994109250810134 0.9895966038127528 -0.05994109250810134 0.010403396187246968 0.05994109250810134
2.3040680522230446E8 0.010543742760244019 0.06081391243245086 0.9894562572397562 -0.06081391243245086 0.9894562572397562 -0.06081391243245086 0.010543742760244019 0.06081391243245086
2.338839673403185E8 0.01068768402580673 0.0616992305961655 0.9893123159741932 -0.0616992305961655 0.9893123159741932 -0.0616992305961655 0.01068768402580673 0.0616992305961655
2.37413604715664E8 0.010835320655459932 0.06259721864278578 0.9891646793445401 -0.06259721864278579 0.9891646793445401 -0.06259721864278579 0.010835320655459932 0.06259721864278578
2.4099650927363476E8 0.010986756253583887 0.06350804996880138 0.9890132437464162 -0.06350804996880138 0.9890132437464162 -0.06350804996880138 0.010986756253583887 0.06350804996880138
2.446334848907889E8 0.011142097426589797 0.06443189971117325 0.9888579025734101 -0.06443189971117325 0.9888579025734101 -0.06443189971117325 0.011142097426589797 0.06443189971117325
