!Murata Part Number: LQP02TQ1N4B02
!These Parameters are Measured in Series Mode Connection
!       o--[Z]--o
!Port1              Port2
!       o-------o
!
!Freq. Start=50[MHz] Stop=20[GHz], 401[Steps]
# Hz S RI R 50
!Freq.(Hz) S11(Real) S11(Imag) S21(Real) S21(Imag) S12(Real) S12(Imag) S22(Real) S22(Imag)
5.0E7 0.00150394843050395 0.00493964142270822 0.9984960515694961 -0.00493964142270822 0.9984960515694961 -0.00493964142270822 0.00150394843050395 0.00493964142270822
5.0754570186123446E7 0.0015069417258817789 0.005013611667825214 0.998493058274118 -0.005013611667825214 0.998493058274118 -0.005013611667825214 0.0015069417258817789 0.005013611667825214
5.152052789556263E7 0.0015100170713977647 0.0050886743152010385 0.9984899829286022 -0.0050886743152010385 0.9984899829286022 -0.0050886743152010385 0.0015100170713977647 0.0050886743152010385
5.229804498202928E7 0.0015131764712583574 0.005164844932001939 0.9984868235287417 -0.005164844932001939 0.9984868235287417 -0.005164844932001939 0.0015131764712583574 0.005164844932001939
5.308729589274893E7 0.0015164219656339359 0.00524213929027415 0.9984835780343659 -0.00524213929027415 0.9984835780343659 -0.00524213929027415 0.0015164219656339359 0.00524213929027415
5.388845770760058E7 0.00151975563063948 0.005320573369421297 0.9984802443693604 -0.005320573369421298 0.9984802443693604 -0.005320573369421298 0.00151975563063948 0.005320573369421297
5.470171017884717E7 0.001523179578278383 0.005400163358733727 0.9984768204217216 -0.005400163358733728 0.9984768204217216 -0.005400163358733728 0.001523179578278383 0.005400163358733727
5.5527235771465644E7 0.0015266959563482784 0.005480925659973105 0.998473304043652 -0.005480925659973105 0.998473304043652 -0.005480925659973105 0.0015266959563482784 0.005480925659973105
5.6365219704085544E7 0.0015303069483077953 0.005562876890015757 0.9984696930516922 -0.005562876890015757 0.9984696930516922 -0.005562876890015757 0.0015303069483077953 0.005562876890015757
5.721584999054556E7 0.001534014773103297 0.005646033883558457 0.9984659852268968 -0.005646033883558457 0.9984659852268968 -0.005646033883558457 0.001534014773103297 0.005646033883558457
5.807931748207712E7 0.0015378216849547314 0.005730413695890561 0.9984621783150452 -0.005730413695890561 0.9984621783150452 -0.005730413695890561 0.0015378216849547314 0.005730413695890561
5.8955815910124585E7 0.0015417299730998949 0.005816033605736581 0.9984582700268999 -0.00581603360573658 0.9984582700268999 -0.00581603360573658 0.0015417299730998949 0.005816033605736581
5.984554192981184E7 0.001545741961496524 0.00590291111817351 0.9984542580385036 -0.0059029111181735094 0.9984542580385036 -0.0059029111181735094 0.001545741961496524 0.00590291111817351
6.074869516406457E7 0.0015498600084818059 0.00599106396762738 0.9984501399915181 -0.00599106396762738 0.9984501399915181 -0.00599106396762738 0.0015498600084818059 0.00599106396762738
6.166547824839868E7 0.0015540865063891067 0.0060805101209538215 0.998445913493611 -0.0060805101209538215 0.998445913493611 -0.0060805101209538215 0.0015540865063891067 0.0060805101209538215
6.2596096876384385E7 0.0015584238811218458 0.006171267780607435 0.9984415761188781 -0.006171267780607435 0.9984415761188781 -0.006171267780607435 0.0015584238811218458 0.006171267780607435
6.354075984579668E7 0.0015628745916847723 0.0062633553879052105 0.9984371254083152 -0.0062633553879052105 0.9984371254083152 -0.0062633553879052105 0.0015628745916847723 0.0062633553879052105
6.449967910546205E7 0.0015674411296730316 0.006356791626389184 0.9984325588703271 -0.006356791626389184 0.9984325588703271 -0.006356791626389184 0.0015674411296730316 0.006356791626389184
6.547306980281226E7 0.0015721260187197541 0.006451595425293877 0.9984278739812803 -0.006451595425293878 0.9984278739812803 -0.006451595425293878 0.0015721260187197541 0.006451595425293877
6.646115033215589E7 0.001576931813903146 0.00654778596312424 0.9984230681860967 -0.00654778596312424 0.9984230681860967 -0.00654778596312424 0.001576931813903146 0.00654778596312424
6.746414238367817E7 0.0015818611011143575 0.006645382671349812 0.9984181388988858 -0.0066453826713498134 0.9984181388988858 -0.0066453826713498134 0.0015818611011143575 0.006645382671349812
6.848227099318038E7 0.001586916496387764 0.006744405238221214 0.9984130835036121 -0.006744405238221214 0.9984130835036121 -0.006744405238221214 0.001586916496387764 0.006744405238221214
6.951576459256999E7 0.0015921006451956273 0.006844873612715106 0.9984078993548046 -0.006844873612715107 0.9984078993548046 -0.006844873612715107 0.0015921006451956273 0.006844873612715106
7.056485506111258E7 0.0015974162217094604 0.006946808008613828 0.9984025837782907 -0.006946808008613829 0.9984025837782907 -0.006946808008613829 0.0015974162217094604 0.006946808008613828
7.162977777745734E7 0.0016028659280308544 0.007050228908726171 0.998397134071969 -0.007050228908726171 0.998397134071969 -0.007050228908726171 0.0016028659280308544 0.007050228908726171
7.271077167244768E7 0.0016084524933948955 0.007155157069255759 0.9983915475066051 -0.007155157069255758 0.9983915475066051 -0.007155157069255758 0.0016084524933948955 0.007155157069255759
7.380807928272885E7 0.0016141786733497767 0.00726161352432355 0.9983858213266503 -0.007261613524323551 0.9983858213266503 -0.007261613524323551 0.0016141786733497767 0.00726161352432355
7.492194680516452E7 0.001620047248916639 0.007369619590651133 0.9983799527510834 -0.007369619590651131 0.9983799527510834 -0.007369619590651131 0.001620047248916639 0.007369619590651133
7.60526241520746E7 0.0016260610257341722 0.0074791968724113615 0.9983739389742657 -0.0074791968724113615 0.9983739389742657 -0.0074791968724113615 0.0016260610257341722 0.0074791968724113615
7.720036500730675E7 0.0016322228331929884 0.007590367266253006 0.9983677771668071 -0.007590367266253006 0.9983677771668071 -0.007590367266253006 0.0016322228331929884 0.007590367266253006
7.836542688315398E7 0.0016385355235652946 0.007703152966505908 0.9983614644764348 -0.00770315296650591 0.9983614644764348 -0.00770315296650591 0.0016385355235652946 0.007703152966505908
7.954807117813127E7 0.0016450019711359417 0.007817576470573226 0.998354998028864 -0.007817576470573224 0.998354998028864 -0.007817576470573224 0.0016450019711359417 0.007817576470573226
8.074856323562416E7 0.001651625071341422 0.007933660584517029 0.9983483749286587 -0.007933660584517029 0.9983483749286587 -0.007933660584517029 0.001651625071341422 0.007933660584517029
8.196717240342227E7 0.0016584077399239832 0.008051428428843557 0.9983415922600761 -0.008051428428843557 0.9983415922600761 -0.008051428428843557 0.0016584077399239832 0.008051428428843557
8.320417209415154E7 0.0016653529121085707 0.008170903444494133 0.9983346470878912 -0.008170903444494131 0.9983346470878912 -0.008170903444494131 0.0016653529121085707 0.008170903444494133
8.445983984661816E7 0.0016724635418108474 0.008292109399047445 0.998327536458189 -0.008292109399047443 0.998327536458189 -0.008292109399047443 0.0016724635418108474 0.008292109399047445
8.573445738807854E7 0.0016797426008851818 0.00841507039313883 0.998320257399115 -0.008415070393138832 0.998320257399115 -0.008415070393138832 0.0016797426008851818 0.00841507039313883
8.702831069744885E7 0.0016871930784219521 0.008539810867101594 0.9983128069215781 -0.008539810867101594 0.9983128069215781 -0.008539810867101594 0.0016871930784219521 0.008539810867101594
8.834169006946853E7 0.00169481798010418 0.008666355607835168 0.9983051820198958 -0.008666355607835168 0.9983051820198958 -0.008666355607835168 0.00169481798010418 0.008666355607835168
8.96748901798321E7 0.0017026203276339956 0.00879472975590453 0.9982973796723662 -0.008794729755904531 0.9982973796723662 -0.008794729755904531 0.0017026203276339956 0.00879472975590453
9.1028210151304E7 0.0017106031582399875 0.008924958812874638 0.9982893968417599 -0.008924958812874638 0.9982893968417599 -0.008924958812874638 0.0017106031582399875 0.008924958812874638
9.240195362083109E7 0.0017187695242770222 0.009057068648883245 0.9982812304757228 -0.009057068648883244 0.9982812304757228 -0.009057068648883244 0.0017187695242770222 0.009057068648883245
9.379642880766791E7 0.0017271224929305967 0.009191085510454819 0.9982728775070694 -0.009191085510454819 0.9982728775070694 -0.009191085510454819 0.0017271224929305967 0.009191085510454819
9.521194858253023E7 0.001735665146038265 0.009327036028557622 0.9982643348539618 -0.009327036028557622 0.9982643348539618 -0.009327036028557622 0.001735665146038265 0.009327036028557622
9.664883053779216E7 0.0017444005800411257 0.009464947226905397 0.998255599419959 -0.009464947226905397 0.998255599419959 -0.009464947226905397 0.0017444005800411257 0.009464947226905397
9.810739705874248E7 0.0017533319060787215 0.009604846530504238 0.9982466680939214 -0.00960484653050424 0.9982466680939214 -0.00960484653050424 0.0017533319060787215 0.009604846530504238
9.958797539591652E7 0.0017624622502410816 0.009746761774444486 0.9982375377497589 -0.009746761774444484 0.9982375377497589 -0.009746761774444484 0.0017624622502410816 0.009746761774444486
1.0109089773851961E8 0.0017717947539919374 0.009890721212936724 0.9982282052460081 -0.009890721212936722 0.9982282052460081 -0.009890721212936722 0.0017717947539919374 0.009890721212936724
1.0261650128895843E8 0.0017813325747773688 0.010036753528589898 0.9982186674252227 -0.010036753528589898 0.9982186674252227 -0.010036753528589898 0.0017813325747773688 0.010036753528589898
1.0416512833849736E8 0.001791078886834358 0.010184887841928818 0.9982089211131655 -0.010184887841928817 0.9982089211131655 -0.010184887841928817 0.001791078886834358 0.010184887841928818
1.0573712634405641E8 0.0018010368822138042 0.010335153721147197 0.9981989631177862 -0.010335153721147195 0.9981989631177862 -0.010335153721147195 0.0018010368822138042 0.010335153721147197
1.0733284800616828E8 0.0018112097720326555 0.010487581192091517 0.9981887902279675 -0.010487581192091517 0.9981887902279675 -0.010487581192091517 0.0018112097720326555 0.010487581192091517
1.0895265134811176E8 0.0018216007879697457 0.010642200748469874 0.9981783992120303 -0.010642200748469874 0.9981783992120303 -0.010642200748469874 0.0018216007879697457 0.010642200748469874
1.1059689979623953E8 0.0018322131840198435 0.010799043362278979 0.9981677868159803 -0.010799043362278979 0.9981677868159803 -0.010799043362278979 0.0018322131840198435 0.010799043362278979
1.1226596226151802E8 0.001843050238520224 0.01095814049444139 0.9981569497614798 -0.01095814049444139 0.9981569497614798 -0.01095814049444139 0.001843050238520224 0.01095814049444139
1.1396021322229806E8 0.0018541152564638004 0.011119524105644053 0.9981458847435363 -0.011119524105644055 0.9981458847435363 -0.011119524105644055 0.0018541152564638004 0.011119524105644053
1.1568003280833441E8 0.0018654115721124915 0.011283226667367998 0.9981345884278874 -0.011283226667367996 0.9981345884278874 -0.011283226667367996 0.0018654115721124915 0.011283226667367998
1.1742580688607343E8 0.0018769425519240403 0.011449281173098238 0.9981230574480757 -0.011449281173098238 0.9981230574480757 -0.011449281173098238 0.0018769425519240403 0.011449281173098238
1.1919792714522783E8 0.0018887115978049364 0.011617721149701589 0.9981112884021951 -0.011617721149701589 0.9981112884021951 -0.011617721149701589 0.0018887115978049364 0.011617721149701589
1.2099679118665792E8 0.0019007221507014787 0.01178858066895927 0.9980992778492986 -0.01178858066895927 0.9980992778492986 -0.01178858066895927 0.0019007221507014787 0.01178858066895927
1.2282280261157903E8 0.001912977694540253 0.011961894359240187 0.9980870223054595 -0.011961894359240187 0.9980870223054595 -0.011961894359240187 0.001912977694540253 0.011961894359240187
1.2467637111211549E8 0.0019254817605284687 0.012137697417299753 0.9980745182394714 -0.012137697417299753 0.9980745182394714 -0.012137697417299753 0.0019254817605284687 0.012137697417299753
1.265579125632208E8 0.001938237931823678 0.012316025620188154 0.9980617620681763 -0.012316025620188154 0.9980617620681763 -0.012316025620188154 0.001938237931823678 0.012316025620188154
1.284678491159853E8 0.0019512498485813987 0.012496915337251412 0.9980487501514185 -0.01249691533725141 0.9980487501514185 -0.01249691533725141 0.0019512498485813987 0.012496915337251412
1.3040660929235186E8 0.0019645212133880493 0.01268040354220751 0.9980354787866118 -0.01268040354220751 0.9980354787866118 -0.01268040354220751 0.0019645212133880493 0.01268040354220751
1.3237462808126101E8 0.0019780557970854374 0.01286652782527933 0.9980219442029145 -0.01286652782527933 0.9980219442029145 -0.01286652782527933 0.0019780557970854374 0.01286652782527933
1.3437234703624701E8 0.001991857444991792 0.013055326405365579 0.9980081425550081 -0.013055326405365577 0.9980081425550081 -0.013055326405365577 0.001991857444991792 0.013055326405365579
1.364002143745067E8 0.0020059300835230157 0.013246838142230247 0.997994069916477 -0.01324683814223025 0.997994069916477 -0.01324683814223025 0.0020059300835230157 0.013246838142230247
1.3845868507746372E8 0.0020202777272164438 0.013441102548690952 0.9979797222727835 -0.013441102548690952 0.9979797222727835 -0.013441102548690952 0.0020202777272164438 0.013441102548690952
1.405482209928499E8 0.002034904486158006 0.013638159802785977 0.9979650955138418 -0.013638159802785977 0.9979650955138418 -0.013638159802785977 0.002034904486158006 0.013638159802785977
1.426692909383278E8 0.0020498145738121628 0.013838050759899892 0.9979501854261879 -0.013838050759899892 0.9979501854261879 -0.013838050759899892 0.0020498145738121628 0.013838050759899892
1.4482237080667645E8 0.002065012315252549 0.014040816964827443 0.9979349876847474 -0.014040816964827443 0.9979349876847474 -0.014040816964827443 0.002065012315252549 0.014040816964827443
1.4700794367256513E8 0.0020805021557897016 0.014246500663755522 0.9979194978442104 -0.014246500663755522 0.9979194978442104 -0.014246500663755522 0.0020805021557897016 0.014246500663755522
1.492264999009378E8 0.0020962886699907313 0.014455144816143252 0.9979037113300092 -0.01445514481614325 0.9979037113300092 -0.01445514481614325 0.0020962886699907313 0.014455144816143252
1.5147853725703382E8 0.0021123765710843023 0.01466679310648058 0.9978876234289158 -0.01466679310648058 0.9978876234289158 -0.01466679310648058 0.0021123765710843023 0.01466679310648058
1.5376456101806876E8 0.002128770720742713 0.014881489955906166 0.9978712292792573 -0.014881489955906166 0.9978712292792573 -0.014881489955906166 0.002128770720742713 0.014881489955906166
1.5608508408660066E8 0.0021454761392314748 0.015099280533666048 0.9978545238607684 -0.015099280533666045 0.9978545238607684 -0.015099280533666045 0.0021454761392314748 0.015099280533666048
1.5844062710560706E8 0.002162498015915283 0.015320210768395228 0.9978375019840846 -0.015320210768395225 0.9978375019840846 -0.015320210768395225 0.002162498015915283 0.015320210768395228
1.6083171857529896E8 0.002179841720107919 0.015544327359205324 0.9978201582798922 -0.015544327359205325 0.9978201582798922 -0.015544327359205325 0.002179841720107919 0.015544327359205324
1.632588949716973E8 0.002197512812252303 0.01577167778656217 0.9978024871877477 -0.01577167778656217 0.9978024871877477 -0.01577167778656217 0.002197512812252303 0.01577167778656217
1.6572270086699936E8 0.002215517055415658 0.016002310322938675 0.9977844829445843 -0.016002310322938678 0.9977844829445843 -0.016002310322938678 0.002215517055415658 0.016002310322938675
1.6822368905176118E8 0.0022338604270836075 0.016236274043229085 0.9977661395729164 -0.016236274043229085 0.9977661395729164 -0.016236274043229085 0.0022338604270836075 0.016236274043229085
1.7076242065892437E8 0.002252549131235979 0.0164736188349126 0.9977474508687639 -0.0164736188349126 0.9977474508687639 -0.0164736188349126 0.002252549131235979 0.0164736188349126
1.7333946528971428E8 0.0022715896106860955 0.016714395407955156 0.9977284103893138 -0.016714395407955156 0.9977284103893138 -0.016714395407955156 0.0022715896106860955 0.016714395407955156
1.7595540114143828E8 0.002290988559664551 0.016958655304440098 0.9977090114403354 -0.016958655304440098 0.9977090114403354 -0.016958655304440098 0.002290988559664551 0.016958655304440098
1.786108151372127E8 0.002310752936627749 0.017206450907919925 0.9976892470633721 -0.017206450907919925 0.9976892470633721 -0.017206450907919925 0.002310752936627749 0.017206450907919925
1.8130630305764765E8 0.002330889977270873 0.017457835452482796 0.9976691100227291 -0.017457835452482792 0.9976691100227291 -0.017457835452482792 0.002330889977270873 0.017457835452482796
1.840424696745189E8 0.0023514072077245617 0.017712863031529285 0.9976485927922755 -0.01771286303152929 0.9976485927922755 -0.01771286303152929 0.0023514072077245617 0.017712863031529285
1.8681992888645732E8 0.0023723124579142045 0.01797158860625664 0.9976276875420856 -0.01797158860625664 0.9976276875420856 -0.01797158860625664 0.0023723124579142045 0.01797158860625664
1.8963930385668582E8 0.0023936138750606925 0.018234068013849383 0.9976063861249395 -0.018234068013849383 0.9976063861249395 -0.018234068013849383 0.0023936138750606925 0.018234068013849383
1.92501227152835E8 0.0024153199373013142 0.018500357975376882 0.9975846800626986 -0.018500357975376882 0.9975846800626986 -0.018500357975376882 0.0024153199373013142 0.018500357975376882
1.9540634088886917E8 0.0024374394674097737 0.01877051610340053 0.9975625605325903 -0.01877051610340053 0.9975625605325903 -0.01877051610340053 0.0024374394674097737 0.01877051610340053
1.983552968691535E8 0.0024599816465943904 0.019044600909294336 0.9975400183534057 -0.019044600909294336 0.9975400183534057 -0.019044600909294336 0.0024599816465943904 0.019044600909294336
2.0134875673469606E8 0.0024829560283541035 0.019322671810285106 0.997517043971646 -0.019322671810285106 0.997517043971646 -0.019322671810285106 0.0024829560283541035 0.019322671810285106
2.0438739211159652E8 0.0025063725523723325 0.019604789136219547 0.9974936274476276 -0.019604789136219547 0.9974936274476276 -0.019604789136219547 0.0025063725523723325 0.019604789136219547
2.074718847617352E8 0.0025302415584294146 0.019891014136067385 0.9974697584415706 -0.019891014136067385 0.9974697584415706 -0.019891014136067385 0.0025302415584294146 0.019891014136067385
2.106029267357361E8 0.0025545738003151983 0.02018140898417141 0.9974454261996847 -0.02018140898417141 0.9974454261996847 -0.02018140898417141 0.0025545738003151983 0.02018140898417141
2.1378122052823865E8 0.0025793804597241438 0.02047603678625624 0.997420619540276 -0.02047603678625624 0.997420619540276 -0.02047603678625624 0.0025793804597241438 0.02047603678625624
2.1700747923551247E8 0.002604673160116372 0.020774961585209674 0.9973953268398835 -0.020774961585209674 0.9973953268398835 -0.020774961585209674 0.002604673160116372 0.020774961585209674
2.2028242671545094E8 0.0026304639805291574 0.021078248366651314 0.9973695360194708 -0.021078248366651318 0.9973695360194708 -0.021078248366651318 0.0026304639805291574 0.021078248366651314
2.23606797749979E8 0.0026567654693245065 0.021385963064304528 0.9973432345306755 -0.021385963064304528 0.9973432345306755 -0.021385963064304528 0.0026567654693245065 0.021385963064304528
2.2698133820991236E8 0.0026835906578597563 0.02169817256518903 0.9973164093421402 -0.02169817256518903 0.9973164093421402 -0.02169817256518903 0.0026835906578597563 0.02169817256518903
2.3040680522230446E8 0.0027109530740693855 0.02201494471465216 0.9972890469259307 -0.02201494471465216 0.9972890469259307 -0.02201494471465216 0.0027109530740693855 0.02201494471465216
2.338839673403185E8 0.002738866755947629 0.022336348321258012 0.9972611332440523 -0.022336348321258012 0.9972611332440523 -0.022336348321258012 0.002738866755947629 0.022336348321258012
2.37413604715664E8 0.0027673462649228453 0.0226624531615544 0.9972326537350772 -0.0226624531615544 0.9972326537350772 -0.0226624531615544 0.0027673462649228453 0.0226624531615544
