!Murata Part Number: LQP02TQ18NH02
!These Parameters are Measured in Series Mode Connection
!       o--[Z]--o
!Port1              Port2
!       o-------o
!
!Freq. Start=50[MHz] Stop=20[GHz], 401[Steps]
# Hz S RI R 50
!Freq.(Hz) S11(Real) S11(Imag) S21(Real) S21(Imag) S12(Real) S12(Imag) S22(Real) S22(Imag)
5.0E7 0.02209185667134436 0.06048558599075765 0.9779081433286557 -0.06048558599075765 0.9779081433286557 -0.06048558599075765 0.02209185667134436 0.06048558599075765
5.0754570186123446E7 0.022245253280572353 0.06137031722898747 0.9777547467194277 -0.06137031722898747 0.9777547467194277 -0.06137031722898747 0.022245253280572353 0.06137031722898747
5.152052789556263E7 0.022402880899913352 0.06226750011727524 0.9775971191000867 -0.06226750011727525 0.9775971191000867 -0.06226750011727525 0.022402880899913352 0.06226750011727524
5.229804498202928E7 0.022564852279440557 0.06317728774957308 0.9774351477205596 -0.06317728774957308 0.9774351477205596 -0.06317728774957308 0.022564852279440557 0.06317728774957308
5.308729589274893E7 0.022731282806367454 0.06409983437869397 0.9772687171936326 -0.06409983437869397 0.9772687171936326 -0.06409983437869397 0.022731282806367454 0.06409983437869397
5.388845770760058E7 0.022902290558458174 0.06503529540713116 0.9770977094415421 -0.06503529540713114 0.9770977094415421 -0.06503529540713114 0.022902290558458174 0.06503529540713116
5.470171017884717E7 0.023077996358684395 0.06598382737727923 0.9769220036413157 -0.06598382737727923 0.9769220036413157 -0.06598382737727923 0.023077996358684395 0.06598382737727923
5.5527235771465644E7 0.023258523831181682 0.06694558796102593 0.9767414761688181 -0.06694558796102593 0.9767414761688181 -0.06694558796102593 0.023258523831181682 0.06694558796102593
5.6365219704085544E7 0.023443999458559742 0.0679207359486785 0.9765560005414402 -0.0679207359486785 0.9765560005414402 -0.0679207359486785 0.023443999458559742 0.0679207359486785
5.721584999054556E7 0.0236345526406235 0.06890943123718596 0.9763654473593766 -0.06890943123718596 0.9763654473593766 -0.06890943123718596 0.0236345526406235 0.06890943123718596
5.807931748207712E7 0.02383031575456374 0.06991183481761298 0.9761696842454363 -0.06991183481761298 0.9761696842454363 -0.06991183481761298 0.02383031575456374 0.06991183481761298
5.8955815910124585E7 0.024031424216678143 0.07092810876181792 0.9759685757833219 -0.07092810876181792 0.9759685757833219 -0.07092810876181792 0.024031424216678143 0.07092810876181792
5.984554192981184E7 0.024238016545684384 0.07195841620828033 0.9757619834543158 -0.07195841620828033 0.9757619834543158 -0.07195841620828033 0.024238016545684384 0.07195841620828033
6.074869516406457E7 0.02445023442768946 0.07300292134702023 0.9755497655723104 -0.07300292134702023 0.9755497655723104 -0.07300292134702023 0.02445023442768946 0.07300292134702023
6.166547824839868E7 0.024668222782879463 0.0740617894035444 0.9753317772171205 -0.0740617894035444 0.9753317772171205 -0.0740617894035444 0.024668222782879463 0.0740617894035444
6.2596096876384385E7 0.02489212983399529 0.07513518662174871 0.9751078701660046 -0.0751351866217487 0.9751078701660046 -0.0751351866217487 0.02489212983399529 0.07513518662174871
6.354075984579668E7 0.025122107176660132 0.07622328024570045 0.97487789282334 -0.07622328024570045 0.97487789282334 -0.07622328024570045 0.025122107176660132 0.07622328024570045
6.449967910546205E7 0.025358309851624627 0.07732623850021662 0.9746416901483754 -0.07732623850021661 0.9746416901483754 -0.07732623850021661 0.025358309851624627 0.07732623850021662
6.547306980281226E7 0.025600896418995073 0.07844423057014797 0.9743991035810049 -0.07844423057014797 0.9743991035810049 -0.07844423057014797 0.025600896418995073 0.07844423057014797
6.646115033215589E7 0.02585002903450923 0.0795774265782713 0.9741499709654908 -0.0795774265782713 0.9741499709654908 -0.0795774265782713 0.02585002903450923 0.0795774265782713
6.746414238367817E7 0.026105873527923464 0.08072599756168525 0.9738941264720766 -0.08072599756168525 0.9738941264720766 -0.08072599756168525 0.026105873527923464 0.08072599756168525
6.848227099318038E7 0.02636859948357183 0.08189011544659647 0.9736314005164282 -0.08189011544659647 0.9736314005164282 -0.08189011544659647 0.02636859948357183 0.08189011544659647
6.951576459256999E7 0.026638380323157004 0.083069953021377 0.9733616196768429 -0.08306995302137699 0.9733616196768429 -0.08306995302137699 0.026638380323157004 0.083069953021377
7.056485506111258E7 0.02691539339082848 0.0842656839077637 0.9730846066091716 -0.0842656839077637 0.9730846066091716 -0.0842656839077637 0.02691539339082848 0.0842656839077637
7.162977777745734E7 0.027199820040600352 0.08547748253006408 0.9728001799593995 -0.08547748253006408 0.9728001799593995 -0.08547748253006408 0.027199820040600352 0.08547748253006408
7.271077167244768E7 0.02749184572615748 0.08670552408222537 0.9725081542738426 -0.08670552408222537 0.9725081542738426 -0.08670552408222537 0.02749184572615748 0.08670552408222537
7.380807928272885E7 0.02779166009309225 0.0879499844926134 0.9722083399069079 -0.08794998449261342 0.9722083399069079 -0.08794998449261342 0.02779166009309225 0.0879499844926134
7.492194680516452E7 0.028099457073610456 0.0892110403863432 0.9719005429263894 -0.0892110403863432 0.9719005429263894 -0.0892110403863432 0.028099457073610456 0.0892110403863432
7.60526241520746E7 0.028415434983737123 0.09048886904499298 0.971584565016263 -0.09048886904499298 0.971584565016263 -0.09048886904499298 0.028415434983737123 0.09048886904499298
7.720036500730675E7 0.028739796623046873 0.09178364836352673 0.971260203376953 -0.09178364836352673 0.971260203376953 -0.09178364836352673 0.028739796623046873 0.09178364836352673
7.836542688315398E7 0.029072749376935752 0.093095556804244 0.9709272506230643 -0.093095556804244 0.9709272506230643 -0.093095556804244 0.029072749376935752 0.093095556804244
7.954807117813127E7 0.02941450532144289 0.09442477334756688 0.9705854946785573 -0.09442477334756688 0.9705854946785573 -0.09442477334756688 0.02941450532144289 0.09442477334756688
8.074856323562416E7 0.029765281330621826 0.09577147743946977 0.9702347186693783 -0.09577147743946979 0.9702347186693783 -0.09577147743946979 0.029765281330621826 0.09577147743946977
8.196717240342227E7 0.030125299186451356 0.09713584893534946 0.9698747008135487 -0.09713584893534945 0.9698747008135487 -0.09713584893534945 0.030125299186451356 0.09713584893534946
8.320417209415154E7 0.03049478569126605 0.0985180680401291 0.969505214308734 -0.0985180680401291 0.969505214308734 -0.0985180680401291 0.03049478569126605 0.0985180680401291
8.445983984661816E7 0.03087397278267551 0.0999183152443839 0.9691260272173244 -0.0999183152443839 0.9691260272173244 -0.0999183152443839 0.03087397278267551 0.0999183152443839
8.573445738807854E7 0.0312630976509305 0.10133677125627184 0.9687369023490695 -0.10133677125627184 0.9687369023490695 -0.10133677125627184 0.0312630976509305 0.10133677125627184
8.702831069744885E7 0.03166240285868211 0.10277361692904967 0.968337597141318 -0.10277361692904967 0.968337597141318 -0.10277361692904967 0.03166240285868211 0.10277361692904967
8.834169006946853E7 0.03207213646306834 0.10422903318395119 0.9679278635369315 -0.10422903318395116 0.9679278635369315 -0.10422903318395116 0.03207213646306834 0.10422903318395119
8.96748901798321E7 0.03249255214004994 0.10570320092820236 0.96750744785995 -0.10570320092820236 0.96750744785995 -0.10570320092820236 0.03249255214004994 0.10570320092820236
9.1028210151304E7 0.032923909310904366 0.10719630096794744 0.9670760906890955 -0.10719630096794744 0.9670760906890955 -0.10719630096794744 0.032923909310904366 0.10719630096794744
9.240195362083109E7 0.03336647327077451 0.10870851391585794 0.9666335267292255 -0.10870851391585794 0.9666335267292255 -0.10870851391585794 0.03336647327077451 0.10870851391585794
9.379642880766791E7 0.033820515319154885 0.11024002009319894 0.966179484680845 -0.11024002009319894 0.966179484680845 -0.11024002009319894 0.033820515319154885 0.11024002009319894
9.521194858253023E7 0.03428631289218594 0.11179099942612614 0.9657136871078139 -0.11179099942612614 0.9657136871078139 -0.11179099942612614 0.03428631289218594 0.11179099942612614
9.664883053779216E7 0.0347641496966133 0.1133616313359909 0.9652358503033868 -0.11336163133599093 0.9652358503033868 -0.11336163133599093 0.0347641496966133 0.1133616313359909
9.810739705874248E7 0.035254315845256574 0.11495209462343228 0.9647456841547435 -0.11495209462343228 0.9647456841547435 -0.11495209462343228 0.035254315845256574 0.11495209462343228
9.958797539591652E7 0.03575710799381902 0.11656256734603865 0.9642428920061812 -0.11656256734603865 0.9642428920061812 -0.11656256734603865 0.03575710799381902 0.11656256734603865
1.0109089773851961E8 0.03627282947885793 0.1181932266893677 0.963727170521142 -0.1181932266893677 0.963727170521142 -0.1181932266893677 0.03627282947885793 0.1181932266893677
1.0261650128895843E8 0.03680179045672276 0.11984424883111662 0.9631982095432773 -0.11984424883111662 0.9631982095432773 -0.11984424883111662 0.03680179045672276 0.11984424883111662
1.0416512833849736E8 0.03734430804325711 0.12151580879824124 0.9626556919567427 -0.12151580879824127 0.9626556919567427 -0.12151580879824127 0.03734430804325711 0.12151580879824124
1.0573712634405641E8 0.037900706454049735 0.1232080803168304 0.9620992935459504 -0.1232080803168304 0.9620992935459504 -0.1232080803168304 0.037900706454049735 0.1232080803168304
1.0733284800616828E8 0.03847131714500889 0.1249212356545471 0.961528682854991 -0.12492123565454712 0.961528682854991 -0.12492123565454712 0.03847131714500889 0.1249212356545471
1.0895265134811176E8 0.0390564789530256 0.1266554454554574 0.9609435210469743 -0.1266554454554574 0.9609435210469743 -0.1266554454554574 0.0390564789530256 0.1266554454554574
1.1059689979623953E8 0.0396565382364812 0.12841087856707442 0.9603434617635187 -0.12841087856707442 0.9603434617635187 -0.12841087856707442 0.0396565382364812 0.12841087856707442
1.1226596226151802E8 0.04027184901534776 0.13018770185945502 0.959728150984652 -0.13018770185945502 0.959728150984652 -0.13018770185945502 0.04027184901534776 0.13018770185945502
1.1396021322229806E8 0.04090277311062136 0.13198608003619347 0.9590972268893786 -0.13198608003619347 0.9590972268893786 -0.13198608003619347 0.04090277311062136 0.13198608003619347
1.1568003280833441E8 0.041549680282821466 0.13380617543716503 0.9584503197171785 -0.13380617543716503 0.9584503197171785 -0.13380617543716503 0.041549680282821466 0.13380617543716503
1.1742580688607343E8 0.042212948369285075 0.13564814783288318 0.9577870516307149 -0.13564814783288318 0.9577870516307149 -0.13564814783288318 0.042212948369285075 0.13564814783288318
1.1919792714522783E8 0.04289296341997742 0.13751215421033897 0.9571070365800226 -0.13751215421033897 0.9571070365800226 -0.13751215421033897 0.04289296341997742 0.13751215421033897
1.2099679118665792E8 0.04359011983153747 0.13939834855020208 0.9564098801684625 -0.13939834855020208 0.9564098801684625 -0.13939834855020208 0.04359011983153747 0.13939834855020208
1.2282280261157903E8 0.04430482047927228 0.14130688159526855 0.9556951795207276 -0.14130688159526855 0.9556951795207276 -0.14130688159526855 0.04430482047927228 0.14130688159526855
1.2467637111211549E8 0.04503747684681159 0.14323790061004968 0.9549625231531885 -0.14323790061004968 0.9549625231531885 -0.14323790061004968 0.04503747684681159 0.14323790061004968
1.265579125632208E8 0.04578850915312956 0.14519154913139928 0.9542114908468703 -0.14519154913139926 0.9542114908468703 -0.14519154913139926 0.04578850915312956 0.14519154913139928
1.284678491159853E8 0.046558346476640894 0.14716796671008758 0.9534416535233591 -0.14716796671008758 0.9534416535233591 -0.14716796671008758 0.046558346476640894 0.14716796671008758
1.3040660929235186E8 0.047347426876073136 0.149167288643229 0.952652573123927 -0.14916728864322903 0.952652573123927 -0.14916728864322903 0.047347426876073136 0.149167288643229
1.3237462808126101E8 0.04815619750781742 0.15118964569747986 0.9518438024921827 -0.15118964569747986 0.9518438024921827 -0.15118964569747986 0.04815619750781742 0.15118964569747986
1.3437234703624701E8 0.048985114739456874 0.15323516382292304 0.9510148852605432 -0.15323516382292304 0.9510148852605432 -0.15323516382292304 0.048985114739456874 0.15323516382292304
1.364002143745067E8 0.04983464425916899 0.15530396385755849 0.950165355740831 -0.15530396385755849 0.950165355740831 -0.15530396385755849 0.04983464425916899 0.15530396385755849
1.3845868507746372E8 0.05070526118069653 0.1573961612223209 0.9492947388193035 -0.1573961612223209 0.9492947388193035 -0.1573961612223209 0.05070526118069653 0.1573961612223209
1.405482209928499E8 0.05159745014357764 0.1595118656065445 0.9484025498564225 -0.15951186560654448 0.9484025498564225 -0.15951186560654448 0.05159745014357764 0.1595118656065445
1.426692909383278E8 0.05251170540832173 0.1616511806437956 0.9474882945916783 -0.1616511806437956 0.9474882945916783 -0.1616511806437956 0.05251170540832173 0.1616511806437956
1.4482237080667645E8 0.053448530946213 0.16381420357798998 0.9465514690537872 -0.16381420357799 0.9465514690537872 -0.16381420357799 0.053448530946213 0.16381420357798998
1.4700794367256513E8 0.054408440523416673 0.16600102491971094 0.9455915594765835 -0.16600102491971094 0.9455915594765835 -0.16600102491971094 0.054408440523416673 0.16600102491971094
1.492264999009378E8 0.05539195777905596 0.16821172809263996 0.9446080422209439 -0.16821172809263996 0.9446080422209439 -0.16821172809263996 0.05539195777905596 0.16821172809263996
1.5147853725703382E8 0.056399616296918184 0.17044638907000745 0.9436003837030817 -0.17044638907000742 0.9436003837030817 -0.17044638907000742 0.056399616296918184 0.17044638907000745
1.5376456101806876E8 0.05743195967043711 0.17270507600096635 0.9425680403295628 -0.17270507600096632 0.9425680403295628 -0.17270507600096632 0.05743195967043711 0.17270507600096635
1.5608508408660066E8 0.0584895415605871 0.17498784882678847 0.9415104584394128 -0.17498784882678844 0.9415104584394128 -0.17498784882678844 0.0584895415605871 0.17498784882678847
1.5844062710560706E8 0.059572925746307105 0.1772947588867749 0.940427074253693 -0.1772947588867749 0.940427074253693 -0.1772947588867749 0.059572925746307105 0.1772947588867749
1.6083171857529896E8 0.06068268616705778 0.1796258485137705 0.9393173138329423 -0.1796258485137705 0.9393173138329423 -0.1796258485137705 0.06068268616705778 0.1796258485137705
1.632588949716973E8 0.061819406957093245 0.1819811506191665 0.9381805930429066 -0.18198115061916648 0.9381805930429066 -0.18198115061916648 0.061819406957093245 0.1819811506191665
1.6572270086699936E8 0.06298368247100769 0.18436068826727142 0.9370163175289926 -0.18436068826727142 0.9370163175289926 -0.18436068826727142 0.06298368247100769 0.18436068826727142
1.6822368905176118E8 0.06417611730009129 0.18676447423892822 0.9358238826999086 -0.18676447423892822 0.9358238826999086 -0.18676447423892822 0.06417611730009129 0.18676447423892822
1.7076242065892437E8 0.06539732627900433 0.18919251058425646 0.9346026737209956 -0.1891925105842565 0.9346026737209956 -0.1891925105842565 0.06539732627900433 0.18919251058425646
1.7333946528971428E8 0.06664793448224399 0.19164478816439312 0.933352065517756 -0.19164478816439312 0.933352065517756 -0.19164478816439312 0.06664793448224399 0.19164478816439312
1.7595540114143828E8 0.06792857720985068 0.19412128618211572 0.9320714227901495 -0.1941212861821157 0.9320714227901495 -0.1941212861821157 0.06792857720985068 0.19412128618211572
1.786108151372127E8 0.06923989996176079 0.19662197170123122 0.9307601000382392 -0.1966219717012312 0.9307601000382392 -0.1966219717012312 0.06923989996176079 0.19662197170123122
1.8130630305764765E8 0.0705825584001773 0.19914679915462463 0.9294174415998229 -0.19914679915462463 0.9294174415998229 -0.19914679915462463 0.0705825584001773 0.19914679915462463
1.840424696745189E8 0.07195721829928754 0.20169570984086993 0.9280427817007124 -0.20169570984086993 0.9280427817007124 -0.20169570984086993 0.07195721829928754 0.20169570984086993
1.8681992888645732E8 0.07336455548161766 0.20426863140932686 0.9266354445183823 -0.20426863140932686 0.9266354445183823 -0.20426863140932686 0.07336455548161766 0.20426863140932686
1.8963930385668582E8 0.07480525574026511 0.2068654773336586 0.9251947442597348 -0.2068654773336586 0.9251947442597348 -0.2068654773336586 0.07480525574026511 0.2068654773336586
1.92501227152835E8 0.07628001474620771 0.20948614637373442 0.9237199852537924 -0.20948614637373447 0.9237199852537924 -0.20948614637373447 0.07628001474620771 0.20948614637373442
1.9540634088886917E8 0.07778953793983893 0.21213052202590862 0.9222104620601611 -0.21213052202590862 0.9222104620601611 -0.21213052202590862 0.07778953793983893 0.21213052202590862
1.983552968691535E8 0.07933454040583192 0.21479847196169982 0.9206654595941682 -0.21479847196169988 0.9206654595941682 -0.21479847196169988 0.07933454040583192 0.21479847196169982
2.0134875673469606E8 0.08091574673038418 0.21748984745493385 0.9190842532696156 -0.21748984745493385 0.9190842532696156 -0.21748984745493385 0.08091574673038418 0.21748984745493385
2.0438739211159652E8 0.08253389083985015 0.22020448279746094 0.9174661091601499 -0.22020448279746097 0.9174661091601499 -0.22020448279746097 0.08253389083985015 0.22020448279746094
2.074718847617352E8 0.0841897158197151 0.2229421947036042 0.9158102841802848 -0.2229421947036042 0.9158102841802848 -0.2229421947036042 0.0841897158197151 0.2229421947036042
2.106029267357361E8 0.08588397371282475 0.22570278170356053 0.9141160262871754 -0.22570278170356056 0.9141160262871754 -0.22570278170356056 0.08588397371282475 0.22570278170356053
2.1378122052823865E8 0.08761742529573188 0.2284860235260311 0.9123825747042682 -0.2284860235260311 0.9123825747042682 -0.2284860235260311 0.08761742529573188 0.2284860235260311
2.1700747923551247E8 0.08939083983198491 0.2312916804704351 0.9106091601680152 -0.2312916804704351 0.9106091601680152 -0.2312916804704351 0.08939083983198491 0.2312916804704351
2.2028242671545094E8 0.09120499480114137 0.23411949276913538 0.9087950051988586 -0.23411949276913532 0.9087950051988586 -0.23411949276913532 0.09120499480114137 0.23411949276913538
2.23606797749979E8 0.09306067560225262 0.2369691799401841 0.9069393243977473 -0.2369691799401841 0.9069393243977473 -0.2369691799401841 0.09306067560225262 0.2369691799401841
2.2698133820991236E8 0.09495867523053893 0.2398404401311957 0.9050413247694611 -0.2398404401311957 0.9050413247694611 -0.2398404401311957 0.09495867523053893 0.2398404401311957
2.3040680522230446E8 0.0968997939259426 0.24273294945503798 0.9031002060740575 -0.24273294945503798 0.9031002060740575 -0.24273294945503798 0.0968997939259426 0.24273294945503798
2.338839673403185E8 0.098884838792233 0.24564636131814585 0.9011151612077669 -0.24564636131814585 0.9011151612077669 -0.24564636131814585 0.098884838792233 0.24564636131814585
2.37413604715664E8 0.1009146233853209 0.24858030574236403 0.8990853766146791 -0.24858030574236403 0.8990853766146791 -0.24858030574236403 0.1009146233853209 0.24858030574236403
2.4099650927363476E8 0.10298996726943331 0.2515343886813369 0.8970100327305668 -0.2515343886813369 0.8970100327305668 -0.2515343886813369 0.10298996726943331 0.2515343886813369
2.446334848907889E8 0.10511169553980725 0.25450819133258784 0.8948883044601926 -0.25450819133258784 0.8948883044601926 -0.25450819133258784 0.10511169553980725 0.25450819133258784
2.4832534757531032E8 0.10728063831056783 0.2575012694465469 0.8927193616894322 -0.2575012694465469 0.8927193616894322 -0.2575012694465469 0.10728063831056783 0.2575012694465469
2.5207292565009177E8 0.1094976301664781 0.2605131526339108 0.890502369833522 -0.2605131526339108 0.890502369833522 -0.2605131526339108 0.1094976301664781 0.2605131526339108
