!Murata Part Number: LQP02TQ6N2H02
!These Parameters are Measured in Series Mode Connection
!       o--[Z]--o
!Port1              Port2
!       o-------o
!
!Freq. Start=50[MHz] Stop=20[GHz], 401[Steps]
# Hz S RI R 50
!Freq.(Hz) S11(Real) S11(Imag) S21(Real) S21(Imag) S12(Real) S12(Imag) S22(Real) S22(Imag)
5.0E7 0.008122005940311672 0.021032667009827026 0.9918779940596882 -0.021032667009827023 0.9918779940596882 -0.021032667009827023 0.008122005940311672 0.021032667009827026
5.0754570186123446E7 0.008145671368555835 0.021345181796711386 0.9918543286314443 -0.02134518179671139 0.9918543286314443 -0.02134518179671139 0.008145671368555835 0.021345181796711386
5.152052789556263E7 0.008169944799931756 0.021662249482161753 0.9918300552000682 -0.02166224948216175 0.9918300552000682 -0.02166224948216175 0.008169944799931756 0.021662249482161753
5.229804498202928E7 0.008194840292652118 0.021983934604593813 0.9918051597073478 -0.021983934604593813 0.9918051597073478 -0.021983934604593813 0.008194840292652118 0.021983934604593813
5.308729589274893E7 0.00822037220940391 0.022310302632518205 0.991779627790596 -0.02231030263251821 0.991779627790596 -0.02231030263251821 0.00822037220940391 0.022310302632518205
5.388845770760058E7 0.00824655522639785 0.02264141998065046 0.9917534447736022 -0.02264141998065046 0.9917534447736022 -0.02264141998065046 0.00824655522639785 0.02264141998065046
5.470171017884717E7 0.008273404342891187 0.022977354026299166 0.9917265956571089 -0.02297735402629917 0.9917265956571089 -0.02297735402629917 0.008273404342891187 0.022977354026299166
5.5527235771465644E7 0.008300934891204377 0.02331817312602404 0.9916990651087955 -0.02331817312602404 0.9916990651087955 -0.02331817312602404 0.008300934891204377 0.02331817312602404
5.6365219704085544E7 0.008329162547252241 0.023663946632555204 0.9916708374527479 -0.023663946632555208 0.9916708374527479 -0.023663946632555208 0.008329162547252241 0.023663946632555204
5.721584999054556E7 0.008358103341610067 0.024014744911963568 0.9916418966583901 -0.02401474491196357 0.9916418966583901 -0.02401474491196357 0.008358103341610067 0.024014744911963568
5.807931748207712E7 0.00838777367113472 0.024370639361071308 0.9916122263288653 -0.024370639361071304 0.9916122263288653 -0.024370639361071304 0.00838777367113472 0.024370639361071308
5.8955815910124585E7 0.008418190311160808 0.02473170242509046 0.9915818096888392 -0.024731702425090457 0.9915818096888392 -0.024731702425090457 0.008418190311160808 0.02473170242509046
5.984554192981184E7 0.00844937042829136 0.02509800761547662 0.9915506295717085 -0.02509800761547662 0.9915506295717085 -0.02509800761547662 0.00844937042829136 0.02509800761547662
6.074869516406457E7 0.008481331593802321 0.025469629527984018 0.9915186684061977 -0.025469629527984018 0.9915186684061977 -0.025469629527984018 0.008481331593802321 0.025469629527984018
6.166547824839868E7 0.008514091797679398 0.02584664386090693 0.9914859082023205 -0.02584664386090693 0.9914859082023205 -0.02584664386090693 0.008514091797679398 0.02584664386090693
6.2596096876384385E7 0.008547669463305572 0.026229127433492046 0.9914523305366946 -0.026229127433492046 0.9914523305366946 -0.026229127433492046 0.008547669463305572 0.026229127433492046
6.354075984579668E7 0.008582083462816824 0.02661715820450527 0.9914179165371831 -0.02661715820450527 0.9914179165371831 -0.02661715820450527 0.008582083462816824 0.02661715820450527
6.449967910546205E7 0.008617353133143067 0.02701081529093593 0.991382646866857 -0.02701081529093593 0.991382646866857 -0.02701081529093593 0.008617353133143067 0.02701081529093593
6.547306980281226E7 0.008653498292750583 0.027410178986820327 0.9913465017072496 -0.027410178986820327 0.9913465017072496 -0.027410178986820327 0.008653498292750583 0.027410178986820327
6.646115033215589E7 0.008690539259101694 0.027815330782166643 0.9913094607408982 -0.027815330782166643 0.9913094607408982 -0.027815330782166643 0.008690539259101694 0.027815330782166643
6.746414238367817E7 0.008728496866846517 0.02822635338196183 0.9912715031331536 -0.028226353381961836 0.9912715031331536 -0.028226353381961836 0.008728496866846517 0.02822635338196183
6.848227099318038E7 0.008767392486761113 0.028643330725241428 0.9912326075132388 -0.028643330725241428 0.9912326075132388 -0.028643330725241428 0.008767392486761113 0.028643330725241428
6.951576459256999E7 0.008807248045445457 0.029066348004202415 0.9911927519545545 -0.029066348004202415 0.9911927519545545 -0.029066348004202415 0.008807248045445457 0.029066348004202415
7.056485506111258E7 0.008848086045793973 0.029495491683338943 0.991151913954206 -0.029495491683338943 0.991151913954206 -0.029495491683338943 0.008848086045793973 0.029495491683338943
7.162977777745734E7 0.00888992958825085 0.029930849518580768 0.9911100704117489 -0.029930849518580768 0.9911100704117489 -0.029930849518580768 0.00888992958825085 0.029930849518580768
7.271077167244768E7 0.008932802392861287 0.030372510576413828 0.9910671976071388 -0.030372510576413828 0.9910671976071388 -0.030372510576413828 0.008932802392861287 0.030372510576413828
7.380807928272885E7 0.008976728822129574 0.030820565252962354 0.9910232711778705 -0.030820565252962354 0.9910232711778705 -0.030820565252962354 0.008976728822129574 0.030820565252962354
7.492194680516452E7 0.009021733904694018 0.031275105293012015 0.9909782660953058 -0.03127510529301202 0.9909782660953058 -0.03127510529301202 0.009021733904694018 0.031275105293012015
7.60526241520746E7 0.009067843359828243 0.03173622380895343 0.9909321566401718 -0.03173622380895344 0.9909321566401718 -0.03173622380895344 0.009067843359828243 0.03173622380895343
7.720036500730675E7 0.009115083622777903 0.03220401529962551 0.9908849163772222 -0.032204015299625514 0.9908849163772222 -0.032204015299625514 0.009115083622777903 0.03220401529962551
7.836542688315398E7 0.009163481870941395 0.03267857566903838 0.9908365181290586 -0.03267857566903838 0.9908365181290586 -0.03267857566903838 0.009163481870941395 0.03267857566903838
7.954807117813127E7 0.009213066050902639 0.03316000224495555 0.9907869339490974 -0.03316000224495555 0.9907869339490974 -0.03316000224495555 0.009213066050902639 0.03316000224495555
8.074856323562416E7 0.009263864906323985 0.033648393797315296 0.9907361350936759 -0.033648393797315296 0.9907361350936759 -0.033648393797315296 0.009263864906323985 0.033648393797315296
8.196717240342227E7 0.009315908006706676 0.03414385055647146 0.9906840919932934 -0.03414385055647146 0.9906840919932934 -0.03414385055647146 0.009315908006706676 0.03414385055647146
8.320417209415154E7 0.009369225777026514 0.03464647423123412 0.9906307742229734 -0.03464647423123412 0.9906307742229734 -0.03464647423123412 0.009369225777026514 0.03464647423123412
8.445983984661816E7 0.009423849528252051 0.03515636802669046 0.990576150471748 -0.03515636802669046 0.990576150471748 -0.03515636802669046 0.009423849528252051 0.03515636802669046
8.573445738807854E7 0.009479811488752753 0.035673636661787064 0.9905201885112472 -0.035673636661787064 0.9905201885112472 -0.035673636661787064 0.009479811488752753 0.035673636661787064
8.702831069744885E7 0.009537144836604691 0.036198386386654006 0.9904628551633953 -0.036198386386654006 0.9904628551633953 -0.036198386386654006 0.009537144836604691 0.036198386386654006
8.834169006946853E7 0.009595883732801272 0.03673072499965224 0.9904041162671988 -0.03673072499965224 0.9904041162671988 -0.03673072499965224 0.009595883732801272 0.03673072499965224
8.96748901798321E7 0.009656063355377211 0.03727076186412531 0.9903439366446227 -0.03727076186412531 0.9903439366446227 -0.03727076186412531 0.009656063355377211 0.03727076186412531
9.1028210151304E7 0.009717719934453644 0.037818607924836586 0.9902822800655463 -0.03781860792483658 0.9902822800655463 -0.03781860792483658 0.009717719934453644 0.037818607924836586
9.240195362083109E7 0.009780890788213188 0.038374375724072866 0.9902191092117868 -0.038374375724072866 0.9902191092117868 -0.038374375724072866 0.009780890788213188 0.038374375724072866
9.379642880766791E7 0.009845614359813844 0.038938179417395885 0.9901543856401862 -0.038938179417395885 0.9901543856401862 -0.038938179417395885 0.009845614359813844 0.038938179417395885
9.521194858253023E7 0.009911930255251162 0.039510134789021774 0.9900880697447488 -0.039510134789021774 0.9900880697447488 -0.039510134789021774 0.009911930255251162 0.039510134789021774
9.664883053779216E7 0.009979879282178777 0.040090359266809955 0.9900201207178213 -0.040090359266809955 0.9900201207178213 -0.040090359266809955 0.009979879282178777 0.040090359266809955
9.810739705874248E7 0.010049503489697484 0.04067897193684042 0.9899504965103025 -0.040678971936840426 0.9899504965103025 -0.040678971936840426 0.010049503489697484 0.04067897193684042
9.958797539591652E7 0.010120846209124075 0.04127609355755994 0.9898791537908759 -0.04127609355755994 0.9898791537908759 -0.04127609355755994 0.010120846209124075 0.04127609355755994
1.0109089773851961E8 0.010193952095751213 0.041881846573475684 0.9898060479042489 -0.041881846573475684 0.9898060479042489 -0.041881846573475684 0.010193952095751213 0.041881846573475684
1.0261650128895843E8 0.01026886717161043 0.04249635512837475 0.9897311328283893 -0.04249635512837474 0.9897311328283893 -0.04249635512837474 0.01026886717161043 0.04249635512837475
1.0416512833849736E8 0.01034563886925056 0.04311974507804707 0.9896543611307494 -0.04311974507804708 0.9896543611307494 -0.04311974507804708 0.01034563886925056 0.04311974507804707
1.0573712634405641E8 0.010424316076544496 0.043752144002488315 0.9895756839234554 -0.043752144002488315 0.9895756839234554 -0.043752144002488315 0.010424316076544496 0.043752144002488315
1.0733284800616828E8 0.010504949182537485 0.044393681217558455 0.9894950508174625 -0.044393681217558455 0.9894950508174625 -0.044393681217558455 0.010504949182537485 0.044393681217558455
1.0895265134811176E8 0.010587590124350354 0.04504448778607035 0.9894124098756496 -0.04504448778607034 0.9894124098756496 -0.04504448778607034 0.010587590124350354 0.04504448778607035
1.1059689979623953E8 0.01067229243515146 0.045704696528282164 0.9893277075648486 -0.045704696528282164 0.9893277075648486 -0.045704696528282164 0.01067229243515146 0.045704696528282164
1.1226596226151802E8 0.010759111293211134 0.04637444203176529 0.989240888706789 -0.04637444203176529 0.989240888706789 -0.04637444203176529 0.010759111293211134 0.04637444203176529
1.1396021322229806E8 0.01084810357205248 0.047053860660619014 0.9891518964279473 -0.047053860660619014 0.9891518964279473 -0.047053860660619014 0.01084810357205248 0.047053860660619014
1.1568003280833441E8 0.010939327891712293 0.04774309056400135 0.9890606721082877 -0.04774309056400135 0.9890606721082877 -0.04774309056400135 0.010939327891712293 0.04774309056400135
1.1742580688607343E8 0.011032844671125653 0.04844227168394416 0.9889671553288745 -0.04844227168394416 0.9889671553288745 -0.04844227168394416 0.011032844671125653 0.04844227168394416
1.1919792714522783E8 0.011128716181647513 0.049151545762419466 0.9888712838183524 -0.049151545762419466 0.9888712838183524 -0.049151545762419466 0.011128716181647513 0.049151545762419466
1.2099679118665792E8 0.011227006601724059 0.0498710563476223 0.988772993398276 -0.0498710563476223 0.988772993398276 -0.0498710563476223 0.011227006601724059 0.0498710563476223
1.2282280261157903E8 0.011327782072726179 0.05060094879943393 0.9886722179272739 -0.05060094879943393 0.9886722179272739 -0.05060094879943393 0.011327782072726179 0.05060094879943393
1.2467637111211549E8 0.01143111075595664 0.051341370294028285 0.9885688892440434 -0.05134137029402828 0.9885688892440434 -0.05134137029402828 0.01143111075595664 0.051341370294028285
1.265579125632208E8 0.011537062890841835 0.05209246982758268 0.9884629371091582 -0.05209246982758268 0.9884629371091582 -0.05209246982758268 0.011537062890841835 0.05209246982758268
1.284678491159853E8 0.01164571085431796 0.05285439821905276 0.9883542891456819 -0.05285439821905276 0.9883542891456819 -0.05285439821905276 0.01164571085431796 0.05285439821905276
1.3040660929235186E8 0.011757129221420658 0.05362730811197046 0.9882428707785793 -0.05362730811197046 0.9882428707785793 -0.05362730811197046 0.011757129221420658 0.05362730811197046
1.3237462808126101E8 0.011871394827085928 0.05441135397522257 0.988128605172914 -0.05441135397522257 0.988128605172914 -0.05441135397522257 0.011871394827085928 0.05441135397522257
1.3437234703624701E8 0.01198858682916875 0.05520669210276604 0.9880114131708313 -0.05520669210276604 0.9880114131708313 -0.05520669210276604 0.01198858682916875 0.05520669210276604
1.364002143745067E8 0.012108786772685056 0.0560134806122358 0.9878912132273149 -0.0560134806122358 0.9878912132273149 -0.0560134806122358 0.012108786772685056 0.0560134806122358
1.3845868507746372E8 0.01223207865528075 0.05683187944239966 0.9877679213447192 -0.05683187944239966 0.9877679213447192 -0.05683187944239966 0.01223207865528075 0.05683187944239966
1.405482209928499E8 0.01235854899393048 0.05766205034941353 0.9876414510060695 -0.05766205034941353 0.9876414510060695 -0.05766205034941353 0.01235854899393048 0.05766205034941353
1.426692909383278E8 0.012488286892867245 0.05850415690183087 0.9875117131071329 -0.05850415690183086 0.9875117131071329 -0.05850415690183086 0.012488286892867245 0.05850415690183087
1.4482237080667645E8 0.012621384112742487 0.05935836447431832 0.9873786158872573 -0.059358364474318304 0.9873786158872573 -0.059358364474318304 0.012621384112742487 0.05935836447431832
1.4700794367256513E8 0.012757935141014653 0.06022484024002987 0.9872420648589855 -0.06022484024002987 0.9872420648589855 -0.06022484024002987 0.012757935141014653 0.06022484024002987
1.492264999009378E8 0.012898037263562952 0.06110375316159141 0.9871019627364369 -0.06110375316159141 0.9871019627364369 -0.06110375316159141 0.012898037263562952 0.06110375316159141
1.5147853725703382E8 0.01304179063752133 0.06199527398064728 0.9869582093624787 -0.06199527398064728 0.9869582093624787 -0.06199527398064728 0.01304179063752133 0.06199527398064728
1.5376456101806876E8 0.013189298365326297 0.06289957520592059 0.9868107016346737 -0.06289957520592059 0.9868107016346737 -0.06289957520592059 0.013189298365326297 0.06289957520592059
1.5608508408660066E8 0.013340666569970773 0.0638168310997389 0.9866593334300291 -0.06381683109973892 0.9866593334300291 -0.06381683109973892 0.013340666569970773 0.0638168310997389
1.5844062710560706E8 0.013496004471454656 0.06474721766297707 0.9865039955285454 -0.06474721766297707 0.9865039955285454 -0.06474721766297707 0.013496004471454656 0.06474721766297707
1.6083171857529896E8 0.013655424464421768 0.06569091261836975 0.9863445755355782 -0.06569091261836976 0.9863445755355782 -0.06569091261836976 0.013655424464421768 0.06569091261836975
1.632588949716973E8 0.013819042196971203 0.06664809539214596 0.9861809578030287 -0.06664809539214596 0.9861809578030287 -0.06664809539214596 0.013819042196971203 0.06664809539214596
1.6572270086699936E8 0.013986976650630131 0.06761894709393883 0.9860130233493698 -0.06761894709393883 0.9860130233493698 -0.06761894709393883 0.013986976650630131 0.06761894709393883
1.6822368905176118E8 0.014159350221474288 0.0686036504949243 0.9858406497785258 -0.0686036504949243 0.9858406497785258 -0.0686036504949243 0.014159350221474288 0.0686036504949243
1.7076242065892437E8 0.014336288802380793 0.06960239000414326 0.9856637111976191 -0.06960239000414327 0.9856637111976191 -0.06960239000414327 0.014336288802380793 0.06960239000414326
1.7333946528971428E8 0.014517921866397884 0.07061535164296201 0.9854820781336021 -0.07061535164296201 0.9854820781336021 -0.07061535164296201 0.014517921866397884 0.07061535164296201
1.7595540114143828E8 0.014704382551214703 0.07164272301762697 0.9852956174487852 -0.07164272301762697 0.9852956174487852 -0.07164272301762697 0.014704382551214703 0.07164272301762697
1.786108151372127E8 0.014895807744714263 0.07268469328987082 0.9851041922552858 -0.07268469328987082 0.9851041922552858 -0.07268469328987082 0.014895807744714263 0.07268469328987082
1.8130630305764765E8 0.015092338171591833 0.07374145314552696 0.9849076618284082 -0.07374145314552696 0.9849076618284082 -0.07374145314552696 0.015092338171591833 0.07374145314552696
1.840424696745189E8 0.015294118481020911 0.07481319476111153 0.984705881518979 -0.07481319476111153 0.984705881518979 -0.07481319476111153 0.015294118481020911 0.07481319476111153
1.8681992888645732E8 0.015501297335348756 0.07590011176833207 0.9844987026646512 -0.07590011176833207 0.9844987026646512 -0.07590011176833207 0.015501297335348756 0.07590011176833207
1.8963930385668582E8 0.015714027499803176 0.07700239921648307 0.9842859725001967 -0.07700239921648305 0.9842859725001967 -0.07700239921648305 0.015714027499803176 0.07700239921648307
1.92501227152835E8 0.015932465933192776 0.07812025353269011 0.9840675340668072 -0.07812025353269011 0.9840675340668072 -0.07812025353269011 0.015932465933192776 0.07812025353269011
1.9540634088886917E8 0.016156773879582705 0.07925387247996453 0.9838432261204172 -0.07925387247996452 0.9838432261204172 -0.07925387247996452 0.016156773879582705 0.07925387247996453
1.983552968691535E8 0.01638711696092876 0.0804034551130313 0.9836128830390711 -0.0804034551130313 0.9836128830390711 -0.0804034551130313 0.01638711696092876 0.0804034551130313
2.0134875673469606E8 0.016623665270652854 0.08156920173189489 0.9833763347293472 -0.08156920173189489 0.9833763347293472 -0.08156920173189489 0.016623665270652854 0.08156920173189489
2.0438739211159652E8 0.01686659346814396 0.08275131383310676 0.983133406531856 -0.08275131383310676 0.983133406531856 -0.08275131383310676 0.01686659346814396 0.08275131383310676
2.074718847617352E8 0.017116080874169354 0.08394999405870072 0.9828839191258307 -0.08394999405870072 0.9828839191258307 -0.08394999405870072 0.017116080874169354 0.08394999405870072
2.106029267357361E8 0.017372311567181834 0.0851654461427618 0.982627688432818 -0.0851654461427618 0.982627688432818 -0.0851654461427618 0.017372311567181834 0.0851654461427618
2.1378122052823865E8 0.017635474480510293 0.08639787485559529 0.9823645255194897 -0.08639787485559529 0.9823645255194897 -0.08639787485559529 0.017635474480510293 0.08639787485559529
2.1700747923551247E8 0.017905763500421685 0.08764748594546308 0.9820942364995785 -0.0876474859454631 0.9820942364995785 -0.0876474859454631 0.017905763500421685 0.08764748594546308
2.2028242671545094E8 0.018183377565044838 0.08891448607785532 0.9818166224349552 -0.08891448607785532 0.9818166224349552 -0.08891448607785532 0.018183377565044838 0.08891448607785532
2.23606797749979E8 0.018468520764147484 0.09019908277226465 0.9815314792358524 -0.09019908277226465 0.9815314792358524 -0.09019908277226465 0.018468520764147484 0.09019908277226465
2.2698133820991236E8 0.01876140243976022 0.09150148433643145 0.9812385975602398 -0.09150148433643145 0.9812385975602398 -0.09150148433643145 0.01876140243976022 0.09150148433643145
2.3040680522230446E8 0.019062237287643127 0.09282189979802809 0.9809377627123568 -0.09282189979802809 0.9809377627123568 -0.09282189979802809 0.019062237287643127 0.09282189979802809
2.338839673403185E8 0.019371245459593088 0.09416053883375015 0.9806287545404069 -0.09416053883375015 0.9806287545404069 -0.09416053883375015 0.019371245459593088 0.09416053883375015
2.37413604715664E8 0.01968865266659212 0.09551761169578245 0.980311347333408 -0.09551761169578245 0.980311347333408 -0.09551761169578245 0.01968865266659212 0.09551761169578245
2.4099650927363476E8 0.020014690282800132 0.09689332913560687 0.9799853097171998 -0.09689332913560687 0.9799853097171998 -0.09689332913560687 0.020014690282800132 0.09689332913560687
2.446334848907889E8 0.02034959545039785 0.09828790232511884 0.9796504045496022 -0.09828790232511884 0.9796504045496022 -0.09828790232511884 0.02034959545039785 0.09828790232511884
