!Murata Part Number: LQP02TQ4N1B02
!These Parameters are Measured in Series Mode Connection
!       o--[Z]--o
!Port1              Port2
!       o-------o
!
!Freq. Start=50[MHz] Stop=20[GHz], 401[Steps]
# Hz S RI R 50
!Freq.(Hz) S11(Real) S11(Imag) S21(Real) S21(Imag) S12(Real) S12(Imag) S22(Real) S22(Imag)
5.0E7 0.005241946259521348 0.01399730610516074 0.9947580537404788 -0.013997306105160742 0.9947580537404788 -0.013997306105160742 0.005241946259521348 0.01399730610516074
5.0754570186123446E7 0.005253536602834986 0.01420694794032142 0.9947464633971652 -0.014206947940321422 0.9947464633971652 -0.014206947940321422 0.005253536602834986 0.01420694794032142
5.152052789556263E7 0.005265455059001989 0.014419687396506896 0.994734544940998 -0.014419687396506896 0.994734544940998 -0.014419687396506896 0.005265455059001989 0.014419687396506896
5.229804498202928E7 0.005277710290259887 0.014635568684786387 0.9947222897097402 -0.014635568684786387 0.9947222897097402 -0.014635568684786387 0.005277710290259887 0.014635568684786387
5.308729589274893E7 0.005290311156612665 0.014854636600350342 0.9947096888433874 -0.014854636600350342 0.9947096888433874 -0.014854636600350342 0.005290311156612665 0.014854636600350342
5.388845770760058E7 0.00530326671902168 0.015076936529559026 0.9946967332809784 -0.015076936529559026 0.9946967332809784 -0.015076936529559026 0.00530326671902168 0.015076936529559026
5.470171017884717E7 0.005316586242609378 0.015302514457125523 0.9946834137573907 -0.015302514457125523 0.9946834137573907 -0.015302514457125523 0.005316586242609378 0.015302514457125523
5.5527235771465644E7 0.005330279199876939 0.015531416973440794 0.9946697208001231 -0.015531416973440794 0.9946697208001231 -0.015531416973440794 0.005330279199876939 0.015531416973440794
5.6365219704085544E7 0.005344355273937111 0.015763691282048638 0.9946556447260629 -0.015763691282048638 0.9946556447260629 -0.015763691282048638 0.005344355273937111 0.015763691282048638
5.721584999054556E7 0.005358824361764106 0.015999385207278942 0.9946411756382361 -0.015999385207278942 0.9946411756382361 -0.015999385207278942 0.005358824361764106 0.015999385207278942
5.807931748207712E7 0.005373696577462718 0.016238547202047936 0.9946263034225372 -0.016238547202047936 0.9946263034225372 -0.016238547202047936 0.005373696577462718 0.016238547202047936
5.8955815910124585E7 0.005388982255559376 0.01648122635583435 0.9946110177444407 -0.01648122635583435 0.9946110177444407 -0.01648122635583435 0.005388982255559376 0.01648122635583435
5.984554192981184E7 0.005404691954318371 0.016727472402841184 0.9945953080456815 -0.01672747240284118 0.9945953080456815 -0.01672747240284118 0.005404691954318371 0.016727472402841184
6.074869516406457E7 0.005420836459086945 0.016977335730352497 0.9945791635409129 -0.016977335730352497 0.9945791635409129 -0.016977335730352497 0.005420836459086945 0.016977335730352497
6.166547824839868E7 0.00543742678567375 0.017230867387295755 0.9945625732143263 -0.017230867387295755 0.9945625732143263 -0.017230867387295755 0.00543742678567375 0.017230867387295755
6.2596096876384385E7 0.005454474183765569 0.01748811909301965 0.9945455258162345 -0.017488119093019654 0.9945455258162345 -0.017488119093019654 0.005454474183765569 0.01748811909301965
6.354075984579668E7 0.00547199014038813 0.017749143246298713 0.9945280098596118 -0.017749143246298713 0.9945280098596118 -0.017749143246298713 0.00547199014038813 0.017749143246298713
6.449967910546205E7 0.005489986383417442 0.018013992934575163 0.9945100136165826 -0.018013992934575163 0.9945100136165826 -0.018013992934575163 0.005489986383417442 0.018013992934575163
6.547306980281226E7 0.005508474885148872 0.01828272194344959 0.9944915251148511 -0.01828272194344959 0.9944915251148511 -0.01828272194344959 0.005508474885148872 0.01828272194344959
6.646115033215589E7 0.005527467865932159 0.018555384766431843 0.9944725321340678 -0.018555384766431843 0.9944725321340678 -0.018555384766431843 0.005527467865932159 0.018555384766431843
6.746414238367817E7 0.005546977797881207 0.018832036614963656 0.9944530222021187 -0.018832036614963656 0.9944530222021187 -0.018832036614963656 0.005546977797881207 0.018832036614963656
6.848227099318038E7 0.005567017408668706 0.019112733428724882 0.9944329825913311 -0.019112733428724882 0.9944329825913311 -0.019112733428724882 0.005567017408668706 0.019112733428724882
6.951576459256999E7 0.005587599685416328 0.01939753188623516 0.9944124003145837 -0.01939753188623516 0.9944124003145837 -0.01939753188623516 0.005587599685416328 0.01939753188623516
7.056485506111258E7 0.005608737878692462 0.019686489415762762 0.9943912621213075 -0.019686489415762762 0.9943912621213075 -0.019686489415762762 0.005608737878692462 0.019686489415762762
7.162977777745734E7 0.005630445506630458 0.019979664206552672 0.9943695544933696 -0.019979664206552672 0.9943695544933696 -0.019979664206552672 0.005630445506630458 0.019979664206552672
7.271077167244768E7 0.005652736359181356 0.02027711522038548 0.9943472636408187 -0.02027711522038548 0.9943472636408187 -0.02027711522038548 0.005652736359181356 0.02027711522038548
7.380807928272885E7 0.00567562450251633 0.020578902203478765 0.9943243754974836 -0.020578902203478765 0.9943243754974836 -0.020578902203478765 0.00567562450251633 0.020578902203478765
7.492194680516452E7 0.005699124283595176 0.020885085698742308 0.9943008757164047 -0.020885085698742305 0.9943008757164047 -0.020885085698742305 0.005699124283595176 0.020885085698742308
7.60526241520746E7 0.0057232503349183604 0.021195727058398273 0.9942767496650818 -0.021195727058398273 0.9942767496650818 -0.021195727058398273 0.0057232503349183604 0.021195727058398273
7.720036500730675E7 0.005748017579481402 0.021510888456976844 0.9942519824205186 -0.021510888456976844 0.9942519824205186 -0.021510888456976844 0.005748017579481402 0.021510888456976844
7.836542688315398E7 0.00577344123595156 0.021830632904697878 0.9942265587640484 -0.021830632904697878 0.9942265587640484 -0.021830632904697878 0.00577344123595156 0.021830632904697878
7.954807117813127E7 0.005799536824088054 0.022155024261247734 0.9942004631759119 -0.022155024261247734 0.9942004631759119 -0.022155024261247734 0.005799536824088054 0.022155024261247734
8.074856323562416E7 0.005826320170428278 0.022484127249960763 0.9941736798295717 -0.022484127249960767 0.9941736798295717 -0.022484127249960767 0.005826320170428278 0.022484127249960763
8.196717240342227E7 0.005853807414263797 0.022818007472413207 0.9941461925857361 -0.022818007472413207 0.9941461925857361 -0.022818007472413207 0.005853807414263797 0.022818007472413207
8.320417209415154E7 0.005882015013931058 0.02315673142343731 0.9941179849860687 -0.02315673142343731 0.9941179849860687 -0.02315673142343731 0.005882015013931058 0.02315673142343731
8.445983984661816E7 0.005910959753443013 0.023500366506561652 0.9940890402465571 -0.023500366506561655 0.9940890402465571 -0.023500366506561655 0.005910959753443013 0.023500366506561652
8.573445738807854E7 0.005940658749489114 0.02384898104988332 0.9940593412505109 -0.023848981049883325 0.9940593412505109 -0.023848981049883325 0.005940658749489114 0.02384898104988332
8.702831069744885E7 0.00597112945883223 0.024202644322376007 0.9940288705411677 -0.024202644322376007 0.9940288705411677 -0.024202644322376007 0.00597112945883223 0.024202644322376007
8.834169006946853E7 0.006002389686132176 0.02456142655063672 0.9939976103138678 -0.02456142655063672 0.9939976103138678 -0.02456142655063672 0.006002389686132176 0.02456142655063672
8.96748901798321E7 0.006034457592226642 0.02492539893607285 0.9939655424077734 -0.02492539893607285 0.9939655424077734 -0.02492539893607285 0.006034457592226642 0.02492539893607285
9.1028210151304E7 0.006067351702901377 0.025294633672529453 0.9939326482970987 -0.025294633672529456 0.9939326482970987 -0.025294633672529456 0.006067351702901377 0.025294633672529453
9.240195362083109E7 0.006101090918182252 0.02566920396435515 0.9938989090818177 -0.02566920396435515 0.9938989090818177 -0.02566920396435515 0.006101090918182252 0.02566920396435515
9.379642880766791E7 0.006135694522182858 0.026049184044903268 0.9938643054778171 -0.026049184044903268 0.9938643054778171 -0.026049184044903268 0.006135694522182858 0.026049184044903268
9.521194858253023E7 0.0061711821935419705 0.026434649195463168 0.993828817806458 -0.026434649195463174 0.993828817806458 -0.026434649195463174 0.0061711821935419705 0.026434649195463168
9.664883053779216E7 0.006207574016485864 0.026825675764614865 0.993792425983514 -0.026825675764614865 0.993792425983514 -0.026825675764614865 0.006207574016485864 0.026825675764614865
9.810739705874248E7 0.006244890492551063 0.02722234118799769 0.993755109507449 -0.02722234118799769 0.993755109507449 -0.02722234118799769 0.006244890492551063 0.02722234118799769
9.958797539591652E7 0.006283152553003441 0.02762472400848224 0.9937168474469966 -0.02762472400848224 0.9937168474469966 -0.02762472400848224 0.006283152553003441 0.02762472400848224
1.0109089773851961E8 0.00632238157198994 0.028032903896732294 0.9936776184280098 -0.02803290389673229 0.9936776184280098 -0.02803290389673229 0.00632238157198994 0.028032903896732294
1.0261650128895843E8 0.006362599380459359 0.02844696167214163 0.9936374006195406 -0.028446961672141627 0.9936374006195406 -0.028446961672141627 0.006362599380459359 0.02844696167214163
1.0416512833849736E8 0.006403828280888458 0.02886697932412775 0.9935961717191115 -0.02886697932412775 0.9935961717191115 -0.02886697932412775 0.006403828280888458 0.02886697932412775
1.0573712634405641E8 0.006446091062849796 0.029293040033763304 0.9935539089371502 -0.029293040033763304 0.9935539089371502 -0.029293040033763304 0.006446091062849796 0.029293040033763304
1.0733284800616828E8 0.0064894110194570346 0.029725228195722656 0.993510588980543 -0.029725228195722656 0.993510588980543 -0.029725228195722656 0.0064894110194570346 0.029725228195722656
1.0895265134811176E8 0.006533811964723217 0.030163629440519542 0.9934661880352765 -0.030163629440519542 0.9934661880352765 -0.030163629440519542 0.006533811964723217 0.030163629440519542
1.1059689979623953E8 0.006579318251866734 0.030608330657009034 0.9934206817481332 -0.030608330657009034 0.9934206817481332 -0.030608330657009034 0.006579318251866734 0.030608330657009034
1.1226596226151802E8 0.006625954792598889 0.031059420015124975 0.993374045207401 -0.031059420015124975 0.993374045207401 -0.031059420015124975 0.006625954792598889 0.031059420015124975
1.1396021322229806E8 0.006673747077425983 0.03151698698882188 0.9933262529225739 -0.03151698698882188 0.9933262529225739 -0.03151698698882188 0.006673747077425983 0.03151698698882188
1.1568003280833441E8 0.006722721196997591 0.031981122379187765 0.9932772788030025 -0.031981122379187765 0.9932772788030025 -0.031981122379187765 0.006722721196997591 0.031981122379187765
1.1742580688607343E8 0.006772903864531442 0.03245191833769291 0.9932270961354686 -0.03245191833769291 0.9932270961354686 -0.03245191833769291 0.006772903864531442 0.03245191833769291
1.1919792714522783E8 0.006824322439343705 0.0329294683895369 0.9931756775606564 -0.0329294683895369 0.9931756775606564 -0.0329294683895369 0.006824322439343705 0.0329294683895369
1.2099679118665792E8 0.006877004951511901 0.03341386745705486 0.993122995048488 -0.03341386745705485 0.993122995048488 -0.03341386745705485 0.006877004951511901 0.03341386745705486
1.2282280261157903E8 0.0069309801276956325 0.03390521188314172 0.9930690198723044 -0.033905211883141724 0.9930690198723044 -0.033905211883141724 0.0069309801276956325 0.03390521188314172
1.2467637111211549E8 0.0069862774181386885 0.03440359945465199 0.9930137225818613 -0.034403599454652 0.9930137225818613 -0.034403599454652 0.0069862774181386885 0.03440359945465199
1.265579125632208E8 0.007042927024873597 0.034909129425730774 0.9929570729751264 -0.034909129425730774 0.9929570729751264 -0.034909129425730774 0.007042927024873597 0.034909129425730774
1.284678491159853E8 0.007100959931147672 0.035421902541030344 0.9928990400688523 -0.035421902541030344 0.9928990400688523 -0.035421902541030344 0.007100959931147672 0.035421902541030344
1.3040660929235186E8 0.007160407932087364 0.03594202105876615 0.9928395920679127 -0.035942021058766156 0.9928395920679127 -0.035942021058766156 0.007160407932087364 0.03594202105876615
1.3237462808126101E8 0.0072213036666150116 0.03646958877356405 0.9927786963333851 -0.03646958877356405 0.9927786963333851 -0.03646958877356405 0.0072213036666150116 0.03646958877356405
1.3437234703624701E8 0.007283680650629915 0.03700471103905079 0.9927163193493701 -0.03700471103905079 0.9927163193493701 -0.03700471103905079 0.007283680650629915 0.03700471103905079
1.364002143745067E8 0.007347573311462917 0.03754749479013864 0.992652426688537 -0.03754749479013864 0.992652426688537 -0.03754749479013864 0.007347573311462917 0.03754749479013864
1.3845868507746372E8 0.007413017023611132 0.03809804856495493 0.9925869829763888 -0.03809804856495493 0.9925869829763888 -0.03809804856495493 0.007413017023611132 0.03809804856495493
1.405482209928499E8 0.007480048145756989 0.03865648252636708 0.9925199518542431 -0.03865648252636708 0.9925199518542431 -0.03865648252636708 0.007480048145756989 0.03865648252636708
1.426692909383278E8 0.007548704059073034 0.039222908483053785 0.9924512959409271 -0.039222908483053785 0.9924512959409271 -0.039222908483053785 0.007548704059073034 0.039222908483053785
1.4482237080667645E8 0.007619023206811477 0.039797439910073416 0.9923809767931884 -0.039797439910073416 0.9923809767931884 -0.039797439910073416 0.007619023206811477 0.039797439910073416
1.4700794367256513E8 0.0076910451351749785 0.04038019196888103 0.9923089548648252 -0.040380191968881034 0.9923089548648252 -0.040380191968881034 0.0076910451351749785 0.04038019196888103
1.492264999009378E8 0.007764810535462661 0.04097128152674622 0.9922351894645374 -0.04097128152674622 0.9922351894645374 -0.04097128152674622 0.007764810535462661 0.04097128152674622
1.5147853725703382E8 0.007840361287483116 0.04157082717552501 0.9921596387125169 -0.04157082717552501 0.9921596387125169 -0.04157082717552501 0.007840361287483116 0.04157082717552501
1.5376456101806876E8 0.007917740504223897 0.0421789492497402 0.9920822594957761 -0.0421789492497402 0.9920822594957761 -0.0421789492497402 0.007917740504223897 0.0421789492497402
1.5608508408660066E8 0.007996992577764844 0.04279576984392541 0.9920030074222351 -0.04279576984392541 0.9920030074222351 -0.04279576984392541 0.007996992577764844 0.04279576984392541
1.5844062710560706E8 0.008078163226420786 0.04342141282919028 0.9919218367735791 -0.04342141282919028 0.9919218367735791 -0.04342141282919028 0.008078163226420786 0.04342141282919028
1.6083171857529896E8 0.008161299543097217 0.04405600386896515 0.9918387004569029 -0.04405600386896515 0.9918387004569029 -0.04405600386896515 0.008161299543097217 0.04405600386896515
1.632588949716973E8 0.00824645004484109 0.04469967043388613 0.991753549955159 -0.04469967043388613 0.991753549955159 -0.04469967043388613 0.00824645004484109 0.04469967043388613
1.6572270086699936E8 0.00833366472356739 0.04535254181578256 0.9916663352764326 -0.045352541815782556 0.9916663352764326 -0.045352541815782556 0.00833366472356739 0.04535254181578256
1.6822368905176118E8 0.008422995097940837 0.04601474914073117 0.9915770049020594 -0.04601474914073117 0.9915770049020594 -0.04601474914073117 0.008422995097940837 0.04601474914073117
1.7076242065892437E8 0.008514494266391327 0.046686425381143815 0.9914855057336086 -0.046686425381143815 0.9914855057336086 -0.046686425381143815 0.008514494266391327 0.046686425381143815
1.7333946528971428E8 0.008608216961240598 0.04736770536685678 0.9913917830387595 -0.04736770536685678 0.9913917830387595 -0.04736770536685678 0.008608216961240598 0.04736770536685678
1.7595540114143828E8 0.008704219603917271 0.048058725795192735 0.9912957803960827 -0.048058725795192735 0.9912957803960827 -0.048058725795192735 0.008704219603917271 0.048058725795192735
1.786108151372127E8 0.008802560361237024 0.04875962523996827 0.9911974396387631 -0.048759625239968275 0.9911974396387631 -0.048759625239968275 0.008802560361237024 0.04875962523996827
1.8130630305764765E8 0.008903299202724245 0.0494705441594218 0.9910967007972756 -0.0494705441594218 0.9910967007972756 -0.0494705441594218 0.008903299202724245 0.0494705441594218
1.840424696745189E8 0.009006497958952087 0.05019162490303954 0.9909935020410481 -0.050191624903039536 0.9909935020410481 -0.050191624903039536 0.009006497958952087 0.05019162490303954
1.8681992888645732E8 0.009112220380877526 0.05092301171725852 0.9908877796191227 -0.05092301171725852 0.9908877796191227 -0.05092301171725852 0.009112220380877526 0.05092301171725852
1.8963930385668582E8 0.009220532200149057 0.05166485075002884 0.9907794677998509 -0.05166485075002884 0.9907794677998509 -0.05166485075002884 0.009220532200149057 0.05166485075002884
1.92501227152835E8 0.009331501190364782 0.05241729005421765 0.9906684988096351 -0.052417290054217656 0.9906684988096351 -0.052417290054217656 0.009331501190364782 0.05241729005421765
1.9540634088886917E8 0.009445197229260044 0.05318047958984125 0.9905548027707399 -0.05318047958984125 0.9905548027707399 -0.05318047958984125 0.009445197229260044 0.05318047958984125
1.983552968691535E8 0.009561692361804238 0.053954571225111915 0.9904383076381957 -0.0539545712251119 0.9904383076381957 -0.0539545712251119 0.009561692361804238 0.053954571225111915
2.0134875673469606E8 0.009681060864187987 0.05473971873628864 0.990318939135812 -0.05473971873628864 0.990318939135812 -0.05473971873628864 0.009681060864187987 0.05473971873628864
2.0438739211159652E8 0.009803379308683023 0.05553607780632237 0.9901966206913169 -0.05553607780632237 0.9901966206913169 -0.05553607780632237 0.009803379308683023 0.05553607780632237
2.074718847617352E8 0.00992872662935845 0.05634380602228749 0.9900712733706414 -0.05634380602228749 0.9900712733706414 -0.05634380602228749 0.00992872662935845 0.05634380602228749
2.106029267357361E8 0.010057184188638808 0.05716306287159285 0.9899428158113613 -0.05716306287159285 0.9899428158113613 -0.05716306287159285 0.010057184188638808 0.05716306287159285
2.1378122052823865E8 0.010188835844690878 0.057994009736967285 0.989811164155309 -0.057994009736967285 0.989811164155309 -0.057994009736967285 0.010188835844690878 0.057994009736967285
2.1700747923551247E8 0.010323768019627892 0.058836809890214566 0.9896762319803719 -0.05883680989021456 0.9896762319803719 -0.05883680989021456 0.010323768019627892 0.058836809890214566
2.2028242671545094E8 0.010462069768521631 0.05969162848473453 0.9895379302314785 -0.05969162848473453 0.9895379302314785 -0.05969162848473453 0.010462069768521631 0.05969162848473453
2.23606797749979E8 0.010603832849214786 0.060558632546807566 0.9893961671507852 -0.060558632546807566 0.9893961671507852 -0.060558632546807566 0.010603832849214786 0.060558632546807566
2.2698133820991236E8 0.010749151792927842 0.061437990965640656 0.9892508482070722 -0.061437990965640656 0.9892508482070722 -0.061437990965640656 0.010749151792927842 0.061437990965640656
2.3040680522230446E8 0.010898123975656598 0.06232987448217266 0.9891018760243433 -0.06232987448217266 0.9891018760243433 -0.06232987448217266 0.010898123975656598 0.06232987448217266
2.338839673403185E8 0.011050849690358616 0.06323445567663848 0.9889491503096413 -0.06323445567663848 0.9889491503096413 -0.06323445567663848 0.011050849690358616 0.06323445567663848
2.37413604715664E8 0.011207432219928726 0.06415190895489085 0.9887925677800713 -0.06415190895489087 0.9887925677800713 -0.06415190895489087 0.011207432219928726 0.06415190895489085
2.4099650927363476E8 0.011367977910965749 0.06508241053347899 0.9886320220890343 -0.06508241053347899 0.9886320220890343 -0.06508241053347899 0.011367977910965749 0.06508241053347899
2.446334848907889E8 0.011532596248334815 0.06602613842348401 0.9884674037516653 -0.06602613842348401 0.9884674037516653 -0.06602613842348401 0.011532596248334815 0.06602613842348401
