!Murata Part Number: LQP02TQ1N1B02
!These Parameters are Measured in Series Mode Connection
!       o--[Z]--o
!Port1              Port2
!       o-------o
!
!Freq. Start=50[MHz] Stop=20[GHz], 401[Steps]
# Hz S RI R 50
!Freq.(Hz) S11(Real) S11(Imag) S21(Real) S21(Imag) S12(Real) S12(Imag) S22(Real) S22(Imag)
5.0E7 0.0010657893464523314 0.003968197738006456 0.9989342106535478 -0.003968197738006456 0.9989342106535478 -0.003968197738006456 0.0010657893464523314 0.003968197738006456
5.0754570186123446E7 0.0010678433459247554 0.004027704211191562 0.9989321566540754 -0.004027704211191562 0.9989321566540754 -0.004027704211191562 0.0010678433459247554 0.004027704211191562
5.152052789556263E7 0.0010699540207743698 0.004088092915805274 0.9989300459792256 -0.004088092915805273 0.9989300459792256 -0.004088092915805273 0.0010699540207743698 0.004088092915805274
5.229804498202928E7 0.0010721227769956414 0.004149376554384335 0.9989278772230045 -0.004149376554384335 0.9989278772230045 -0.004149376554384335 0.0010721227769956414 0.004149376554384335
5.308729589274893E7 0.0010743510470946967 0.004211568000833914 0.9989256489529053 -0.004211568000833914 0.9989256489529053 -0.004211568000833914 0.0010743510470946967 0.004211568000833914
5.388845770760058E7 0.0010766402901643132 0.004274680302571668 0.9989233597098357 -0.004274680302571668 0.9989233597098357 -0.004274680302571668 0.0010766402901643132 0.004274680302571668
5.470171017884717E7 0.0010789919919366895 0.004338726682711558 0.9989210080080635 -0.004338726682711558 0.9989210080080635 -0.004338726682711558 0.0010789919919366895 0.004338726682711558
5.5527235771465644E7 0.001081407664813207 0.0044037205422896115 0.9989185923351868 -0.004403720542289612 0.9989185923351868 -0.004403720542289612 0.001081407664813207 0.0044037205422896115
5.6365219704085544E7 0.001083888847870485 0.004469675462533934 0.9989161111521295 -0.004469675462533934 0.9989161111521295 -0.004469675462533934 0.001083888847870485 0.004469675462533934
5.721584999054556E7 0.0010864371068420322 0.004536605207181331 0.9989135628931579 -0.004536605207181331 0.9989135628931579 -0.004536605207181331 0.0010864371068420322 0.004536605207181331
5.807931748207712E7 0.0010890540340749385 0.004604523724843197 0.9989109459659251 -0.004604523724843197 0.9989109459659251 -0.004604523724843197 0.0010890540340749385 0.004604523724843197
5.8955815910124585E7 0.0010917412484610677 0.0046734451514232585 0.9989082587515389 -0.004673445151423259 0.9989082587515389 -0.004673445151423259 0.0010917412484610677 0.0046734451514232585
5.984554192981184E7 0.001094500395342323 0.00474338381259004 0.9989054996046577 -0.00474338381259004 0.9989054996046577 -0.00474338381259004 0.001094500395342323 0.00474338381259004
6.074869516406457E7 0.0010973331463896869 0.004814354226307008 0.9989026668536103 -0.004814354226307008 0.9989026668536103 -0.004814354226307008 0.0010973331463896869 0.004814354226307008
6.166547824839868E7 0.001100241199455788 0.004886371105423471 0.9988997588005443 -0.004886371105423471 0.9988997588005443 -0.004886371105423471 0.001100241199455788 0.004886371105423471
6.2596096876384385E7 0.0011032262784009365 0.004959449360329456 0.9988967737215989 -0.004959449360329456 0.9988967737215989 -0.004959449360329456 0.0011032262784009365 0.004959449360329456
6.354075984579668E7 0.0011062901328926491 0.0050336041016779305 0.9988937098671073 -0.0050336041016779305 0.9988937098671073 -0.0050336041016779305 0.0011062901328926491 0.0050336041016779305
6.449967910546205E7 0.0011094345381788856 0.005108850643177836 0.9988905654618212 -0.005108850643177837 0.9988905654618212 -0.005108850643177837 0.0011094345381788856 0.005108850643177836
6.547306980281226E7 0.0011126612948353415 0.005185204504461582 0.9988873387051648 -0.005185204504461582 0.9988873387051648 -0.005185204504461582 0.0011126612948353415 0.005185204504461582
6.646115033215589E7 0.0011159722284873408 0.005262681414030692 0.9988840277715126 -0.005262681414030692 0.9988840277715126 -0.005262681414030692 0.0011159722284873408 0.005262681414030692
6.746414238367817E7 0.0011193691895070622 0.005341297312283484 0.998880630810493 -0.005341297312283484 0.998880630810493 -0.005341297312283484 0.0011193691895070622 0.005341297312283484
6.848227099318038E7 0.0011228540526870316 0.005421068354628745 0.998877145947313 -0.005421068354628745 0.998877145947313 -0.005421068354628745 0.0011228540526870316 0.005421068354628745
6.951576459256999E7 0.001126428716891032 0.005502010914689452 0.9988735712831089 -0.005502010914689452 0.9988735712831089 -0.005502010914689452 0.001126428716891032 0.005502010914689452
7.056485506111258E7 0.0011300951046838376 0.005584141587600698 0.9988699048953165 -0.005584141587600699 0.9988699048953165 -0.005584141587600699 0.0011300951046838376 0.005584141587600698
7.162977777745734E7 0.0011338551619413976 0.005667477193406095 0.9988661448380585 -0.005667477193406095 0.9988661448380585 -0.005667477193406095 0.0011338551619413976 0.005667477193406095
7.271077167244768E7 0.001137710857443385 0.005752034780556908 0.9988622891425566 -0.005752034780556909 0.9988622891425566 -0.005752034780556909 0.001137710857443385 0.005752034780556908
7.380807928272885E7 0.0011416641824502937 0.00583783162951833 0.9988583358175499 -0.00583783162951833 0.9988583358175499 -0.00583783162951833 0.0011416641824502937 0.00583783162951833
7.492194680516452E7 0.0011457171502675541 0.005924885256487284 0.9988542828497324 -0.005924885256487284 0.9988542828497324 -0.005924885256487284 0.0011457171502675541 0.005924885256487284
7.60526241520746E7 0.0011498717957994671 0.006013213417226208 0.9988501282042006 -0.006013213417226209 0.9988501282042006 -0.006013213417226209 0.0011498717957994671 0.006013213417226208
7.720036500730675E7 0.001154130175096027 0.006102834111017197 0.9988458698249042 -0.006102834111017197 0.9988458698249042 -0.006102834111017197 0.001154130175096027 0.006102834111017197
7.836542688315398E7 0.0011584943648960987 0.0061937655847409895 0.9988415056351039 -0.006193765584740989 0.9988415056351039 -0.006193765584740989 0.0011584943648960987 0.0061937655847409895
7.954807117813127E7 0.0011629664621706916 0.0062860263370851585 0.9988370335378294 -0.0062860263370851585 0.9988370335378294 -0.0062860263370851585 0.0011629664621706916 0.0062860263370851585
8.074856323562416E7 0.0011675485836704672 0.0063796351228857994 0.9988324514163296 -0.0063796351228858 0.9988324514163296 -0.0063796351228858 0.0011675485836704672 0.0063796351228857994
8.196717240342227E7 0.001172242865481952 0.006474610957606976 0.9988277571345181 -0.006474610957606976 0.9988277571345181 -0.006474610957606976 0.001172242865481952 0.006474610957606976
8.320417209415154E7 0.0011770514625973037 0.006570973121962068 0.9988229485374028 -0.006570973121962068 0.9988229485374028 -0.006570973121962068 0.0011770514625973037 0.006570973121962068
8.445983984661816E7 0.001181976548502832 0.006668741166680932 0.9988180234514971 -0.006668741166680932 0.9988180234514971 -0.006668741166680932 0.001181976548502832 0.006668741166680932
8.573445738807854E7 0.0011870203147918764 0.00676793491742678 0.998812979685208 -0.00676793491742678 0.998812979685208 -0.00676793491742678 0.0011870203147918764 0.00676793491742678
8.702831069744885E7 0.001192184970807974 0.006868574479866283 0.9988078150291919 -0.006868574479866284 0.9988078150291919 -0.006868574479866284 0.001192184970807974 0.006868574479866283
8.834169006946853E7 0.0011974727433246585 0.006970680244896344 0.9988025272566752 -0.006970680244896344 0.9988025272566752 -0.006970680244896344 0.0011974727433246585 0.006970680244896344
8.96748901798321E7 0.0012028858762685797 0.007074272894030626 0.9987971141237314 -0.007074272894030626 0.9987971141237314 -0.007074272894030626 0.0012028858762685797 0.007074272894030626
9.1028210151304E7 0.0012084266304929771 0.007179373404948628 0.998791573369507 -0.007179373404948628 0.998791573369507 -0.007179373404948628 0.0012084266304929771 0.007179373404948628
9.240195362083109E7 0.001214097283608926 0.0072860030572097865 0.998785902716391 -0.007286003057209787 0.998785902716391 -0.007286003057209787 0.001214097283608926 0.0072860030572097865
9.379642880766791E7 0.0012199001298820633 0.007394183438134691 0.998780099870118 -0.007394183438134691 0.998780099870118 -0.007394183438134691 0.0012199001298820633 0.007394183438134691
9.521194858253023E7 0.0012258374802028556 0.007503936448855094 0.9987741625197973 -0.007503936448855094 0.9987741625197973 -0.007503936448855094 0.0012258374802028556 0.007503936448855094
9.664883053779216E7 0.0012319116621387453 0.007615284310534031 0.9987680883378613 -0.007615284310534032 0.9987680883378613 -0.007615284310534032 0.0012319116621387453 0.007615284310534031
9.810739705874248E7 0.0012381250200767875 0.007728249570756705 0.9987618749799232 -0.007728249570756705 0.9987618749799232 -0.007728249570756705 0.0012381250200767875 0.007728249570756705
9.958797539591652E7 0.001244479915465648 0.007842855110092516 0.9987555200845344 -0.007842855110092514 0.9987555200845344 -0.007842855110092514 0.001244479915465648 0.007842855110092516
1.0109089773851961E8 0.0012509787271660295 0.007959124148827868 0.9987490212728339 -0.007959124148827868 0.9987490212728339 -0.007959124148827868 0.0012509787271660295 0.007959124148827868
1.0261650128895843E8 0.0012576238519187825 0.00807708025386901 0.9987423761480814 -0.00807708025386901 0.9987423761480814 -0.00807708025386901 0.0012576238519187825 0.00807708025386901
1.0416512833849736E8 0.001264417704940104 0.0081967473458133 0.99873558229506 -0.0081967473458133 0.99873558229506 -0.0081967473458133 0.001264417704940104 0.0081967473458133
1.0573712634405641E8 0.001271362720653305 0.008318149706187033 0.9987286372793467 -0.008318149706187035 0.9987286372793467 -0.008318149706187035 0.001271362720653305 0.008318149706187033
1.0733284800616828E8 0.0012784613535667191 0.008441311984846893 0.9987215386464333 -0.008441311984846893 0.9987215386464333 -0.008441311984846893 0.0012784613535667191 0.008441311984846893
1.0895265134811176E8 0.0012857160793072705 0.008566259207541761 0.9987142839206926 -0.00856625920754176 0.9987142839206926 -0.00856625920754176 0.0012857160793072705 0.008566259207541761
1.1059689979623953E8 0.0012931293958192524 0.008693016783630781 0.9987068706041807 -0.008693016783630781 0.9987068706041807 -0.008693016783630781 0.0012931293958192524 0.008693016783630781
1.1226596226151802E8 0.0013007038247376842 0.008821610513952857 0.9986992961752623 -0.008821610513952857 0.9986992961752623 -0.008821610513952857 0.0013007038247376842 0.008821610513952857
1.1396021322229806E8 0.0013084419129455066 0.008952066598842102 0.9986915580870545 -0.008952066598842104 0.9986915580870545 -0.008952066598842104 0.0013084419129455066 0.008952066598842102
1.1568003280833441E8 0.0013163462343236591 0.009084411646283102 0.9986836537656764 -0.0090844116462831 0.9986836537656764 -0.0090844116462831 0.0013163462343236591 0.009084411646283102
1.1742580688607343E8 0.001324419391702754 0.009218672680198943 0.9986755806082974 -0.009218672680198945 0.9986755806082974 -0.009218672680198945 0.001324419391702754 0.009218672680198943
1.1919792714522783E8 0.0013326640190247784 0.009354877148864535 0.9986673359809752 -0.009354877148864535 0.9986673359809752 -0.009354877148864535 0.0013326640190247784 0.009354877148864535
1.2099679118665792E8 0.001341082783722824 0.009493052933436837 0.9986589172162771 -0.009493052933436837 0.9986589172162771 -0.009493052933436837 0.001341082783722824 0.009493052933436837
1.2282280261157903E8 0.001349678389326345 0.009633228356593021 0.9986503216106738 -0.009633228356593021 0.9986503216106738 -0.009633228356593021 0.001349678389326345 0.009633228356593021
1.2467637111211549E8 0.0013584535782989748 0.009775432191266956 0.9986415464217011 -0.009775432191266956 0.9986415464217011 -0.009775432191266956 0.0013584535782989748 0.009775432191266956
1.265579125632208E8 0.0013674111351152719 0.009919693669473808 0.9986325888648846 -0.009919693669473808 0.9986325888648846 -0.009919693669473808 0.0013674111351152719 0.009919693669473808
1.284678491159853E8 0.0013765538895821495 0.010066042491211853 0.9986234461104179 -0.010066042491211853 0.9986234461104179 -0.010066042491211853 0.0013765538895821495 0.010066042491211853
1.3040660929235186E8 0.0013858847204099986 0.010214508833430261 0.9986141152795901 -0.010214508833430261 0.9986141152795901 -0.010214508833430261 0.0013858847204099986 0.010214508833430261
1.3237462808126101E8 0.0013954065590377628 0.010365123359050932 0.998604593440962 -0.010365123359050932 0.998604593440962 -0.010365123359050932 0.0013954065590377628 0.010365123359050932
1.3437234703624701E8 0.0014051223937153773 0.010517917226032176 0.9985948776062845 -0.010517917226032176 0.9985948776062845 -0.010517917226032176 0.0014051223937153773 0.010517917226032176
1.364002143745067E8 0.0014150352738461108 0.010672922096461555 0.998584964726154 -0.010672922096461557 0.998584964726154 -0.010672922096461557 0.0014150352738461108 0.010672922096461555
1.3845868507746372E8 0.0014251483145904381 0.01083017014566501 0.9985748516854095 -0.01083017014566501 0.9985748516854095 -0.01083017014566501 0.0014251483145904381 0.01083017014566501
1.405482209928499E8 0.0014354647017321052 0.010989694071319098 0.9985645352982678 -0.010989694071319098 0.9985645352982678 -0.010989694071319098 0.0014354647017321052 0.010989694071319098
1.426692909383278E8 0.0014459876968060525 0.01115152710255304 0.998554012303194 -0.01115152710255304 0.998554012303194 -0.01115152710255304 0.0014459876968060525 0.01115152710255304
1.4482237080667645E8 0.0014567206424868386 0.011315703009027163 0.9985432793575132 -0.011315703009027163 0.9985432793575132 -0.011315703009027163 0.0014567206424868386 0.011315703009027163
1.4700794367256513E8 0.0014676669682351896 0.01148225610997446 0.9985323330317648 -0.01148225610997446 0.9985323330317648 -0.01148225610997446 0.0014676669682351896 0.01148225610997446
1.492264999009378E8 0.0014788301961992244 0.011651221283191956 0.9985211698038007 -0.011651221283191956 0.9985211698038007 -0.011651221283191956 0.0014788301961992244 0.011651221283191956
1.5147853725703382E8 0.0014902139473658485 0.011822633973968783 0.9985097860526341 -0.011822633973968783 0.9985097860526341 -0.011822633973968783 0.0014902139473658485 0.011822633973968783
1.5376456101806876E8 0.001501821947956801 0.011996530203938325 0.9984981780520431 -0.011996530203938325 0.9984981780520431 -0.011996530203938325 0.001501821947956801 0.011996530203938325
1.5608508408660066E8 0.0015136580360627272 0.012172946579841849 0.9984863419639374 -0.012172946579841849 0.9984863419639374 -0.012172946579841849 0.0015136580360627272 0.012172946579841849
1.5844062710560706E8 0.0015257261685077115 0.01235192030219181 0.9984742738314925 -0.012351920302191812 0.9984742738314925 -0.012351920302191812 0.0015257261685077115 0.01235192030219181
1.6083171857529896E8 0.0015380304279356397 0.012533489173823421 0.9984619695720643 -0.01253348917382342 0.9984619695720643 -0.01253348917382342 0.0015380304279356397 0.012533489173823421
1.632588949716973E8 0.001550575030108875 0.012717691608323667 0.9984494249698912 -0.012717691608323669 0.9984494249698912 -0.012717691608323669 0.001550575030108875 0.012717691608323667
1.6572270086699936E8 0.0015633643314087768 0.01290456663832796 0.9984366356685913 -0.01290456663832796 0.9984366356685913 -0.01290456663832796 0.0015633643314087768 0.01290456663832796
1.6822368905176118E8 0.001576402836526752 0.013094153923674903 0.9984235971634733 -0.013094153923674903 0.9984235971634733 -0.013094153923674903 0.001576402836526752 0.013094153923674903
1.7076242065892437E8 0.0015896952063337581 0.013286493759411227 0.9984103047936662 -0.013286493759411227 0.9984103047936662 -0.013286493759411227 0.0015896952063337581 0.013286493759411227
1.7333946528971428E8 0.00160324626591542 0.013481627083639263 0.9983967537340845 -0.013481627083639263 0.9983967537340845 -0.013481627083639263 0.00160324626591542 0.013481627083639263
1.7595540114143828E8 0.0016170610127592725 0.013679595485200681 0.9983829389872408 -0.013679595485200681 0.9983829389872408 -0.013679595485200681 0.0016170610127592725 0.013679595485200681
1.786108151372127E8 0.0016311446250801183 0.01388044121119133 0.99836885537492 -0.01388044121119133 0.99836885537492 -0.01388044121119133 0.0016311446250801183 0.01388044121119133
1.8130630305764765E8 0.0016455024702689473 0.014084207174303018 0.998354497529731 -0.014084207174303018 0.998354497529731 -0.014084207174303018 0.0016455024702689473 0.014084207174303018
1.840424696745189E8 0.0016601401134504802 0.014290936959989148 0.9983398598865495 -0.014290936959989148 0.9983398598865495 -0.014290936959989148 0.0016601401134504802 0.014290936959989148
1.8681992888645732E8 0.001675063326134146 0.014500674833452744 0.9983249366738657 -0.01450067483345274 0.9983249366738657 -0.01450067483345274 0.001675063326134146 0.014500674833452744
1.8963930385668582E8 0.001690278094943015 0.014713465746456102 0.9983097219050568 -0.014713465746456102 0.9983097219050568 -0.014713465746456102 0.001690278094943015 0.014713465746456102
1.92501227152835E8 0.0017057906304051647 0.014929355343953 0.9982942093695948 -0.014929355343953 0.9982942093695948 -0.014929355343953 0.0017057906304051647 0.014929355343953
1.9540634088886917E8 0.0017216073757919269 0.015148389970545446 0.9982783926242083 -0.015148389970545446 0.9982783926242083 -0.015148389970545446 0.0017216073757919269 0.015148389970545446
1.983552968691535E8 0.0017377350159875204 0.01537061667676823 0.9982622649840126 -0.015370616676768228 0.9982622649840126 -0.015370616676768228 0.0017377350159875204 0.01537061667676823
2.0134875673469606E8 0.0017541804863748021 0.015596083225205885 0.9982458195136251 -0.015596083225205882 0.9982458195136251 -0.015596083225205882 0.0017541804863748021 0.015596083225205885
2.0438739211159652E8 0.0017709509817221162 0.015824838096447826 0.9982290490182778 -0.015824838096447826 0.9982290490182778 -0.015824838096447826 0.0017709509817221162 0.015824838096447826
2.074718847617352E8 0.001788053965056599 0.01605693049488868 0.9982119460349433 -0.01605693049488868 0.9982119460349433 -0.01605693049488868 0.001788053965056599 0.01605693049488868
2.106029267357361E8 0.001805497176509759 0.016292410354382055 0.9981945028234901 -0.01629241035438205 0.9981945028234901 -0.01629241035438205 0.001805497176509759 0.016292410354382055
2.1378122052823865E8 0.0018232886421217025 0.016531328343757066 0.9981767113578783 -0.016531328343757066 0.9981767113578783 -0.016531328343757066 0.0018232886421217025 0.016531328343757066
2.1700747923551247E8 0.001841436682590971 0.01677373587220816 0.998158563317409 -0.01677373587220816 0.998158563317409 -0.01677373587220816 0.001841436682590971 0.01677373587220816
2.2028242671545094E8 0.001859949921957683 0.017019685094569668 0.9981400500780425 -0.017019685094569668 0.9981400500780425 -0.017019685094569668 0.001859949921957683 0.017019685094569668
2.23606797749979E8 0.0018788372962084217 0.017269228916487665 0.9981211627037915 -0.017269228916487665 0.9981211627037915 -0.017269228916487665 0.0018788372962084217 0.017269228916487665
2.2698133820991236E8 0.0018981080617921438 0.0175224209995027 0.9981018919382079 -0.0175224209995027 0.9981018919382079 -0.0175224209995027 0.0018981080617921438 0.0175224209995027
2.3040680522230446E8 0.0019177718040372512 0.01777931576605754 0.9980822281959628 -0.01777931576605754 0.9980822281959628 -0.01777931576605754 0.0019177718040372512 0.01777931576605754
2.338839673403185E8 0.001937838445460928 0.01803996840444532 0.9980621615545389 -0.01803996840444532 0.9980621615545389 -0.01803996840444532 0.001937838445460928 0.01803996840444532
2.37413604715664E8 0.001958318253962788 0.018304434873713908 0.9980416817460371 -0.018304434873713908 0.9980416817460371 -0.018304434873713908 0.001958318253962788 0.018304434873713908
