!Murata Part Number: LQP02TQ1N7B02
!These Parameters are Measured in Series Mode Connection
!       o--[Z]--o
!Port1              Port2
!       o-------o
!
!Freq. Start=50[MHz] Stop=20[GHz], 401[Steps]
# Hz S RI R 50
!Freq.(Hz) S11(Real) S11(Imag) S21(Real) S21(Imag) S12(Real) S12(Imag) S22(Real) S22(Imag)
5.0E7 0.0017616444996446318 0.005968881073514392 0.9982383555003556 -0.005968881073514393 0.9982383555003556 -0.005968881073514393 0.0017616444996446318 0.005968881073514392
5.0754570186123446E7 0.0017652113095720688 0.0060583744857635605 0.9982347886904279 -0.0060583744857635605 0.9982347886904279 -0.0060583744857635605 0.0017652113095720688 0.0060583744857635605
5.152052789556263E7 0.0017688783123377871 0.00614919370740249 0.9982311216876623 -0.00614919370740249 0.9982311216876623 -0.00614919370740249 0.0017688783123377871 0.00614919370740249
5.229804498202928E7 0.0017726480928783473 0.006241357760821619 0.9982273519071218 -0.006241357760821619 0.9982273519071218 -0.006241357760821619 0.0017726480928783473 0.006241357760821619
5.308729589274893E7 0.0017765232903928208 0.006334885920695041 0.9982234767096072 -0.006334885920695041 0.9982234767096072 -0.006334885920695041 0.0017765232903928208 0.006334885920695041
5.388845770760058E7 0.001780506598833055 0.006429797716874719 0.998219493401167 -0.006429797716874719 0.998219493401167 -0.006429797716874719 0.001780506598833055 0.006429797716874719
5.470171017884717E7 0.0017846007673639874 0.00652611293732719 0.9982153992326362 -0.00652611293732719 0.9982153992326362 -0.00652611293732719 0.0017846007673639874 0.00652611293732719
5.5527235771465644E7 0.0017888086007922452 0.006623851631115363 0.9982111913992079 -0.006623851631115364 0.9982111913992079 -0.006623851631115364 0.0017888086007922452 0.006623851631115363
5.6365219704085544E7 0.0017931329599612847 0.006723034111428252 0.9982068670400389 -0.006723034111428252 0.9982068670400389 -0.006723034111428252 0.0017931329599612847 0.006723034111428252
5.721584999054556E7 0.0017975767621113453 0.006823680958661651 0.9982024232378885 -0.006823680958661651 0.9982024232378885 -0.006823680958661651 0.0017975767621113453 0.006823680958661651
5.807931748207712E7 0.0018021429812025236 0.006925813023552979 0.9981978570187976 -0.006925813023552979 0.9981978570187976 -0.006925813023552979 0.0018021429812025236 0.006925813023552979
5.8955815910124585E7 0.0018068346481993406 0.007029451430373753 0.9981931653518006 -0.007029451430373753 0.9981931653518006 -0.007029451430373753 0.0018068346481993406 0.007029451430373753
5.984554192981184E7 0.0018116548513151913 0.007134617580183414 0.9981883451486848 -0.007134617580183414 0.9981883451486848 -0.007134617580183414 0.0018116548513151913 0.007134617580183414
6.074869516406457E7 0.0018166067362151914 0.0072413331541483035 0.9981833932637848 -0.0072413331541483035 0.9981833932637848 -0.0072413331541483035 0.0018166067362151914 0.0072413331541483035
6.166547824839868E7 0.00182169350617597 0.007349620116930083 0.998178306493824 -0.007349620116930083 0.998178306493824 -0.007349620116930083 0.00182169350617597 0.007349620116930083
6.2596096876384385E7 0.001826918422201122 0.007459500720147883 0.9981730815777989 -0.007459500720147883 0.9981730815777989 -0.007459500720147883 0.001826918422201122 0.007459500720147883
6.354075984579668E7 0.001832284803091083 0.0075709975059189034 0.9981677151969091 -0.0075709975059189034 0.9981677151969091 -0.0075709975059189034 0.001832284803091083 0.0075709975059189034
6.449967910546205E7 0.001837796025466391 0.007684133310482327 0.9981622039745335 -0.0076841333104823275 0.9981622039745335 -0.0076841333104823275 0.001837796025466391 0.007684133310482327
6.547306980281226E7 0.0018434555237434337 0.007798931267911751 0.9981565444762566 -0.007798931267911751 0.9981565444762566 -0.007798931267911751 0.0018434555237434337 0.007798931267911751
6.646115033215589E7 0.0018492667900619323 0.007915414813921516 0.9981507332099382 -0.007915414813921516 0.9981507332099382 -0.007915414813921516 0.0018492667900619323 0.007915414813921516
6.746414238367817E7 0.0018552333741636588 0.008033607689772675 0.9981447666258364 -0.008033607689772675 0.9981447666258364 -0.008033607689772675 0.0018552333741636588 0.008033607689772675
6.848227099318038E7 0.0018613588832220936 0.008153533946284553 0.9981386411167779 -0.008153533946284553 0.9981386411167779 -0.008153533946284553 0.0018613588832220936 0.008153533946284553
6.951576459256999E7 0.0018676469816229161 0.008275217947958083 0.998132353018377 -0.008275217947958083 0.998132353018377 -0.008275217947958083 0.0018676469816229161 0.008275217947958083
7.056485506111258E7 0.0018741013906955995 0.008398684377217419 0.9981258986093043 -0.008398684377217419 0.9981258986093043 -0.008398684377217419 0.0018741013906955995 0.008398684377217419
7.162977777745734E7 0.0018807258883965794 0.008523958238776632 0.9981192741116033 -0.008523958238776632 0.9981192741116033 -0.008523958238776632 0.0018807258883965794 0.008523958238776632
7.271077167244768E7 0.0018875243089448266 0.008651064864138368 0.9981124756910552 -0.008651064864138368 0.9981124756910552 -0.008651064864138368 0.0018875243089448266 0.008651064864138368
7.380807928272885E7 0.0018945005424110038 0.008780029916231773 0.9981054994575891 -0.008780029916231774 0.9981054994575891 -0.008780029916231774 0.0018945005424110038 0.008780029916231773
7.492194680516452E7 0.0019016585342617564 0.008910879394197204 0.9980983414657382 -0.008910879394197204 0.9980983414657382 -0.008910879394197204 0.0019016585342617564 0.008910879394197204
7.60526241520746E7 0.0019090022848610722 0.009043639638325291 0.9980909977151391 -0.009043639638325293 0.9980909977151391 -0.009043639638325293 0.0019090022848610722 0.009043639638325291
7.720036500730675E7 0.0019165358489311075 0.009178337335158373 0.9980834641510689 -0.009178337335158373 0.9980834641510689 -0.009178337335158373 0.0019165358489311075 0.009178337335158373
7.836542688315398E7 0.0019242633349753132 0.009314999522762388 0.9980757366650247 -0.009314999522762388 0.9980757366650247 -0.009314999522762388 0.0019242633349753132 0.009314999522762388
7.954807117813127E7 0.001932188904667176 0.009453653596177409 0.9980678110953329 -0.009453653596177409 0.9980678110953329 -0.009453653596177409 0.001932188904667176 0.009453653596177409
8.074856323562416E7 0.0019403167722084334 0.009594327313055323 0.9980596832277915 -0.009594327313055323 0.9980596832277915 -0.009594327313055323 0.0019403167722084334 0.009594327313055323
8.196717240342227E7 0.0019486512036611364 0.0097370487994932 0.9980513487963388 -0.0097370487994932 0.9980513487963388 -0.0097370487994932 0.0019486512036611364 0.0097370487994932
8.320417209415154E7 0.001957196516258525 0.009881846556070965 0.9980428034837414 -0.009881846556070965 0.9980428034837414 -0.009881846556070965 0.001957196516258525 0.009881846556070965
8.445983984661816E7 0.0019659570777002563 0.010028749464102076 0.9980340429222997 -0.010028749464102076 0.9980340429222997 -0.010028749464102076 0.0019659570777002563 0.010028749464102076
8.573445738807854E7 0.0019749373054381847 0.010177786792106076 0.9980250626945617 -0.010177786792106076 0.9980250626945617 -0.010177786792106076 0.0019749373054381847 0.010177786792106076
8.702831069744885E7 0.001984141665959496 0.010328988202511614 0.9980158583340406 -0.010328988202511614 0.9980158583340406 -0.010328988202511614 0.001984141665959496 0.010328988202511614
8.834169006946853E7 0.0019935746740746972 0.010482383758598746 0.9980064253259251 -0.010482383758598746 0.9980064253259251 -0.010482383758598746 0.0019935746740746972 0.010482383758598746
8.96748901798321E7 0.0020032408922186578 0.010638003931689153 0.9979967591077812 -0.010638003931689153 0.9979967591077812 -0.010638003931689153 0.0020032408922186578 0.010638003931689153
9.1028210151304E7 0.0020131449297735794 0.010795879608592768 0.9979868550702264 -0.010795879608592766 0.9979868550702264 -0.010795879608592766 0.0020131449297735794 0.010795879608592768
9.240195362083109E7 0.0020232914424235175 0.010956042099319056 0.9979767085575766 -0.010956042099319056 0.9979767085575766 -0.010956042099319056 0.0020232914424235175 0.010956042099319056
9.379642880766791E7 0.0020336851315508114 0.011118523145061237 0.9979663148684491 -0.011118523145061237 0.9979663148684491 -0.011118523145061237 0.0020336851315508114 0.011118523145061237
9.521194858253023E7 0.0020443307436855294 0.011283354926461082 0.9979556692563144 -0.011283354926461082 0.9979556692563144 -0.011283354926461082 0.0020443307436855294 0.011283354926461082
9.664883053779216E7 0.0020552330700197657 0.01145057007216189 0.99794476692998 -0.01145057007216189 0.99794476692998 -0.01145057007216189 0.0020552330700197657 0.01145057007216189
9.810739705874248E7 0.0020663969459994175 0.01162020166765666 0.9979336030540005 -0.01162020166765666 0.9979336030540005 -0.01162020166765666 0.0020663969459994175 0.01162020166765666
9.958797539591652E7 0.0020778272510067865 0.011792283264438153 0.9979221727489932 -0.011792283264438153 0.9979221727489932 -0.011792283264438153 0.0020778272510067865 0.011792283264438153
1.0109089773851961E8 0.0020895289081481173 0.011966848889456884 0.997910471091852 -0.011966848889456884 0.997910471091852 -0.011966848889456884 0.0020895289081481173 0.011966848889456884
1.0261650128895843E8 0.002101506884160909 0.012143933054892624 0.9978984931158392 -0.012143933054892624 0.9978984931158392 -0.012143933054892624 0.002101506884160909 0.012143933054892624
1.0416512833849736E8 0.0021137661894565373 0.012323570768244245 0.9978862338105433 -0.012323570768244245 0.9978862338105433 -0.012323570768244245 0.0021137661894565373 0.012323570768244245
1.0573712634405641E8 0.002126311878314457 0.012505797542742062 0.9978736881216856 -0.012505797542742062 0.9978736881216856 -0.012505797542742062 0.002126311878314457 0.012505797542742062
1.0733284800616828E8 0.0021391490492448473 0.012690649408086068 0.9978608509507553 -0.012690649408086067 0.9978608509507553 -0.012690649408086067 0.0021391490492448473 0.012690649408086068
1.0895265134811176E8 0.0021522828455372684 0.012878162921512549 0.9978477171544626 -0.012878162921512549 0.9978477171544626 -0.012878162921512549 0.0021522828455372684 0.012878162921512549
1.1059689979623953E8 0.002165718456013419 0.013068375179190654 0.9978342815439866 -0.013068375179190654 0.9978342815439866 -0.013068375179190654 0.002165718456013419 0.013068375179190654
1.1226596226151802E8 0.002179461116002642 0.013261323827949633 0.9978205388839975 -0.013261323827949633 0.9978205388839975 -0.013261323827949633 0.002179461116002642 0.013261323827949633
1.1396021322229806E8 0.0021935161085593377 0.013457047077336179 0.9978064838914407 -0.013457047077336179 0.9978064838914407 -0.013457047077336179 0.0021935161085593377 0.013457047077336179
1.1568003280833441E8 0.0022078887659417864 0.013655583712000425 0.9977921112340583 -0.013655583712000425 0.9977921112340583 -0.013655583712000425 0.0022078887659417864 0.013655583712000425
1.1742580688607343E8 0.0022225844713723237 0.013856973104407866 0.9977774155286279 -0.01385697310440787 0.9977774155286279 -0.01385697310440787 0.0022225844713723237 0.013856973104407866
1.1919792714522783E8 0.00223760866109903 0.01406125522787337 0.9977623913389008 -0.01406125522787337 0.9977623913389008 -0.01406125522787337 0.00223760866109903 0.01406125522787337
1.2099679118665792E8 0.0022529668267792825 0.014268470669911909 0.9977470331732206 -0.014268470669911909 0.9977470331732206 -0.014268470669911909 0.0022529668267792825 0.014268470669911909
1.2282280261157903E8 0.0022686645182056877 0.014478660645899777 0.9977313354817943 -0.014478660645899777 0.9977313354817943 -0.014478660645899777 0.0022686645182056877 0.014478660645899777
1.2467637111211549E8 0.0022847073463948585 0.014691867013038306 0.9977152926536051 -0.014691867013038306 0.9977152926536051 -0.014691867013038306 0.0022847073463948585 0.014691867013038306
1.265579125632208E8 0.002301100987059426 0.014908132284610891 0.9976988990129406 -0.014908132284610895 0.9976988990129406 -0.014908132284610895 0.002301100987059426 0.014908132284610891
1.284678491159853E8 0.002317851184483542 0.015127499644522839 0.9976821488155164 -0.015127499644522839 0.9976821488155164 -0.015127499644522839 0.002317851184483542 0.015127499644522839
1.3040660929235186E8 0.0023349637558217704 0.01535001296211197 0.9976650362441782 -0.01535001296211197 0.9976650362441782 -0.01535001296211197 0.0023349637558217704 0.01535001296211197
1.3237462808126101E8 0.002352444595840832 0.01557571680721653 0.9976475554041593 -0.015575716807216533 0.9976475554041593 -0.015575716807216533 0.002352444595840832 0.01557571680721653
1.3437234703624701E8 0.0023702996821232543 0.0158046564654857 0.9976297003178767 -0.0158046564654857 0.9976297003178767 -0.0158046564654857 0.0023702996821232543 0.0158046564654857
1.364002143745067E8 0.0023885350807512 0.0160368779539164 0.9976114649192489 -0.0160368779539164 0.9976114649192489 -0.0160368779539164 0.0023885350807512 0.0160368779539164
1.3845868507746372E8 0.0024071569524880725 0.01627242803659891 0.9975928430475121 -0.01627242803659891 0.9975928430475121 -0.01627242803659891 0.0024071569524880725 0.01627242803659891
1.405482209928499E8 0.0024261715594745743 0.016511354240652275 0.9975738284405254 -0.016511354240652275 0.9975738284405254 -0.016511354240652275 0.0024261715594745743 0.016511354240652275
1.426692909383278E8 0.00244558527245491 0.016753704872329467 0.9975544147275452 -0.016753704872329467 0.9975544147275452 -0.016753704872329467 0.00244558527245491 0.016753704872329467
1.4482237080667645E8 0.0024654045785476885 0.016999529033270733 0.9975345954214522 -0.01699952903327073 0.9975345954214522 -0.01699952903327073 0.0024654045785476885 0.016999529033270733
1.4700794367256513E8 0.0024856360895748647 0.01724887663688273 0.997514363910425 -0.01724887663688273 0.997514363910425 -0.01724887663688273 0.0024856360895748647 0.01724887663688273
1.492264999009378E8 0.002506286550960703 0.017501798424819685 0.9974937134490395 -0.01750179842481969 0.9974937134490395 -0.01750179842481969 0.002506286550960703 0.017501798424819685
1.5147853725703382E8 0.0025273628512112894 0.017758345983542038 0.9974726371487886 -0.017758345983542038 0.9974726371487886 -0.017758345983542038 0.0025273628512112894 0.017758345983542038
1.5376456101806876E8 0.0025488720319836056 0.018018571760927117 0.9974511279680163 -0.018018571760927114 0.9974511279680163 -0.018018571760927114 0.0025488720319836056 0.018018571760927117
1.5608508408660066E8 0.002570821298751487 0.018282529082905546 0.9974291787012485 -0.018282529082905546 0.9974291787012485 -0.018282529082905546 0.002570821298751487 0.018282529082905546
1.5844062710560706E8 0.002593218032074113 0.018550272170096586 0.997406781967926 -0.018550272170096586 0.997406781967926 -0.018550272170096586 0.002593218032074113 0.018550272170096586
1.6083171857529896E8 0.0026160697994708692 0.018821856154415072 0.9973839302005291 -0.01882185615441507 0.9973839302005291 -0.01882185615441507 0.0026160697994708692 0.018821856154415072
1.632588949716973E8 0.0026393843679045474 0.019097337095622124 0.9973606156320955 -0.019097337095622127 0.9973606156320955 -0.019097337095622127 0.0026393843679045474 0.019097337095622124
1.6572270086699936E8 0.002663169716872985 0.01937677199779196 0.9973368302831269 -0.01937677199779196 0.9973368302831269 -0.01937677199779196 0.002663169716872985 0.01937677199779196
1.6822368905176118E8 0.0026874340521072875 0.019660218825666577 0.9973125659478927 -0.019660218825666577 0.9973125659478927 -0.019660218825666577 0.0026874340521072875 0.019660218825666577
1.7076242065892437E8 0.002712185819872821 0.019947736520870802 0.9972878141801271 -0.019947736520870802 0.9972878141801271 -0.019947736520870802 0.002712185819872821 0.019947736520870802
1.7333946528971428E8 0.0027374337218671984 0.020239385017959934 0.9972625662781328 -0.020239385017959934 0.9972625662781328 -0.020239385017959934 0.0027374337218671984 0.020239385017959934
1.7595540114143828E8 0.0027631867307075344 0.02053522526027302 0.9972368132692925 -0.02053522526027302 0.9972368132692925 -0.02053522526027302 0.0027631867307075344 0.02053522526027302
1.786108151372127E8 0.002789454105997297 0.020835319215565362 0.9972105458940027 -0.020835319215565362 0.9972105458940027 -0.020835319215565362 0.002789454105997297 0.020835319215565362
1.8130630305764765E8 0.00281624541096122 0.021139729891394555 0.9971837545890387 -0.02113972989139456 0.9971837545890387 -0.02113972989139456 0.00281624541096122 0.021139729891394555
1.840424696745189E8 0.0028435705296348764 0.02144852135023544 0.9971564294703651 -0.02144852135023544 0.9971564294703651 -0.02144852135023544 0.0028435705296348764 0.02144852135023544
1.8681992888645732E8 0.002871439684593754 0.021761758724300355 0.9971285603154063 -0.021761758724300355 0.9971285603154063 -0.021761758724300355 0.002871439684593754 0.021761758724300355
1.8963930385668582E8 0.002899863455205032 0.02207950823004262 0.9971001365447949 -0.022079508230042625 0.9971001365447949 -0.022079508230042625 0.002899863455205032 0.02207950823004262
1.92501227152835E8 0.0029288527963836288 0.022401837182322255 0.9970711472036163 -0.022401837182322252 0.9970711472036163 -0.022401837182322252 0.0029288527963836288 0.022401837182322255
1.9540634088886917E8 0.0029584190578326886 0.02272881400821477 0.9970415809421674 -0.022728814008214773 0.9970415809421674 -0.022728814008214773 0.0029584190578326886 0.02272881400821477
1.983552968691535E8 0.0029885740037473188 0.023060508260445728 0.9970114259962527 -0.023060508260445728 0.9970114259962527 -0.023060508260445728 0.0029885740037473188 0.023060508260445728
2.0134875673469606E8 0.0030193298329592067 0.023396990630435068 0.9969806701670407 -0.02339699063043507 0.9969806701670407 -0.02339699063043507 0.0030193298329592067 0.023396990630435068
2.0438739211159652E8 0.0030506991994987357 0.023738332960937785 0.9969493008005013 -0.023738332960937785 0.9969493008005013 -0.023738332960937785 0.0030506991994987357 0.023738332960937785
2.074718847617352E8 0.003082695233550347 0.024084608258269143 0.9969173047664497 -0.024084608258269143 0.9969173047664497 -0.024084608258269143 0.003082695233550347 0.024084608258269143
2.106029267357361E8 0.0031153315627761645 0.024435890704104807 0.9968846684372238 -0.024435890704104807 0.9968846684372238 -0.024435890704104807 0.0031153315627761645 0.024435890704104807
2.1378122052823865E8 0.003148622333982504 0.024792255666848794 0.9968513776660176 -0.024792255666848798 0.9968513776660176 -0.024792255666848798 0.003148622333982504 0.024792255666848794
2.1700747923551247E8 0.003182582235103371 0.025153779712563686 0.9968174177648966 -0.025153779712563686 0.9968174177648966 -0.025153779712563686 0.003182582235103371 0.025153779712563686
2.2028242671545094E8 0.0032172265174751323 0.0255205406154606 0.9967827734825246 -0.0255205406154606 0.9967827734825246 -0.0255205406154606 0.0032172265174751323 0.0255205406154606
2.23606797749979E8 0.0032525710183764003 0.025892617367948057 0.9967474289816237 -0.025892617367948057 0.9967474289816237 -0.025892617367948057 0.0032525710183764003 0.025892617367948057
2.2698133820991236E8 0.0032886321838075635 0.026270090190241444 0.9967113678161923 -0.026270090190241444 0.9967113678161923 -0.026270090190241444 0.0032886321838075635 0.026270090190241444
2.3040680522230446E8 0.0033254270914846937 0.026653040539537043 0.9966745729085151 -0.026653040539537036 0.9966745729085151 -0.026653040539537036 0.0033254270914846937 0.026653040539537043
2.338839673403185E8 0.0033629734740233046 0.027041551118756592 0.9966370265259767 -0.02704155111875659 0.9966370265259767 -0.02704155111875659 0.0033629734740233046 0.027041551118756592
2.37413604715664E8 0.003401289742288102 0.02743570588487071 0.9965987102577117 -0.02743570588487071 0.9965987102577117 -0.02743570588487071 0.003401289742288102 0.02743570588487071
