!Murata Part Number: LQP02TQ15NH02
!These Parameters are Measured in Series Mode Connection
!       o--[Z]--o
!Port1              Port2
!       o-------o
!
!Freq. Start=50[MHz] Stop=20[GHz], 401[Steps]
# Hz S RI R 50
!Freq.(Hz) S11(Real) S11(Imag) S21(Real) S21(Imag) S12(Real) S12(Imag) S22(Real) S22(Imag)
5.0E7 0.015640353500759176 0.05065703101759508 0.9843596464992406 -0.05065703101759507 0.9843596464992406 -0.05065703101759507 0.015640353500759176 0.05065703101759508
5.0754570186123446E7 0.015753602485130826 0.05140025691582177 0.9842463975148691 -0.05140025691582177 0.9842463975148691 -0.05140025691582177 0.015753602485130826 0.05140025691582177
5.152052789556263E7 0.0158698834483598 0.05215391626705443 0.9841301165516403 -0.052153916267054415 0.9841301165516403 -0.052153916267054415 0.0158698834483598 0.05215391626705443
5.229804498202928E7 0.015989270153342672 0.05291814191276242 0.9840107298466573 -0.05291814191276242 0.9840107298466573 -0.05291814191276242 0.015989270153342672 0.05291814191276242
5.308729589274893E7 0.016111837947104753 0.053693068164905516 0.9838881620528952 -0.05369306816490551 0.9838881620528952 -0.05369306816490551 0.016111837947104753 0.053693068164905516
5.388845770760058E7 0.016237663797401405 0.05447883082736901 0.9837623362025988 -0.05447883082736901 0.9837623362025988 -0.05447883082736901 0.016237663797401405 0.05447883082736901
5.470171017884717E7 0.016366826331051954 0.05527556721801741 0.9836331736689481 -0.05527556721801742 0.9836331736689481 -0.05527556721801742 0.016366826331051954 0.05527556721801741
5.5527235771465644E7 0.01649940587411863 0.05608341619133971 0.9835005941258815 -0.05608341619133971 0.9835005941258815 -0.05608341619133971 0.01649940587411863 0.05608341619133971
5.6365219704085544E7 0.01663548449404646 0.05690251816165253 0.9833645155059535 -0.056902518161652524 0.9833645155059535 -0.056902518161652524 0.01663548449404646 0.05690251816165253
5.721584999054556E7 0.016775146043883346 0.057733015126820365 0.9832248539561166 -0.05773301512682035 0.9832248539561166 -0.05773301512682035 0.016775146043883346 0.057733015126820365
5.807931748207712E7 0.016918476208701988 0.058575050692443766 0.9830815237912981 -0.058575050692443766 0.9830815237912981 -0.058575050692443766 0.016918476208701988 0.058575050692443766
5.8955815910124585E7 0.0170655625543483 0.05942877009645878 0.9829344374456518 -0.05942877009645878 0.9829344374456518 -0.05942877009645878 0.0170655625543483 0.05942877009645878
5.984554192981184E7 0.017216494578642355 0.060294320234081426 0.9827835054213577 -0.060294320234081426 0.9827835054213577 -0.060294320234081426 0.017216494578642355 0.060294320234081426
6.074869516406457E7 0.017371363765159728 0.06117184968302239 0.9826286362348402 -0.06117184968302239 0.9826286362348402 -0.06117184968302239 0.017371363765159728 0.06117184968302239
6.166547824839868E7 0.01753026363972194 0.062061508728887674 0.9824697363602782 -0.06206150872888768 0.9824697363602782 -0.06206150872888768 0.01753026363972194 0.062061508728887674
6.2596096876384385E7 0.017693289829724887 0.06296344939067057 0.9823067101702752 -0.06296344939067057 0.9823067101702752 -0.06296344939067057 0.017693289829724887 0.06296344939067057
6.354075984579668E7 0.017860540126434336 0.0638778254462309 0.9821394598735655 -0.0638778254462309 0.9821394598735655 -0.0638778254462309 0.017860540126434336 0.0638778254462309
6.449967910546205E7 0.01803211455037572 0.06480479245764582 0.9819678854496243 -0.06480479245764582 0.9819678854496243 -0.06480479245764582 0.01803211455037572 0.06480479245764582
6.547306980281226E7 0.01820811541994491 0.06574450779630742 0.9817918845800552 -0.0657445077963074 0.9817918845800552 -0.0657445077963074 0.01820811541994491 0.06574450779630742
6.646115033215589E7 0.018388647423363217 0.06669713066762975 0.9816113525766367 -0.06669713066762975 0.9816113525766367 -0.06669713066762975 0.018388647423363217 0.06669713066762975
6.746414238367817E7 0.018573817694097505 0.06766282213521846 0.9814261823059025 -0.06766282213521846 0.9814261823059025 -0.06766282213521846 0.018573817694097505 0.06766282213521846
6.848227099318038E7 0.018763735889861476 0.06864174514434344 0.9812362641101386 -0.06864174514434344 0.9812362641101386 -0.06864174514434344 0.018763735889861476 0.06864174514434344
6.951576459256999E7 0.018958514275310118 0.0696340645445457 0.9810414857246901 -0.0696340645445457 0.9810414857246901 -0.0696340645445457 0.018958514275310118 0.0696340645445457
7.056485506111258E7 0.019158267808533212 0.07063994711119682 0.9808417321914668 -0.07063994711119682 0.9808417321914668 -0.07063994711119682 0.019158267808533212 0.07063994711119682
7.162977777745734E7 0.019363114231447216 0.07165956156581994 0.9806368857685528 -0.07165956156581996 0.9806368857685528 -0.07165956156581996 0.019363114231447216 0.07165956156581994
7.271077167244768E7 0.01957317416417762 0.07269307859496911 0.9804268258358224 -0.07269307859496911 0.9804268258358224 -0.07269307859496911 0.01957317416417762 0.07269307859496911
7.380807928272885E7 0.019788571203515605 0.0737406708674548 0.9802114287964843 -0.0737406708674548 0.9802114287964843 -0.0737406708674548 0.019788571203515605 0.0737406708674548
7.492194680516452E7 0.020009432025523518 0.07480251304969217 0.9799905679744765 -0.07480251304969217 0.9799905679744765 -0.07480251304969217 0.020009432025523518 0.07480251304969217
7.60526241520746E7 0.020235886492353673 0.07587878181893909 0.9797641135076463 -0.07587878181893909 0.9797641135076463 -0.07587878181893909 0.020235886492353673 0.07587878181893909
7.720036500730675E7 0.020468067763334825 0.07696965587418304 0.9795319322366651 -0.07696965587418304 0.9795319322366651 -0.07696965587418304 0.020468067763334825 0.07696965587418304
7.836542688315398E7 0.02070611241036807 0.0780753159444253 0.979293887589632 -0.0780753159444253 0.979293887589632 -0.0780753159444253 0.02070611241036807 0.0780753159444253
7.954807117813127E7 0.02095016053766252 0.07919594479410444 0.9790498394623376 -0.07919594479410444 0.9790498394623376 -0.07919594479410444 0.02095016053766252 0.07919594479410444
8.074856323562416E7 0.02120035590582749 0.08033172722539357 0.9787996440941724 -0.08033172722539356 0.9787996440941724 -0.08033172722539356 0.02120035590582749 0.08033172722539357
8.196717240342227E7 0.021456846060324733 0.08148285007709813 0.9785431539396753 -0.08148285007709813 0.9785431539396753 -0.08148285007709813 0.021456846060324733 0.08148285007709813
8.320417209415154E7 0.021719782464269637 0.08264950221987807 0.9782802175357304 -0.08264950221987807 0.9782802175357304 -0.08264950221987807 0.021719782464269637 0.08264950221987807
8.445983984661816E7 0.02198932063555556 0.08383187454750929 0.9780106793644445 -0.08383187454750929 0.9780106793644445 -0.08383187454750929 0.02198932063555556 0.08383187454750929
8.573445738807854E7 0.022265620288260707 0.08503015996389994 0.9777343797117393 -0.08503015996389994 0.9777343797117393 -0.08503015996389994 0.022265620288260707 0.08503015996389994
8.702831069744885E7 0.022548845478280642 0.08624455336557067 0.9774511545217194 -0.08624455336557067 0.9774511545217194 -0.08624455336557067 0.022548845478280642 0.08624455336557067
8.834169006946853E7 0.022839164753114257 0.08747525161930784 0.9771608352468858 -0.08747525161930786 0.9771608352468858 -0.08747525161930786 0.022839164753114257 0.08747525161930784
8.96748901798321E7 0.023136751305714714 0.08872245353469767 0.9768632486942853 -0.08872245353469767 0.9768632486942853 -0.08872245353469767 0.023136751305714714 0.08872245353469767
9.1028210151304E7 0.02344178313230047 0.08998635983124863 0.9765582168676995 -0.08998635983124863 0.9765582168676995 -0.08998635983124863 0.02344178313230047 0.08998635983124863
9.240195362083109E7 0.023754443194005822 0.09126717309981178 0.9762455568059941 -0.09126717309981178 0.9762455568059941 -0.09126717309981178 0.023754443194005822 0.09126717309981178
9.379642880766791E7 0.0240749195822334 0.0925650977580097 0.9759250804177666 -0.0925650977580097 0.9759250804177666 -0.0925650977580097 0.0240749195822334 0.0925650977580097
9.521194858253023E7 0.024403405687555974 0.09388033999938873 0.9755965943124439 -0.09388033999938875 0.9755965943124439 -0.09388033999938875 0.024403405687555974 0.09388033999938873
9.664883053779216E7 0.024740100371998523 0.09521310773601435 0.9752598996280015 -0.09521310773601435 0.9752598996280015 -0.09521310773601435 0.024740100371998523 0.09521310773601435
9.810739705874248E7 0.025085208144516022 0.09656361053423147 0.9749147918554839 -0.09656361053423147 0.9749147918554839 -0.09656361053423147 0.025085208144516022 0.09656361053423147
9.958797539591652E7 0.025438939339467923 0.09793205954332239 0.9745610606605322 -0.09793205954332239 0.9745610606605322 -0.09793205954332239 0.025438939339467923 0.09793205954332239
1.0109089773851961E8 0.025801510297874936 0.09931866741679735 0.974198489702125 -0.09931866741679735 0.974198489702125 -0.09931866741679735 0.025801510297874936 0.09931866741679735
1.0261650128895843E8 0.0261731435512307 0.1007236482260648 0.9738268564487694 -0.1007236482260648 0.9738268564487694 -0.1007236482260648 0.0261731435512307 0.1007236482260648
1.0416512833849736E8 0.02655406800762583 0.10214721736623247 0.9734459319923742 -0.10214721736623247 0.9734459319923742 -0.10214721736623247 0.02655406800762583 0.10214721736623247
1.0573712634405641E8 0.02694451913993134 0.10358959145380474 0.9730554808600685 -0.10358959145380474 0.9730554808600685 -0.10358959145380474 0.02694451913993134 0.10358959145380474
1.0733284800616828E8 0.027344739175773892 0.1050509882160467 0.972655260824226 -0.1050509882160467 0.972655260824226 -0.1050509882160467 0.027344739175773892 0.1050509882160467
1.0895265134811176E8 0.02775497728902608 0.10653162637179969 0.9722450227109739 -0.10653162637179969 0.9722450227109739 -0.10653162637179969 0.02775497728902608 0.10653162637179969
1.1059689979623953E8 0.028175489792522684 0.10803172550354077 0.9718245102074774 -0.10803172550354076 0.9718245102074774 -0.10803172550354076 0.028175489792522684 0.10803172550354077
1.1226596226151802E8 0.02860654033170504 0.10955150592049223 0.9713934596682952 -0.10955150592049225 0.9713934596682952 -0.10955150592049225 0.02860654033170504 0.10955150592049223
1.1396021322229806E8 0.029048400078886382 0.11109118851259721 0.9709515999211134 -0.11109118851259721 0.9709515999211134 -0.11109118851259721 0.029048400078886382 0.11109118851259721
1.1568003280833441E8 0.029501347927822014 0.11265099459518912 0.970498652072178 -0.11265099459518915 0.970498652072178 -0.11265099459518915 0.029501347927822014 0.11265099459518912
1.1742580688607343E8 0.029965670688261795 0.11423114574419523 0.9700343293117383 -0.11423114574419523 0.9700343293117383 -0.11423114574419523 0.029965670688261795 0.11423114574419523
1.1919792714522783E8 0.030441663280154345 0.11583186362172557 0.9695583367198456 -0.11583186362172557 0.9695583367198456 -0.11583186362172557 0.030441663280154345 0.11583186362172557
1.2099679118665792E8 0.030929628927167257 0.11745336979191082 0.9690703710728329 -0.11745336979191083 0.9690703710728329 -0.11745336979191083 0.030929628927167257 0.11745336979191082
1.2282280261157903E8 0.031429879349181074 0.1190958855268631 0.968570120650819 -0.11909588552686307 0.968570120650819 -0.11909588552686307 0.031429879349181074 0.1190958855268631
1.2467637111211549E8 0.03194273495341088 0.12075963160264702 0.968057265046589 -0.12075963160264702 0.968057265046589 -0.12075963160264702 0.03194273495341088 0.12075963160264702
1.265579125632208E8 0.03246852502380389 0.12244482808515736 0.9675314749761962 -0.12244482808515736 0.9675314749761962 -0.12244482808515736 0.03246852502380389 0.12244482808515736
1.284678491159853E8 0.033007587908358144 0.12415169410581174 0.966992412091642 -0.12415169410581176 0.966992412091642 -0.12415169410581176 0.033007587908358144 0.12415169410581174
1.3040660929235186E8 0.033560271204003886 0.12588044762697823 0.9664397287959962 -0.12588044762697823 0.9664397287959962 -0.12588044762697823 0.033560271204003886 0.12588044762697823
1.3237462808126101E8 0.034126931938685094 0.12763130519706517 0.9658730680613149 -0.12763130519706517 0.9658730680613149 -0.12763130519706517 0.034126931938685094 0.12763130519706517
1.3437234703624701E8 0.034707936750276606 0.12940448169521396 0.9652920632497234 -0.12940448169521396 0.9652920632497234 -0.12940448169521396 0.034707936750276606 0.12940448169521396
1.364002143745067E8 0.03530366206196896 0.1312001900655419 0.964696337938031 -0.13120019006554193 0.964696337938031 -0.13120019006554193 0.03530366206196896 0.1312001900655419
1.3845868507746372E8 0.035914494253749894 0.1330186410408944 0.96408550574625 -0.13301864104089436 0.96408550574625 -0.13301864104089436 0.035914494253749894 0.1330186410408944
1.405482209928499E8 0.03654082982960957 0.1348600428560714 0.9634591701703905 -0.1348600428560714 0.9634591701703905 -0.1348600428560714 0.03654082982960957 0.1348600428560714
1.426692909383278E8 0.03718307558009292 0.13672460095050543 0.9628169244199072 -0.13672460095050543 0.9628169244199072 -0.13672460095050543 0.03718307558009292 0.13672460095050543
1.4482237080667645E8 0.037841648739819725 0.13861251766037266 0.9621583512601803 -0.1386125176603727 0.9621583512601803 -0.1386125176603727 0.037841648739819725 0.13861251766037266
1.4700794367256513E8 0.03851697713959033 0.14052399190013068 0.9614830228604095 -0.14052399190013068 0.9614830228604095 -0.14052399190013068 0.03851697713959033 0.14052399190013068
1.492264999009378E8 0.03920949935269123 0.14245921883348134 0.9607905006473089 -0.14245921883348134 0.9607905006473089 -0.14245921883348134 0.03920949935269123 0.14245921883348134
1.5147853725703382E8 0.03991966483500996 0.14441838953376643 0.9600803351649899 -0.14441838953376643 0.9600803351649899 -0.14441838953376643 0.03991966483500996 0.14441838953376643
1.5376456101806876E8 0.04064793405856731 0.14640169063381248 0.9593520659414329 -0.14640169063381248 0.9593520659414329 -0.14640169063381248 0.04064793405856731 0.14640169063381248
1.5608508408660066E8 0.04139477863806741 0.14840930396524632 0.9586052213619326 -0.14840930396524632 0.9586052213619326 -0.14840930396524632 0.04139477863806741 0.14840930396524632
1.5844062710560706E8 0.042160681450063485 0.15044140618731375 0.9578393185499365 -0.15044140618731375 0.9578393185499365 -0.15044140618731375 0.042160681450063485 0.15044140618731375
1.6083171857529896E8 0.042946136744331564 0.15249816840524036 0.9570538632556684 -0.15249816840524036 0.9570538632556684 -0.15249816840524036 0.042946136744331564 0.15249816840524036
1.632588949716973E8 0.04375165024703757 0.1545797557781818 0.9562483497529626 -0.1545797557781818 0.9562483497529626 -0.1545797557781818 0.04375165024703757 0.1545797557781818
1.6572270086699936E8 0.0445777392552793 0.15668632711682048 0.9554222607447208 -0.15668632711682048 0.9554222607447208 -0.15668632711682048 0.0445777392552793 0.15668632711682048
1.6822368905176118E8 0.0454249327225765 0.15881803447067427 0.9545750672774235 -0.15881803447067427 0.9545750672774235 -0.15881803447067427 0.0454249327225765 0.15881803447067427
1.7076242065892437E8 0.04629377133487672 0.16097502270519284 0.9537062286651232 -0.16097502270519287 0.9537062286651232 -0.16097502270519287 0.04629377133487672 0.16097502270519284
1.7333946528971428E8 0.047184807576637226 0.16315742906872685 0.9528151924233628 -0.16315742906872685 0.9528151924233628 -0.16315742906872685 0.047184807576637226 0.16315742906872685
1.7595540114143828E8 0.0480986057865358 0.16536538274946722 0.9519013942134642 -0.16536538274946724 0.9519013942134642 -0.16536538274946724 0.0480986057865358 0.16536538274946722
1.786108151372127E8 0.049035742202356424 0.16759900442246317 0.9509642577976435 -0.1675990044224632 0.9509642577976435 -0.1675990044224632 0.049035742202356424 0.16759900442246317
1.8130630305764765E8 0.04999680499458727 0.1698584057868388 0.9500031950054127 -0.1698584057868388 0.9500031950054127 -0.1698584057868388 0.04999680499458727 0.1698584057868388
1.840424696745189E8 0.050982394288261644 0.17214368909334338 0.9490176057117384 -0.17214368909334338 0.9490176057117384 -0.17214368909334338 0.050982394288261644 0.17214368909334338
1.8681992888645732E8 0.0519931221725647 0.17445494666238362 0.9480068778274352 -0.17445494666238362 0.9480068778274352 -0.17445494666238362 0.0519931221725647 0.17445494666238362
1.8963930385668582E8 0.05302961269772024 0.1767922603927002 0.9469703873022798 -0.1767922603927002 0.9469703873022798 -0.1767922603927002 0.05302961269772024 0.1767922603927002
1.92501227152835E8 0.05409250185866617 0.17915570126086927 0.9459074981413338 -0.17915570126086927 0.9459074981413338 -0.17915570126086927 0.05409250185866617 0.17915570126086927
1.9540634088886917E8 0.05518243756501877 0.1815453288118244 0.9448175624349812 -0.1815453288118244 0.9448175624349812 -0.1815453288118244 0.05518243756501877 0.1815453288118244
1.983552968691535E8 0.056300079596819284 0.1839611906406125 0.9436999204031805 -0.18396119064061248 0.9436999204031805 -0.18396119064061248 0.056300079596819284 0.1839611906406125
2.0134875673469606E8 0.05744609954555134 0.18640332186561845 0.9425539004544488 -0.18640332186561842 0.9425539004544488 -0.18640332186561842 0.05744609954555134 0.18640332186561845
2.0438739211159652E8 0.058621180739909386 0.1888717445935081 0.9413788192600907 -0.1888717445935081 0.9413788192600907 -0.1888717445935081 0.058621180739909386 0.1888717445935081
2.074718847617352E8 0.05982601815579621 0.19136646737616567 0.9401739818442038 -0.19136646737616567 0.9401739818442038 -0.19136646737616567 0.05982601815579621 0.19136646737616567
2.106029267357361E8 0.06106131831002067 0.1938874846599174 0.9389386816899794 -0.1938874846599174 0.9389386816899794 -0.1938874846599174 0.06106131831002067 0.1938874846599174
2.1378122052823865E8 0.06232779913716397 0.19643477622735964 0.9376722008628361 -0.19643477622735966 0.9376722008628361 -0.19643477622735966 0.06232779913716397 0.19643477622735964
2.1700747923551247E8 0.06362618984908083 0.19900830663213123 0.936373810150919 -0.19900830663213123 0.936373810150919 -0.19900830663213123 0.06362618984908083 0.19900830663213123
2.2028242671545094E8 0.06495723077649783 0.201608024626991 0.9350427692235023 -0.201608024626991 0.9350427692235023 -0.201608024626991 0.06495723077649783 0.201608024626991
2.23606797749979E8 0.0663216731921719 0.2042338625855902 0.9336783268078283 -0.2042338625855902 0.9336783268078283 -0.2042338625855902 0.0663216731921719 0.2042338625855902
2.2698133820991236E8 0.0677202791150719 0.2068857359183509 0.932279720884928 -0.20688573591835094 0.932279720884928 -0.20688573591835094 0.0677202791150719 0.2068857359183509
2.3040680522230446E8 0.06915382109504555 0.20956354248288775 0.9308461789049545 -0.20956354248288775 0.9308461789049545 -0.20956354248288775 0.06915382109504555 0.20956354248288775
2.338839673403185E8 0.07062308197743712 0.2122671619894342 0.9293769180225628 -0.2122671619894342 0.9293769180225628 -0.2122671619894342 0.07062308197743712 0.2122671619894342
2.37413604715664E8 0.07212885464712501 0.2149964554017651 0.9278711453528751 -0.2149964554017651 0.9278711453528751 -0.2149964554017651 0.07212885464712501 0.2149964554017651
2.4099650927363476E8 0.07367194175144978 0.21775126433412648 0.9263280582485504 -0.21775126433412648 0.9263280582485504 -0.21775126433412648 0.07367194175144978 0.21775126433412648
2.446334848907889E8 0.07525315540151156 0.22053141044471627 0.9247468445984885 -0.22053141044471627 0.9247468445984885 -0.22053141044471627 0.07525315540151156 0.22053141044471627
2.4832534757531032E8 0.07687331685131778 0.2233366948262801 0.9231266831486821 -0.2233366948262801 0.9231266831486821 -0.2233366948262801 0.07687331685131778 0.2233366948262801
2.5207292565009177E8 0.07853325615427323 0.22616689739441823 0.9214667438457267 -0.22616689739441825 0.9214667438457267 -0.22616689739441825 0.07853325615427323 0.22616689739441823
