!Murata Part Number: LQP02TQ5N1H02
!These Parameters are Measured in Series Mode Connection
!       o--[Z]--o
!Port1              Port2
!       o-------o
!
!Freq. Start=50[MHz] Stop=20[GHz], 401[Steps]
# Hz S RI R 50
!Freq.(Hz) S11(Real) S11(Imag) S21(Real) S21(Imag) S12(Real) S12(Imag) S22(Real) S22(Imag)
5.0E7 0.006953253392695834 0.017276189697243243 0.9930467466073041 -0.01727618969724324 0.9930467466073041 -0.01727618969724324 0.006953253392695834 0.017276189697243243
5.0754570186123446E7 0.006968842100313687 0.017534494547052904 0.9930311578996863 -0.0175344945470529 0.9930311578996863 -0.0175344945470529 0.006968842100313687 0.017534494547052904
5.152052789556263E7 0.006984856862212122 0.0177966082221381 0.9930151431377877 -0.0177966082221381 0.9930151431377877 -0.0177966082221381 0.006984856862212122 0.0177966082221381
5.229804498202928E7 0.007001308447474054 0.018062585415637617 0.992998691552526 -0.018062585415637617 0.992998691552526 -0.018062585415637617 0.007001308447474054 0.018062585415637617
5.308729589274893E7 0.007018207872385704 0.01833248158849566 0.9929817921276144 -0.01833248158849566 0.9929817921276144 -0.01833248158849566 0.007018207872385704 0.01833248158849566
5.388845770760058E7 0.007035566406383054 0.01860635298134237 0.9929644335936167 -0.01860635298134237 0.9929644335936167 -0.01860635298134237 0.007035566406383054 0.01860635298134237
5.470171017884717E7 0.007053395578245041 0.018884256626620622 0.9929466044217551 -0.018884256626620622 0.9929466044217551 -0.018884256626620622 0.007053395578245041 0.018884256626620622
5.5527235771465644E7 0.007071707182548547 0.01916625036096076 0.9929282928174514 -0.01916625036096076 0.9929282928174514 -0.01916625036096076 0.007071707182548547 0.01916625036096076
5.6365219704085544E7 0.007090513286400885 0.0194523928378049 0.9929094867135992 -0.019452392837804904 0.9929094867135992 -0.019452392837804904 0.007090513286400885 0.0194523928378049
5.721584999054556E7 0.007109826236465761 0.019742743540280674 0.9928901737635343 -0.019742743540280674 0.9928901737635343 -0.019742743540280674 0.007109826236465761 0.019742743540280674
5.807931748207712E7 0.007129658666299517 0.020037362794324626 0.9928703413337004 -0.020037362794324626 0.9928703413337004 -0.020037362794324626 0.007129658666299517 0.020037362794324626
5.8955815910124585E7 0.007150023504014647 0.020336311782053904 0.9928499764959852 -0.020336311782053904 0.9928499764959852 -0.020336311782053904 0.007150023504014647 0.020336311782053904
5.984554192981184E7 0.007170933980288239 0.02063965255538454 0.9928290660197117 -0.02063965255538454 0.9928290660197117 -0.02063965255538454 0.007170933980288239 0.02063965255538454
6.074869516406457E7 0.007192403636733212 0.02094744804989338 0.9928075963632669 -0.020947448049893385 0.9928075963632669 -0.020947448049893385 0.007192403636733212 0.02094744804989338
6.166547824839868E7 0.007214446334650653 0.021259762098920058 0.9927855536653495 -0.021259762098920058 0.9927855536653495 -0.021259762098920058 0.007214446334650653 0.021259762098920058
6.2596096876384385E7 0.007237076264181865 0.021576659447904326 0.9927629237358181 -0.021576659447904326 0.9927629237358181 -0.021576659447904326 0.007237076264181865 0.021576659447904326
6.354075984579668E7 0.007260307953878772 0.021898205768952985 0.9927396920461211 -0.02189820576895298 0.9927396920461211 -0.02189820576895298 0.007260307953878772 0.021898205768952985
6.449967910546205E7 0.0072841562807117125 0.022224467675629585 0.9927158437192881 -0.022224467675629585 0.9927158437192881 -0.022224467675629585 0.0072841562807117125 0.022224467675629585
6.547306980281226E7 0.007308636480533647 0.022555512737959332 0.9926913635194665 -0.022555512737959336 0.9926913635194665 -0.022555512737959336 0.007308636480533647 0.022555512737959332
6.646115033215589E7 0.007333764159019665 0.022891409497639896 0.9926662358409803 -0.0228914094976399 0.9926662358409803 -0.0228914094976399 0.007333764159019665 0.022891409497639896
6.746414238367817E7 0.007359555303100897 0.023232227483448397 0.9926404446968994 -0.023232227483448397 0.9926404446968994 -0.023232227483448397 0.007359555303100897 0.023232227483448397
6.848227099318038E7 0.007386026292911508 0.02357803722683315 0.9926139737070884 -0.023578037226833146 0.9926139737070884 -0.023578037226833146 0.007386026292911508 0.02357803722683315
6.951576459256999E7 0.007413193914267348 0.023928910277677944 0.9925868060857327 -0.02392891027767794 0.9925868060857327 -0.02392891027767794 0.007413193914267348 0.023928910277677944
7.056485506111258E7 0.0074410753716945026 0.024284919220225368 0.9925589246283056 -0.02428491922022537 0.9925589246283056 -0.02428491922022537 0.0074410753716945026 0.024284919220225368
7.162977777745734E7 0.007469688302025514 0.024646137689144598 0.9925303116979745 -0.024646137689144598 0.9925303116979745 -0.024646137689144598 0.007469688302025514 0.024646137689144598
7.271077167244768E7 0.007499050788580552 0.025012640385727865 0.9925009492114195 -0.025012640385727865 0.9925009492114195 -0.025012640385727865 0.007499050788580552 0.025012640385727865
7.380807928272885E7 0.007529181375950288 0.025384503094199127 0.9924708186240498 -0.025384503094199127 0.9924708186240498 -0.025384503094199127 0.007529181375950288 0.025384503094199127
7.492194680516452E7 0.007560099085396384 0.02576180269811666 0.9924399009146037 -0.02576180269811666 0.9924399009146037 -0.02576180269811666 0.007560099085396384 0.02576180269811666
7.60526241520746E7 0.00759182343088489 0.02614461719685125 0.9924081765691152 -0.02614461719685125 0.9924081765691152 -0.02614461719685125 0.00759182343088489 0.02614461719685125
7.720036500730675E7 0.0076243744357668945 0.02653302572211999 0.9923756255642332 -0.026533025722119997 0.9923756255642332 -0.026533025722119997 0.0076243744357668945 0.02653302572211999
7.836542688315398E7 0.007657772650119831 0.0269271085545552 0.9923422273498803 -0.0269271085545552 0.9923422273498803 -0.0269271085545552 0.007657772650119831 0.0269271085545552
7.954807117813127E7 0.007692039168761865 0.027326947140286956 0.9923079608312381 -0.027326947140286956 0.9923079608312381 -0.027326947140286956 0.007692039168761865 0.027326947140286956
8.074856323562416E7 0.007727195649950634 0.02773262410751735 0.9922728043500495 -0.02773262410751735 0.9922728043500495 -0.02773262410751735 0.007727195649950634 0.02773262410751735
8.196717240342227E7 0.007763264334776556 0.028144223283063464 0.9922367356652233 -0.028144223283063458 0.9922367356652233 -0.028144223283063458 0.007763264334776556 0.028144223283063464
8.320417209415154E7 0.007800268067259591 0.028561829708846197 0.9921997319327404 -0.028561829708846197 0.9921997319327404 -0.028561829708846197 0.007800268067259591 0.028561829708846197
8.445983984661816E7 0.00783823031515716 0.02898552965830091 0.9921617696848427 -0.028985529658300903 0.9921617696848427 -0.028985529658300903 0.00783823031515716 0.02898552965830091
8.573445738807854E7 0.007877175191489671 0.029415410652686318 0.9921228248085104 -0.029415410652686325 0.9921228248085104 -0.029415410652686325 0.007877175191489671 0.029415410652686318
8.702831069744885E7 0.00791712747678859 0.029851561477267183 0.9920828725232116 -0.029851561477267176 0.9920828725232116 -0.029851561477267176 0.00791712747678859 0.029851561477267183
8.834169006946853E7 0.00795811264207093 0.030294072197346783 0.992041887357929 -0.030294072197346783 0.992041887357929 -0.030294072197346783 0.00795811264207093 0.030294072197346783
8.96748901798321E7 0.008000156872542461 0.030743034174125168 0.9919998431274574 -0.030743034174125168 0.9919998431274574 -0.030743034174125168 0.008000156872542461 0.030743034174125168
9.1028210151304E7 0.008043287092030713 0.031198540080359043 0.9919567129079694 -0.03119854008035905 0.9919567129079694 -0.03119854008035905 0.008043287092030713 0.031198540080359043
9.240195362083109E7 0.008087530988147483 0.031660683915799785 0.9919124690118524 -0.031660683915799785 0.9919124690118524 -0.031660683915799785 0.008087530988147483 0.031660683915799785
9.379642880766791E7 0.008132917038179418 0.032129561022386705 0.9918670829618206 -0.0321295610223867 0.9918670829618206 -0.0321295610223867 0.008132917038179418 0.032129561022386705
9.521194858253023E7 0.008179474535703746 0.032605268099172614 0.9918205254642963 -0.03260526809917261 0.9918205254642963 -0.03260526809917261 0.008179474535703746 0.032605268099172614
9.664883053779216E7 0.008227233617925317 0.03308790321696031 0.9917727663820746 -0.03308790321696031 0.9917727663820746 -0.03308790321696031 0.008227233617925317 0.03308790321696031
9.810739705874248E7 0.008276225293729957 0.0335775658326287 0.99172377470627 -0.0335775658326287 0.99172377470627 -0.0335775658326287 0.008276225293729957 0.0335775658326287
9.958797539591652E7 0.00832648147244796 0.0340743568031286 0.991673518527552 -0.0340743568031286 0.991673518527552 -0.0340743568031286 0.00832648147244796 0.0340743568031286
1.0109089773851961E8 0.008378034993320937 0.03457837839912955 0.991621965006679 -0.03457837839912955 0.991621965006679 -0.03457837839912955 0.008378034993320937 0.03457837839912955
1.0261650128895843E8 0.008430919655664193 0.035089734318299405 0.9915690803443359 -0.03508973431829941 0.9915690803443359 -0.03508973431829941 0.008430919655664193 0.035089734318299405
1.0416512833849736E8 0.008485170249716206 0.035608529698200414 0.9915148297502838 -0.035608529698200414 0.9915148297502838 -0.035608529698200414 0.008485170249716206 0.035608529698200414
1.0573712634405641E8 0.008540822588166375 0.03613487112878673 0.9914591774118335 -0.03613487112878672 0.9914591774118335 -0.03613487112878672 0.008540822588166375 0.03613487112878673
1.0733284800616828E8 0.008597913538351624 0.03666886666448921 0.9914020864616483 -0.03666886666448921 0.9914020864616483 -0.03666886666448921 0.008597913538351624 0.03666886666448921
1.0895265134811176E8 0.008656481055112266 0.03721062583587543 0.9913435189448879 -0.03721062583587543 0.9913435189448879 -0.03721062583587543 0.008656481055112266 0.03721062583587543
1.1059689979623953E8 0.00871656421429758 0.037760259660874006 0.9912834357857025 -0.03776025966087401 0.9912834357857025 -0.03776025966087401 0.00871656421429758 0.037760259660874006
1.1226596226151802E8 0.008778203246911446 0.03831788065555397 0.9912217967530885 -0.03831788065555397 0.9912217967530885 -0.03831788065555397 0.008778203246911446 0.03831788065555397
1.1396021322229806E8 0.008841439573888768 0.038883602844451345 0.9911585604261114 -0.03888360284445135 0.9911585604261114 -0.03888360284445135 0.008841439573888768 0.038883602844451345
1.1568003280833441E8 0.00890631584149373 0.03945754177043665 0.9910936841585063 -0.03945754177043665 0.9910936841585063 -0.03945754177043665 0.00890631584149373 0.03945754177043665
1.1742580688607343E8 0.00897287595733173 0.04003981450411896 0.9910271240426682 -0.04003981450411896 0.9910271240426682 -0.04003981450411896 0.00897287595733173 0.04003981450411896
1.1919792714522783E8 0.009041165126967284 0.04063053965278275 0.9909588348730327 -0.04063053965278275 0.9909588348730327 -0.04063053965278275 0.009041165126967284 0.04063053965278275
1.2099679118665792E8 0.009111229891141475 0.04122983736885625 0.9908887701088586 -0.04122983736885625 0.9908887701088586 -0.04122983736885625 0.009111229891141475 0.04122983736885625
1.2282280261157903E8 0.009183118163583385 0.04183782935791045 0.9908168818364167 -0.041837829357910444 0.9908168818364167 -0.041837829357910444 0.009183118163583385 0.04183782935791045
1.2467637111211549E8 0.009256879269411345 0.042454638886189874 0.9907431207305887 -0.042454638886189874 0.9907431207305887 -0.042454638886189874 0.009256879269411345 0.042454638886189874
1.265579125632208E8 0.00933256398412121 0.04308039078767705 0.9906674360158788 -0.043080390787677045 0.9906674360158788 -0.043080390787677045 0.00933256398412121 0.04308039078767705
1.284678491159853E8 0.009410224573160484 0.04371521147069354 0.9905897754268396 -0.04371521147069354 0.9905897754268396 -0.04371521147069354 0.009410224573160484 0.04371521147069354
1.3040660929235186E8 0.009489914832088801 0.04435922892404194 0.9905100851679111 -0.044359228924041934 0.9905100851679111 -0.044359228924041934 0.009489914832088801 0.04435922892404194
1.3237462808126101E8 0.009571690127327163 0.0450125727226934 0.9904283098726729 -0.04501257272269339 0.9904283098726729 -0.04501257272269339 0.009571690127327163 0.0450125727226934
1.3437234703624701E8 0.009655607437500201 0.04567537403302595 0.9903443925624998 -0.04567537403302595 0.9903443925624998 -0.04567537403302595 0.009655607437500201 0.04567537403302595
1.364002143745067E8 0.009741725395377957 0.046347765617620044 0.9902582746046221 -0.04634776561762004 0.9902582746046221 -0.04634776561762004 0.009741725395377957 0.046347765617620044
1.3845868507746372E8 0.009830104330425743 0.04702988183961717 0.9901698956695743 -0.04702988183961717 0.9901698956695743 -0.04702988183961717 0.009830104330425743 0.04702988183961717
1.405482209928499E8 0.009920806311972874 0.04772185866664802 0.9900791936880272 -0.04772185866664802 0.9900791936880272 -0.04772185866664802 0.009920806311972874 0.04772185866664802
1.426692909383278E8 0.010013895193013413 0.048423833674336544 0.9899861048069866 -0.048423833674336544 0.9899861048069866 -0.048423833674336544 0.010013895193013413 0.048423833674336544
1.4482237080667645E8 0.010109436654654497 0.04913594604938597 0.9898905633453454 -0.04913594604938597 0.9898905633453454 -0.04913594604938597 0.010109436654654497 0.04913594604938597
1.4700794367256513E8 0.01020749825123007 0.04985833659225239 0.9897925017487699 -0.04985833659225239 0.9897925017487699 -0.04985833659225239 0.01020749825123007 0.04985833659225239
1.492264999009378E8 0.01030814945610039 0.050591147719410805 0.9896918505438996 -0.050591147719410805 0.9896918505438996 -0.050591147719410805 0.01030814945610039 0.050591147719410805
1.5147853725703382E8 0.010411461708159993 0.05133452346521775 0.98958853829184 -0.05133452346521774 0.98958853829184 -0.05133452346521774 0.010411461708159993 0.05133452346521775
1.5376456101806876E8 0.010517508459079346 0.05208860948337373 0.9894824915409206 -0.052088609483373724 0.9894824915409206 -0.052088609483373724 0.010517508459079346 0.05208860948337373
1.5608508408660066E8 0.010626365221307594 0.05285355304798688 0.9893736347786926 -0.05285355304798688 0.9893736347786926 -0.05285355304798688 0.010626365221307594 0.05285355304798688
1.5844062710560706E8 0.0107381096168664 0.053629503054238456 0.9892618903831338 -0.053629503054238456 0.9892618903831338 -0.053629503054238456 0.0107381096168664 0.053629503054238456
1.6083171857529896E8 0.010852821426966823 0.05441661001864849 0.9891471785730332 -0.05441661001864849 0.9891471785730332 -0.05441661001864849 0.010852821426966823 0.05441661001864849
1.632588949716973E8 0.010970582642483821 0.05521502607893904 0.9890294173575161 -0.05521502607893904 0.9890294173575161 -0.05521502607893904 0.010970582642483821 0.05521502607893904
1.6572270086699936E8 0.011091477515324473 0.05602490499348867 0.9889085224846754 -0.05602490499348866 0.9889085224846754 -0.05602490499348866 0.011091477515324473 0.05602490499348867
1.6822368905176118E8 0.01121559261072878 0.056846402140371746 0.9887844073892712 -0.05684640214037173 0.9887844073892712 -0.05684640214037173 0.01121559261072878 0.056846402140371746
1.7076242065892437E8 0.01134301686054294 0.05767967451597196 0.988656983139457 -0.05767967451597196 0.988656983139457 -0.05767967451597196 0.01134301686054294 0.05767967451597196
1.7333946528971428E8 0.011473841617507568 0.058524880733157925 0.9885261583824925 -0.058524880733157925 0.9885261583824925 -0.058524880733157925 0.011473841617507568 0.058524880733157925
1.7595540114143828E8 0.01160816071060433 0.05938218101900539 0.9883918392893957 -0.05938218101900539 0.9883918392893957 -0.05938218101900539 0.01160816071060433 0.05938218101900539
1.786108151372127E8 0.011746070501506216 0.060251737212048226 0.9882539294984937 -0.060251737212048226 0.9882539294984937 -0.060251737212048226 0.011746070501506216 0.060251737212048226
1.8130630305764765E8 0.011887669942177945 0.06113371275903709 0.988112330057822 -0.06113371275903709 0.988112330057822 -0.06113371275903709 0.011887669942177945 0.06113371275903709
1.840424696745189E8 0.012033060633674084 0.06202827271118129 0.9879669393663261 -0.06202827271118129 0.9879669393663261 -0.06202827271118129 0.012033060633674084 0.06202827271118129
1.8681992888645732E8 0.012182346886183283 0.06293558371984667 0.9878176531138166 -0.06293558371984667 0.9878176531138166 -0.06293558371984667 0.012182346886183283 0.06293558371984667
1.8963930385668582E8 0.012335635780368127 0.06385581403167914 0.9876643642196319 -0.06385581403167916 0.9876643642196319 -0.06385581403167916 0.012335635780368127 0.06385581403167914
1.92501227152835E8 0.012493037230050118 0.06478913348311865 0.9875069627699499 -0.06478913348311865 0.9875069627699499 -0.06478913348311865 0.012493037230050118 0.06478913348311865
1.9540634088886917E8 0.012654664046290212 0.06573571349426728 0.9873453359537098 -0.06573571349426728 0.9873453359537098 -0.06573571349426728 0.012654664046290212 0.06573571349426728
1.983552968691535E8 0.012820632002915043 0.0666957270620695 0.9871793679970848 -0.0666957270620695 0.9871793679970848 -0.0666957270620695 0.012820632002915043 0.0666957270620695
2.0134875673469606E8 0.012991059903539227 0.06766934875276058 0.9870089400964608 -0.0676693487527606 0.9870089400964608 -0.0676693487527606 0.012991059903539227 0.06766934875276058
2.0438739211159652E8 0.01316606965013339 0.06865675469353433 0.9868339303498667 -0.06865675469353433 0.9868339303498667 -0.06865675469353433 0.01316606965013339 0.06865675469353433
2.074718847617352E8 0.013345786313187858 0.06965812256337948 0.9866542136868122 -0.06965812256337948 0.9866542136868122 -0.06965812256337948 0.013345786313187858 0.06965812256337948
2.106029267357361E8 0.013530338203520374 0.07067363158302897 0.9864696617964795 -0.07067363158302897 0.9864696617964795 -0.07067363158302897 0.013530338203520374 0.07067363158302897
2.1378122052823865E8 0.01371985694577588 0.07170346250396337 0.9862801430542242 -0.07170346250396337 0.9862801430542242 -0.07170346250396337 0.01371985694577588 0.07170346250396337
2.1700747923551247E8 0.01391447755366526 0.07274779759640747 0.9860855224463346 -0.07274779759640747 0.9860855224463346 -0.07274779759640747 0.01391447755366526 0.07274779759640747
2.2028242671545094E8 0.014114338506988365 0.07380682063625388 0.9858856614930117 -0.07380682063625388 0.9858856614930117 -0.07380682063625388 0.014114338506988365 0.07380682063625388
2.23606797749979E8 0.01431958183048557 0.07488071689084569 0.9856804181695146 -0.07488071689084569 0.9856804181695146 -0.07488071689084569 0.01431958183048557 0.07488071689084569
2.2698133820991236E8 0.014530353174560253 0.07596967310354708 0.9854696468254398 -0.07596967310354706 0.9854696468254398 -0.07596967310354706 0.014530353174560253 0.07596967310354708
2.3040680522230446E8 0.014746801897912878 0.07707387747702676 0.9852531981020869 -0.07707387747702676 0.9852531981020869 -0.07707387747702676 0.014746801897912878 0.07707387747702676
2.338839673403185E8 0.014969081152125563 0.07819351965517804 0.9850309188478745 -0.07819351965517804 0.9850309188478745 -0.07819351965517804 0.014969081152125563 0.07819351965517804
2.37413604715664E8 0.015197347968233887 0.07932879070359491 0.9848026520317661 -0.07932879070359491 0.9848026520317661 -0.07932879070359491 0.015197347968233887 0.07932879070359491
2.4099650927363476E8 0.015431763345320775 0.08047988308852307 0.9845682366546793 -0.08047988308852307 0.9845682366546793 -0.08047988308852307 0.015431763345320775 0.08047988308852307
2.446334848907889E8 0.015672492341164967 0.08164699065420078 0.984327507658835 -0.08164699065420078 0.984327507658835 -0.08164699065420078 0.015672492341164967 0.08164699065420078
