!Murata Part Number: LQP02TQ4N3H02
!These Parameters are Measured in Series Mode Connection
!       o--[Z]--o
!Port1              Port2
!       o-------o
!
!Freq. Start=50[MHz] Stop=20[GHz], 401[Steps]
# Hz S RI R 50
!Freq.(Hz) S11(Real) S11(Imag) S21(Real) S21(Imag) S12(Real) S12(Imag) S22(Real) S22(Imag)
5.0E7 0.006428843966952017 0.014553535520770343 0.9935711560330479 -0.014553535520770343 0.9935711560330479 -0.014553535520770343 0.006428843966952017 0.014553535520770343
5.0754570186123446E7 0.006440792781469842 0.01477028741672416 0.9935592072185302 -0.01477028741672416 0.9935592072185302 -0.01477028741672416 0.006440792781469842 0.01477028741672416
5.152052789556263E7 0.006453030597743532 0.014990226974530195 0.9935469694022564 -0.014990226974530192 0.9935469694022564 -0.014990226974530192 0.006453030597743532 0.014990226974530195
5.229804498202928E7 0.006465563717620308 0.015213400844685247 0.9935344362823795 -0.015213400844685247 0.9935344362823795 -0.015213400844685247 0.006465563717620308 0.015213400844685247
5.308729589274893E7 0.006478398594981702 0.015439856399549513 0.9935216014050186 -0.015439856399549513 0.9935216014050186 -0.015439856399549513 0.006478398594981702 0.015439856399549513
5.388845770760058E7 0.006491541842290337 0.015669641745901887 0.9935084581577096 -0.015669641745901887 0.9935084581577096 -0.015669641745901887 0.006491541842290337 0.015669641745901887
5.470171017884717E7 0.00650500023748033 0.01590280573761293 0.9934949997625198 -0.01590280573761293 0.9934949997625198 -0.01590280573761293 0.00650500023748033 0.01590280573761293
5.5527235771465644E7 0.00651878073119904 0.01613939798842452 0.9934812192688011 -0.01613939798842452 0.9934812192688011 -0.01613939798842452 0.00651878073119904 0.01613939798842452
5.6365219704085544E7 0.006532890454407317 0.016379468884824982 0.9934671095455928 -0.016379468884824982 0.9934671095455928 -0.016379468884824982 0.006532890454407317 0.016379468884824982
5.721584999054556E7 0.006547336726344583 0.016623069599007993 0.9934526632736556 -0.016623069599007993 0.9934526632736556 -0.016623069599007993 0.006547336726344583 0.016623069599007993
5.807931748207712E7 0.006562127062864488 0.016870252101903068 0.9934378729371355 -0.016870252101903068 0.9934378729371355 -0.016870252101903068 0.006562127062864488 0.016870252101903068
5.8955815910124585E7 0.006577269185145932 0.01712106917626548 0.993422730814854 -0.01712106917626548 0.993422730814854 -0.01712106917626548 0.006577269185145932 0.01712106917626548
5.984554192981184E7 0.006592771028783696 0.017375574429812957 0.9934072289712164 -0.017375574429812957 0.9934072289712164 -0.017375574429812957 0.006592771028783696 0.017375574429812957
6.074869516406457E7 0.00660864075326183 0.017633822308396507 0.9933913592467383 -0.017633822308396507 0.9933913592467383 -0.017633822308396507 0.00660864075326183 0.017633822308396507
6.166547824839868E7 0.00662488675181234 0.01789586810919274 0.9933751132481877 -0.01789586810919274 0.9933751132481877 -0.01789586810919274 0.00662488675181234 0.01789586810919274
6.2596096876384385E7 0.006641517661660723 0.018161767993904857 0.9933584823383392 -0.018161767993904857 0.9933584823383392 -0.018161767993904857 0.006641517661660723 0.018161767993904857
6.354075984579668E7 0.006658542374659144 0.01843157900195981 0.9933414576253408 -0.01843157900195981 0.9933414576253408 -0.01843157900195981 0.006658542374659144 0.01843157900195981
6.449967910546205E7 0.006675970048307161 0.01870535906368915 0.9933240299516929 -0.018705359063689145 0.9933240299516929 -0.018705359063689145 0.006675970048307161 0.01870535906368915
6.547306980281226E7 0.006693810117159081 0.018983167013481402 0.9933061898828409 -0.018983167013481402 0.9933061898828409 -0.018983167013481402 0.006693810117159081 0.018983167013481402
6.646115033215589E7 0.00671207230461633 0.019265062602894283 0.9932879276953835 -0.019265062602894283 0.9932879276953835 -0.019265062602894283 0.00671207230461633 0.019265062602894283
6.746414238367817E7 0.006730766635102247 0.019551106513715225 0.9932692333648977 -0.019551106513715225 0.9932692333648977 -0.019551106513715225 0.006730766635102247 0.019551106513715225
6.848227099318038E7 0.006749903446616217 0.019841360370959366 0.9932500965533838 -0.019841360370959366 0.9932500965533838 -0.019841360370959366 0.006749903446616217 0.019841360370959366
6.951576459256999E7 0.006769493403663213 0.02013588675579482 0.9932305065963369 -0.02013588675579482 0.9932305065963369 -0.02013588675579482 0.006769493403663213 0.02013588675579482
7.056485506111258E7 0.006789547510554261 0.020434749218385437 0.9932104524894457 -0.020434749218385433 0.9932104524894457 -0.020434749218385433 0.006789547510554261 0.020434749218385437
7.162977777745734E7 0.00681007712507278 0.020738012290642246 0.9931899228749274 -0.020738012290642246 0.9931899228749274 -0.020738012290642246 0.00681007712507278 0.020738012290642246
7.271077167244768E7 0.006831093972501194 0.021045741498875285 0.993168906027499 -0.021045741498875288 0.993168906027499 -0.021045741498875288 0.006831093972501194 0.021045741498875285
7.380807928272885E7 0.0068526101600019165 0.021358003376338697 0.9931473898399982 -0.021358003376338697 0.9931473898399982 -0.021358003376338697 0.0068526101600019165 0.021358003376338697
7.492194680516452E7 0.006874638191346328 0.021674865475662483 0.9931253618086537 -0.021674865475662483 0.9931253618086537 -0.021674865475662483 0.006874638191346328 0.021674865475662483
7.60526241520746E7 0.006897190981985222 0.02199639638116548 0.9931028090180148 -0.02199639638116548 0.9931028090180148 -0.02199639638116548 0.006897190981985222 0.02199639638116548
7.720036500730675E7 0.006920281874454005 0.022322665721045003 0.993079718125546 -0.022322665721045 0.993079718125546 -0.022322665721045 0.006920281874454005 0.022322665721045003
7.836542688315398E7 0.006943924654105882 0.02265374417943961 0.9930560753458942 -0.02265374417943961 0.9930560753458942 -0.02265374417943961 0.006943924654105882 0.02265374417943961
7.954807117813127E7 0.0069681335651662684 0.02298970350836235 0.9930318664348338 -0.022989703508362345 0.9930318664348338 -0.022989703508362345 0.0069681335651662684 0.02298970350836235
8.074856323562416E7 0.0069929233271018255 0.023330616539502896 0.9930070766728982 -0.023330616539502896 0.9930070766728982 -0.023330616539502896 0.0069929233271018255 0.023330616539502896
8.196717240342227E7 0.007018309151297779 0.023676557195898108 0.9929816908487022 -0.023676557195898108 0.9929816908487022 -0.023676557195898108 0.007018309151297779 0.023676557195898108
8.320417209415154E7 0.007044306758037478 0.024027600503471386 0.9929556932419624 -0.024027600503471386 0.9929556932419624 -0.024027600503471386 0.007044306758037478 0.024027600503471386
8.445983984661816E7 0.007070932393778579 0.024383822602442057 0.9929290676062215 -0.024383822602442057 0.9929290676062215 -0.024383822602442057 0.007070932393778579 0.024383822602442057
8.573445738807854E7 0.007098202848720857 0.024745300758607376 0.9929017971512794 -0.024745300758607376 0.9929017971512794 -0.024745300758607376 0.007098202848720857 0.024745300758607376
8.702831069744885E7 0.007126135474661178 0.025112113374500124 0.9928738645253389 -0.025112113374500127 0.9928738645253389 -0.025112113374500127 0.007126135474661178 0.025112113374500124
8.834169006946853E7 0.0071547482031319365 0.025484340000426042 0.9928452517968681 -0.025484340000426042 0.9928452517968681 -0.025484340000426042 0.0071547482031319365 0.025484340000426042
8.96748901798321E7 0.007184059563820102 0.025862061345385753 0.99281594043618 -0.025862061345385753 0.99281594043618 -0.025862061345385753 0.007184059563820102 0.025862061345385753
9.1028210151304E7 0.007214088703264868 0.02624535928788716 0.9927859112967352 -0.026245359287887158 0.9927859112967352 -0.026245359287887158 0.007214088703264868 0.02624535928788716
9.240195362083109E7 0.007244855403832861 0.026634316886654 0.9927551445961672 -0.026634316886654002 0.9927551445961672 -0.026634316886654002 0.007244855403832861 0.026634316886654
9.379642880766791E7 0.007276380102971006 0.02702901839123806 0.9927236198970288 -0.02702901839123806 0.9927236198970288 -0.02702901839123806 0.007276380102971006 0.02702901839123806
9.521194858253023E7 0.007308683912738104 0.02742954925254184 0.992691316087262 -0.027429549252541846 0.992691316087262 -0.027429549252541846 0.007308683912738104 0.02742954925254184
9.664883053779216E7 0.007341788639617479 0.027835996133259815 0.9926582113603825 -0.027835996133259815 0.9926582113603825 -0.027835996133259815 0.007341788639617479 0.027835996133259815
9.810739705874248E7 0.007375716804614188 0.028248446918246215 0.9926242831953858 -0.028248446918246215 0.9926242831953858 -0.028248446918246215 0.007375716804614188 0.028248446918246215
9.958797539591652E7 0.007410491663641602 0.028666990724817713 0.9925895083363584 -0.028666990724817713 0.9925895083363584 -0.028666990724817713 0.007410491663641602 0.028666990724817713
1.0109089773851961E8 0.007446137228203341 0.02909171791299942 0.9925538627717967 -0.02909171791299942 0.9925538627717967 -0.02909171791299942 0.007446137228203341 0.02909171791299942
1.0261650128895843E8 0.007482678286378088 0.029522720095722852 0.9925173217136218 -0.029522720095722852 0.9925173217136218 -0.029522720095722852 0.007482678286378088 0.029522720095722852
1.0416512833849736E8 0.0075201404241158785 0.02996009014898408 0.9924798595758841 -0.02996009014898408 0.9924798595758841 -0.02996009014898408 0.0075201404241158785 0.02996009014898408
1.0573712634405641E8 0.007558550046856019 0.030403922221970563 0.9924414499531442 -0.03040392222197057 0.9924414499531442 -0.03040392222197057 0.007558550046856019 0.030403922221970563
1.0733284800616828E8 0.007597934401478032 0.030854311747164475 0.9924020655985217 -0.03085431174716447 0.9924020655985217 -0.03085431174716447 0.007597934401478032 0.030854311747164475
1.0895265134811176E8 0.007638321598598406 0.03131135545043031 0.9923616784014017 -0.03131135545043031 0.9923616784014017 -0.03131135545043031 0.007638321598598406 0.03131135545043031
1.1059689979623953E8 0.007679740635227236 0.03177515136109381 0.9923202593647729 -0.031775151361093816 0.9923202593647729 -0.031775151361093816 0.007679740635227236 0.03177515136109381
1.1226596226151802E8 0.007722221417800246 0.03224579882201903 0.9922777785821998 -0.03224579882201903 0.9922777785821998 -0.03224579882201903 0.007722221417800246 0.03224579882201903
1.1396021322229806E8 0.00776579478560285 0.032723398499689256 0.9922342052143973 -0.032723398499689256 0.9922342052143973 -0.032723398499689256 0.00776579478560285 0.032723398499689256
1.1568003280833441E8 0.00781049253460422 0.03320805239429708 0.9921895074653959 -0.03320805239429709 0.9921895074653959 -0.03320805239429709 0.00781049253460422 0.03320805239429708
1.1742580688607343E8 0.007856347441720667 0.03369986384984821 0.9921436525582793 -0.033699863849848216 0.9921436525582793 -0.033699863849848216 0.007856347441720667 0.03369986384984821
1.1919792714522783E8 0.007903393289528608 0.03419893756428205 0.9920966067104714 -0.03419893756428205 0.9920966067104714 -0.03419893756428205 0.007903393289528608 0.03419893756428205
1.2099679118665792E8 0.007951664891448686 0.03470537959961188 0.9920483351085512 -0.03470537959961188 0.9920483351085512 -0.03470537959961188 0.007951664891448686 0.03470537959961188
1.2282280261157903E8 0.008001198117423709 0.03521929739208594 0.9919988018825763 -0.03521929739208594 0.9919988018825763 -0.03521929739208594 0.008001198117423709 0.03521929739208594
1.2467637111211549E8 0.008052029920113944 0.03574079976236941 0.991947970079886 -0.03574079976236941 0.991947970079886 -0.03574079976236941 0.008052029920113944 0.03574079976236941
1.265579125632208E8 0.008104198361634446 0.03626999692574655 0.9918958016383657 -0.03626999692574655 0.9918958016383657 -0.03626999692574655 0.008104198361634446 0.03626999692574655
1.284678491159853E8 0.008157742640859948 0.036807000502340696 0.9918422573591401 -0.036807000502340696 0.9918422573591401 -0.036807000502340696 0.008157742640859948 0.036807000502340696
1.3040660929235186E8 0.008212703121323632 0.037351923527348355 0.9917872968786763 -0.037351923527348355 0.9917872968786763 -0.037351923527348355 0.008212703121323632 0.037351923527348355
1.3237462808126101E8 0.008269121359736932 0.03790488046128246 0.9917308786402632 -0.03790488046128246 0.9917308786402632 -0.03790488046128246 0.008269121359736932 0.03790488046128246
1.3437234703624701E8 0.008327040135158238 0.038465987200218314 0.9916729598648416 -0.038465987200218314 0.9916729598648416 -0.038465987200218314 0.008327040135158238 0.038465987200218314
1.364002143745067E8 0.00838650347883895 0.039035361086034254 0.9916134965211612 -0.039035361086034254 0.9916134965211612 -0.039035361086034254 0.00838650347883895 0.039035361086034254
1.3845868507746372E8 0.008447556704775943 0.039613120916637455 0.9915524432952241 -0.039613120916637455 0.9915524432952241 -0.039613120916637455 0.008447556704775943 0.039613120916637455
1.405482209928499E8 0.008510246440999928 0.04019938695616385 0.9914897535590002 -0.04019938695616385 0.9914897535590002 -0.04019938695616385 0.008510246440999928 0.04019938695616385
1.426692909383278E8 0.00857462066162965 0.040794280945139344 0.9914253793383705 -0.040794280945139344 0.9914253793383705 -0.040794280945139344 0.00857462066162965 0.040794280945139344
1.4482237080667645E8 0.008640728719722213 0.04139792611058803 0.991359271280278 -0.04139792611058804 0.991359271280278 -0.04139792611058804 0.008640728719722213 0.04139792611058803
1.4700794367256513E8 0.008708621380949895 0.04201044717607126 0.9912913786190501 -0.04201044717607127 0.9912913786190501 -0.04201044717607127 0.008708621380949895 0.04201044717607126
1.492264999009378E8 0.00877835085813434 0.04263197037164008 0.9912216491418658 -0.04263197037164008 0.9912216491418658 -0.04263197037164008 0.00877835085813434 0.04263197037164008
1.5147853725703382E8 0.008849970846668536 0.0432626234436809 0.9911500291533314 -0.043262623443680905 0.9911500291533314 -0.043262623443680905 0.008849970846668536 0.0432626234436809
1.5376456101806876E8 0.008923536560857627 0.04390253566463403 0.9910764634391421 -0.04390253566463403 0.9910764634391421 -0.04390253566463403 0.008923536560857627 0.04390253566463403
1.5608508408660066E8 0.008999104771208983 0.044551837842561524 0.9910008952287911 -0.044551837842561524 0.9910008952287911 -0.044551837842561524 0.008999104771208983 0.044551837842561524
1.5844062710560706E8 0.009076733842702016 0.04521066233053966 0.990923266157298 -0.04521066233053966 0.990923266157298 -0.04521066233053966 0.009076733842702016 0.04521066233053966
1.6083171857529896E8 0.009156483774068004 0.04587914303584987 0.990843516225932 -0.045879143035849876 0.990843516225932 -0.045879143035849876 0.009156483774068004 0.04587914303584987
1.632588949716973E8 0.009238416238109604 0.04655741542893953 0.9907615837618905 -0.04655741542893953 0.9907615837618905 -0.04655741542893953 0.009238416238109604 0.04655741542893953
1.6572270086699936E8 0.009322594623089538 0.04724561655212283 0.9906774053769103 -0.04724561655212283 0.9906774053769103 -0.04724561655212283 0.009322594623089538 0.04724561655212283
1.6822368905176118E8 0.009409084075217233 0.04794388502799015 0.9905909159247829 -0.04794388502799015 0.9905909159247829 -0.04794388502799015 0.009409084075217233 0.04794388502799015
1.7076242065892437E8 0.009497951542261511 0.04865236106749188 0.9905020484577386 -0.04865236106749187 0.9905020484577386 -0.04865236106749187 0.009497951542261511 0.04865236106749188
1.7333946528971428E8 0.009589265818316978 0.04937118647766256 0.9904107341816831 -0.04937118647766256 0.9904107341816831 -0.04937118647766256 0.009589265818316978 0.04937118647766256
1.7595540114143828E8 0.009683097589750557 0.05010050466894768 0.9903169024102496 -0.050100504668947686 0.9903169024102496 -0.050100504668947686 0.009683097589750557 0.05010050466894768
1.786108151372127E8 0.00977951948235397 0.05084046066209514 0.990220480517646 -0.050840460662095126 0.990220480517646 -0.050840460662095126 0.00977951948235397 0.05084046066209514
1.8130630305764765E8 0.009878606109726946 0.051591201094571625 0.990121393890273 -0.05159120109457162 0.990121393890273 -0.05159120109457162 0.009878606109726946 0.051591201094571625
1.840424696745189E8 0.009980434122914633 0.05235287422646195 0.9900195658770854 -0.05235287422646195 0.9900195658770854 -0.05235287422646195 0.009980434122914633 0.05235287422646195
1.8681992888645732E8 0.010085082261321819 0.053125629945809036 0.9899149177386782 -0.053125629945809036 0.9899149177386782 -0.053125629945809036 0.010085082261321819 0.053125629945809036
1.8963930385668582E8 0.010192631404925002 0.053909619773349536 0.9898073685950749 -0.05390961977334952 0.9898073685950749 -0.05390961977334952 0.010192631404925002 0.053909619773349536
1.92501227152835E8 0.010303164627802312 0.054704996866600325 0.9896968353721975 -0.054704996866600325 0.9896968353721975 -0.054704996866600325 0.010303164627802312 0.054704996866600325
1.9540634088886917E8 0.010416767252999526 0.05551191602324859 0.9895832327470007 -0.055511916023248606 0.9895832327470007 -0.055511916023248606 0.010416767252999526 0.05551191602324859
1.983552968691535E8 0.010533526908749176 0.0563305336837973 0.9894664730912507 -0.05633053368379729 0.9894664730912507 -0.05633053368379729 0.010533526908749176 0.0563305336837973
2.0134875673469606E8 0.010653533586058233 0.057161007933418044 0.9893464664139417 -0.057161007933418044 0.9893464664139417 -0.057161007933418044 0.010653533586058233 0.057161007933418044
2.0438739211159652E8 0.010776879697677872 0.058003498502960424 0.9892231203023221 -0.058003498502960424 0.9892231203023221 -0.058003498502960424 0.010776879697677872 0.058003498502960424
2.074718847617352E8 0.010903660138467679 0.05885816676906815 0.9890963398615324 -0.05885816676906817 0.9890963398615324 -0.05885816676906817 0.010903660138467679 0.05885816676906815
2.106029267357361E8 0.011033972347164519 0.05972517575334999 0.9889660276528356 -0.059725175753350006 0.9889660276528356 -0.059725175753350006 0.011033972347164519 0.05972517575334999
2.1378122052823865E8 0.011167916369564785 0.06060469012055419 0.9888320836304352 -0.060604690120554194 0.9888320836304352 -0.060604690120554194 0.011167916369564785 0.06060469012055419
2.1700747923551247E8 0.011305594923127025 0.06149687617569406 0.988694405076873 -0.06149687617569406 0.988694405076873 -0.06149687617569406 0.011305594923127025 0.06149687617569406
2.2028242671545094E8 0.011447113462999937 0.062401901860072245 0.988552886537 -0.062401901860072245 0.988552886537 -0.062401901860072245 0.011447113462999937 0.062401901860072245
2.23606797749979E8 0.011592580249479413 0.0633199367461515 0.9884074197505206 -0.06331993674615151 0.9884074197505206 -0.06331993674615151 0.011592580249479413 0.0633199367461515
2.2698133820991236E8 0.011742106416896117 0.06425115203121919 0.9882578935831039 -0.06425115203121919 0.9882578935831039 -0.06425115203121919 0.011742106416896117 0.06425115203121919
2.3040680522230446E8 0.011895806043933838 0.06519572052979392 0.9881041939560662 -0.06519572052979392 0.9881041939560662 -0.06519572052979392 0.011895806043933838 0.06519572052979392
2.338839673403185E8 0.012053796225376908 0.06615381666472188 0.9879462037746232 -0.06615381666472188 0.9879462037746232 -0.06615381666472188 0.012053796225376908 0.06615381666472188
2.37413604715664E8 0.012216197145283705 0.06712561645691262 0.9877838028547162 -0.06712561645691262 0.9877838028547162 -0.06712561645691262 0.012216197145283705 0.06712561645691262
2.4099650927363476E8 0.012383132151581627 0.06811129751366303 0.9876168678484183 -0.06811129751366302 0.9876168678484183 -0.06811129751366302 0.012383132151581627 0.06811129751366303
2.446334848907889E8 0.012554727832077665 0.06911103901552051 0.9874452721679225 -0.06911103901552053 0.9874452721679225 -0.06911103901552053 0.012554727832077665 0.06911103901552051
