!Murata Part Number: LQP02TQ1N3B02
!These Parameters are Measured in Series Mode Connection
!       o--[Z]--o
!Port1              Port2
!       o-------o
!
!Freq. Start=50[MHz] Stop=20[GHz], 401[Steps]
# Hz S RI R 50
!Freq.(Hz) S11(Real) S11(Imag) S21(Real) S21(Imag) S12(Real) S12(Imag) S22(Real) S22(Imag)
5.0E7 0.0014815467650720559 0.004632428473186113 0.9985184532349279 -0.004632428473186113 0.9985184532349279 -0.004632428473186113 0.0014815467650720559 0.004632428473186113
5.0754570186123446E7 0.001484181715272802 0.004701836638855185 0.9985158182847271 -0.004701836638855186 0.9985158182847271 -0.004701836638855186 0.001484181715272802 0.004701836638855185
5.152052789556263E7 0.0014868890240106747 0.004772271413971537 0.9985131109759893 -0.004772271413971537 0.9985131109759893 -0.004772271413971537 0.0014868890240106747 0.004772271413971537
5.229804498202928E7 0.0014896704662276388 0.0048437474883135075 0.9985103295337724 -0.0048437474883135075 0.9985103295337724 -0.0048437474883135075 0.0014896704662276388 0.0048437474883135075
5.308729589274893E7 0.0014925278491464812 0.004916279746938324 0.9985074721508536 -0.0049162797469383245 0.9985074721508536 -0.0049162797469383245 0.0014925278491464812 0.004916279746938324
5.388845770760058E7 0.0014954630122822978 0.004989883272578038 0.9985045369877177 -0.004989883272578038 0.9985045369877177 -0.004989883272578038 0.0014954630122822978 0.004989883272578038
5.470171017884717E7 0.0014984778274223889 0.005064573348083374 0.9985015221725776 -0.005064573348083374 0.9985015221725776 -0.005064573348083374 0.0014984778274223889 0.005064573348083374
5.5527235771465644E7 0.0015015741985735475 0.0051403654589184606 0.9984984258014266 -0.00514036545891846 0.9984984258014266 -0.00514036545891846 0.0015015741985735475 0.0051403654589184606
5.6365219704085544E7 0.0015047540618757702 0.005217275295709432 0.9984952459381241 -0.005217275295709432 0.9984952459381241 -0.005217275295709432 0.0015047540618757702 0.005217275295709432
5.721584999054556E7 0.001508019385481534 0.005295318756850157 0.9984919806145184 -0.005295318756850156 0.9984919806145184 -0.005295318756850156 0.001508019385481534 0.005295318756850157
5.807931748207712E7 0.0015113721693998648 0.005374511951168482 0.9984886278306001 -0.005374511951168482 0.9984886278306001 -0.005374511951168482 0.0015113721693998648 0.005374511951168482
5.8955815910124585E7 0.0015148144453045246 0.005454871200656583 0.9984851855546956 -0.005454871200656583 0.9984851855546956 -0.005454871200656583 0.0015148144453045246 0.005454871200656583
5.984554192981184E7 0.0015183482763057995 0.005536413043269184 0.9984816517236942 -0.005536413043269184 0.9984816517236942 -0.005536413043269184 0.0015183482763057995 0.005536413043269184
6.074869516406457E7 0.0015219757566854624 0.005619154235793524 0.9984780242433147 -0.005619154235793524 0.9984780242433147 -0.005619154235793524 0.0015219757566854624 0.005619154235793524
6.166547824839868E7 0.001525699011594693 0.005703111756795289 0.9984743009884053 -0.005703111756795289 0.9984743009884053 -0.005703111756795289 0.001525699011594693 0.005703111756795289
6.2596096876384385E7 0.0015295201967148533 0.00578830280964467 0.9984704798032851 -0.005788302809644669 0.9984704798032851 -0.005788302809644669 0.0015295201967148533 0.00578830280964467
6.354075984579668E7 0.0015334414978812657 0.005874744825627144 0.9984665585021187 -0.005874744825627144 0.9984665585021187 -0.005874744825627144 0.0015334414978812657 0.005874744825627144
6.449967910546205E7 0.0015374651306702789 0.005962455467143499 0.9984625348693297 -0.005962455467143499 0.9984625348693297 -0.005962455467143499 0.0015374651306702789 0.005962455467143499
6.547306980281226E7 0.0015415933399501945 0.006051452631003993 0.9984584066600498 -0.006051452631003993 0.9984584066600498 -0.006051452631003993 0.0015415933399501945 0.006051452631003993
6.646115033215589E7 0.0015458283993968235 0.006141754451821547 0.9984541716006032 -0.006141754451821547 0.9984541716006032 -0.006141754451821547 0.0015458283993968235 0.006141754451821547
6.746414238367817E7 0.0015501726109747294 0.006233379305509147 0.9984498273890252 -0.006233379305509147 0.9984498273890252 -0.006233379305509147 0.0015501726109747294 0.006233379305509147
6.848227099318038E7 0.0015546283043854792 0.006326345812886642 0.9984453716956144 -0.006326345812886642 0.9984453716956144 -0.006326345812886642 0.0015546283043854792 0.006326345812886642
6.951576459256999E7 0.0015591978364845314 0.006420672843402391 0.9984408021635155 -0.00642067284340239 0.9984408021635155 -0.00642067284340239 0.0015591978364845314 0.006420672843402391
7.056485506111258E7 0.0015638835906687134 0.0065163795189752275 0.9984361164093314 -0.006516379518975226 0.9984361164093314 -0.006516379518975226 0.0015638835906687134 0.0065163795189752275
7.162977777745734E7 0.0015686879762365682 0.006613485217962365 0.9984313120237635 -0.006613485217962365 0.9984313120237635 -0.006613485217962365 0.0015686879762365682 0.006613485217962365
7.271077167244768E7 0.0015736134277242171 0.006712009579258964 0.9984263865722758 -0.006712009579258964 0.9984263865722758 -0.006712009579258964 0.0015736134277242171 0.006712009579258964
7.380807928272885E7 0.0015786624042197469 0.006811972506535047 0.9984213375957803 -0.006811972506535047 0.9984213375957803 -0.006811972506535047 0.0015786624042197469 0.006811972506535047
7.492194680516452E7 0.0015838373886595564 0.006913394172615683 0.9984161626113404 -0.006913394172615683 0.9984161626113404 -0.006913394172615683 0.0015838373886595564 0.006913394172615683
7.60526241520746E7 0.0015891408871104573 0.007016295024010176 0.9984108591128896 -0.007016295024010176 0.9984108591128896 -0.007016295024010176 0.0015891408871104573 0.007016295024010176
7.720036500730675E7 0.0015945754280418144 0.007120695785596172 0.998405424571958 -0.007120695785596172 0.998405424571958 -0.007120695785596172 0.0015945754280418144 0.007120695785596172
7.836542688315398E7 0.0016001435615923866 0.007226617465464412 0.9983998564384075 -0.007226617465464412 0.9983998564384075 -0.007226617465464412 0.0016001435615923866 0.007226617465464412
7.954807117813127E7 0.0016058478588370506 0.007334081359929946 0.9983941521411631 -0.007334081359929946 0.9983941521411631 -0.007334081359929946 0.0016058478588370506 0.007334081359929946
8.074856323562416E7 0.001611690911058996 0.0074431090587153866 0.998388309088941 -0.007443109058715388 0.998388309088941 -0.007443109058715388 0.001611690911058996 0.0074431090587153866
8.196717240342227E7 0.0016176753290335138 0.007553722450311811 0.9983823246709665 -0.007553722450311811 0.9983823246709665 -0.007553722450311811 0.0016176753290335138 0.007553722450311811
8.320417209415154E7 0.0016238037423299437 0.007665943727522613 0.99837619625767 -0.007665943727522613 0.99837619625767 -0.007665943727522613 0.0016238037423299437 0.007665943727522613
8.445983984661816E7 0.0016300787986388522 0.007779795393195471 0.998369921201361 -0.007779795393195471 0.998369921201361 -0.007779795393195471 0.0016300787986388522 0.007779795393195471
8.573445738807854E7 0.001636503163132024 0.007895300266147456 0.9983634968368678 -0.007895300266147456 0.9983634968368678 -0.007895300266147456 0.001636503163132024 0.007895300266147456
8.702831069744885E7 0.0016430795178632941 0.008012481487287774 0.9983569204821368 -0.008012481487287774 0.9983569204821368 -0.008012481487287774 0.0016430795178632941 0.008012481487287774
8.834169006946853E7 0.0016498105612187952 0.008131362525942596 0.9983501894387814 -0.008131362525942596 0.9983501894387814 -0.008131362525942596 0.0016498105612187952 0.008131362525942596
8.96748901798321E7 0.0016566990074256293 0.008251967186385862 0.9983433009925744 -0.008251967186385862 0.9983433009925744 -0.008251967186385862 0.0016566990074256293 0.008251967186385862
9.1028210151304E7 0.0016637475861284682 0.008374319614579693 0.9983362524138716 -0.00837431961457969 0.9983362524138716 -0.00837431961457969 0.0016637475861284682 0.008374319614579693
9.240195362083109E7 0.0016709590420440287 0.008498444305127322 0.9983290409579562 -0.008498444305127322 0.9983290409579562 -0.008498444305127322 0.0016709590420440287 0.008498444305127322
9.379642880766791E7 0.0016783361347038129 0.008624366108441372 0.9983216638652963 -0.008624366108441374 0.9983216638652963 -0.008624366108441374 0.0016783361347038129 0.008624366108441372
9.521194858253023E7 0.0016858816382959096 0.008752110238129288 0.9983141183617041 -0.008752110238129288 0.9983141183617041 -0.008752110238129288 0.0016858816382959096 0.008752110238129288
9.664883053779216E7 0.0016935983416170538 0.008881702278597563 0.998306401658383 -0.008881702278597563 0.998306401658383 -0.008881702278597563 0.0016935983416170538 0.008881702278597563
9.810739705874248E7 0.001701489048146442 0.009013168192875372 0.9982985109518536 -0.009013168192875372 0.9982985109518536 -0.009013168192875372 0.001701489048146442 0.009013168192875372
9.958797539591652E7 0.0017095565762531885 0.009146534330657895 0.9982904434237467 -0.009146534330657895 0.9982904434237467 -0.009146534330657895 0.0017095565762531885 0.009146534330657895
1.0109089773851961E8 0.0017178037595495202 0.009281827436568666 0.9982821962404504 -0.009281827436568666 0.9982821962404504 -0.009281827436568666 0.0017178037595495202 0.009281827436568666
1.0261650128895843E8 0.0017262334474020427 0.009419074658639533 0.9982737665525979 -0.009419074658639533 0.9982737665525979 -0.009419074658639533 0.0017262334474020427 0.009419074658639533
1.0416512833849736E8 0.001734848505613609 0.009558303557006154 0.9982651514943864 -0.009558303557006154 0.9982651514943864 -0.009558303557006154 0.001734848505613609 0.009558303557006154
1.0573712634405641E8 0.0017436518172883977 0.009699542112815982 0.9982563481827117 -0.009699542112815984 0.9982563481827117 -0.009699542112815984 0.0017436518172883977 0.009699542112815982
1.0733284800616828E8 0.0017526462838928978 0.009842818737344912 0.9982473537161073 -0.009842818737344914 0.9982473537161073 -0.009842818737344914 0.0017526462838928978 0.009842818737344912
1.0895265134811176E8 0.0017618348265254578 0.009988162281317818 0.9982381651734746 -0.009988162281317818 0.9982381651734746 -0.009988162281317818 0.0017618348265254578 0.009988162281317818
1.1059689979623953E8 0.0017712203874069958 0.010135602044427372 0.9982287796125932 -0.010135602044427372 0.9982287796125932 -0.010135602044427372 0.0017712203874069958 0.010135602044427372
1.1226596226151802E8 0.0017808059316053032 0.01028516778504455 0.9982191940683945 -0.01028516778504455 0.9982191940683945 -0.01028516778504455 0.0017808059316053032 0.01028516778504455
1.1396021322229806E8 0.001790594449005162 0.010436889730113415 0.9982094055509948 -0.010436889730113417 0.9982094055509948 -0.010436889730113417 0.001790594449005162 0.010436889730113415
1.1568003280833441E8 0.0018005889565361616 0.010590798585221627 0.9981994110434638 -0.010590798585221627 0.9981994110434638 -0.010590798585221627 0.0018005889565361616 0.010590798585221627
1.1742580688607343E8 0.001810792500669748 0.010746925544837482 0.9981892074993303 -0.010746925544837482 0.9981892074993303 -0.010746925544837482 0.001810792500669748 0.010746925544837482
1.1919792714522783E8 0.0018212081601965441 0.010905302302703162 0.9981787918398034 -0.010905302302703162 0.9981787918398034 -0.010905302302703162 0.0018212081601965441 0.010905302302703162
1.2099679118665792E8 0.0018318390492944416 0.011065961062373076 0.9981681609507057 -0.011065961062373076 0.9981681609507057 -0.011065961062373076 0.0018318390492944416 0.011065961062373076
1.2282280261157903E8 0.0018426883208973238 0.011228934547885273 0.9981573116791025 -0.011228934547885273 0.9981573116791025 -0.011228934547885273 0.0018426883208973238 0.011228934547885273
1.2467637111211549E8 0.0018537591703735796 0.011394256014553203 0.9981462408296264 -0.011394256014553204 0.9981462408296264 -0.011394256014553204 0.0018537591703735796 0.011394256014553203
1.265579125632208E8 0.0018650548395227325 0.011561959259864054 0.9981349451604773 -0.011561959259864054 0.9981349451604773 -0.011561959259864054 0.0018650548395227325 0.011561959259864054
1.284678491159853E8 0.0018765786208977066 0.011732078634469515 0.9981234213791023 -0.011732078634469515 0.9981234213791023 -0.011732078634469515 0.0018765786208977066 0.011732078634469515
1.3040660929235186E8 0.0018883338624592124 0.01190464905325387 0.9981116661375408 -0.01190464905325387 0.9981116661375408 -0.01190464905325387 0.0018883338624592124 0.01190464905325387
1.3237462808126101E8 0.0019003239725677928 0.012079706006463818 0.9980996760274322 -0.012079706006463818 0.9980996760274322 -0.012079706006463818 0.0019003239725677928 0.012079706006463818
1.3437234703624701E8 0.0019125524253179533 0.012257285570883996 0.9980874475746822 -0.012257285570883998 0.9980874475746822 -0.012257285570883998 0.0019125524253179533 0.012257285570883996
1.364002143745067E8 0.0019250227662176338 0.012437424421041513 0.9980749772337825 -0.012437424421041513 0.9980749772337825 -0.012437424421041513 0.0019250227662176338 0.012437424421041513
1.3845868507746372E8 0.0019377386182151367 0.012620159840422742 0.9980622613817849 -0.012620159840422742 0.9980622613817849 -0.012620159840422742 0.0019377386182151367 0.012620159840422742
1.405482209928499E8 0.0019507036880743256 0.01280552973268506 0.9980492963119256 -0.01280552973268506 0.9980492963119256 -0.01280552973268506 0.0019507036880743256 0.01280552973268506
1.426692909383278E8 0.001963921773097667 0.012993572632846388 0.9980360782269025 -0.012993572632846388 0.9980360782269025 -0.012993572632846388 0.001963921773097667 0.012993572632846388
1.4482237080667645E8 0.001977396768195359 0.01318432771843504 0.9980226032318047 -0.013184327718435043 0.9980226032318047 -0.013184327718435043 0.001977396768195359 0.01318432771843504
1.4700794367256513E8 0.00199113267329746 0.013377834820582713 0.9980088673267027 -0.013377834820582711 0.9980088673267027 -0.013377834820582711 0.00199113267329746 0.013377834820582713
1.492264999009378E8 0.002005133601104636 0.013574134435043473 0.9979948663988955 -0.013574134435043473 0.9979948663988955 -0.013574134435043473 0.002005133601104636 0.013574134435043473
1.5147853725703382E8 0.0020194037851717058 0.013773267733121939 0.9979805962148282 -0.013773267733121939 0.9979805962148282 -0.013773267733121939 0.0020194037851717058 0.013773267733121939
1.5376456101806876E8 0.002033947588317 0.01397527657249437 0.9979660524116831 -0.01397527657249437 0.9979660524116831 -0.01397527657249437 0.002033947588317 0.01397527657249437
1.5608508408660066E8 0.0020487695113490675 0.014180203507906672 0.9979512304886511 -0.014180203507906669 0.9979512304886511 -0.014180203507906669 0.0020487695113490675 0.014180203507906672
1.5844062710560706E8 0.002063874202101167 0.01438809180173432 0.997936125797899 -0.01438809180173432 0.997936125797899 -0.01438809180173432 0.002063874202101167 0.01438809180173432
1.6083171857529896E8 0.002079266464762619 0.014598985434389625 0.9979207335352375 -0.014598985434389627 0.9979207335352375 -0.014598985434389627 0.002079266464762619 0.014598985434389625
1.632588949716973E8 0.0020949512694950463 0.014812929114562882 0.9979050487305049 -0.014812929114562882 0.9979050487305049 -0.014812929114562882 0.0020949512694950463 0.014812929114562882
1.6572270086699936E8 0.002110933762320353 0.01502996828928489 0.9978890662376797 -0.01502996828928489 0.9978890662376797 -0.01502996828928489 0.002110933762320353 0.01502996828928489
1.6822368905176118E8 0.0021272192752663063 0.015250149153799223 0.9978727807247336 -0.015250149153799226 0.9978727807247336 -0.015250149153799226 0.0021272192752663063 0.015250149153799223
1.7076242065892437E8 0.002143813336754664 0.015473518661234172 0.9978561866632453 -0.015473518661234172 0.9978561866632453 -0.015473518661234172 0.002143813336754664 0.015473518661234172
1.7333946528971428E8 0.0021607216822159157 0.01570012453206513 0.9978392783177842 -0.01570012453206513 0.9978392783177842 -0.01570012453206513 0.0021607216822159157 0.01570012453206513
1.7595540114143828E8 0.002177950264914006 0.015930015263359836 0.9978220497350859 -0.015930015263359836 0.9978220497350859 -0.015930015263359836 0.002177950264914006 0.015930015263359836
1.786108151372127E8 0.002195505266963775 0.016163240137800253 0.9978044947330362 -0.016163240137800253 0.9978044947330362 -0.016163240137800253 0.002195505266963775 0.016163240137800253
1.8130630305764765E8 0.0022133931105233345 0.016399849232476164 0.9977866068894765 -0.016399849232476164 0.9977866068894765 -0.016399849232476164 0.0022133931105233345 0.016399849232476164
1.840424696745189E8 0.0022316204691432253 0.016639893427447285 0.9977683795308566 -0.016639893427447285 0.9977683795308566 -0.016639893427447285 0.0022316204691432253 0.016639893427447285
1.8681992888645732E8 0.0022501942792539182 0.016883424414072066 0.9977498057207461 -0.016883424414072066 0.9977498057207461 -0.016883424414072066 0.0022501942792539182 0.016883424414072066
1.8963930385668582E8 0.002269121751773149 0.017130494703103172 0.9977308782482268 -0.017130494703103172 0.9977308782482268 -0.017130494703103172 0.002269121751773149 0.017130494703103172
1.92501227152835E8 0.002288410383814492 0.01738115763255089 0.9977115896161856 -0.017381157632550888 0.9977115896161856 -0.017381157632550888 0.002288410383814492 0.01738115763255089
1.9540634088886917E8 0.0023080679704787764 0.017635467375317643 0.9976919320295211 -0.01763546737531764 0.9976919320295211 -0.01763546737531764 0.0023080679704787764 0.017635467375317643
1.983552968691535E8 0.002328102616710179 0.01789347894660807 0.9976718973832898 -0.01789347894660807 0.9976718973832898 -0.01789347894660807 0.002328102616710179 0.01789347894660807
2.0134875673469606E8 0.0023485227491992044 0.018155248211120963 0.997651477250801 -0.018155248211120967 0.997651477250801 -0.018155248211120967 0.0023485227491992044 0.018155248211120963
2.0438739211159652E8 0.0023693371283153063 0.018420831890030638 0.9976306628716847 -0.018420831890030638 0.9976306628716847 -0.018420831890030638 0.0023693371283153063 0.018420831890030638
2.074718847617352E8 0.0023905548600524837 0.01869028756776694 0.9976094451399474 -0.01869028756776694 0.9976094451399474 -0.01869028756776694 0.0023905548600524837 0.01869028756776694
2.106029267357361E8 0.002412185407971983 0.018963673698604536 0.9975878145920279 -0.018963673698604532 0.9975878145920279 -0.018963673698604532 0.002412185407971983 0.018963673698604536
2.1378122052823865E8 0.0024342386051270383 0.01924104961307329 0.9975657613948731 -0.019241049613073293 0.9975657613948731 -0.019241049613073293 0.0024342386051270383 0.01924104961307329
2.1700747923551247E8 0.002456724665955581 0.019522475524203182 0.9975432753340443 -0.019522475524203182 0.9975432753340443 -0.019522475524203182 0.002456724665955581 0.019522475524203182
2.2028242671545094E8 0.002479654198127853 0.01980801253361809 0.9975203458018721 -0.01980801253361809 0.9975203458018721 -0.01980801253361809 0.002479654198127853 0.01980801253361809
2.23606797749979E8 0.0025030382143369973 0.020097722637494018 0.997496961785663 -0.020097722637494018 0.997496961785663 -0.020097722637494018 0.0025030382143369973 0.020097722637494018
2.2698133820991236E8 0.0025268881440219447 0.020391668732398588 0.9974731118559781 -0.020391668732398588 0.9974731118559781 -0.020391668732398588 0.0025268881440219447 0.020391668732398588
2.3040680522230446E8 0.002551215845013108 0.0206899146210292 0.9974487841549868 -0.0206899146210292 0.9974487841549868 -0.0206899146210292 0.002551215845013108 0.0206899146210292
2.338839673403185E8 0.00257603361509278 0.02099252501786832 0.997423966384907 -0.02099252501786832 0.997423966384907 -0.02099252501786832 0.00257603361509278 0.02099252501786832
2.37413604715664E8 0.002601354203463503 0.021299565554775225 0.9973986457965365 -0.021299565554775222 0.9973986457965365 -0.021299565554775222 0.002601354203463503 0.021299565554775225
