!Murata Part Number: LQP02TQ0N2B02
!These Parameters are Measured in Series Mode Connection
!       o--[Z]--o
!Port1              Port2
!       o-------o
!
!Freq. Start=50[MHz] Stop=20[GHz], 401[Steps]
# Hz S RI R 50
!Freq.(Hz) S11(Real) S11(Imag) S21(Real) S21(Imag) S12(Real) S12(Imag) S22(Real) S22(Imag)
5.0E7 1.404022355927528E-4 9.225389515573342E-4 0.9998595977644074 -9.225389515573342E-4 0.9998595977644074 -9.225389515573342E-4 1.404022355927528E-4 9.225389515573342E-4
5.0754570186123446E7 1.4072104654068717E-4 9.364265689398609E-4 0.9998592789534595 -9.364265689398609E-4 0.9998592789534595 -9.364265689398609E-4 1.4072104654068717E-4 9.364265689398609E-4
5.152052789556263E7 1.4104929973965207E-4 9.505222023878635E-4 0.9998589507002604 -9.505222023878636E-4 0.9998589507002604 -9.505222023878636E-4 1.4104929973965207E-4 9.505222023878635E-4
5.229804498202928E7 1.4138726708534666E-4 9.648289215020192E-4 0.9998586127329147 -9.648289215020193E-4 0.9998586127329147 -9.648289215020193E-4 1.4138726708534666E-4 9.648289215020192E-4
5.308729589274893E7 1.417352278344649E-4 9.793498391869552E-4 0.9998582647721656 -9.793498391869552E-4 0.9998582647721656 -9.793498391869552E-4 1.417352278344649E-4 9.793498391869552E-4
5.388845770760058E7 1.420934687756019E-4 9.940881121794087E-4 0.9998579065312244 -9.940881121794087E-4 0.9998579065312244 -9.940881121794087E-4 1.420934687756019E-4 9.940881121794087E-4
5.470171017884717E7 1.4246228440236542E-4 0.0010090469415795843 0.9998575377155978 -0.0010090469415795843 0.9998575377155978 -0.0010090469415795843 1.4246228440236542E-4 0.0010090469415795843
5.5527235771465644E7 1.428419770886002E-4 0.0010242295733856061 0.9998571580229113 -0.0010242295733856061 0.9998571580229113 -0.0010242295733856061 1.428419770886002E-4 0.0010242295733856061
5.6365219704085544E7 1.432328572656193E-4 0.0010396392990309586 0.9998567671427344 -0.0010396392990309586 0.9998567671427344 -0.0010396392990309586 1.432328572656193E-4 0.0010396392990309586
5.721584999054556E7 1.4363524360132827E-4 0.0010552794559248097 0.9998563647563986 -0.0010552794559248097 0.9998563647563986 -0.0010552794559248097 1.4363524360132827E-4 0.0010552794559248097
5.807931748207712E7 1.4404946318111655E-4 0.0010711534279951077 0.9998559505368187 -0.0010711534279951077 0.9998559505368187 -0.0010711534279951077 1.4404946318111655E-4 0.0010711534279951077
5.8955815910124585E7 1.4447585169037318E-4 0.0010872646462343283 0.9998555241483097 -0.0010872646462343283 0.9998555241483097 -0.0010872646462343283 1.4447585169037318E-4 0.0010872646462343283
5.984554192981184E7 1.4491475359847722E-4 0.001103616589247775 0.9998550852464015 -0.0011036165892477747 0.9998550852464015 -0.0011036165892477747 1.4491475359847722E-4 0.001103616589247775
6.074869516406457E7 1.4536652234409361E-4 0.0011202127838042832 0.9998546334776561 -0.001120212783804283 0.9998546334776561 -0.001120212783804283 1.4536652234409361E-4 0.0011202127838042832
6.166547824839868E7 1.45831520521593E-4 0.0011370568053892377 0.9998541684794783 -0.0011370568053892377 0.9998541684794783 -0.0011370568053892377 1.45831520521593E-4 0.0011370568053892377
6.2596096876384385E7 1.4631012006840026E-4 0.0011541522787597615 0.9998536898799316 -0.0011541522787597615 0.9998536898799316 -0.0011541522787597615 1.4631012006840026E-4 0.0011541522787597615
6.354075984579668E7 1.4680270245305413E-4 0.00117150287850195 0.999853197297547 -0.00117150287850195 0.999853197297547 -0.00117150287850195 1.4680270245305413E-4 0.00117150287850195
6.449967910546205E7 1.473096588637516E-4 0.0011891123295900434 0.9998526903411363 -0.0011891123295900434 0.9998526903411363 -0.0011891123295900434 1.473096588637516E-4 0.0011891123295900434
6.547306980281226E7 1.4783139039712455E-4 0.0012069844079473872 0.999852168609603 -0.0012069844079473872 0.999852168609603 -0.0012069844079473872 1.4783139039712455E-4 0.0012069844079473872
6.646115033215589E7 1.4836830824698348E-4 0.0012251229410090796 0.999851631691753 -0.0012251229410090798 0.999851631691753 -0.0012251229410090798 1.4836830824698348E-4 0.0012251229410090796
6.746414238367817E7 1.4892083389273877E-4 0.0012435318082861576 0.9998510791661074 -0.0012435318082861576 0.9998510791661074 -0.0012435318082861576 1.4892083389273877E-4 0.0012435318082861576
6.848227099318038E7 1.4948939928719374E-4 0.0012622149419312214 0.9998505106007128 -0.0012622149419312214 0.9998505106007128 -0.0012622149419312214 1.4948939928719374E-4 0.0012622149419312214
6.951576459256999E7 1.5007444704337775E-4 0.0012811763273053577 0.9998499255529567 -0.001281176327305358 0.9998499255529567 -0.001281176327305358 1.5007444704337775E-4 0.0012811763273053577
7.056485506111258E7 1.5067643062006855E-4 0.0013004200035462573 0.99984932356938 -0.0013004200035462573 0.99984932356938 -0.0013004200035462573 1.5067643062006855E-4 0.0013004200035462573
7.162977777745734E7 1.512958145056279E-4 0.0013199500641374081 0.9998487041854945 -0.001319950064137408 0.9998487041854945 -0.001319950064137408 1.512958145056279E-4 0.0013199500641374081
7.271077167244768E7 1.5193307439975156E-4 0.0013397706574782577 0.9998480669256004 -0.0013397706574782577 0.9998480669256004 -0.0013397706574782577 1.5193307439975156E-4 0.0013397706574782577
7.380807928272885E7 1.525886973927069E-4 0.0013598859874552425 0.9998474113026075 -0.0013598859874552425 0.9998474113026075 -0.0013598859874552425 1.525886973927069E-4 0.0013598859874552425
7.492194680516452E7 1.5326318214160868E-4 0.0013803003140135863 0.9998467368178585 -0.0013803003140135863 0.9998467368178585 -0.0013803003140135863 1.5326318214160868E-4 0.0013803003140135863
7.60526241520746E7 1.5395703904325417E-4 0.0014010179537297957 0.9998460429609569 -0.0014010179537297957 0.9998460429609569 -0.0014010179537297957 1.5395703904325417E-4 0.0014010179537297957
7.720036500730675E7 1.5467079040301017E-4 0.0014220432803847558 0.9998453292095969 -0.0014220432803847558 0.9998453292095969 -0.0014220432803847558 1.5467079040301017E-4 0.0014220432803847558
7.836542688315398E7 1.5540497059921782E-4 0.001443380725537383 0.9998445950294007 -0.001443380725537383 0.9998445950294007 -0.001443380725537383 1.5540497059921782E-4 0.001443380725537383
7.954807117813127E7 1.5616012624254953E-4 0.0014650347790987723 0.9998438398737576 -0.0014650347790987723 0.9998438398737576 -0.0014650347790987723 1.5616012624254953E-4 0.0014650347790987723
8.074856323562416E7 1.569368163297216E-4 0.0014870099899068037 0.9998430631836704 -0.0014870099899068035 0.9998430631836704 -0.0014870099899068035 1.569368163297216E-4 0.0014870099899068037
8.196717240342227E7 1.5773561239093619E-4 0.0015093109663011969 0.9998422643876091 -0.0015093109663011969 0.9998422643876091 -0.0015093109663011969 1.5773561239093619E-4 0.0015093109663011969
8.320417209415154E7 1.585570986303916E-4 0.0015319423766990044 0.9998414429013696 -0.0015319423766990044 0.9998414429013696 -0.0015319423766990044 1.585570986303916E-4 0.0015319423766990044
8.445983984661816E7 1.594018720591683E-4 0.0015549089501705699 0.9998405981279409 -0.0015549089501705696 0.9998405981279409 -0.0015549089501705696 1.594018720591683E-4 0.0015549089501705699
8.573445738807854E7 1.6027054261976423E-4 0.0015782154770159873 0.9998397294573802 -0.0015782154770159873 0.9998397294573802 -0.0015782154770159873 1.6027054261976423E-4 0.0015782154770159873
8.702831069744885E7 1.6116373330151904E-4 0.001601866809342143 0.9998388362666986 -0.001601866809342143 0.9998388362666986 -0.001601866809342143 1.6116373330151904E-4 0.001601866809342143
8.834169006946853E7 1.620820802461291E-4 0.0016258678616404185 0.9998379179197537 -0.0016258678616404185 0.9998379179197537 -0.0016258678616404185 1.620820802461291E-4 0.0016258678616404185
8.96748901798321E7 1.6302623284242493E-4 0.001650223611365198 0.9998369737671574 -0.001650223611365198 0.9998369737671574 -0.001650223611365198 1.6302623284242493E-4 0.001650223611365198
9.1028210151304E7 1.6399685380954126E-4 0.0016749390995133265 0.9998360031461906 -0.0016749390995133267 0.9998360031461906 -0.0016749390995133267 1.6399685380954126E-4 0.0016749390995133265
9.240195362083109E7 1.6499461926757858E-4 0.0017000194312047215 0.9998350053807324 -0.0017000194312047215 0.9998350053807324 -0.0017000194312047215 1.6499461926757858E-4 0.0017000194312047215
9.379642880766791E7 1.660202187948174E-4 0.0017254697762643743 0.9998339797812051 -0.0017254697762643743 0.9998339797812051 -0.0017254697762643743 1.660202187948174E-4 0.0017254697762643743
9.521194858253023E7 1.6707435547050716E-4 0.0017512953698060058 0.9998329256445297 -0.0017512953698060058 0.9998329256445297 -0.0017512953698060058 1.6707435547050716E-4 0.0017512953698060058
9.664883053779216E7 1.6815774590222377E-4 0.001777501512817717 0.9998318422540977 -0.001777501512817717 0.9998318422540977 -0.001777501512817717 1.6815774590222377E-4 0.001777501512817717
9.810739705874248E7 1.6927112023674488E-4 0.0018040935727499853 0.9998307288797633 -0.0018040935727499856 0.9998307288797633 -0.0018040935727499856 1.6927112023674488E-4 0.0018040935727499853
9.958797539591652E7 1.7041522215336448E-4 0.0018310769841064494 0.9998295847778466 -0.0018310769841064494 0.9998295847778466 -0.0018310769841064494 1.7041522215336448E-4 0.0018310769841064494
1.0109089773851961E8 1.7159080883852998E-4 0.0018584572490379495 0.9998284091911616 -0.0018584572490379495 0.9998284091911616 -0.0018584572490379495 1.7159080883852998E-4 0.0018584572490379495
1.0261650128895843E8 1.7279865094065345E-4 0.0018862399379403663 0.9998272013490594 -0.0018862399379403663 0.9998272013490594 -0.0018862399379403663 1.7279865094065345E-4 0.0018862399379403663
1.0416512833849736E8 1.7403953250391725E-4 0.001914430690056871 0.9998259604674963 -0.001914430690056871 0.9998259604674963 -0.001914430690056871 1.7403953250391725E-4 0.001914430690056871
1.0573712634405641E8 1.753142508798606E-4 0.0019430352140852492 0.9998246857491203 -0.0019430352140852492 0.9998246857491203 -0.0019430352140852492 1.753142508798606E-4 0.0019430352140852492
1.0733284800616828E8 1.766236166155101E-4 0.0019720592887910514 0.9998233763833847 -0.0019720592887910514 0.9998233763833847 -0.0019720592887910514 1.766236166155101E-4 0.0019720592887910514
1.0895265134811176E8 1.7796845331678542E-4 0.002001508763627392 0.9998220315466834 -0.002001508763627392 0.9998220315466834 -0.002001508763627392 1.7796845331678542E-4 0.002001508763627392
1.1059689979623953E8 1.7934959748589003E-4 0.002031389559362301 0.9998206504025141 -0.002031389559362301 0.9998206504025141 -0.002031389559362301 1.7934959748589003E-4 0.002031389559362301
1.1226596226151802E8 1.8076789833137576E-4 0.002061707668714623 0.9998192321016687 -0.002061707668714623 0.9998192321016687 -0.002061707668714623 1.8076789833137576E-4 0.002061707668714623
1.1396021322229806E8 1.822242175495477E-4 0.0020924691569995384 0.9998177757824503 -0.0020924691569995384 0.9998177757824503 -0.0020924691569995384 1.822242175495477E-4 0.0020924691569995384
1.1568003280833441E8 1.8371942907586733E-4 0.0021236801627848917 0.9998162805709241 -0.0021236801627848912 0.9998162805709241 -0.0021236801627848912 1.8371942907586733E-4 0.0021236801627848917
1.1742580688607343E8 1.8525441880499487E-4 0.0021553468985596085 0.9998147455811951 -0.0021553468985596085 0.9998147455811951 -0.0021553468985596085 1.8525441880499487E-4 0.0021553468985596085
1.1919792714522783E8 1.8683008427810728E-4 0.002187475651415566 0.9998131699157218 -0.0021874756514155655 0.9998131699157218 -0.0021874756514155655 1.8683008427810728E-4 0.002187475651415566
1.2099679118665792E8 1.884473343361305E-4 0.002220072783744432 0.999811552665664 -0.002220072783744432 0.999811552665664 -0.002220072783744432 1.884473343361305E-4 0.002220072783744432
1.2282280261157903E8 1.901070887375198E-4 0.0022531447339510582 0.9998098929112624 -0.002253144733951058 0.9998098929112624 -0.002253144733951058 1.901070887375198E-4 0.0022531447339510582
1.2467637111211549E8 1.9181027773924073E-4 0.0022866980171851767 0.9998081897222608 -0.0022866980171851767 0.9998081897222608 -0.0022866980171851767 1.9181027773924073E-4 0.0022866980171851767
1.265579125632208E8 1.9355784163961108E-4 0.0023207392260932206 0.9998064421583606 -0.0023207392260932206 0.9998064421583606 -0.0023207392260932206 1.9355784163961108E-4 0.0023207392260932206
1.284678491159853E8 1.9535073028169187E-4 0.0023552750315922618 0.9998046492697185 -0.002355275031592262 0.9998046492697185 -0.002355275031592262 1.9535073028169187E-4 0.0023552750315922618
1.3040660929235186E8 1.9718990251594483E-4 0.0023903121836681748 0.9998028100974842 -0.0023903121836681743 0.9998028100974842 -0.0023903121836681743 1.9718990251594483E-4 0.0023903121836681748
1.3237462808126101E8 1.9907632562090756E-4 0.002425857512200252 0.9998009236743789 -0.002425857512200252 0.9998009236743789 -0.002425857512200252 1.9907632562090756E-4 0.002425857512200252
1.3437234703624701E8 2.0101097468069136E-4 0.0024619179278146655 0.9997989890253193 -0.0024619179278146655 0.9997989890253193 -0.0024619179278146655 2.0101097468069136E-4 0.0024619179278146655
1.364002143745067E8 2.0299483191815512E-4 0.002498500422769285 0.9997970051680818 -0.002498500422769285 0.9997970051680818 -0.002498500422769285 2.0299483191815512E-4 0.002498500422769285
1.3845868507746372E8 2.050288859826812E-4 0.002535612071872534 0.9997949711140172 -0.0025356120718725336 0.9997949711140172 -0.0025356120718725336 2.050288859826812E-4 0.002535612071872534
1.405482209928499E8 2.0711413119154886E-4 0.002573260033439067 0.9997928858688083 -0.002573260033439067 0.9997928858688083 -0.002573260033439067 2.0711413119154886E-4 0.002573260033439067
1.426692909383278E8 2.092515667239918E-4 0.0026114515502852565 0.999790748433276 -0.0026114515502852565 0.999790748433276 -0.0026114515502852565 2.092515667239918E-4 0.0026114515502852565
1.4482237080667645E8 2.114421957671249E-4 0.002650193950767578 0.9997885578042329 -0.002650193950767578 0.9997885578042329 -0.002650193950767578 2.114421957671249E-4 0.002650193950767578
1.4700794367256513E8 2.136870246130321E-4 0.002689494649867158 0.999786312975387 -0.0026894946498671585 0.999786312975387 -0.0026894946498671585 2.136870246130321E-4 0.002689494649867158
1.492264999009378E8 2.1598706170643497E-4 0.002729361150323884 0.9997840129382934 -0.002729361150323884 0.9997840129382934 -0.002729361150323884 2.1598706170643497E-4 0.002729361150323884
1.5147853725703382E8 2.1834331664249545E-4 0.0027698010438236336 0.9997816566833575 -0.0027698010438236336 0.9997816566833575 -0.0027698010438236336 2.1834331664249545E-4 0.0027698010438236336
1.5376456101806876E8 2.2075679911445596E-4 0.002810822012242314 0.9997792432008857 -0.002810822012242314 0.9997792432008857 -0.002810822012242314 2.2075679911445596E-4 0.002810822012242314
1.5608508408660066E8 2.2322851781098637E-4 0.0028524318289505487 0.999776771482189 -0.0028524318289505487 0.999776771482189 -0.0028524318289505487 2.2322851781098637E-4 0.0028524318289505487
1.5844062710560706E8 2.2575947926328421E-4 0.00289463836018301 0.9997742405207366 -0.0028946383601830094 0.9997742405207366 -0.0028946383601830094 2.2575947926328421E-4 0.00289463836018301
1.6083171857529896E8 2.2835068664216703E-4 0.0029374495664764534 0.9997716493133579 -0.0029374495664764534 0.9997716493133579 -0.0029374495664764534 2.2835068664216703E-4 0.0029374495664764534
1.632588949716973E8 2.3100313850560813E-4 0.0029808735041807447 0.9997689968614942 -0.0029808735041807447 0.9997689968614942 -0.0029808735041807447 2.3100313850560813E-4 0.0029808735041807447
1.6572270086699936E8 2.3371782749738435E-4 0.0030249183270471876 0.9997662821725026 -0.003024918327047188 0.9997662821725026 -0.003024918327047188 2.3371782749738435E-4 0.0030249183270471876
1.6822368905176118E8 2.3649573899775088E-4 0.0030695922878986224 0.9997635042610021 -0.0030695922878986224 0.9997635042610021 -0.0030695922878986224 2.3649573899775088E-4 0.0030695922878986224
1.7076242065892437E8 2.3933784972730648E-4 0.003114903740385861 0.9997606621502726 -0.003114903740385861 0.9997606621502726 -0.003114903740385861 2.3933784972730648E-4 0.003114903740385861
1.7333946528971428E8 2.4224512630548363E-4 0.0031608611408350607 0.9997577548736946 -0.0031608611408350607 0.9997577548736946 -0.0031608611408350607 2.4224512630548363E-4 0.0031608611408350607
1.7595540114143828E8 2.4521852376538453E-4 0.003207473050190786 0.9997547814762346 -0.003207473050190786 0.9997547814762346 -0.003207473050190786 2.4521852376538453E-4 0.003207473050190786
1.786108151372127E8 2.4825898402698084E-4 0.003254748136059503 0.9997517410159731 -0.003254748136059503 0.9997517410159731 -0.003254748136059503 2.4825898402698084E-4 0.003254748136059503
1.8130630305764765E8 2.5136743433100514E-4 0.003302695174858285 0.999748632565669 -0.0033026951748582854 0.999748632565669 -0.0033026951748582854 2.5136743433100514E-4 0.003302695174858285
1.840424696745189E8 2.5454478563619515E-4 0.0033513230540735952 0.9997454552143638 -0.0033513230540735952 0.9997454552143638 -0.0033513230540735952 2.5454478563619515E-4 0.0033513230540735952
1.8681992888645732E8 2.5779193098288106E-4 0.0034006407746349017 0.9997422080690173 -0.0034006407746349026 0.9997422080690173 -0.0034006407746349026 2.5779193098288106E-4 0.0034006407746349017
1.8963930385668582E8 2.611097438262657E-4 0.0034506574534079884 0.9997388902561737 -0.0034506574534079884 0.9997388902561737 -0.0034506574534079884 2.611097438262657E-4 0.0034506574534079884
1.92501227152835E8 2.644990763430953E-4 0.0035013823258126225 0.9997355009236568 -0.0035013823258126225 0.9997355009236568 -0.0035013823258126225 2.644990763430953E-4 0.0035013823258126225
1.9540634088886917E8 2.679607577158001E-4 0.0035528247485693168 0.9997320392422843 -0.0035528247485693168 0.9997320392422843 -0.0035528247485693168 2.679607577158001E-4 0.0035528247485693168
1.983552968691535E8 2.7149559239854695E-4 0.003604994202579706 0.9997285044076014 -0.003604994202579706 0.9997285044076014 -0.003604994202579706 2.7149559239854695E-4 0.003604994202579706
2.0134875673469606E8 2.7510435837003425E-4 0.003657900295944985 0.99972489564163 -0.003657900295944985 0.99972489564163 -0.003657900295944985 2.7510435837003425E-4 0.003657900295944985
2.0438739211159652E8 2.787878053782416E-4 0.0037115527671266976 0.9997212121946216 -0.0037115527671266976 0.9997212121946216 -0.0037115527671266976 2.787878053782416E-4 0.0037115527671266976
2.074718847617352E8 2.8254665318272574E-4 0.0037659614882539073 0.9997174533468174 -0.003765961488253908 0.9997174533468174 -0.003765961488253908 2.8254665318272574E-4 0.0037659614882539073
2.106029267357361E8 2.863815898004439E-4 0.003821136468580648 0.9997136184101996 -0.003821136468580648 0.9997136184101996 -0.003821136468580648 2.863815898004439E-4 0.003821136468580648
2.1378122052823865E8 2.902932697614592E-4 0.003877087858097217 0.9997097067302385 -0.003877087858097217 0.9997097067302385 -0.003877087858097217 2.902932697614592E-4 0.003877087858097217
2.1700747923551247E8 2.942823123812537E-4 0.003933825951298609 0.9997057176876186 -0.003933825951298609 0.9997057176876186 -0.003933825951298609 2.942823123812537E-4 0.003933825951298609
2.2028242671545094E8 2.9834930005673586E-4 0.003991361191113053 0.9997016506999432 -0.003991361191113053 0.9997016506999432 -0.003991361191113053 2.9834930005673586E-4 0.003991361191113053
2.23606797749979E8 3.024947765933751E-4 0.0040497041729932355 0.9996975052234065 -0.0040497041729932355 0.9996975052234065 -0.0040497041729932355 3.024947765933751E-4 0.0040497041729932355
2.2698133820991236E8 3.067192455712281E-4 0.004108865649172418 0.9996932807544285 -0.004108865649172418 0.9996932807544285 -0.004108865649172418 3.067192455712281E-4 0.004108865649172418
2.3040680522230446E8 3.1102316875792626E-4 0.004168856533087179 0.999688976831242 -0.00416885653308718 0.999688976831242 -0.00416885653308718 3.1102316875792626E-4 0.004168856533087179
