!Murata Part Number: LQP02TQ4N2B02
!These Parameters are Measured in Series Mode Connection
!       o--[Z]--o
!Port1              Port2
!       o-------o
!
!Freq. Start=50[MHz] Stop=20[GHz], 401[Steps]
# Hz S RI R 50
!Freq.(Hz) S11(Real) S11(Imag) S21(Real) S21(Imag) S12(Real) S12(Imag) S22(Real) S22(Imag)
5.0E7 0.00516866129454994 0.014398820153543454 0.99483133870545 -0.014398820153543454 0.99483133870545 -0.014398820153543454 0.00516866129454994 0.014398820153543454
5.0754570186123446E7 0.005180966175674219 0.014614401314560757 0.9948190338243258 -0.014614401314560755 0.9948190338243258 -0.014614401314560755 0.005180966175674219 0.014614401314560757
5.152052789556263E7 0.005193619052251727 0.014833164770196186 0.9948063809477482 -0.014833164770196184 0.9948063809477482 -0.014833164770196184 0.005193619052251727 0.014833164770196186
5.229804498202928E7 0.005206629091936681 0.015055155820305904 0.9947933709080632 -0.0150551558203059 0.9947933709080632 -0.0150551558203059 0.005206629091936681 0.015055155820305904
5.308729589274893E7 0.0052200056706149444 0.01528042035917004 0.9947799943293849 -0.015280420359170039 0.9947799943293849 -0.015280420359170039 0.0052200056706149444 0.01528042035917004
5.388845770760058E7 0.005233758375706044 0.01550900488257018 0.9947662416242941 -0.01550900488257018 0.9947662416242941 -0.01550900488257018 0.005233758375706044 0.01550900488257018
5.470171017884717E7 0.005247897009475523 0.01574095649500403 0.9947521029905245 -0.01574095649500403 0.9947521029905245 -0.01574095649500403 0.005247897009475523 0.01574095649500403
5.5527235771465644E7 0.005262431592358719 0.015976322917045253 0.9947375684076413 -0.015976322917045253 0.9947375684076413 -0.015976322917045253 0.005262431592358719 0.015976322917045253
5.6365219704085544E7 0.005277372366297273 0.01621515249285685 0.9947226276337027 -0.016215152492856846 0.9947226276337027 -0.016215152492856846 0.005277372366297273 0.01621515249285685
5.721584999054556E7 0.0052927297980902965 0.016457494197866917 0.9947072702019099 -0.01645749419786692 0.9947072702019099 -0.01645749419786692 0.0052927297980902965 0.016457494197866917
5.807931748207712E7 0.005308514582762468 0.016703397646616033 0.9946914854172374 -0.016703397646616033 0.9946914854172374 -0.016703397646616033 0.005308514582762468 0.016703397646616033
5.8955815910124585E7 0.005324737646951846 0.01695291310078574 0.994675262353048 -0.01695291310078574 0.994675262353048 -0.01695291310078574 0.005324737646951846 0.01695291310078574
5.984554192981184E7 0.005341410152320802 0.01720609147741827 0.9946585898476794 -0.01720609147741827 0.9946585898476794 -0.01720609147741827 0.005341410152320802 0.01720609147741827
6.074869516406457E7 0.005358543498994006 0.017462984357337636 0.9946414565010061 -0.017462984357337636 0.9946414565010061 -0.017462984357337636 0.005358543498994006 0.017462984357337636
6.166547824839868E7 0.005376149329028164 0.017723643993783122 0.9946238506709718 -0.017723643993783122 0.9946238506709718 -0.017723643993783122 0.005376149329028164 0.017723643993783122
6.2596096876384385E7 0.005394239529918676 0.017988123321265818 0.9946057604700814 -0.017988123321265818 0.9946057604700814 -0.017988123321265818 0.005394239529918676 0.017988123321265818
6.354075984579668E7 0.005412826238149455 0.018256475964659902 0.9945871737618505 -0.018256475964659902 0.9945871737618505 -0.018256475964659902 0.005412826238149455 0.018256475964659902
6.449967910546205E7 0.0054319218427926015 0.018528756248540095 0.9945680781572073 -0.018528756248540095 0.9945680781572073 -0.018528756248540095 0.0054319218427926015 0.018528756248540095
6.547306980281226E7 0.005451538989165726 0.01880501920677723 0.9945484610108343 -0.01880501920677723 0.9945484610108343 -0.01880501920677723 0.005451538989165726 0.01880501920677723
6.646115033215589E7 0.005471690582555493 0.019085320592404108 0.9945283094174445 -0.019085320592404108 0.9945283094174445 -0.019085320592404108 0.005471690582555493 0.019085320592404108
6.746414238367817E7 0.0054923897920169055 0.019369716887763847 0.9945076102079832 -0.019369716887763847 0.9945076102079832 -0.019369716887763847 0.0054923897920169055 0.019369716887763847
6.848227099318038E7 0.005513650054258889 0.019658265314953176 0.9944863499457413 -0.01965826531495318 0.9944863499457413 -0.01965826531495318 0.005513650054258889 0.019658265314953176
6.951576459256999E7 0.005535485077627682 0.019951023846573147 0.9944645149223724 -0.019951023846573147 0.9944645149223724 -0.019951023846573147 0.005535485077627682 0.019951023846573147
7.056485506111258E7 0.005557908846200806 0.020248051216799866 0.9944420911537991 -0.020248051216799862 0.9944420911537991 -0.020248051216799862 0.005557908846200806 0.020248051216799866
7.162977777745734E7 0.005580935624005248 0.02054940693278756 0.9944190643759947 -0.02054940693278756 0.9944190643759947 -0.02054940693278756 0.005580935624005248 0.02054940693278756
7.271077167244768E7 0.005604579959374925 0.020855151286416528 0.994395420040625 -0.020855151286416528 0.994395420040625 -0.020855151286416528 0.005604579959374925 0.020855151286416528
7.380807928272885E7 0.005628856689463521 0.021165345366398015 0.9943711433105366 -0.021165345366398015 0.9943711433105366 -0.021165345366398015 0.005628856689463521 0.021165345366398015
7.492194680516452E7 0.005653780944930147 0.0214800510707481 0.9943462190550697 -0.0214800510707481 0.9943462190550697 -0.0214800510707481 0.005653780944930147 0.0214800510707481
7.60526241520746E7 0.0056793681548164285 0.02179933111964199 0.9943206318451836 -0.02179933111964199 0.9943206318451836 -0.02179933111964199 0.0056793681548164285 0.02179933111964199
7.720036500730675E7 0.005705634051635054 0.02212324906866016 0.994294365948365 -0.02212324906866016 0.994294365948365 -0.02212324906866016 0.005705634051635054 0.02212324906866016
7.836542688315398E7 0.005732594676691013 0.02245186932243665 0.994267405323309 -0.02245186932243665 0.994267405323309 -0.02245186932243665 0.005732594676691013 0.02245186932243665
7.954807117813127E7 0.00576026638565813 0.02278525714871987 0.9942397336143419 -0.02278525714871987 0.9942397336143419 -0.02278525714871987 0.00576026638565813 0.02278525714871987
8.074856323562416E7 0.005788665854434862 0.023123478692854974 0.9942113341455653 -0.023123478692854974 0.9942113341455653 -0.023123478692854974 0.005788665854434862 0.023123478692854974
8.196717240342227E7 0.005817810085304568 0.023466600992696367 0.9941821899146955 -0.023466600992696367 0.9941821899146955 -0.023466600992696367 0.005817810085304568 0.023466600992696367
8.320417209415154E7 0.005847716413426894 0.02381469199395801 0.994152283586573 -0.02381469199395801 0.994152283586573 -0.02381469199395801 0.005847716413426894 0.02381469199395801
8.445983984661816E7 0.005878402513688088 0.024167820566007685 0.9941215974863119 -0.024167820566007685 0.9941215974863119 -0.024167820566007685 0.005878402513688088 0.024167820566007685
8.573445738807854E7 0.005909886407939466 0.024526056518110947 0.9940901135920606 -0.024526056518110947 0.9940901135920606 -0.024526056518110947 0.005909886407939466 0.024526056518110947
8.702831069744885E7 0.005942186472654362 0.024889470616128548 0.9940578135273456 -0.024889470616128548 0.9940578135273456 -0.024889470616128548 0.005942186472654362 0.024889470616128548
8.834169006946853E7 0.005975321447035193 0.025258134599670034 0.994024678552965 -0.025258134599670034 0.994024678552965 -0.025258134599670034 0.005975321447035193 0.025258134599670034
8.96748901798321E7 0.006009310441603292 0.025632121199704802 0.9939906895583966 -0.025632121199704802 0.9939906895583966 -0.025632121199704802 0.006009310441603292 0.025632121199704802
9.1028210151304E7 0.006044172947305326 0.026011504156630044 0.9939558270526948 -0.02601150415663005 0.9939558270526948 -0.02601150415663005 0.006044172947305326 0.026011504156630044
9.240195362083109E7 0.006079928845171009 0.026396358238793372 0.9939200711548289 -0.026396358238793372 0.9939200711548289 -0.026396358238793372 0.006079928845171009 0.026396358238793372
9.379642880766791E7 0.006116598416557786 0.026786759261466207 0.9938834015834421 -0.026786759261466207 0.9938834015834421 -0.026786759261466207 0.006116598416557786 0.026786759261466207
9.521194858253023E7 0.006154202354018866 0.027182784106261793 0.9938457976459811 -0.027182784106261786 0.9938457976459811 -0.027182784106261786 0.006154202354018866 0.027182784106261793
9.664883053779216E7 0.006192761772831754 0.0275845107409901 0.9938072382271682 -0.0275845107409901 0.9938072382271682 -0.0275845107409901 0.006192761772831754 0.0275845107409901
9.810739705874248E7 0.006232298223224872 0.027992018239939135 0.9937677017767752 -0.027992018239939135 0.9937677017767752 -0.027992018239939135 0.006232298223224872 0.027992018239939135
9.958797539591652E7 0.006272833703340411 0.028405386804570682 0.9937271662966594 -0.028405386804570675 0.9937271662966594 -0.028405386804570675 0.006272833703340411 0.028405386804570682
1.0109089773851961E8 0.006314390672971694 0.028824697784615622 0.9936856093270283 -0.02882469778461563 0.9936856093270283 -0.02882469778461563 0.006314390672971694 0.028824697784615622
1.0261650128895843E8 0.006356992068113482 0.02925003369955197 0.9936430079318865 -0.02925003369955197 0.9936430079318865 -0.02925003369955197 0.006356992068113482 0.02925003369955197
1.0416512833849736E8 0.0064006613163637436 0.029681478260446297 0.9935993386836361 -0.029681478260446297 0.9935993386836361 -0.029681478260446297 0.0064006613163637436 0.029681478260446297
1.0573712634405641E8 0.006445422353214988 0.030119116392136852 0.9935545776467851 -0.030119116392136852 0.9935545776467851 -0.030119116392136852 0.006445422353214988 0.030119116392136852
1.0733284800616828E8 0.006491299639272962 0.030563034255733954 0.993508700360727 -0.030563034255733954 0.993508700360727 -0.030563034255733954 0.006491299639272962 0.030563034255733954
1.0895265134811176E8 0.00653831817844008 0.03101331927141132 0.9934616818215597 -0.03101331927141132 0.9934616818215597 -0.03101331927141132 0.00653831817844008 0.03101331927141132
1.1059689979623953E8 0.006586503537099952 0.031470060141459026 0.9934134964629002 -0.031470060141459026 0.9934134964629002 -0.031470060141459026 0.006586503537099952 0.031470060141459026
1.1226596226151802E8 0.006635881864338584 0.03193334687356664 0.9933641181356615 -0.03193334687356664 0.9933641181356615 -0.03193334687356664 0.006635881864338584 0.03193334687356664
1.1396021322229806E8 0.0066864799132367835 0.03240327080430277 0.9933135200867633 -0.03240327080430277 0.9933135200867633 -0.03240327080430277 0.0066864799132367835 0.03240327080430277
1.1568003280833441E8 0.0067383250632667155 0.03287992462275463 0.9932616749367332 -0.03287992462275463 0.9932616749367332 -0.03287992462275463 0.0067383250632667155 0.03287992462275463
1.1742580688607343E8 0.006791445343824368 0.033363402394289504 0.9932085546561755 -0.033363402394289504 0.9932085546561755 -0.033363402394289504 0.006791445343824368 0.033363402394289504
1.1919792714522783E8 0.006845869458927813 0.033853799584397194 0.993154130541072 -0.03385379958439719 0.993154130541072 -0.03385379958439719 0.006845869458927813 0.033853799584397194
1.2099679118665792E8 0.006901626813109378 0.03435121308257134 0.9930983731868905 -0.03435121308257134 0.9930983731868905 -0.03435121308257134 0.006901626813109378 0.03435121308257134
1.2282280261157903E8 0.006958747538527805 0.03485574122618464 0.9930412524614723 -0.03485574122618464 0.9930412524614723 -0.03485574122618464 0.006958747538527805 0.03485574122618464
1.2467637111211549E8 0.007017262523324371 0.035367483824312276 0.9929827374766756 -0.035367483824312276 0.9929827374766756 -0.035367483824312276 0.007017262523324371 0.035367483824312276
1.265579125632208E8 0.007077203441244566 0.035886542181455365 0.9929227965587554 -0.03588654218145536 0.9929227965587554 -0.03588654218145536 0.007077203441244566 0.035886542181455365
1.284678491159853E8 0.007138602782544555 0.0364130191211155 0.9928613972174554 -0.036413019121115504 0.9928613972174554 -0.036413019121115504 0.007138602782544555 0.0364130191211155
1.3040660929235186E8 0.007201493886199066 0.036947019009169906 0.9927985061138007 -0.0369470190091699 0.9927985061138007 -0.0369470190091699 0.007201493886199066 0.036947019009169906
1.3237462808126101E8 0.007265910973424842 0.03748864777699586 0.9927340890265752 -0.03748864777699586 0.9927340890265752 -0.03748864777699586 0.007265910973424842 0.03748864777699586
1.3437234703624701E8 0.007331889182530808 0.03803801294429204 0.9926681108174691 -0.03803801294429204 0.9926681108174691 -0.03803801294429204 0.007331889182530808 0.03803801294429204
1.364002143745067E8 0.007399464605103781 0.03859522364154443 0.9926005353948961 -0.03859522364154443 0.9926005353948961 -0.03859522364154443 0.007399464605103781 0.03859522364154443
1.3845868507746372E8 0.0074686743235352565 0.03916039063208308 0.9925313256764647 -0.03916039063208308 0.9925313256764647 -0.03916039063208308 0.0074686743235352565 0.03916039063208308
1.405482209928499E8 0.0075395564498924586 0.03973362633367717 0.9924604435501075 -0.03973362633367718 0.9924604435501075 -0.03973362633367718 0.0075395564498924586 0.03973362633367717
1.426692909383278E8 0.007612150166133748 0.04031504483961491 0.9923878498338662 -0.040315044839614914 0.9923878498338662 -0.040315044839614914 0.007612150166133748 0.04031504483961491
1.4482237080667645E8 0.007686495765665823 0.04090476193921542 0.9923135042343342 -0.04090476193921541 0.9923135042343342 -0.04090476193921541 0.007686495765665823 0.04090476193921542
1.4700794367256513E8 0.007762634696237512 0.04150289513772096 0.9922373653037626 -0.04150289513772096 0.9922373653037626 -0.04150289513772096 0.007762634696237512 0.04150289513772096
1.492264999009378E8 0.007840609604162193 0.04210956367551769 0.9921593903958379 -0.04210956367551769 0.9921593903958379 -0.04210956367551769 0.007840609604162193 0.04210956367551769
1.5147853725703382E8 0.00792046437985848 0.04272488854663493 0.9920795356201414 -0.04272488854663493 0.9920795356201414 -0.04272488854663493 0.00792046437985848 0.04272488854663493
1.5376456101806876E8 0.008002244204696373 0.043348992516473735 0.9919977557953035 -0.04334899251647373 0.9919977557953035 -0.04334899251647373 0.008002244204696373 0.043348992516473735
1.5608508408660066E8 0.008085995599133701 0.04398200013871719 0.9919140044008662 -0.04398200013871719 0.9919140044008662 -0.04398200013871719 0.008085995599133701 0.04398200013871719
1.5844062710560706E8 0.008171766472125835 0.044624037771376544 0.9918282335278743 -0.044624037771376544 0.9918282335278743 -0.044624037771376544 0.008171766472125835 0.044624037771376544
1.6083171857529896E8 0.008259606171789412 0.0452752335919285 0.9917403938282107 -0.045275233591928504 0.9917403938282107 -0.045275233591928504 0.008259606171789412 0.0452752335919285
1.632588949716973E8 0.008349565537299337 0.045935717611501996 0.9916504344627006 -0.045935717611501996 0.9916504344627006 -0.045935717611501996 0.008349565537299337 0.045935717611501996
1.6572270086699936E8 0.008441696951996655 0.04660562168807367 0.9915583030480034 -0.04660562168807367 0.9915583030480034 -0.04660562168807367 0.008441696951996655 0.04660562168807367
1.6822368905176118E8 0.008536054397683583 0.047285079538634 0.9914639456023162 -0.047285079538634 0.9914639456023162 -0.047285079538634 0.008536054397683583 0.047285079538634
1.7076242065892437E8 0.00863269351008093 0.04797422675028849 0.991367306489919 -0.04797422675028849 0.991367306489919 -0.04797422675028849 0.00863269351008093 0.04797422675028849
1.7333946528971428E8 0.008731671635422251 0.048673200790259996 0.9912683283645778 -0.048673200790259996 0.9912683283645778 -0.048673200790259996 0.008731671635422251 0.048673200790259996
1.7595540114143828E8 0.008833047888158448 0.049382141014761134 0.9911669521118415 -0.049382141014761134 0.9911669521118415 -0.049382141014761134 0.008833047888158448 0.049382141014761134
1.786108151372127E8 0.00893688320974609 0.05010118867670804 0.9910631167902537 -0.05010118867670804 0.9910631167902537 -0.05010118867670804 0.00893688320974609 0.05010118867670804
1.8130630305764765E8 0.009043240428492609 0.05083048693224868 0.9909567595715073 -0.050830486932248696 0.9909567595715073 -0.050830486932248696 0.009043240428492609 0.05083048693224868
1.840424696745189E8 0.009152184320431501 0.05157018084608174 0.9908478156795684 -0.05157018084608174 0.9908478156795684 -0.05157018084608174 0.009152184320431501 0.05157018084608174
1.8681992888645732E8 0.009263781671201012 0.05232041739554418 0.990736218328799 -0.05232041739554418 0.990736218328799 -0.05232041739554418 0.009263781671201012 0.05232041739554418
1.8963930385668582E8 0.009378101338900284 0.053081345473447984 0.9906218986610997 -0.053081345473447984 0.9906218986610997 -0.053081345473447984 0.009378101338900284 0.053081345473447984
1.92501227152835E8 0.009495214317897481 0.053853115889648376 0.9905047856821025 -0.05385311588964838 0.9905047856821025 -0.05385311588964838 0.009495214317897481 0.053853115889648376
1.9540634088886917E8 0.009615193803565453 0.05463588137132816 0.9903848061964345 -0.05463588137132815 0.9903848061964345 -0.05463588137132815 0.009615193803565453 0.05463588137132816
1.983552968691535E8 0.009738115257921476 0.05542979656198479 0.9902618847420785 -0.05542979656198479 0.9902618847420785 -0.05542979656198479 0.009738115257921476 0.05542979656198479
2.0134875673469606E8 0.00986405647614886 0.05623501801910863 0.9901359435238511 -0.05623501801910863 0.9901359435238511 -0.05623501801910863 0.00986405647614886 0.05623501801910863
2.0438739211159652E8 0.009993097653979512 0.05705170421054214 0.9900069023460205 -0.05705170421054214 0.9900069023460205 -0.05705170421054214 0.009993097653979512 0.05705170421054214
2.074718847617352E8 0.01012532145591816 0.057880015509511926 0.9898746785440817 -0.057880015509511926 0.9898746785440817 -0.057880015509511926 0.01012532145591816 0.057880015509511926
2.106029267357361E8 0.010260813084290396 0.058720114188326386 0.9897391869157096 -0.058720114188326386 0.9897391869157096 -0.058720114188326386 0.010260813084290396 0.058720114188326386
2.1378122052823865E8 0.010399660349098632 0.059572164410733555 0.9896003396509014 -0.059572164410733555 0.9896003396509014 -0.059572164410733555 0.010399660349098632 0.059572164410733555
2.1700747923551247E8 0.01054195373867177 0.0604363322229346 0.9894580462613282 -0.0604363322229346 0.9894580462613282 -0.0604363322229346 0.01054195373867177 0.0604363322229346
2.2028242671545094E8 0.010687786491096064 0.0613127855432487 0.9893122135089039 -0.0613127855432487 0.9893122135089039 -0.0613127855432487 0.010687786491096064 0.0613127855432487
2.23606797749979E8 0.010837254666417134 0.06220169415042754 0.989162745333583 -0.06220169415042755 0.989162745333583 -0.06220169415042755 0.010837254666417134 0.06220169415042754
2.2698133820991236E8 0.01099045721960444 0.06310322967061659 0.9890095427803955 -0.06310322967061659 0.9890095427803955 -0.06310322967061659 0.01099045721960444 0.06310322967061659
2.3040680522230446E8 0.011147496074272165 0.06401756556296204 0.9888525039257279 -0.06401756556296204 0.9888525039257279 -0.06401756556296204 0.011147496074272165 0.06401756556296204
2.338839673403185E8 0.011308476197152017 0.06494487710386197 0.988691523802848 -0.06494487710386197 0.988691523802848 -0.06494487710386197 0.011308476197152017 0.06494487710386197
2.37413604715664E8 0.011473505673316009 0.0658853413698615 0.9885264943266839 -0.0658853413698615 0.9885264943266839 -0.0658853413698615 0.011473505673316009 0.0658853413698615
2.4099650927363476E8 0.01164269578214902 0.06683913721919081 0.988357304217851 -0.06683913721919081 0.988357304217851 -0.06683913721919081 0.01164269578214902 0.06683913721919081
2.446334848907889E8 0.011816161074073402 0.06780644527194604 0.9881838389259266 -0.06780644527194604 0.9881838389259266 -0.06780644527194604 0.011816161074073402 0.06780644527194604
