!Murata Part Number: LQP02TQ0N3B02
!These Parameters are Measured in Series Mode Connection
!       o--[Z]--o
!Port1              Port2
!       o-------o
!
!Freq. Start=50[MHz] Stop=20[GHz], 401[Steps]
# Hz S RI R 50
!Freq.(Hz) S11(Real) S11(Imag) S21(Real) S21(Imag) S12(Real) S12(Imag) S22(Real) S22(Imag)
5.0E7 2.6341747178688636E-4 0.0011547824681415058 0.9997365825282132 -0.0011547824681415058 0.9997365825282132 -0.0011547824681415058 2.6341747178688636E-4 0.0011547824681415058
5.0754570186123446E7 2.6384219178812035E-4 0.0011721702495624397 0.999736157808212 -0.0011721702495624397 0.999736157808212 -0.0011721702495624397 2.6384219178812035E-4 0.0011721702495624397
5.152052789556263E7 2.642795744937124E-4 0.001189818650228771 0.9997357204255062 -0.001189818650228771 0.9997357204255062 -0.001189818650228771 2.642795744937124E-4 0.001189818650228771
5.229804498202928E7 2.647299896828812E-4 0.0012077315233345162 0.9997352700103173 -0.0012077315233345162 0.9997352700103173 -0.0012077315233345162 2.647299896828812E-4 0.0012077315233345162
5.308729589274893E7 2.651938174660411E-4 0.0012259127767171012 0.999734806182534 -0.0012259127767171015 0.999734806182534 -0.0012259127767171015 2.651938174660411E-4 0.0012259127767171012
5.388845770760058E7 2.65671448545319E-4 0.0012443663735332263 0.9997343285514547 -0.0012443663735332263 0.9997343285514547 -0.0012443663735332263 2.65671448545319E-4 0.0012443663735332263
5.470171017884717E7 2.6616328447992316E-4 0.0012630963329389835 0.9997338367155199 -0.0012630963329389833 0.9997338367155199 -0.0012630963329389833 2.6616328447992316E-4 0.0012630963329389835
5.5527235771465644E7 2.6666973795634857E-4 0.0012821067307741082 0.9997333302620436 -0.0012821067307741082 0.9997333302620436 -0.0012821067307741082 2.6666973795634857E-4 0.0012821067307741082
5.6365219704085544E7 2.671912330633864E-4 0.001301401700250192 0.9997328087669367 -0.0013014017002501918 0.9997328087669367 -0.0013014017002501918 2.671912330633864E-4 0.001301401700250192
5.721584999054556E7 2.677282055719018E-4 0.0013209854326427168 0.9997322717944281 -0.0013209854326427168 0.9997322717944281 -0.0013209854326427168 2.677282055719018E-4 0.0013209854326427168
5.807931748207712E7 2.682811032193255E-4 0.0013408621779867288 0.9997317188967807 -0.001340862177986729 0.9997317188967807 -0.001340862177986729 2.682811032193255E-4 0.0013408621779867288
5.8955815910124585E7 2.688503859988032E-4 0.0013610362457759932 0.9997311496140011 -0.0013610362457759932 0.9997311496140011 -0.0013610362457759932 2.688503859988032E-4 0.0013610362457759932
5.984554192981184E7 2.694365264529258E-4 0.0013815120056654333 0.9997305634735469 -0.0013815120056654333 0.9997305634735469 -0.0013815120056654333 2.694365264529258E-4 0.0013815120056654333
6.074869516406457E7 2.700400099719565E-4 0.0014022938881766808 0.999729959990028 -0.0014022938881766808 0.999729959990028 -0.0014022938881766808 2.700400099719565E-4 0.0014022938881766808
6.166547824839868E7 2.7066133509645547E-4 0.0014233863854065316 0.9997293386649035 -0.0014233863854065314 0.9997293386649035 -0.0014233863854065314 2.7066133509645547E-4 0.0014233863854065316
6.2596096876384385E7 2.713010138241867E-4 0.0014447940517381052 0.999728698986176 -0.0014447940517381054 0.999728698986176 -0.0014447940517381054 2.713010138241867E-4 0.0014447940517381052
6.354075984579668E7 2.7195957192117926E-4 0.0014665215045545042 0.9997280404280788 -0.0014665215045545042 0.9997280404280788 -0.0014665215045545042 2.7195957192117926E-4 0.0014665215045545042
6.449967910546205E7 2.7263754923679775E-4 0.0014885734249547485 0.9997273624507631 -0.0014885734249547485 0.9997273624507631 -0.0014885734249547485 2.7263754923679775E-4 0.0014885734249547485
6.547306980281226E7 2.733355000226564E-4 0.0015109545584717655 0.9997266644999773 -0.0015109545584717655 0.9997266644999773 -0.0015109545584717655 2.733355000226564E-4 0.0015109545584717655
6.646115033215589E7 2.740539932551978E-4 0.0015336697157922016 0.9997259460067448 -0.0015336697157922019 0.9997259460067448 -0.0015336697157922019 2.740539932551978E-4 0.0015336697157922016
6.746414238367817E7 2.7479361296173574E-4 0.0015567237734778225 0.9997252063870382 -0.0015567237734778227 0.9997252063870382 -0.0015567237734778227 2.7479361296173574E-4 0.0015567237734778225
6.848227099318038E7 2.755549585497402E-4 0.0015801216746882554 0.9997244450414503 -0.0015801216746882554 0.9997244450414503 -0.0015801216746882554 2.755549585497402E-4 0.0015801216746882554
6.951576459256999E7 2.763386451391226E-4 0.001603868429904827 0.9997236613548609 -0.0016038684299048266 0.9997236613548609 -0.0016038684299048266 2.763386451391226E-4 0.001603868429904827
7.056485506111258E7 2.771453038972545E-4 0.0016279691176552399 0.9997228546961028 -0.0016279691176552394 0.9997228546961028 -0.0016279691176552394 2.771453038972545E-4 0.0016279691176552399
7.162977777745734E7 2.779755823764334E-4 0.0016524288852388337 0.9997220244176238 -0.001652428885238834 0.9997220244176238 -0.001652428885238834 2.779755823764334E-4 0.0016524288852388337
7.271077167244768E7 2.7883014485347767E-4 0.0016772529494521653 0.9997211698551468 -0.0016772529494521653 0.9997211698551468 -0.0016772529494521653 2.7883014485347767E-4 0.0016772529494521653
7.380807928272885E7 2.797096726711121E-4 0.001702446597314635 0.9997202903273291 -0.001702446597314635 0.9997202903273291 -0.001702446597314635 2.797096726711121E-4 0.001702446597314635
7.492194680516452E7 2.8061486458077497E-4 0.0017280151867939092 0.9997193851354192 -0.0017280151867939096 0.9997193851354192 -0.0017280151867939096 2.8061486458077497E-4 0.0017280151867939092
7.60526241520746E7 2.815464370864471E-4 0.00175396414753084 0.9997184535629136 -0.0017539641475308398 0.9997184535629136 -0.0017539641475308398 2.815464370864471E-4 0.00175396414753084
7.720036500730675E7 2.82505124789076E-4 0.0017802989815636312 0.9997174948752109 -0.0017802989815636316 0.9997174948752109 -0.0017802989815636316 2.82505124789076E-4 0.0017802989815636312
7.836542688315398E7 2.834916807311352E-4 0.001807025264050975 0.9997165083192688 -0.001807025264050975 0.9997165083192688 -0.001807025264050975 2.834916807311352E-4 0.001807025264050975
7.954807117813127E7 2.845068767408225E-4 0.001834148643993872 0.9997154931232594 -0.0018341486439938715 0.9997154931232594 -0.0018341486439938715 2.845068767408225E-4 0.001834148643993872
8.074856323562416E7 2.8555150377537026E-4 0.0018616748449558815 0.9997144484962247 -0.0018616748449558815 0.9997144484962247 -0.0018616748449558815 2.8555150377537026E-4 0.0018616748449558815
8.196717240342227E7 2.866263722629032E-4 0.001889609665781528 0.9997133736277369 -0.001889609665781528 0.9997133736277369 -0.001889609665781528 2.866263722629032E-4 0.001889609665781528
8.320417209415154E7 2.8773231244223887E-4 0.0019179589813126043 0.9997122676875576 -0.0019179589813126043 0.9997122676875576 -0.0019179589813126043 2.8773231244223887E-4 0.0019179589813126043
8.445983984661816E7 2.8887017469998716E-4 0.001946728743102096 0.9997111298253 -0.001946728743102096 0.9997111298253 -0.001946728743102096 2.8887017469998716E-4 0.001946728743102096
8.573445738807854E7 2.9004082990427083E-4 0.0019759249801255207 0.9997099591700956 -0.0019759249801255207 0.9997099591700956 -0.0019759249801255207 2.9004082990427083E-4 0.0019759249801255207
8.702831069744885E7 2.912451697343353E-4 0.002005553799489397 0.9997087548302656 -0.0020055537994893976 0.9997087548302656 -0.0020055537994893976 2.912451697343353E-4 0.002005553799489397
8.834169006946853E7 2.9248410700527663E-4 0.0020356213871366375 0.9997075158929947 -0.002035621387136637 0.9997075158929947 -0.002035621387136637 2.9248410700527663E-4 0.0020356213871366375
8.96748901798321E7 2.937585759870794E-4 0.0020661340085486504 0.9997062414240131 -0.002066134008548651 0.9997062414240131 -0.002066134008548651 2.937585759870794E-4 0.0020661340085486504
9.1028210151304E7 2.9506953271709056E-4 0.002097098009443952 0.9997049304672829 -0.002097098009443952 0.9997049304672829 -0.002097098009443952 2.9506953271709056E-4 0.002097098009443952
9.240195362083109E7 2.964179553050264E-4 0.0021285198164730994 0.9997035820446951 -0.0021285198164731 0.9997035820446951 -0.0021285198164731 2.964179553050264E-4 0.0021285198164730994
9.379642880766791E7 2.978048442295424E-4 0.002160405937909786 0.9997021951557703 -0.002160405937909786 0.9997021951557703 -0.002160405937909786 2.978048442295424E-4 0.002160405937909786
9.521194858253023E7 2.9923122262535696E-4 0.002192762964337971 0.9997007687773747 -0.002192762964337971 0.9997007687773747 -0.002192762964337971 2.9923122262535696E-4 0.002192762964337971
9.664883053779216E7 3.006981365598578E-4 0.002225597569334924 0.9996993018634401 -0.002225597569334924 0.9996993018634401 -0.002225597569334924 3.006981365598578E-4 0.002225597569334924
9.810739705874248E7 3.02206655298069E-4 0.002258916510150095 0.9996977933447018 -0.002258916510150095 0.9996977933447018 -0.002258916510150095 3.02206655298069E-4 0.002258916510150095
9.958797539591652E7 3.0375787155480146E-4 0.0022927266283797815 0.9996962421284453 -0.0022927266283797815 0.9996962421284453 -0.0022927266283797815 3.0375787155480146E-4 0.0022927266283797815
1.0109089773851961E8 3.053529017327483E-4 0.0023270348506375556 0.9996946470982672 -0.0023270348506375556 0.9996946470982672 -0.0023270348506375556 3.053529017327483E-4 0.0023270348506375556
1.0261650128895843E8 3.0699288614523186E-4 0.0023618481892204923 0.9996930071138547 -0.0023618481892204923 0.9996930071138547 -0.0023618481892204923 3.0699288614523186E-4 0.0023618481892204923
1.0416512833849736E8 3.086789892222491E-4 0.0023971737427712692 0.9996913210107777 -0.0023971737427712692 0.9996913210107777 -0.0023971737427712692 3.086789892222491E-4 0.0023971737427712692
1.0573712634405641E8 3.1041239969839703E-4 0.002433018696936244 0.9996895876003017 -0.002433018696936244 0.9996895876003017 -0.002433018696936244 3.1041239969839703E-4 0.002433018696936244
1.0733284800616828E8 3.121943307812057E-4 0.002469390325019686 0.9996878056692189 -0.002469390325019686 0.9996878056692189 -0.002469390325019686 3.121943307812057E-4 0.002469390325019686
1.0895265134811176E8 3.1402602029834077E-4 0.002506295988634411 0.9996859739797017 -0.002506295988634411 0.9996859739797017 -0.002506295988634411 3.1402602029834077E-4 0.002506295988634411
1.1059689979623953E8 3.159087308220692E-4 0.002543743138349056 0.9996840912691781 -0.0025437431383490564 0.9996840912691781 -0.0025437431383490564 3.159087308220692E-4 0.002543743138349056
1.1226596226151802E8 3.178437497693327E-4 0.0025817393143324195 0.9996821562502307 -0.0025817393143324195 0.9996821562502307 -0.0025817393143324195 3.178437497693327E-4 0.0025817393143324195
1.1396021322229806E8 3.1983238947569804E-4 0.0026202921469952395 0.9996801676105243 -0.0026202921469952395 0.9996801676105243 -0.0026202921469952395 3.1983238947569804E-4 0.0026202921469952395
1.1568003280833441E8 3.218759872413937E-4 0.002659409357629949 0.9996781240127586 -0.0026594093576299493 0.9996781240127586 -0.0026594093576299493 3.218759872413937E-4 0.002659409357629949
1.1742580688607343E8 3.2397590534758797E-4 0.002699098759048993 0.9996760240946524 -0.002699098759048993 0.9996760240946524 -0.002699098759048993 3.2397590534758797E-4 0.002699098759048993
1.1919792714522783E8 3.2613353104098987E-4 0.002739368256222391 0.999673866468959 -0.002739368256222391 0.999673866468959 -0.002739368256222391 3.2613353104098987E-4 0.002739368256222391
1.2099679118665792E8 3.2835027648480335E-4 0.0027802258469153264 0.9996716497235152 -0.0027802258469153264 0.9996716497235152 -0.0027802258469153264 3.2835027648480335E-4 0.0027802258469153264
1.2282280261157903E8 3.306275786740038E-4 0.002821679622326651 0.9996693724213259 -0.002821679622326651 0.9996693724213259 -0.002821679622326651 3.306275786740038E-4 0.002821679622326651
1.2467637111211549E8 3.32966899312846E-4 0.0028637377677292923 0.9996670331006872 -0.0028637377677292923 0.9996670331006872 -0.0028637377677292923 3.32966899312846E-4 0.0028637377677292923
1.265579125632208E8 3.353697246524634E-4 0.00290640856311369 0.9996646302753476 -0.00290640856311369 0.9996646302753476 -0.00290640856311369 3.353697246524634E-4 0.00290640856311369
1.284678491159853E8 3.378375652863616E-4 0.002949700383835491 0.9996621624347137 -0.002949700383835491 0.9996621624347137 -0.002949700383835491 3.378375652863616E-4 0.002949700383835491
1.3040660929235186E8 3.403719559015631E-4 0.002993621701268885 0.9996596280440982 -0.002993621701268885 0.9996596280440982 -0.002993621701268885 3.403719559015631E-4 0.002993621701268885
1.3237462808126101E8 3.429744549831177E-4 0.0030381810834671005 0.9996570255450171 -0.0030381810834671005 0.9996570255450171 -0.0030381810834671005 3.429744549831177E-4 0.0030381810834671005
1.3437234703624701E8 3.4564664446964526E-4 0.0030833871958317015 0.9996543533555301 -0.0030833871958317015 0.9996543533555301 -0.0030833871958317015 3.4564664446964526E-4 0.0030833871958317015
1.364002143745067E8 3.4839012935755274E-4 0.0031292488017925506 0.9996516098706424 -0.0031292488017925506 0.9996516098706424 -0.0031292488017925506 3.4839012935755274E-4 0.0031292488017925506
1.3845868507746372E8 3.512065372515278E-4 0.003175774763500394 0.9996487934627485 -0.003175774763500394 0.9996487934627485 -0.003175774763500394 3.512065372515278E-4 0.003175774763500394
1.405482209928499E8 3.540975178588951E-4 0.0032229740425342396 0.9996459024821412 -0.0032229740425342396 0.9996459024821412 -0.0032229740425342396 3.540975178588951E-4 0.0032229740425342396
1.426692909383278E8 3.5706474242540407E-4 0.0032708557006258937 0.9996429352575745 -0.0032708557006258937 0.9996429352575745 -0.0032708557006258937 3.5706474242540407E-4 0.0032708557006258937
1.4482237080667645E8 3.601099031100071E-4 0.003319428900404185 0.99963989009689 -0.003319428900404186 0.99963989009689 -0.003319428900404186 3.601099031100071E-4 0.003319428900404185
1.4700794367256513E8 3.632347122961894E-4 0.0033687029061616174 0.9996367652877038 -0.0033687029061616174 0.9996367652877038 -0.0033687029061616174 3.632347122961894E-4 0.0033687029061616174
1.492264999009378E8 3.6644090183742597E-4 0.003418687084646397 0.9996335590981626 -0.0034186870846463976 0.9996335590981626 -0.0034186870846463976 3.6644090183742597E-4 0.003418687084646397
1.5147853725703382E8 3.697302222343553E-4 0.003469390905883027 0.9996302697777658 -0.0034693909058830276 0.9996302697777658 -0.0034693909058830276 3.697302222343553E-4 0.003469390905883027
1.5376456101806876E8 3.7310444174130453E-4 0.0035208239440248368 0.9996268955582586 -0.0035208239440248368 0.9996268955582586 -0.0035208239440248368 3.7310444174130453E-4 0.0035208239440248368
1.5608508408660066E8 3.765653453998341E-4 0.0035729958782420943 0.9996234346546 -0.003572995878242095 0.9996234346546 -0.003572995878242095 3.765653453998341E-4 0.0035729958782420943
1.5844062710560706E8 3.8011473399703934E-4 0.003625916493649558 0.9996198852660029 -0.003625916493649558 0.9996198852660029 -0.003625916493649558 3.8011473399703934E-4 0.003625916493649558
1.6083171857529896E8 3.837544229464181E-4 0.003679595682277586 0.9996162455770535 -0.003679595682277586 0.9996162455770535 -0.003679595682277586 3.837544229464181E-4 0.003679595682277586
1.632588949716973E8 3.8748624108921005E-4 0.0037340434440912063 0.9996125137589109 -0.003734043444091207 0.9996125137589109 -0.003734043444091207 3.8748624108921005E-4 0.0037340434440912063
1.6572270086699936E8 3.913120294142048E-4 0.003789269888061728 0.9996086879705857 -0.003789269888061728 0.9996086879705857 -0.003789269888061728 3.913120294142048E-4 0.003789269888061728
1.6822368905176118E8 3.9523363969417295E-4 0.0038452852332958353 0.9996047663603059 -0.0038452852332958357 0.9996047663603059 -0.0038452852332958357 3.9523363969417295E-4 0.0038452852332958353
1.7076242065892437E8 3.9925293303718636E-4 0.003902099810227324 0.9996007470669628 -0.003902099810227324 0.9996007470669628 -0.003902099810227324 3.9925293303718636E-4 0.003902099810227324
1.7333946528971428E8 4.0337177835128867E-4 0.003959724061876903 0.9995966282216487 -0.003959724061876903 0.9995966282216487 -0.003959724061876903 4.0337177835128867E-4 0.003959724061876903
1.7595540114143828E8 4.075920507211499E-4 0.0040181685451858 0.9995924079492791 -0.004018168545185799 0.9995924079492791 -0.004018168545185799 4.075920507211499E-4 0.0040181685451858
1.786108151372127E8 4.1191562969555834E-4 0.00407744393242914 0.9995880843703044 -0.00407744393242914 0.9995880843703044 -0.00407744393242914 4.1191562969555834E-4 0.00407744393242914
1.8130630305764765E8 4.1634439748483733E-4 0.004137561012715401 0.9995836556025152 -0.004137561012715401 0.9995836556025152 -0.004137561012715401 4.1634439748483733E-4 0.004137561012715401
1.840424696745189E8 4.208802370675341E-4 0.004198530693578421 0.9995791197629326 -0.004198530693578421 0.9995791197629326 -0.004198530693578421 4.208802370675341E-4 0.004198530693578421
1.8681992888645732E8 4.255250302060171E-4 0.004260364002668814 0.9995744749697939 -0.004260364002668813 0.9995744749697939 -0.004260364002668813 4.255250302060171E-4 0.004260364002668814
1.8963930385668582E8 4.3028065537093483E-4 0.004323072089551851 0.9995697193446291 -0.004323072089551851 0.9995697193446291 -0.004323072089551851 4.3028065537093483E-4 0.004323072089551851
1.92501227152835E8 4.3514898557482575E-4 0.004386666227619099 0.9995648510144252 -0.004386666227619099 0.9995648510144252 -0.004386666227619099 4.3514898557482575E-4 0.004386666227619099
1.9540634088886917E8 4.40131886115542E-4 0.0044511578161214056 0.9995598681138843 -0.004451157816121405 0.9995598681138843 -0.004451157816121405 4.40131886115542E-4 0.0044511578161214056
1.983552968691535E8 4.452312122305554E-4 0.004516558382331008 0.9995547687877694 -0.004516558382331008 0.9995547687877694 -0.004516558382331008 4.452312122305554E-4 0.004516558382331008
2.0134875673469606E8 4.5044880666362543E-4 0.004582879583840762 0.9995495511933363 -0.004582879583840762 0.9995495511933363 -0.004582879583840762 4.5044880666362543E-4 0.004582879583840762
2.0438739211159652E8 4.557864971457975E-4 0.004650133211008726 0.9995442135028543 -0.004650133211008726 0.9995442135028543 -0.004650133211008726 4.557864971457975E-4 0.004650133211008726
2.074718847617352E8 4.612460937931459E-4 0.004718331189556415 0.9995387539062067 -0.004718331189556414 0.9995387539062067 -0.004718331189556414 4.612460937931459E-4 0.004718331189556415
2.106029267357361E8 4.6682938642423705E-4 0.004787485583329306 0.9995331706135758 -0.004787485583329305 0.9995331706135758 -0.004787485583329305 4.6682938642423705E-4 0.004787485583329306
2.1378122052823865E8 4.725381418007953E-4 0.004857608597228197 0.9995274618581993 -0.004857608597228198 0.9995274618581993 -0.004857608597228198 4.725381418007953E-4 0.004857608597228197
2.1700747923551247E8 4.783741007956563E-4 0.004928712580320191 0.9995216258992043 -0.004928712580320191 0.9995216258992043 -0.004928712580320191 4.783741007956563E-4 0.004928712580320191
2.2028242671545094E8 4.8433897549267384E-4 0.005000810029138088 0.9995156610245074 -0.005000810029138087 0.9995156610245074 -0.005000810029138087 4.8433897549267384E-4 0.005000810029138088
2.23606797749979E8 4.904344462238751E-4 0.0050739135911769765 0.9995095655537761 -0.0050739135911769765 0.9995095655537761 -0.0050739135911769765 4.904344462238751E-4 0.0050739135911769765
2.2698133820991236E8 4.966621585498159E-4 0.005148036068596882 0.9995033378414501 -0.005148036068596882 0.9995033378414501 -0.005148036068596882 4.966621585498159E-4 0.005148036068596882
2.3040680522230446E8 5.030237201897469E-4 0.005223190422140154 0.99949697627981 -0.005223190422140154 0.99949697627981 -0.005223190422140154 5.030237201897469E-4 0.005223190422140154
2.338839673403185E8 5.09520697908892E-4 0.005299389775272227 0.9994904793020912 -0.005299389775272227 0.9994904793020912 -0.005299389775272227 5.09520697908892E-4 0.005299389775272227
