!Murata Part Number: LQP02TQ5N6H02
!These Parameters are Measured in Series Mode Connection
!       o--[Z]--o
!Port1              Port2
!       o-------o
!
!Freq. Start=50[MHz] Stop=20[GHz], 401[Steps]
# Hz S RI R 50
!Freq.(Hz) S11(Real) S11(Imag) S21(Real) S21(Imag) S12(Real) S12(Imag) S22(Real) S22(Imag)
5.0E7 0.007178545496129726 0.019061675536089322 0.9928214545038704 -0.019061675536089326 0.9928214545038704 -0.019061675536089326 0.007178545496129726 0.019061675536089322
5.0754570186123446E7 0.0071975344769388775 0.019345805407370718 0.9928024655230611 -0.019345805407370714 0.9928024655230611 -0.019345805407370714 0.0071975344769388775 0.019345805407370718
5.152052789556263E7 0.007217021156682953 0.019634105783018635 0.9927829788433171 -0.019634105783018635 0.9927829788433171 -0.019634105783018635 0.007217021156682953 0.019634105783018635
5.229804498202928E7 0.007237017576605385 0.019926636612506415 0.9927629824233948 -0.019926636612506415 0.9927629824233948 -0.019926636612506415 0.007237017576605385 0.019926636612506415
5.308729589274893E7 0.007257536063385399 0.02022345871577473 0.9927424639366146 -0.02022345871577473 0.9927424639366146 -0.02022345871577473 0.007257536063385399 0.02022345871577473
5.388845770760058E7 0.007278589238062038 0.02052463379731841 0.992721410761938 -0.020524633797318413 0.992721410761938 -0.020524633797318413 0.007278589238062038 0.02052463379731841
5.470171017884717E7 0.007300190025373038 0.020830224460454794 0.9926998099746269 -0.020830224460454794 0.9926998099746269 -0.020830224460454794 0.007300190025373038 0.020830224460454794
5.5527235771465644E7 0.007322351663523311 0.021140294221764104 0.9926776483364766 -0.021140294221764104 0.9926776483364766 -0.021140294221764104 0.007322351663523311 0.021140294221764104
5.6365219704085544E7 0.007345087714397504 0.02145490752569129 0.9926549122856023 -0.02145490752569129 0.9926549122856023 -0.02145490752569129 0.007345087714397504 0.02145490752569129
5.721584999054556E7 0.007368412074230575 0.021774129759298086 0.9926315879257694 -0.021774129759298086 0.9926315879257694 -0.021774129759298086 0.007368412074230575 0.021774129759298086
5.807931748207712E7 0.0073923389847499665 0.02209802726715309 0.9926076610152501 -0.02209802726715309 0.9926076610152501 -0.02209802726715309 0.0073923389847499665 0.02209802726715309
5.8955815910124585E7 0.007416883044802389 0.02242666736634708 0.9925831169551976 -0.02242666736634708 0.9925831169551976 -0.02242666736634708 0.007416883044802389 0.02242666736634708
5.984554192981184E7 0.0074420592224775425 0.02276011836161969 0.9925579407775225 -0.02276011836161969 0.9925579407775225 -0.02276011836161969 0.0074420592224775425 0.02276011836161969
6.074869516406457E7 0.007467882867740568 0.023098449560583326 0.9925321171322593 -0.02309844956058333 0.9925321171322593 -0.02309844956058333 0.007467882867740568 0.023098449560583326
6.166547824839868E7 0.007494369725584121 0.02344173128902925 0.992505630274416 -0.02344173128902925 0.992505630274416 -0.02344173128902925 0.007494369725584121 0.02344173128902925
6.2596096876384385E7 0.007521535949710289 0.023790034906300103 0.9924784640502897 -0.023790034906300103 0.9924784640502897 -0.023790034906300103 0.007521535949710289 0.023790034906300103
6.354075984579668E7 0.007549398116751669 0.02414343282071328 0.9924506018832483 -0.02414343282071328 0.9924506018832483 -0.02414343282071328 0.007549398116751669 0.02414343282071328
6.449967910546205E7 0.007577973241039987 0.024501998505018142 0.9924220267589602 -0.024501998505018142 0.9924220267589602 -0.024501998505018142 0.007577973241039987 0.024501998505018142
6.547306980281226E7 0.0076072787899298345 0.02486580651187061 0.99239272121007 -0.02486580651187061 0.99239272121007 -0.02486580651187061 0.0076072787899298345 0.02486580651187061
6.646115033215589E7 0.007637332699683947 0.025234932489308085 0.9923626673003162 -0.02523493248930808 0.9923626673003162 -0.02523493248930808 0.007637332699683947 0.025234932489308085
6.746414238367817E7 0.007668153391925643 0.025609453196207298 0.9923318466080743 -0.025609453196207298 0.9923318466080743 -0.025609453196207298 0.007668153391925643 0.025609453196207298
6.848227099318038E7 0.0076997597906628915 0.02598944651770805 0.992300240209337 -0.02598944651770805 0.992300240209337 -0.02598944651770805 0.0076997597906628915 0.02598944651770805
6.951576459256999E7 0.007732171339887574 0.026374991480585624 0.9922678286601123 -0.02637499148058562 0.9922678286601123 -0.02637499148058562 0.007732171339887574 0.026374991480585624
7.056485506111258E7 0.0077654080217524615 0.026766168268554734 0.9922345919782476 -0.026766168268554734 0.9922345919782476 -0.026766168268554734 0.0077654080217524615 0.026766168268554734
7.162977777745734E7 0.007799490375327421 0.027163058237488453 0.9922005096246727 -0.027163058237488453 0.9922005096246727 -0.027163058237488453 0.007799490375327421 0.027163058237488453
7.271077167244768E7 0.007834439515935475 0.027565743930535482 0.9921655604840645 -0.027565743930535482 0.9921655604840645 -0.027565743930535482 0.007834439515935475 0.027565743930535482
7.380807928272885E7 0.00787027715506841 0.027974309093120243 0.9921297228449314 -0.027974309093120243 0.9921297228449314 -0.027974309093120243 0.00787027715506841 0.027974309093120243
7.492194680516452E7 0.007907025620880704 0.028388838687810038 0.9920929743791191 -0.028388838687810038 0.9920929743791191 -0.028388838687810038 0.007907025620880704 0.028388838687810038
7.60526241520746E7 0.007944707879259886 0.028809418909035017 0.9920552921207401 -0.028809418909035017 0.9920552921207401 -0.028809418909035017 0.007944707879259886 0.028809418909035017
7.720036500730675E7 0.007983347555470553 0.029236137197646957 0.9920166524445293 -0.029236137197646957 0.9920166524445293 -0.029236137197646957 0.007983347555470553 0.029236137197646957
7.836542688315398E7 0.008022968956368833 0.029669082255303948 0.9919770310436311 -0.029669082255303948 0.9919770310436311 -0.029669082255303948 0.008022968956368833 0.029669082255303948
7.954807117813127E7 0.008063597093183345 0.03010834405866882 0.9919364029068167 -0.03010834405866881 0.9919364029068167 -0.03010834405866881 0.008063597093183345 0.03010834405866882
8.074856323562416E7 0.008105257704858492 0.03055401387341066 0.9918947422951414 -0.03055401387341066 0.9918947422951414 -0.03055401387341066 0.008105257704858492 0.03055401387341066
8.196717240342227E7 0.00814797728195539 0.03100618426799913 0.9918520227180446 -0.03100618426799913 0.9918520227180446 -0.03100618426799913 0.00814797728195539 0.03100618426799913
8.320417209415154E7 0.008191783091105846 0.031464949127283225 0.991808216908894 -0.031464949127283225 0.991808216908894 -0.031464949127283225 0.008191783091105846 0.031464949127283225
8.445983984661816E7 0.008236703200014366 0.03193040366584657 0.9917632967999855 -0.03193040366584657 0.9917632967999855 -0.03193040366584657 0.008236703200014366 0.03193040366584657
8.573445738807854E7 0.00828276650300376 0.03240264444113344 0.9917172334969961 -0.03240264444113344 0.9917172334969961 -0.03240264444113344 0.00828276650300376 0.03240264444113344
8.702831069744885E7 0.00833000274709963 0.03288176936633981 0.9916699972529005 -0.03288176936633981 0.9916699972529005 -0.03288176936633981 0.00833000274709963 0.03288176936633981
8.834169006946853E7 0.008378442558649817 0.03336787772306608 0.9916215574413502 -0.03336787772306608 0.9916215574413502 -0.03336787772306608 0.008378442558649817 0.03336787772306608
8.96748901798321E7 0.00842811747047526 0.03386107017372868 0.9915718825295247 -0.03386107017372868 0.9915718825295247 -0.03386107017372868 0.00842811747047526 0.03386107017372868
9.1028210151304E7 0.008479059949549428 0.03436144877372919 0.9915209400504507 -0.03436144877372919 0.9915209400504507 -0.03436144877372919 0.008479059949549428 0.03436144877372919
9.240195362083109E7 0.008531303425204403 0.034869116983380806 0.9914686965747956 -0.0348691169833808 0.9914686965747956 -0.0348691169833808 0.008531303425204403 0.034869116983380806
9.379642880766791E7 0.008584882317862535 0.03538417967959278 0.9914151176821374 -0.03538417967959278 0.9914151176821374 -0.03538417967959278 0.008584882317862535 0.03538417967959278
9.521194858253023E7 0.008639832068294075 0.035906743167315146 0.9913601679317059 -0.035906743167315146 0.9913601679317059 -0.035906743167315146 0.008639832068294075 0.035906743167315146
9.664883053779216E7 0.008696189167402104 0.03643691519074626 0.991303810832598 -0.036436915190746266 0.991303810832598 -0.036436915190746266 0.008696189167402104 0.03643691519074626
9.810739705874248E7 0.008753991186537847 0.03697480494430697 0.9912460088134623 -0.03697480494430697 0.9912460088134623 -0.03697480494430697 0.008753991186537847 0.03697480494430697
9.958797539591652E7 0.008813276808350758 0.03752052308338572 0.9911867231916494 -0.03752052308338572 0.9911867231916494 -0.03752052308338572 0.008813276808350758 0.03752052308338572
1.0109089773851961E8 0.008874085858179845 0.03807418173485996 0.9911259141418202 -0.03807418173485996 0.9911259141418202 -0.03807418173485996 0.008874085858179845 0.03807418173485996
1.0261650128895843E8 0.008936459335994035 0.03863589450739885 0.9910635406640058 -0.03863589450739884 0.9910635406640058 -0.03863589450739884 0.008936459335994035 0.03863589450739885
1.0416512833849736E8 0.009000439448891699 0.03920577650155328 0.9909995605511082 -0.03920577650155328 0.9909995605511082 -0.03920577650155328 0.009000439448891699 0.03920577650155328
1.0573712634405641E8 0.009066069644171289 0.03978394431963918 0.9909339303558287 -0.03978394431963917 0.9909339303558287 -0.03978394431963917 0.009066069644171289 0.03978394431963918
1.0733284800616828E8 0.009133394642987163 0.040370516075419666 0.9908666053570127 -0.040370516075419666 0.9908666053570127 -0.040370516075419666 0.009133394642987163 0.040370516075419666
1.0895265134811176E8 0.00920246047460675 0.040965611403592 0.9907975395253932 -0.040965611403592 0.9907975395253932 -0.040965611403592 0.00920246047460675 0.040965611403592
1.1059689979623953E8 0.009273314511287524 0.04156935146908395 0.9907266854887125 -0.04156935146908395 0.9907266854887125 -0.04156935146908395 0.009273314511287524 0.04156935146908395
1.1226596226151802E8 0.009346005503794432 0.04218185897616497 0.9906539944962054 -0.042181858976164964 0.9906539944962054 -0.042181858976164964 0.009346005503794432 0.04218185897616497
1.1396021322229806E8 0.009420583617580556 0.042803258177374875 0.9905794163824195 -0.042803258177374875 0.9905794163824195 -0.042803258177374875 0.009420583617580556 0.042803258177374875
1.1568003280833441E8 0.009497100469656178 0.04343367488227334 0.9905028995303438 -0.04343367488227334 0.9905028995303438 -0.04343367488227334 0.009497100469656178 0.04343367488227334
1.1742580688607343E8 0.00957560916617356 0.04407323646601153 0.9904243908338265 -0.04407323646601153 0.9904243908338265 -0.04407323646601153 0.00957560916617356 0.04407323646601153
1.1919792714522783E8 0.009656164340756822 0.04472207187772532 0.9903438356592432 -0.04472207187772531 0.9903438356592432 -0.04472207187772531 0.009656164340756822 0.04472207187772532
1.2099679118665792E8 0.009738822193608719 0.045380311648749026 0.9902611778063911 -0.04538031164874902 0.9902611778063911 -0.04538031164874902 0.009738822193608719 0.045380311648749026
1.2282280261157903E8 0.009823640531427636 0.046048087900645227 0.9901763594685723 -0.046048087900645227 0.9901763594685723 -0.046048087900645227 0.009823640531427636 0.046048087900645227
1.2467637111211549E8 0.009910678808170684 0.04672553435304557 0.9900893211918294 -0.04672553435304557 0.9900893211918294 -0.04672553435304557 0.009910678808170684 0.04672553435304557
1.265579125632208E8 0.009999998166700065 0.04741278633129388 0.9900000018333001 -0.04741278633129388 0.9900000018333001 -0.04741278633129388 0.009999998166700065 0.04741278633129388
1.284678491159853E8 0.010091661481351927 0.048109980773881636 0.9899083385186482 -0.048109980773881636 0.9899083385186482 -0.048109980773881636 0.010091661481351927 0.048109980773881636
1.3040660929235186E8 0.010185733401468333 0.048817256239662044 0.9898142665985317 -0.048817256239662044 0.9898142665985317 -0.048817256239662044 0.010185733401468333 0.048817256239662044
1.3237462808126101E8 0.01028228039593433 0.049534752914826986 0.9897177196040655 -0.049534752914826986 0.9897177196040655 -0.049534752914826986 0.01028228039593433 0.049534752914826986
1.3437234703624701E8 0.010381370798763445 0.05026261261962743 0.9896186292012364 -0.050262612619627424 0.9896186292012364 -0.050262612619627424 0.010381370798763445 0.05026261261962743
1.364002143745067E8 0.010483074855775806 0.051000978814815356 0.9895169251442242 -0.05100097881481536 0.9895169251442242 -0.05100097881481536 0.010483074855775806 0.051000978814815356
1.3845868507746372E8 0.010587464772414068 0.05174999660778172 0.9894125352275857 -0.05174999660778172 0.9894125352275857 -0.05174999660778172 0.010587464772414068 0.05174999660778172
1.405482209928499E8 0.010694614762742617 0.05250981275836093 0.9893053852372574 -0.05250981275836093 0.9893053852372574 -0.05250981275836093 0.010694614762742617 0.05250981275836093
1.426692909383278E8 0.010804601099676257 0.05328057568427002 0.9891953989003237 -0.05328057568427002 0.9891953989003237 -0.05328057568427002 0.010804601099676257 0.05328057568427002
1.4482237080667645E8 0.010917502166484414 0.054062435466146176 0.9890824978335155 -0.054062435466146176 0.9890824978335155 -0.054062435466146176 0.010917502166484414 0.054062435466146176
1.4700794367256513E8 0.011033398509616819 0.05485554385214291 0.9889666014903833 -0.05485554385214291 0.9889666014903833 -0.05485554385214291 0.011033398509616819 0.05485554385214291
1.492264999009378E8 0.011152372892896324 0.05566005426204143 0.9888476271071035 -0.05566005426204143 0.9888476271071035 -0.05566005426204143 0.011152372892896324 0.05566005426204143
1.5147853725703382E8 0.01127451035312366 0.05647612179082993 0.9887254896468763 -0.05647612179082993 0.9887254896468763 -0.05647612179082993 0.01127451035312366 0.05647612179082993
1.5376456101806876E8 0.011399898257138214 0.057303903211700355 0.9886001017428617 -0.057303903211700355 0.9886001017428617 -0.057303903211700355 0.011399898257138214 0.057303903211700355
1.5608508408660066E8 0.01152862636037749 0.05814355697840747 0.9884713736396225 -0.05814355697840747 0.9884713736396225 -0.05814355697840747 0.01152862636037749 0.05814355697840747
1.5844062710560706E8 0.011660786866976528 0.058995243226932136 0.9883392131330236 -0.058995243226932136 0.9883392131330236 -0.058995243226932136 0.011660786866976528 0.058995243226932136
1.6083171857529896E8 0.011796474491446825 0.05985912377638724 0.9882035255085532 -0.05985912377638724 0.9882035255085532 -0.05985912377638724 0.011796474491446825 0.05985912377638724
1.632588949716973E8 0.011935786521972231 0.06073536212910045 0.9880642134780276 -0.06073536212910044 0.9880642134780276 -0.06073536212910044 0.011935786521972231 0.06073536212910045
1.6572270086699936E8 0.012078822885356829 0.06162412346980509 0.9879211771146432 -0.06162412346980509 0.9879211771146432 -0.06162412346980509 0.012078822885356829 0.06162412346980509
1.6822368905176118E8 0.012225686213657709 0.06252557466386757 0.9877743137863425 -0.06252557466386757 0.9877743137863425 -0.06252557466386757 0.012225686213657709 0.06252557466386757
1.7076242065892437E8 0.012376481912532098 0.06343988425447553 0.987623518087468 -0.06343988425447553 0.987623518087468 -0.06343988425447553 0.012376481912532098 0.06343988425447553
1.7333946528971428E8 0.012531318231325913 0.06436722245870921 0.9874686817686742 -0.06436722245870921 0.9874686817686742 -0.06436722245870921 0.012531318231325913 0.06436722245870921
1.7595540114143828E8 0.012690306334927032 0.0653077611624151 0.9873096936650729 -0.0653077611624151 0.9873096936650729 -0.0653077611624151 0.012690306334927032 0.0653077611624151
1.786108151372127E8 0.01285356037740353 0.06626167391379888 0.9871464396225966 -0.06626167391379888 0.9871464396225966 -0.06626167391379888 0.01285356037740353 0.06626167391379888
1.8130630305764765E8 0.013021197577443062 0.06722913591565195 0.9869788024225569 -0.06722913591565195 0.9869788024225569 -0.06722913591565195 0.013021197577443062 0.06722913591565195
1.840424696745189E8 0.013193338295606235 0.06821032401612476 0.9868066617043937 -0.06821032401612476 0.9868066617043937 -0.06821032401612476 0.013193338295606235 0.06821032401612476
1.8681992888645732E8 0.013370106113402395 0.06920541669795717 0.9866298938865975 -0.06920541669795718 0.9866298938865975 -0.06920541669795718 0.013370106113402395 0.06920541669795717
1.8963930385668582E8 0.013551627914192626 0.07021459406607672 0.9864483720858073 -0.0702145940660767 0.9864483720858073 -0.0702145940660767 0.013551627914192626 0.07021459406607672
1.92501227152835E8 0.013738033965920205 0.07123803783347203 0.9862619660340799 -0.07123803783347202 0.9862619660340799 -0.07123803783347202 0.013738033965920205 0.07123803783347203
1.9540634088886917E8 0.013929458005664978 0.07227593130525092 0.9860705419943351 -0.07227593130525092 0.9860705419943351 -0.07227593130525092 0.013929458005664978 0.07227593130525092
1.983552968691535E8 0.014126037326013393 0.07332845936078937 0.9858739626739866 -0.07332845936078936 0.9858739626739866 -0.07332845936078936 0.014126037326013393 0.07332845936078937
2.0134875673469606E8 0.014327912863232393 0.0743958084338803 0.9856720871367676 -0.0743958084338803 0.9856720871367676 -0.0743958084338803 0.014327912863232393 0.0743958084338803
2.0438739211159652E8 0.014535229287230327 0.07547816649078923 0.9854647707127697 -0.07547816649078923 0.9854647707127697 -0.07547816649078923 0.014535229287230327 0.07547816649078923
2.074718847617352E8 0.014748135093284827 0.07657572300612596 0.9852518649067152 -0.07657572300612596 0.9852518649067152 -0.07657572300612596 0.014748135093284827 0.07657572300612596
2.106029267357361E8 0.014966782695513015 0.07768866893644209 0.985033217304487 -0.07768866893644209 0.985033217304487 -0.07768866893644209 0.014966782695513015 0.07768866893644209
2.1378122052823865E8 0.015191328522055781 0.07881719669146542 0.9848086714779443 -0.07881719669146542 0.9848086714779443 -0.07881719669146542 0.015191328522055781 0.07881719669146542
2.1700747923551247E8 0.015421933111944286 0.07996150010288394 0.9845780668880557 -0.07996150010288394 0.9845780668880557 -0.07996150010288394 0.015421933111944286 0.07996150010288394
2.2028242671545094E8 0.01565876121361339 0.08112177439059501 0.9843412387863867 -0.08112177439059501 0.9843412387863867 -0.08112177439059501 0.01565876121361339 0.08112177439059501
2.23606797749979E8 0.01590198188502344 0.08229821612633591 0.9840980181149764 -0.08229821612633591 0.9840980181149764 -0.08229821612633591 0.01590198188502344 0.08229821612633591
2.2698133820991236E8 0.016151768595349333 0.08349102319461739 0.9838482314046506 -0.08349102319461739 0.9838482314046506 -0.08349102319461739 0.016151768595349333 0.08349102319461739
2.3040680522230446E8 0.01640829932819278 0.08470039475088115 0.9835917006718072 -0.08470039475088115 0.9835917006718072 -0.08470039475088115 0.01640829932819278 0.08470039475088115
2.338839673403185E8 0.016671756686271997 0.08592653117680868 0.983328243313728 -0.0859265311768087 0.983328243313728 -0.0859265311768087 0.016671756686271997 0.08592653117680868
2.37413604715664E8 0.016942327997541085 0.08716963403271036 0.983057672002459 -0.08716963403271036 0.983057672002459 -0.08716963403271036 0.016942327997541085 0.08716963403271036
2.4099650927363476E8 0.017220205422690045 0.08842990600692713 0.9827797945773099 -0.08842990600692713 0.9827797945773099 -0.08842990600692713 0.017220205422690045 0.08842990600692713
2.446334848907889E8 0.01750558606397565 0.08970755086218209 0.9824944139360244 -0.0897075508621821 0.9824944139360244 -0.0897075508621821 0.01750558606397565 0.08970755086218209
