!Murata Part Number: LQP02TQ2N3B02
!These Parameters are Measured in Series Mode Connection
!       o--[Z]--o
!Port1              Port2
!       o-------o
!
!Freq. Start=50[MHz] Stop=20[GHz], 401[Steps]
# Hz S RI R 50
!Freq.(Hz) S11(Real) S11(Imag) S21(Real) S21(Imag) S12(Real) S12(Imag) S22(Real) S22(Imag)
5.0E7 0.0019885257932644243 0.008223053860382875 0.9980114742067356 -0.008223053860382875 0.9980114742067356 -0.008223053860382875 0.0019885257932644243 0.008223053860382875
5.0754570186123446E7 0.001995797086851522 0.008345771224438291 0.9980042029131484 -0.00834577122443829 0.9980042029131484 -0.00834577122443829 0.001995797086851522 0.008345771224438291
5.152052789556263E7 0.002003268748733197 0.008470282837621083 0.9979967312512669 -0.008470282837621081 0.9979967312512669 -0.008470282837621081 0.002003268748733197 0.008470282837621083
5.229804498202928E7 0.0020109457284864284 0.008596613528498024 0.9979890542715136 -0.008596613528498024 0.9979890542715136 -0.008596613528498024 0.0020109457284864284 0.008596613528498024
5.308729589274893E7 0.002018833067226635 0.00872478842443231 0.9979811669327732 -0.00872478842443231 0.9979811669327732 -0.00872478842443231 0.002018833067226635 0.00872478842443231
5.388845770760058E7 0.0020269358976929093 0.008854832954355034 0.9979730641023072 -0.008854832954355034 0.9979730641023072 -0.008854832954355034 0.0020269358976929093 0.008854832954355034
5.470171017884717E7 0.002035259444241146 0.008986772851598622 0.9979647405557589 -0.008986772851598622 0.9979647405557589 -0.008986772851598622 0.002035259444241146 0.008986772851598622
5.5527235771465644E7 0.0020438090227414126 0.00912063415679873 0.9979561909772587 -0.009120634156798731 0.9979561909772587 -0.009120634156798731 0.0020438090227414126 0.00912063415679873
5.6365219704085544E7 0.0020525900403760124 0.009256443220871428 0.9979474099596239 -0.00925644322087143 0.9979474099596239 -0.00925644322087143 0.0020525900403760124 0.009256443220871428
5.721584999054556E7 0.0020616079953348636 0.00939422670807315 0.997938392004665 -0.00939422670807315 0.997938392004665 -0.00939422670807315 0.0020616079953348636 0.00939422670807315
5.807931748207712E7 0.0020708684764049645 0.009534011599151139 0.9979291315235952 -0.009534011599151139 0.9979291315235952 -0.009534011599151139 0.0020708684764049645 0.009534011599151139
5.8955815910124585E7 0.002080377162450971 0.009675825194592763 0.9979196228375491 -0.009675825194592763 0.9979196228375491 -0.009675825194592763 0.002080377162450971 0.009675825194592763
5.984554192981184E7 0.0020901398217841594 0.00981969511798263 0.9979098601782159 -0.00981969511798263 0.9979098601782159 -0.00981969511798263 0.0020901398217841594 0.00981969511798263
6.074869516406457E7 0.002100162311417292 0.00996564931947662 0.9978998376885826 -0.00996564931947662 0.9978998376885826 -0.00996564931947662 0.002100162311417292 0.00996564931947662
6.166547824839868E7 0.0021104505762033253 0.010113716079402932 0.9978895494237966 -0.010113716079402934 0.9978895494237966 -0.010113716079402934 0.0021104505762033253 0.010113716079402932
6.2596096876384385E7 0.0021210106478561476 0.01026392401200025 0.9978789893521438 -0.01026392401200025 0.9978789893521438 -0.01026392401200025 0.0021210106478561476 0.01026392401200025
6.354075984579668E7 0.0021318486438520862 0.010416302069304164 0.9978681513561478 -0.010416302069304164 0.9978681513561478 -0.010416302069304164 0.0021318486438520862 0.010416302069304164
6.449967910546205E7 0.002142970766211251 0.010570879545192993 0.9978570292337888 -0.010570879545192993 0.9978570292337888 -0.010570879545192993 0.002142970766211251 0.010570879545192993
6.547306980281226E7 0.002154383300158404 0.010727686079605052 0.9978456166998417 -0.010727686079605054 0.9978456166998417 -0.010727686079605054 0.002154383300158404 0.010727686079605052
6.646115033215589E7 0.002166092612663521 0.010886751662939707 0.9978339073873363 -0.010886751662939708 0.9978339073873363 -0.010886751662939708 0.002166092612663521 0.010886751662939707
6.746414238367817E7 0.0021781051508628704 0.01104810664065511 0.9978218948491372 -0.011048106640655109 0.9978218948491372 -0.011048106640655109 0.0021781051508628704 0.01104810664065511
6.848227099318038E7 0.0021904274403620615 0.011211781718075941 0.997809572559638 -0.01121178171807594 0.997809572559638 -0.01121178171807594 0.0021904274403620615 0.011211781718075941
6.951576459256999E7 0.0022030660834232657 0.011377807965425035 0.9977969339165769 -0.011377807965425034 0.9977969339165769 -0.011377807965425034 0.0022030660834232657 0.011377807965425035
7.056485506111258E7 0.0022160277570395454 0.011546216823093031 0.9977839722429604 -0.011546216823093031 0.9977839722429604 -0.011546216823093031 0.0022160277570395454 0.011546216823093031
7.162977777745734E7 0.0022293192109000787 0.011717040107160797 0.9977706807890999 -0.011717040107160797 0.9977706807890999 -0.011717040107160797 0.0022293192109000787 0.011717040107160797
7.271077167244768E7 0.0022429472652509396 0.011890310015189556 0.997757052734749 -0.011890310015189556 0.997757052734749 -0.011890310015189556 0.0022429472652509396 0.011890310015189556
7.380807928272885E7 0.002256918808657033 0.012066059132294091 0.997743081191343 -0.012066059132294091 0.997743081191343 -0.012066059132294091 0.002256918808657033 0.012066059132294091
7.492194680516452E7 0.002271240795671745 0.01224432043751461 0.9977287592043282 -0.01224432043751461 0.9977287592043282 -0.01224432043751461 0.002271240795671745 0.01224432043751461
7.60526241520746E7 0.0022859202444219977 0.012425127310503253 0.997714079755578 -0.012425127310503253 0.997714079755578 -0.012425127310503253 0.0022859202444219977 0.012425127310503253
7.720036500730675E7 0.002300964234117374 0.01260851353854107 0.9976990357658828 -0.01260851353854107 0.9976990357658828 -0.01260851353854107 0.002300964234117374 0.01260851353854107
7.836542688315398E7 0.0023163799024932567 0.012794513323901885 0.9976836200975068 -0.012794513323901885 0.9976836200975068 -0.012794513323901885 0.0023163799024932567 0.012794513323901885
7.954807117813127E7 0.0023321744431990207 0.012983161291579047 0.997667825556801 -0.01298316129157905 0.997667825556801 -0.01298316129157905 0.0023321744431990207 0.012983161291579047
8.074856323562416E7 0.0023483551031436324 0.013174492497391383 0.9976516448968563 -0.013174492497391383 0.9976516448968563 -0.013174492497391383 0.0023483551031436324 0.013174492497391383
8.196717240342227E7 0.0023649291798122658 0.013368542436484394 0.9976350708201878 -0.013368542436484394 0.9976350708201878 -0.013368542436484394 0.0023649291798122658 0.013368542436484394
8.320417209415154E7 0.0023819040185688823 0.01356534705224267 0.997618095981431 -0.01356534705224267 0.997618095981431 -0.01356534705224267 0.0023819040185688823 0.01356534705224267
8.445983984661816E7 0.002399287009961074 0.013764942745629031 0.9976007129900389 -0.013764942745629033 0.9976007129900389 -0.013764942745629033 0.002399287009961074 0.013764942745629031
8.573445738807854E7 0.0024170855870448735 0.013967366384965823 0.9975829144129553 -0.013967366384965823 0.9975829144129553 -0.013967366384965823 0.0024170855870448735 0.013967366384965823
8.702831069744885E7 0.002435307222748619 0.014172655316172959 0.9975646927772515 -0.014172655316172962 0.9975646927772515 -0.014172655316172962 0.002435307222748619 0.014172655316172959
8.834169006946853E7 0.002453959427296421 0.014380847373477066 0.9975460405727036 -0.014380847373477066 0.9975460405727036 -0.014380847373477066 0.002453959427296421 0.014380847373477066
8.96748901798321E7 0.002473049745713183 0.014591980890605137 0.9975269502542867 -0.014591980890605137 0.9975269502542867 -0.014591980890605137 0.002473049745713183 0.014591980890605137
9.1028210151304E7 0.002492585755434559 0.014806094712475395 0.9975074142445653 -0.014806094712475395 0.9975074142445653 -0.014806094712475395 0.002492585755434559 0.014806094712475395
9.240195362083109E7 0.002512575064046684 0.015023228207397087 0.9974874249359532 -0.015023228207397083 0.9974874249359532 -0.015023228207397083 0.002512575064046684 0.015023228207397087
9.379642880766791E7 0.0025330253071818814 0.01524342127978996 0.9974669746928183 -0.015243421279789962 0.9974669746928183 -0.015243421279789962 0.0025330253071818814 0.01524342127978996
9.521194858253023E7 0.002553944146597909 0.015466714383432742 0.997446055853402 -0.015466714383432742 0.997446055853402 -0.015466714383432742 0.002553944146597909 0.015466714383432742
9.664883053779216E7 0.0025753392684697124 0.01569314853524905 0.9974246607315304 -0.015693148535249047 0.9974246607315304 -0.015693148535249047 0.0025753392684697124 0.01569314853524905
9.810739705874248E7 0.0025972183819238095 0.015922765329637076 0.9974027816180762 -0.015922765329637073 0.9974027816180762 -0.015922765329637073 0.0025972183819238095 0.015922765329637076
9.958797539591652E7 0.0026195892178467665 0.01615560695334856 0.9973804107821532 -0.01615560695334856 0.9973804107821532 -0.01615560695334856 0.0026195892178467665 0.01615560695334856
1.0109089773851961E8 0.00264245952800026 0.0163917162009202 0.9973575404719996 -0.016391716200920198 0.9973575404719996 -0.016391716200920198 0.00264245952800026 0.0163917162009202
1.0261650128895843E8 0.0026658370844762896 0.016631136490659088 0.9973341629155238 -0.016631136490659084 0.9973341629155238 -0.016631136490659084 0.0026658370844762896 0.016631136490659088
1.0416512833849736E8 0.002689729679527122 0.016873911881181994 0.9973102703204729 -0.016873911881181994 0.9973102703204729 -0.016873911881181994 0.002689729679527122 0.016873911881181994
1.0573712634405641E8 0.0027141451258051986 0.017120087088505733 0.9972858548741947 -0.017120087088505733 0.9972858548741947 -0.017120087088505733 0.0027141451258051986 0.017120087088505733
1.0733284800616828E8 0.0027390912570491163 0.017369707503684148 0.9972609087429508 -0.017369707503684148 0.9972609087429508 -0.017369707503684148 0.0027390912570491163 0.017369707503684148
1.0895265134811176E8 0.0027645759292522134 0.017622819210984665 0.9972354240707477 -0.017622819210984665 0.9972354240707477 -0.017622819210984665 0.0027645759292522134 0.017622819210984665
1.1059689979623953E8 0.002790607022350698 0.01787946900659501 0.9972093929776493 -0.01787946900659501 0.9972093929776493 -0.01787946900659501 0.002790607022350698 0.01787946900659501
1.1226596226151802E8 0.002817192442468566 0.018139704417848335 0.9971828075575314 -0.018139704417848335 0.9971828075575314 -0.018139704417848335 0.002817192442468566 0.018139704417848335
1.1396021322229806E8 0.002844340124756433 0.01840357372295217 0.9971556598752436 -0.01840357372295217 0.9971556598752436 -0.01840357372295217 0.002844340124756433 0.01840357372295217
1.1568003280833441E8 0.002872058036861453 0.01867112597120439 0.9971279419631385 -0.01867112597120439 0.9971279419631385 -0.01867112597120439 0.002872058036861453 0.01867112597120439
1.1742580688607343E8 0.002900354183064932 0.018942411003676222 0.9970996458169351 -0.018942411003676222 0.9970996458169351 -0.018942411003676222 0.002900354183064932 0.018942411003676222
1.1919792714522783E8 0.0029292366091238646 0.019217479474340157 0.9970707633908761 -0.019217479474340157 0.9970707633908761 -0.019217479474340157 0.0029292366091238646 0.019217479474340157
1.2099679118665792E8 0.0029587134078516925 0.019496382871617448 0.9970412865921483 -0.019496382871617448 0.9970412865921483 -0.019496382871617448 0.0029587134078516925 0.019496382871617448
1.2282280261157903E8 0.002988792725472662 0.01977917354031749 0.9970112072745274 -0.01977917354031749 0.9970112072745274 -0.01977917354031749 0.002988792725472662 0.01977917354031749
1.2467637111211549E8 0.003019482768782868 0.02006590470393859 0.9969805172312171 -0.020065904703938594 0.9969805172312171 -0.020065904703938594 0.003019482768782868 0.02006590470393859
1.265579125632208E8 0.0030507918131496034 0.020356630487296995 0.9969492081868504 -0.020356630487296995 0.9969492081868504 -0.020356630487296995 0.0030507918131496034 0.020356630487296995
1.284678491159853E8 0.003082728211378927 0.020651405939448374 0.996917271788621 -0.020651405939448374 0.996917271788621 -0.020651405939448374 0.003082728211378927 0.020651405939448374
1.3040660929235186E8 0.003115300403479403 0.020950287056863904 0.9968846995965205 -0.020950287056863904 0.9968846995965205 -0.020950287056863904 0.003115300403479403 0.020950287056863904
1.3237462808126101E8 0.0031485169273478115 0.021253330806820157 0.9968514830726521 -0.021253330806820157 0.9968514830726521 -0.021253330806820157 0.0031485169273478115 0.021253330806820157
1.3437234703624701E8 0.003182386430400151 0.02156059515096016 0.9968176135695999 -0.021560595150960163 0.9968176135695999 -0.021560595150960163 0.003182386430400151 0.02156059515096016
1.364002143745067E8 0.0032169176821687405 0.021872139068980907 0.9967830823178313 -0.021872139068980907 0.9967830823178313 -0.021872139068980907 0.0032169176821687405 0.021872139068980907
1.3845868507746372E8 0.003252119587883286 0.022188022582400616 0.9967478804121167 -0.022188022582400616 0.9967478804121167 -0.022188022582400616 0.003252119587883286 0.022188022582400616
1.405482209928499E8 0.0032880012030507997 0.022508306778357322 0.996711998796949 -0.022508306778357322 0.996711998796949 -0.022508306778357322 0.0032880012030507997 0.022508306778357322
1.426692909383278E8 0.0033245717490460558 0.022833053833389176 0.996675428250954 -0.022833053833389176 0.996675428250954 -0.022833053833389176 0.0033245717490460558 0.022833053833389176
1.4482237080667645E8 0.003361840629720832 0.023162327037145266 0.9966381593702792 -0.023162327037145266 0.9966381593702792 -0.023162327037145266 0.003361840629720832 0.023162327037145266
1.4700794367256513E8 0.003399817449036733 0.02349619081597525 0.9966001825509633 -0.02349619081597525 0.9966001825509633 -0.02349619081597525 0.003399817449036733 0.02349619081597525
1.492264999009378E8 0.0034385120297226886 0.023834710756345013 0.9965614879702772 -0.023834710756345016 0.9965614879702772 -0.023834710756345016 0.0034385120297226886 0.023834710756345013
1.5147853725703382E8 0.0034779344329544963 0.02417795362802567 0.9965220655670456 -0.024177953628025668 0.9965220655670456 -0.024177953628025668 0.0034779344329544963 0.02417795362802567
1.5376456101806876E8 0.003518094979049968 0.024525987407002674 0.99648190502095 -0.024525987407002674 0.99648190502095 -0.024525987407002674 0.003518094979049968 0.024525987407002674
1.5608508408660066E8 0.003559004269169325 0.024878881298052567 0.9964409957308306 -0.024878881298052564 0.9964409957308306 -0.024878881298052564 0.003559004269169325 0.024878881298052567
1.5844062710560706E8 0.003600673208006661 0.025236705756935176 0.9963993267919932 -0.025236705756935172 0.9963993267919932 -0.025236705756935172 0.003600673208006661 0.025236705756935176
1.6083171857529896E8 0.003643113027454365 0.025599532512150164 0.9963568869725457 -0.025599532512150167 0.9963568869725457 -0.025599532512150167 0.003643113027454365 0.025599532512150164
1.632588949716973E8 0.0036863353112186036 0.025967434586208156 0.9963136646887814 -0.02596743458620815 0.9963136646887814 -0.02596743458620815 0.0036863353112186036 0.025967434586208156
1.6572270086699936E8 0.003730352020360167 0.026340486316368157 0.9962696479796398 -0.026340486316368157 0.9962696479796398 -0.026340486316368157 0.003730352020360167 0.026340486316368157
1.6822368905176118E8 0.003775175519731341 0.026718763374795142 0.9962248244802687 -0.026718763374795142 0.9962248244802687 -0.026718763374795142 0.003775175519731341 0.026718763374795142
1.7076242065892437E8 0.003820818605276011 0.027102342788093838 0.9961791813947241 -0.027102342788093838 0.9961791813947241 -0.027102342788093838 0.003820818605276011 0.027102342788093838
1.7333946528971428E8 0.0038672945321567165 0.027491302956177313 0.9961327054678432 -0.027491302956177313 0.9961327054678432 -0.027491302956177313 0.0038672945321567165 0.027491302956177313
1.7595540114143828E8 0.003914617043669423 0.027885723670432315 0.9960853829563303 -0.027885723670432315 0.9960853829563303 -0.027885723670432315 0.003914617043669423 0.027885723670432315
1.786108151372127E8 0.0039628004009036565 0.028285686131145796 0.9960371995990964 -0.028285686131145796 0.9960371995990964 -0.028285686131145796 0.0039628004009036565 0.028285686131145796
1.8130630305764765E8 0.004011859413103152 0.028691272964161345 0.9959881405868969 -0.028691272964161345 0.9959881405868969 -0.028691272964161345 0.004011859413103152 0.028691272964161345
1.840424696745189E8 0.004061809468679674 0.02910256823673741 0.9959381905313203 -0.02910256823673741 0.9959381905313203 -0.02910256823673741 0.004061809468679674 0.02910256823673741
1.8681992888645732E8 0.00411266656683067 0.029519657472583564 0.9958873334331696 -0.029519657472583564 0.9958873334331696 -0.029519657472583564 0.00411266656683067 0.029519657472583564
1.8963930385668582E8 0.004164447349709614 0.029942627666054954 0.9958355526502903 -0.029942627666054954 0.9958355526502903 -0.029942627666054954 0.004164447349709614 0.029942627666054954
1.92501227152835E8 0.0042171691350965275 0.030371567295489652 0.9957828308649035 -0.030371567295489656 0.9957828308649035 -0.030371567295489656 0.0042171691350965275 0.030371567295489652
1.9540634088886917E8 0.004270849949515132 0.030806566335677958 0.9957291500504848 -0.030806566335677958 0.9957291500504848 -0.030806566335677958 0.004270849949515132 0.030806566335677958
1.983552968691535E8 0.00432550856174242 0.03124771626945744 0.9956744914382575 -0.031247716269457448 0.9956744914382575 -0.031247716269457448 0.00432550856174242 0.03124771626945744
2.0134875673469606E8 0.0043811645166561206 0.031695110098432115 0.995618835483344 -0.031695110098432115 0.995618835483344 -0.031695110098432115 0.0043811645166561206 0.031695110098432115
2.0438739211159652E8 0.0044378381693657015 0.03214884235281882 0.9955621618306343 -0.03214884235281881 0.9955621618306343 -0.03214884235281881 0.0044378381693657015 0.03214884235281882
2.074718847617352E8 0.004495550719573032 0.03260900910042878 0.9955044492804268 -0.03260900910042878 0.9955044492804268 -0.03260900910042878 0.004495550719573032 0.03260900910042878
2.106029267357361E8 0.004554324246109673 0.03307570795479682 0.9954456757538903 -0.03307570795479682 0.9954456757538903 -0.03307570795479682 0.004554324246109673 0.03307570795479682
2.1378122052823865E8 0.004614181741599192 0.033549038082475675 0.9953858182584007 -0.033549038082475675 0.9953858182584007 -0.033549038082475675 0.004614181741599192 0.033549038082475675
2.1700747923551247E8 0.004675147147194336 0.0340291002095167 0.9953248528528058 -0.034029100209516695 0.9953248528528058 -0.034029100209516695 0.004675147147194336 0.0340291002095167
2.2028242671545094E8 0.004737245387341207 0.03451599662716398 0.9952627546126588 -0.03451599662716399 0.9952627546126588 -0.03451599662716399 0.004737245387341207 0.03451599662716398
2.23606797749979E8 0.004800502404524719 0.03500983119679168 0.9951994975954751 -0.03500983119679167 0.9951994975954751 -0.03500983119679167 0.004800502404524719 0.03500983119679168
2.2698133820991236E8 0.00486494519395254 0.03551070935411951 0.9951350548060474 -0.03551070935411951 0.9951350548060474 -0.03551070935411951 0.00486494519395254 0.03551070935411951
2.3040680522230446E8 0.004930601838137656 0.036018738112745106 0.9950693981618624 -0.036018738112745106 0.9950693981618624 -0.036018738112745106 0.004930601838137656 0.036018738112745106
2.338839673403185E8 0.004997501541343135 0.036534026067035014 0.995002498458657 -0.036534026067035014 0.995002498458657 -0.036534026067035014 0.004997501541343135 0.036534026067035014
2.37413604715664E8 0.005065674663856252 0.037056683394420455 0.9949343253361438 -0.037056683394420455 0.9949343253361438 -0.037056683394420455 0.005065674663856252 0.037056683394420455
2.4099650927363476E8 0.005135152756063017 0.03758682185714612 0.994864847243937 -0.03758682185714611 0.994864847243937 -0.03758682185714611 0.005135152756063017 0.03758682185714612
