!Murata Part Number: LQP02TQ21NH02
!These Parameters are Measured in Series Mode Connection
!       o--[Z]--o
!Port1              Port2
!       o-------o
!
!Freq. Start=50[MHz] Stop=20[GHz], 401[Steps]
# Hz S RI R 50
!Freq.(Hz) S11(Real) S11(Imag) S21(Real) S21(Imag) S12(Real) S12(Imag) S22(Real) S22(Imag)
5.0E7 0.027327856702734386 0.07059332987975993 0.9726721432972657 -0.07059332987975993 0.9726721432972657 -0.07059332987975993 0.027327856702734386 0.07059332987975993
5.0754570186123446E7 0.027544665499910387 0.07160474674279385 0.9724553345000897 -0.07160474674279384 0.9724553345000897 -0.07160474674279384 0.027544665499910387 0.07160474674279385
5.152052789556263E7 0.027767110775713536 0.0726301100559977 0.9722328892242865 -0.07263011005599772 0.9722328892242865 -0.07263011005599772 0.027767110775713536 0.0726301100559977
5.229804498202928E7 0.027995347547332978 0.07366958203994758 0.972004652452667 -0.07366958203994758 0.972004652452667 -0.07366958203994758 0.027995347547332978 0.07366958203994758
5.308729589274893E7 0.028229534575466186 0.07472332515798735 0.9717704654245339 -0.07472332515798734 0.9717704654245339 -0.07472332515798734 0.028229534575466186 0.07472332515798735
5.388845770760058E7 0.028469834409798236 0.07579150205184038 0.9715301655902017 -0.07579150205184039 0.9715301655902017 -0.07579150205184039 0.028469834409798236 0.07579150205184038
5.470171017884717E7 0.028716413433587936 0.07687427547577066 0.9712835865664119 -0.07687427547577066 0.9712835865664119 -0.07687427547577066 0.028716413433587936 0.07687427547577066
5.5527235771465644E7 0.02896944190731366 0.07797180822931277 0.9710305580926863 -0.07797180822931277 0.9710305580926863 -0.07797180822931277 0.02896944190731366 0.07797180822931277
5.6365219704085544E7 0.029229094011332543 0.07908426308859678 0.9707709059886676 -0.07908426308859678 0.9707709059886676 -0.07908426308859678 0.029229094011332543 0.07908426308859678
5.721584999054556E7 0.029495547887504976 0.08021180273629633 0.9705044521124949 -0.08021180273629631 0.9705044521124949 -0.08021180273629631 0.029495547887504976 0.08021180273629633
5.807931748207712E7 0.0297689856797369 0.08135458969023318 0.970231014320263 -0.08135458969023318 0.970231014320263 -0.08135458969023318 0.0297689856797369 0.08135458969023318
5.8955815910124585E7 0.030049593573392618 0.0825127862306778 0.9699504064266073 -0.0825127862306778 0.9699504064266073 -0.0825127862306778 0.030049593573392618 0.0825127862306778
5.984554192981184E7 0.030337561833531482 0.08368655432638906 0.9696624381664686 -0.08368655432638908 0.9696624381664686 -0.08368655432638908 0.030337561833531482 0.08368655432638906
6.074869516406457E7 0.0306330848419229 0.08487605555944212 0.969366915158077 -0.08487605555944212 0.969366915158077 -0.08487605555944212 0.0306330848419229 0.08487605555944212
6.166547824839868E7 0.03093636113279675 0.08608145104890089 0.9690636388672033 -0.08608145104890089 0.9690636388672033 -0.08608145104890089 0.03093636113279675 0.08608145104890089
6.2596096876384385E7 0.031247593427287317 0.08730290137339487 0.9687524065727127 -0.08730290137339489 0.9687524065727127 -0.08730290137339489 0.031247593427287317 0.08730290137339487
6.354075984579668E7 0.0315669886665338 0.08854056649266903 0.9684330113334663 -0.08854056649266903 0.9684330113334663 -0.08854056649266903 0.0315669886665338 0.08854056649266903
6.449967910546205E7 0.03189475804340228 0.08979460566817896 0.9681052419565975 -0.08979460566817896 0.9681052419565975 -0.08979460566817896 0.03189475804340228 0.08979460566817896
6.547306980281226E7 0.032231117032800224 0.09106517738281288 0.9677688829671999 -0.09106517738281288 0.9677688829671999 -0.09106517738281288 0.032231117032800224 0.09106517738281288
6.646115033215589E7 0.03257628542055904 0.09235243925982564 0.967423714579441 -0.09235243925982564 0.967423714579441 -0.09235243925982564 0.03257628542055904 0.09235243925982564
6.746414238367817E7 0.03293048733086687 0.09365654798107856 0.9670695126691332 -0.09365654798107857 0.9670695126691332 -0.09365654798107857 0.03293048733086687 0.09365654798107856
6.848227099318038E7 0.033293951252240155 0.094977659204683 0.9667060487477599 -0.094977659204683 0.9667060487477599 -0.094977659204683 0.033293951252240155 0.094977659204683
6.951576459256999E7 0.03366691006203168 0.09631592748215337 0.9663330899379683 -0.09631592748215337 0.9663330899379683 -0.09631592748215337 0.03366691006203168 0.09631592748215337
7.056485506111258E7 0.03404960104948046 0.09767150617517992 0.9659503989505196 -0.09767150617517992 0.9659503989505196 -0.09767150617517992 0.03404960104948046 0.09767150617517992
7.162977777745734E7 0.03444226593731984 0.09904454737213725 0.9655577340626802 -0.09904454737213723 0.9655577340626802 -0.09904454737213723 0.03444226593731984 0.09904454737213725
7.271077167244768E7 0.034845150901969796 0.10043520180444906 0.9651548490980301 -0.10043520180444904 0.9651548490980301 -0.10043520180444904 0.034845150901969796 0.10043520180444906
7.380807928272885E7 0.035258506592352745 0.10184361876293484 0.9647414934076471 -0.10184361876293484 0.9647414934076471 -0.10184361876293484 0.035258506592352745 0.10184361876293484
7.492194680516452E7 0.03568258814738368 0.10326994601426595 0.9643174118526162 -0.10326994601426595 0.9643174118526162 -0.10326994601426595 0.03568258814738368 0.10326994601426595
7.60526241520746E7 0.03611765521220002 0.10471432971766315 0.9638823447878 -0.10471432971766315 0.9638823447878 -0.10471432971766315 0.03611765521220002 0.10471432971766315
7.720036500730675E7 0.03656397195321128 0.10617691434196833 0.9634360280467887 -0.10617691434196833 0.9634360280467887 -0.10617691434196833 0.03656397195321128 0.10617691434196833
7.836542688315398E7 0.03702180707206432 0.10765784258322442 0.9629781929279356 -0.10765784258322442 0.9629781929279356 -0.10765784258322442 0.03702180707206432 0.10765784258322442
7.954807117813127E7 0.037491433818636455 0.10915725528289673 0.9625085661813636 -0.10915725528289676 0.9625085661813636 -0.10915725528289676 0.037491433818636455 0.10915725528289673
8.074856323562416E7 0.03797313000318641 0.11067529134686678 0.9620268699968136 -0.11067529134686678 0.9620268699968136 -0.11067529134686678 0.03797313000318641 0.11067529134686678
8.196717240342227E7 0.0384671780078116 0.11221208766532831 0.9615328219921885 -0.11221208766532834 0.9615328219921885 -0.11221208766532834 0.0384671780078116 0.11221208766532831
8.320417209415154E7 0.038973864797378945 0.11376777903370809 0.961026135202621 -0.11376777903370809 0.961026135202621 -0.11376777903370809 0.038973864797378945 0.11376777903370809
8.445983984661816E7 0.039493481930116134 0.11534249807472892 0.9605065180698837 -0.11534249807472892 0.9605065180698837 -0.11534249807472892 0.039493481930116134 0.11534249807472892
8.573445738807854E7 0.040026325568070766 0.11693637516172413 0.9599736744319294 -0.11693637516172416 0.9599736744319294 -0.11693637516172416 0.040026325568070766 0.11693637516172413
8.702831069744885E7 0.040572696487665254 0.11854953834330151 0.9594273035123346 -0.11854953834330151 0.9594273035123346 -0.11854953834330151 0.040572696487665254 0.11854953834330151
8.834169006946853E7 0.04113290009059592 0.12018211326944306 0.958867099909404 -0.12018211326944306 0.958867099909404 -0.12018211326944306 0.04113290009059592 0.12018211326944306
8.96748901798321E7 0.04170724641534688 0.1218342231191123 0.9582927535846532 -0.1218342231191123 0.9582927535846532 -0.1218342231191123 0.04170724641534688 0.1218342231191123
9.1028210151304E7 0.04229605014960848 0.12350598852942311 0.9577039498503914 -0.12350598852942311 0.9577039498503914 -0.12350598852942311 0.04229605014960848 0.12350598852942311
9.240195362083109E7 0.04289963064391281 0.12519752752640556 0.9571003693560872 -0.1251975275264056 0.9571003693560872 -0.1251975275264056 0.04289963064391281 0.12519752752640556
9.379642880766791E7 0.04351831192681719 0.1269089554573812 0.9564816880731828 -0.1269089554573812 0.9564816880731828 -0.1269089554573812 0.04351831192681719 0.1269089554573812
9.521194858253023E7 0.04415242272198777 0.12864038492493696 0.9558475772780122 -0.12864038492493696 0.9558475772780122 -0.12864038492493696 0.04415242272198777 0.12864038492493696
9.664883053779216E7 0.04480229646755307 0.1303919257224581 0.9551977035324468 -0.1303919257224581 0.9551977035324468 -0.1303919257224581 0.04480229646755307 0.1303919257224581
9.810739705874248E7 0.04546827133811491 0.13216368477115167 0.9545317286618852 -0.13216368477115167 0.9545317286618852 -0.13216368477115167 0.04546827133811491 0.13216368477115167
9.958797539591652E7 0.04615069026982038 0.1339557660584572 0.9538493097301795 -0.13395576605845716 0.9538493097301795 -0.13395576605845716 0.04615069026982038 0.1339557660584572
1.0109089773851961E8 0.04684990098891399 0.1357682705777106 0.9531500990110862 -0.13576827057771057 0.9531500990110862 -0.13576827057771057 0.04684990098891399 0.1357682705777106
1.0261650128895843E8 0.047566256044198216 0.13760129626888015 0.9524337439558018 -0.13760129626888015 0.9524337439558018 -0.13760129626888015 0.047566256044198216 0.13760129626888015
1.0416512833849736E8 0.04830011284384513 0.139454937960163 0.9516998871561548 -0.139454937960163 0.9516998871561548 -0.139454937960163 0.04830011284384513 0.139454937960163
1.0573712634405641E8 0.04905183369700492 0.14132928731017674 0.9509481663029951 -0.14132928731017674 0.9509481663029951 -0.14132928731017674 0.04905183369700492 0.14132928731017674
1.0733284800616828E8 0.049821785860664186 0.14322443275044255 0.9501782141393359 -0.14322443275044255 0.9501782141393359 -0.14322443275044255 0.049821785860664186 0.14322443275044255
1.0895265134811176E8 0.050610341592206516 0.14514045942780118 0.9493896584077934 -0.14514045942780118 0.9493896584077934 -0.14514045942780118 0.050610341592206516 0.14514045942780118
1.1059689979623953E8 0.05141787820812559 0.14707744914635718 0.9485821217918744 -0.14707744914635718 0.9485821217918744 -0.14707744914635718 0.05141787820812559 0.14707744914635718
1.1226596226151802E8 0.052244778149334474 0.14903548030849006 0.9477552218506655 -0.14903548030849006 0.9477552218506655 -0.14903548030849006 0.052244778149334474 0.14903548030849006
1.1396021322229806E8 0.05309142905350335 0.15101462785441858 0.9469085709464967 -0.15101462785441858 0.9469085709464967 -0.15101462785441858 0.05309142905350335 0.15101462785441858
1.1568003280833441E8 0.05395822383484272 0.1530149631997465 0.9460417761651573 -0.1530149631997465 0.9460417761651573 -0.1530149631997465 0.05395822383484272 0.1530149631997465
1.1742580688607343E8 0.05484556077172853 0.1550365541703625 0.9451544392282715 -0.1550365541703625 0.9451544392282715 -0.1550365541703625 0.05484556077172853 0.1550365541703625
1.1919792714522783E8 0.05575384360253948 0.15707946493400649 0.9442461563974606 -0.15707946493400649 0.9442461563974606 -0.15707946493400649 0.05575384360253948 0.15707946493400649
1.2099679118665792E8 0.05668348163004599 0.1591437559277577 0.943316518369954 -0.1591437559277577 0.943316518369954 -0.1591437559277577 0.05668348163004599 0.1591437559277577
1.2282280261157903E8 0.05763488983465314 0.16122948378064 0.9423651101653467 -0.16122948378064 0.9423651101653467 -0.16122948378064 0.05763488983465314 0.16122948378064
1.2467637111211549E8 0.058608488996756636 0.16333670123048188 0.9413915110032433 -0.16333670123048188 0.9413915110032433 -0.16333670123048188 0.058608488996756636 0.16333670123048188
1.265579125632208E8 0.05960470582842275 0.16546545703411264 0.9403952941715773 -0.16546545703411264 0.9403952941715773 -0.16546545703411264 0.05960470582842275 0.16546545703411264
1.284678491159853E8 0.060623973114546814 0.16761579586991768 0.9393760268854533 -0.16761579586991768 0.9393760268854533 -0.16761579586991768 0.060623973114546814 0.16761579586991768
1.3040660929235186E8 0.061666729863584395 0.16978775823172565 0.9383332701364157 -0.16978775823172565 0.9383332701364157 -0.16978775823172565 0.061666729863584395 0.16978775823172565
1.3237462808126101E8 0.06273342146788066 0.17198138031294646 0.9372665785321194 -0.17198138031294644 0.9372665785321194 -0.17198138031294644 0.06273342146788066 0.17198138031294646
1.3437234703624701E8 0.06382449987354943 0.17419669387983236 0.9361755001264508 -0.17419669387983233 0.9361755001264508 -0.17419669387983233 0.06382449987354943 0.17419669387983236
1.364002143745067E8 0.06494042375977328 0.17643372613269123 0.9350595762402267 -0.1764337261326912 0.9350595762402267 -0.1764337261326912 0.06494042375977328 0.17643372613269123
1.3845868507746372E8 0.0660816587273093 0.1786924995538415 0.9339183412726906 -0.1786924995538415 0.9339183412726906 -0.1786924995538415 0.0660816587273093 0.1786924995538415
1.405482209928499E8 0.06724867749589199 0.1809730317410627 0.9327513225041081 -0.18097303174106272 0.9327513225041081 -0.18097303174106272 0.06724867749589199 0.1809730317410627
1.426692909383278E8 0.06844196011012804 0.18327533522526954 0.9315580398898718 -0.18327533522526954 0.9315580398898718 -0.18327533522526954 0.06844196011012804 0.18327533522526954
1.4482237080667645E8 0.06966199415337236 0.1855994172711144 0.9303380058466276 -0.1855994172711144 0.9303380058466276 -0.1855994172711144 0.06966199415337236 0.1855994172711144
1.4700794367256513E8 0.07090927496896778 0.18794527965920843 0.9290907250310324 -0.18794527965920843 0.9290907250310324 -0.18794527965920843 0.07090927496896778 0.18794527965920843
1.492264999009378E8 0.07218430588811638 0.19031291844864376 0.9278156941118837 -0.1903129184486438 0.9278156941118837 -0.1903129184486438 0.07218430588811638 0.19031291844864376
1.5147853725703382E8 0.07348759846353481 0.19270232371850268 0.9265124015364651 -0.19270232371850268 0.9265124015364651 -0.19270232371850268 0.07348759846353481 0.19270232371850268
1.5376456101806876E8 0.07481967270792372 0.19511347928704562 0.9251803272920761 -0.19511347928704562 0.9251803272920761 -0.19511347928704562 0.07481967270792372 0.19511347928704562
1.5608508408660066E8 0.07618105733615949 0.19754636240729398 0.9238189426638406 -0.19754636240729398 0.9238189426638406 -0.19754636240729398 0.07618105733615949 0.19754636240729398
1.5844062710560706E8 0.07757229000998891 0.20000094343774627 0.9224277099900112 -0.20000094343774633 0.9224277099900112 -0.20000094343774633 0.07757229000998891 0.20000094343774627
1.6083171857529896E8 0.07899391758388381 0.20247718548701227 0.9210060824161161 -0.20247718548701227 0.9210060824161161 -0.20247718548701227 0.07899391758388381 0.20247718548701227
1.632588949716973E8 0.08044649635058036 0.20497504403119168 0.9195535036494196 -0.20497504403119168 0.9195535036494196 -0.20497504403119168 0.08044649635058036 0.20497504403119168
1.6572270086699936E8 0.08193059228470494 0.20749446650289094 0.918069407715295 -0.20749446650289094 0.918069407715295 -0.20749446650289094 0.08193059228470494 0.20749446650289094
1.6822368905176118E8 0.08344678128275827 0.21003539185083586 0.9165532187172418 -0.21003539185083592 0.9165532187172418 -0.21003539185083592 0.08344678128275827 0.21003539185083586
1.7076242065892437E8 0.08499564939760755 0.21259775006912554 0.9150043506023926 -0.21259775006912554 0.9150043506023926 -0.21259775006912554 0.08499564939760755 0.21259775006912554
1.7333946528971428E8 0.08657779306551276 0.21518146169526156 0.9134222069344873 -0.21518146169526153 0.9134222069344873 -0.21518146169526153 0.08657779306551276 0.21518146169526156
1.7595540114143828E8 0.08819381932359657 0.21778643727619296 0.9118061806764034 -0.21778643727619296 0.9118061806764034 -0.21778643727619296 0.08819381932359657 0.21778643727619296
1.786108151372127E8 0.08984434601555295 0.22041257680173193 0.910155653984447 -0.22041257680173193 0.910155653984447 -0.22041257680173193 0.08984434601555295 0.22041257680173193
1.8130630305764765E8 0.09153000198328229 0.22305976910481914 0.9084699980167176 -0.22305976910481914 0.9084699980167176 -0.22305976910481914 0.09153000198328229 0.22305976910481914
1.840424696745189E8 0.09325142724203933 0.22572789122825662 0.9067485727579607 -0.22572789122825665 0.9067485727579607 -0.22572789122825665 0.09325142724203933 0.22572789122825662
1.8681992888645732E8 0.09500927313658498 0.22841680775766926 0.9049907268634151 -0.22841680775766926 0.9049907268634151 -0.22841680775766926 0.09500927313658498 0.22841680775766926
1.8963930385668582E8 0.09680420247575015 0.23112637012061515 0.9031957975242498 -0.2311263701206151 0.9031957975242498 -0.2311263701206151 0.09680420247575015 0.23112637012061515
1.92501227152835E8 0.0986368896427387 0.23385641585192704 0.9013631103572614 -0.23385641585192704 0.9013631103572614 -0.23385641585192704 0.0986368896427387 0.23385641585192704
1.9540634088886917E8 0.10050802067843388 0.236606767825545 0.899491979321566 -0.236606767825545 0.899491979321566 -0.236606767825545 0.10050802067843388 0.236606767825545
1.983552968691535E8 0.10241829333491224 0.23937723345327735 0.8975817066650879 -0.2393772334532774 0.8975817066650879 -0.2393772334532774 0.10241829333491224 0.23937723345327735
2.0134875673469606E8 0.10436841709632702 0.24216760385112285 0.8956315829036727 -0.2421676038511228 0.8956315829036727 -0.2421676038511228 0.10436841709632702 0.24216760385112285
2.0438739211159652E8 0.10635911316428835 0.24497765297397778 0.8936408868357119 -0.24497765297397778 0.8936408868357119 -0.24497765297397778 0.10635911316428835 0.24497765297397778
2.074718847617352E8 0.1083911144048455 0.24780713671975702 0.8916088855951545 -0.24780713671975702 0.8916088855951545 -0.24780713671975702 0.1083911144048455 0.24780713671975702
2.106029267357361E8 0.11046516525417278 0.2506557920041655 0.8895348347458272 -0.2506557920041655 0.8895348347458272 -0.2506557920041655 0.11046516525417278 0.2506557920041655
2.1378122052823865E8 0.11258202158006063 0.2535233358075658 0.8874179784199393 -0.2535233358075658 0.8874179784199393 -0.2535233358075658 0.11258202158006063 0.2535233358075658
2.1700747923551247E8 0.1147424504963404 0.25640946419560745 0.8852575495036598 -0.2564094641956075 0.8852575495036598 -0.2564094641956075 0.1147424504963404 0.25640946419560745
2.2028242671545094E8 0.11694723012739736 0.25931385131549517 0.8830527698726025 -0.25931385131549517 0.8830527698726025 -0.25931385131549517 0.11694723012739736 0.25931385131549517
2.23606797749979E8 0.1191971493199846 0.2622361483700012 0.8808028506800154 -0.26223614837000114 0.8808028506800154 -0.26223614837000114 0.1191971493199846 0.2622361483700012
2.2698133820991236E8 0.1214930072996041 0.2651759825715375 0.8785069927003958 -0.26517598257153746 0.8785069927003958 -0.26517598257153746 0.1214930072996041 0.2651759825715375
2.3040680522230446E8 0.12383561326880883 0.26813295607883275 0.8761643867311912 -0.26813295607883275 0.8761643867311912 -0.26813295607883275 0.12383561326880883 0.26813295607883275
2.338839673403185E8 0.12622578594486789 0.2711066449189729 0.8737742140551322 -0.2711066449189729 0.8737742140551322 -0.2711066449189729 0.12622578594486789 0.2711066449189729
2.37413604715664E8 0.12866435303434873 0.2740965978977828 0.8713356469656514 -0.2740965978977828 0.8713356469656514 -0.2740965978977828 0.12866435303434873 0.2740965978977828
2.4099650927363476E8 0.13115215064229438 0.2771023355017423 0.8688478493577055 -0.27710233550174224 0.8688478493577055 -0.27710233550174224 0.13115215064229438 0.2771023355017423
2.446334848907889E8 0.13369002261381333 0.28012334879483825 0.8663099773861866 -0.28012334879483825 0.8663099773861866 -0.28012334879483825 0.13369002261381333 0.28012334879483825
2.4832534757531032E8 0.1362788198060562 0.28315909831396224 0.8637211801939438 -0.28315909831396224 0.8637211801939438 -0.28315909831396224 0.1362788198060562 0.28315909831396224
2.5207292565009177E8 0.13891939928872205 0.28620901296666157 0.861080600711278 -0.28620901296666157 0.861080600711278 -0.28620901296666157 0.13891939928872205 0.28620901296666157
