!Murata Part Number: LQP02TQ19NH02
!These Parameters are Measured in Series Mode Connection
!       o--[Z]--o
!Port1              Port2
!       o-------o
!
!Freq. Start=50[MHz] Stop=20[GHz], 401[Steps]
# Hz S RI R 50
!Freq.(Hz) S11(Real) S11(Imag) S21(Real) S21(Imag) S12(Real) S12(Imag) S22(Real) S22(Imag)
5.0E7 0.025428597801488564 0.06515242575166648 0.9745714021985116 -0.06515242575166648 0.9745714021985116 -0.06515242575166648 0.025428597801488564 0.06515242575166648
5.0754570186123446E7 0.025619781457700126 0.06609586589748258 0.9743802185423 -0.06609586589748258 0.9743802185423 -0.06609586589748258 0.025619781457700126 0.06609586589748258
5.152052789556263E7 0.02581604580187195 0.06705201325156174 0.9741839541981282 -0.06705201325156175 0.9741839541981282 -0.06705201325156175 0.02581604580187195 0.06705201325156174
5.229804498202928E7 0.026017510034369286 0.06802100818047489 0.9739824899656306 -0.06802100818047488 0.9739824899656306 -0.06802100818047488 0.026017510034369286 0.06802100818047489
5.308729589274893E7 0.02622429554143565 0.06900299189256198 0.9737757044585645 -0.06900299189256198 0.9737757044585645 -0.06900299189256198 0.02622429554143565 0.06900299189256198
5.388845770760058E7 0.026436525922489486 0.0699981064437448 0.9735634740775103 -0.0699981064437448 0.9735634740775103 -0.0699981064437448 0.026436525922489486 0.0699981064437448
5.470171017884717E7 0.02665432701861379 0.07100649474466258 0.9733456729813862 -0.0710064947446626 0.9733456729813862 -0.0710064947446626 0.02665432701861379 0.07100649474466258
5.5527235771465644E7 0.026877826942398604 0.07202830056917228 0.9731221730576015 -0.07202830056917228 0.9731221730576015 -0.07202830056917228 0.026877826942398604 0.07202830056917228
5.6365219704085544E7 0.02710715610930742 0.07306366856424827 0.9728928438906926 -0.07306366856424827 0.9728928438906926 -0.07306366856424827 0.02710715610930742 0.07306366856424827
5.721584999054556E7 0.027342447270748308 0.07411274426130715 0.9726575527292517 -0.07411274426130715 0.9726575527292517 -0.07411274426130715 0.027342447270748308 0.07411274426130715
5.807931748207712E7 0.02758383554904232 0.07517567408897506 0.9724161644509576 -0.07517567408897506 0.9724161644509576 -0.07517567408897506 0.02758383554904232 0.07517567408897506
5.8955815910124585E7 0.02783145847449126 0.07625260538730294 0.9721685415255088 -0.07625260538730294 0.9721685415255088 -0.07625260538730294 0.02783145847449126 0.07625260538730294
5.984554192981184E7 0.028085456024757524 0.07734368642342473 0.9719145439752425 -0.07734368642342473 0.9719145439752425 -0.07734368642342473 0.028085456024757524 0.07734368642342473
6.074869516406457E7 0.02834597066677886 0.07844906640864042 0.9716540293332211 -0.07844906640864042 0.9716540293332211 -0.07844906640864042 0.02834597066677886 0.07844906640864042
6.166547824839868E7 0.028613147401449546 0.079568895516891 0.9713868525985506 -0.079568895516891 0.9713868525985506 -0.079568895516891 0.028613147401449546 0.079568895516891
6.2596096876384385E7 0.028887133811309168 0.0807033249045782 0.9711128661886906 -0.0807033249045782 0.9711128661886906 -0.0807033249045782 0.028887133811309168 0.0807033249045782
6.354075984579668E7 0.029168080111487932 0.08185250673166515 0.9708319198885119 -0.08185250673166515 0.9708319198885119 -0.08185250673166515 0.029168080111487932 0.08185250673166515
6.449967910546205E7 0.02945613920416504 0.0830165941839762 0.9705438607958351 -0.0830165941839762 0.9705438607958351 -0.0830165941839762 0.02945613920416504 0.0830165941839762
6.547306980281226E7 0.029751466736802915 0.0841957414965951 0.9702485332631972 -0.0841957414965951 0.9702485332631972 -0.0841957414965951 0.029751466736802915 0.0841957414965951
6.646115033215589E7 0.030054221164426118 0.08539010397824211 0.969945778835574 -0.08539010397824211 0.969945778835574 -0.08539010397824211 0.030054221164426118 0.08539010397824211
6.746414238367817E7 0.030364563816217816 0.08659983803648777 0.9696354361837821 -0.08659983803648777 0.9696354361837821 -0.08659983803648777 0.030364563816217816 0.08659983803648777
6.848227099318038E7 0.030682658966709558 0.08782510120364019 0.9693173410332906 -0.08782510120364019 0.9693173410332906 -0.08782510120364019 0.030682658966709558 0.08782510120364019
6.951576459256999E7 0.031008673911842175 0.0890660521631184 0.9689913260881576 -0.0890660521631184 0.9689913260881576 -0.0890660521631184 0.031008673911842175 0.0890660521631184
7.056485506111258E7 0.03134277905017603 0.09032285077610214 0.9686572209498241 -0.09032285077610214 0.9686572209498241 -0.09032285077610214 0.03134277905017603 0.09032285077610214
7.162977777745734E7 0.031685147969526414 0.09159565810822064 0.9683148520304735 -0.09159565810822064 0.9683148520304735 -0.09159565810822064 0.031685147969526414 0.09159565810822064
7.271077167244768E7 0.032035957539298075 0.09288463645602035 0.967964042460702 -0.09288463645602035 0.967964042460702 -0.09288463645602035 0.032035957539298075 0.09288463645602035
7.380807928272885E7 0.032395388008786205 0.09418994937292254 0.9676046119912138 -0.09418994937292254 0.9676046119912138 -0.09418994937292254 0.032395388008786205 0.09418994937292254
7.492194680516452E7 0.03276362311170578 0.09551176169435693 0.9672363768882944 -0.09551176169435692 0.9672363768882944 -0.09551176169435692 0.03276362311170578 0.09551176169435693
7.60526241520746E7 0.03314085017720071 0.09685023956172895 0.9668591498227992 -0.09685023956172895 0.9668591498227992 -0.09685023956172895 0.03314085017720071 0.09685023956172895
7.720036500730675E7 0.033527260247573715 0.09820555044485192 0.9664727397524263 -0.09820555044485192 0.9664727397524263 -0.09820555044485192 0.033527260247573715 0.09820555044485192
7.836542688315398E7 0.03392304820296401 0.09957786316244659 0.9660769517970361 -0.09957786316244659 0.9660769517970361 -0.09957786316244659 0.03392304820296401 0.09957786316244659
7.954807117813127E7 0.03432841289318454 0.10096734790028511 0.9656715871068154 -0.10096734790028511 0.9656715871068154 -0.10096734790028511 0.03432841289318454 0.10096734790028511
8.074856323562416E7 0.03474355727691175 0.10237417622652745 0.9652564427230882 -0.10237417622652746 0.9652564427230882 -0.10237417622652746 0.03474355727691175 0.10237417622652745
8.196717240342227E7 0.035168688568400976 0.10379852110377372 0.964831311431599 -0.10379852110377372 0.964831311431599 -0.10379852110377372 0.035168688568400976 0.10379852110377372
8.320417209415154E7 0.03560401839187742 0.10524055689732854 0.9643959816081225 -0.10524055689732854 0.9643959816081225 -0.10524055689732854 0.03560401839187742 0.10524055689732854
8.445983984661816E7 0.0360497629437277 0.10670045937914982 0.9639502370562724 -0.10670045937914982 0.9639502370562724 -0.10670045937914982 0.0360497629437277 0.10670045937914982
8.573445738807854E7 0.03650614316258914 0.10817840572693023 0.9634938568374111 -0.10817840572693023 0.9634938568374111 -0.10817840572693023 0.03650614316258914 0.10817840572693023
8.702831069744885E7 0.036973384907404476 0.10967457451773695 0.9630266150925955 -0.10967457451773693 0.9630266150925955 -0.10967457451773693 0.036973384907404476 0.10967457451773695
8.834169006946853E7 0.0374517191434774 0.11118914571561539 0.9625482808565227 -0.11118914571561536 0.9625482808565227 -0.11118914571561536 0.0374517191434774 0.11118914571561539
8.96748901798321E7 0.03794138213653032 0.1127223006525419 0.9620586178634697 -0.1127223006525419 0.9620586178634697 -0.1127223006525419 0.03794138213653032 0.1127223006525419
9.1028210151304E7 0.03844261565472961 0.11427422200209565 0.9615573843452705 -0.11427422200209565 0.9615573843452705 -0.11427422200209565 0.03844261565472961 0.11427422200209565
9.240195362083109E7 0.038955667178605116 0.11584509374520181 0.9610443328213949 -0.11584509374520184 0.9610443328213949 -0.11584509374520184 0.038955667178605116 0.11584509374520181
9.379642880766791E7 0.039480790118751656 0.11743510112728897 0.9605192098812483 -0.11743510112728897 0.9605192098812483 -0.11743510112728897 0.039480790118751656 0.11743510112728897
9.521194858253023E7 0.040018244041157953 0.11904443060618984 0.9599817559588422 -0.11904443060618984 0.9599817559588422 -0.11904443060618984 0.040018244041157953 0.11904443060618984
9.664883053779216E7 0.040568294899966245 0.12067326979010999 0.9594317051000338 -0.12067326979010999 0.9594317051000338 -0.12067326979010999 0.040568294899966245 0.12067326979010999
9.810739705874248E7 0.04113121527742167 0.12232180736498242 0.9588687847225783 -0.12232180736498242 0.9588687847225783 -0.12232180736498242 0.04113121527742167 0.12232180736498242
9.958797539591652E7 0.041707284630725226 0.12399023301052367 0.9582927153692747 -0.12399023301052367 0.9582927153692747 -0.12399023301052367 0.041707284630725226 0.12399023301052367
1.0109089773851961E8 0.042296789545458846 0.12567873730431034 0.9577032104545411 -0.12567873730431034 0.9577032104545411 -0.12567873730431034 0.042296789545458846 0.12567873730431034
1.0261650128895843E8 0.04290002399520453 0.12738751161319653 0.9570999760047953 -0.12738751161319653 0.9570999760047953 -0.12738751161319653 0.04290002399520453 0.12738751161319653
1.0416512833849736E8 0.043517289606932734 0.12911674797140069 0.9564827103930672 -0.12911674797140069 0.9564827103930672 -0.12911674797140069 0.043517289606932734 0.12911674797140069
1.0573712634405641E8 0.0441488959316891 0.13086663894460118 0.9558511040683109 -0.13086663894460118 0.9558511040683109 -0.13086663894460118 0.0441488959316891 0.13086663894460118
1.0733284800616828E8 0.04479516072006183 0.13263737747939294 0.9552048392799384 -0.13263737747939294 0.9552048392799384 -0.13263737747939294 0.04479516072006183 0.13263737747939294
1.0895265134811176E8 0.045456410201865534 0.13442915673747244 0.9545435897981344 -0.13442915673747244 0.9545435897981344 -0.13442915673747244 0.045456410201865534 0.13442915673747244
1.1059689979623953E8 0.04613297936943389 0.1362421699139418 0.9538670206305659 -0.1362421699139418 0.9538670206305659 -0.1362421699139418 0.04613297936943389 0.1362421699139418
1.1226596226151802E8 0.046825212263866066 0.13807661003913954 0.9531747877361338 -0.13807661003913954 0.9531747877361338 -0.13807661003913954 0.046825212263866066 0.13807661003913954
1.1396021322229806E8 0.047533462263531695 0.1399326697634361 0.9524665377364683 -0.1399326697634361 0.9524665377364683 -0.1399326697634361 0.047533462263531695 0.1399326697634361
1.1568003280833441E8 0.04825809237409554 0.14181054112445807 0.9517419076259044 -0.14181054112445807 0.9517419076259044 -0.14181054112445807 0.04825809237409554 0.14181054112445807
1.1742580688607343E8 0.04899947551928228 0.1437104152962347 0.9510005244807177 -0.1437104152962347 0.9510005244807177 -0.1437104152962347 0.04899947551928228 0.1437104152962347
1.1919792714522783E8 0.049757994831564796 0.1456324823197961 0.9502420051684352 -0.1456324823197961 0.9502420051684352 -0.1456324823197961 0.049757994831564796 0.1456324823197961
1.2099679118665792E8 0.050534043941920834 0.1475769308147863 0.9494659560580792 -0.14757693081478632 0.9494659560580792 -0.14757693081478632 0.050534043941920834 0.1475769308147863
1.2282280261157903E8 0.051328027267769104 0.14954394767169182 0.948671972732231 -0.14954394767169182 0.948671972732231 -0.14954394767169182 0.051328027267769104 0.14954394767169182
1.2467637111211549E8 0.0521403602981627 0.15153371772432786 0.9478596397018373 -0.15153371772432786 0.9478596397018373 -0.15153371772432786 0.0521403602981627 0.15153371772432786
1.265579125632208E8 0.05297146987528734 0.15354642340226315 0.9470285301247127 -0.15354642340226315 0.9470285301247127 -0.15354642340226315 0.05297146987528734 0.15354642340226315
1.284678491159853E8 0.053821794471283387 0.15558224436290907 0.9461782055287168 -0.15558224436290907 0.9461782055287168 -0.15558224436290907 0.053821794471283387 0.15558224436290907
1.3040660929235186E8 0.054691784459384774 0.1576413571030422 0.9453082155406153 -0.1576413571030422 0.9453082155406153 -0.1576413571030422 0.054691784459384774 0.1576413571030422
1.3237462808126101E8 0.05558190237834439 0.15972393454957579 0.9444180976216556 -0.15972393454957579 0.9444180976216556 -0.15972393454957579 0.05558190237834439 0.15972393454957579
1.3437234703624701E8 0.056492623189093226 0.16183014562943965 0.9435073768109068 -0.16183014562943965 0.9435073768109068 -0.16183014562943965 0.056492623189093226 0.16183014562943965
1.364002143745067E8 0.05742443452256193 0.16396015481847823 0.9425755654774381 -0.16396015481847825 0.9425755654774381 -0.16396015481847825 0.05742443452256193 0.16396015481847823
1.3845868507746372E8 0.05837783691757683 0.16611412166932296 0.9416221630824232 -0.16611412166932293 0.9416221630824232 -0.16611412166932293 0.05837783691757683 0.16611412166932296
1.405482209928499E8 0.059353344047725784 0.16829220031824155 0.9406466559522741 -0.16829220031824155 0.9406466559522741 -0.16829220031824155 0.059353344047725784 0.16829220031824155
1.426692909383278E8 0.06035148293607792 0.17049453897101954 0.9396485170639223 -0.17049453897101957 0.9396485170639223 -0.17049453897101957 0.06035148293607792 0.17049453897101954
1.4482237080667645E8 0.06137279415663012 0.17272127936797502 0.9386272058433699 -0.172721279367975 0.9386272058433699 -0.172721279367975 0.06137279415663012 0.17272127936797502
1.4700794367256513E8 0.062417832021342025 0.17497255622825716 0.937582167978658 -0.1749725562282572 0.937582167978658 -0.1749725562282572 0.062417832021342025 0.17497255622825716
1.492264999009378E8 0.06348716475161618 0.1772484966736302 0.9365128352483839 -0.1772484966736302 0.9365128352483839 -0.1772484966736302 0.06348716475161618 0.1772484966736302
1.5147853725703382E8 0.06458137463307219 0.1795492196319914 0.9354186253669278 -0.17954921963199139 0.9354186253669278 -0.17954921963199139 0.06458137463307219 0.1795492196319914
1.5376456101806876E8 0.06570105815245937 0.18187483522092307 0.9342989418475407 -0.1818748352209231 0.9342989418475407 -0.1818748352209231 0.06570105815245937 0.18187483522092307
1.5608508408660066E8 0.06684682611554973 0.18422544411162683 0.9331531738844503 -0.18422544411162683 0.9331531738844503 -0.18422544411162683 0.06684682611554973 0.18422544411162683
1.5844062710560706E8 0.06801930374484953 0.18660113687363802 0.9319806962551506 -0.18660113687363802 0.9319806962551506 -0.18660113687363802 0.06801930374484953 0.18660113687363802
1.6083171857529896E8 0.06921913075596826 0.18900199330076994 0.9307808692440318 -0.18900199330076994 0.9307808692440318 -0.18900199330076994 0.06921913075596826 0.18900199330076994
1.632588949716973E8 0.07044696141148214 0.19142808171878448 0.929553038588518 -0.19142808171878448 0.929553038588518 -0.19142808171878448 0.07044696141148214 0.19142808171878448
1.6572270086699936E8 0.07170346455113145 0.19387945827534048 0.9282965354488687 -0.19387945827534048 0.9282965354488687 -0.19387945827534048 0.07170346455113145 0.19387945827534048
1.6822368905176118E8 0.07298932359719087 0.19635616621281768 0.9270106764028092 -0.19635616621281768 0.9270106764028092 -0.19635616621281768 0.07298932359719087 0.19635616621281768
1.7076242065892437E8 0.07430523653385741 0.1988582351246713 0.9256947634661427 -0.1988582351246713 0.9256947634661427 -0.1988582351246713 0.07430523653385741 0.1988582351246713
1.7333946528971428E8 0.07565191585950007 0.20138568019601935 0.9243480841405001 -0.20138568019601935 0.9243480841405001 -0.20138568019601935 0.07565191585950007 0.20138568019601935
1.7595540114143828E8 0.07703008851062385 0.20393850142922412 0.9229699114893762 -0.20393850142922412 0.9229699114893762 -0.20393850142922412 0.07703008851062385 0.20393850142922412
1.786108151372127E8 0.07844049575640236 0.20651668285528033 0.9215595042435976 -0.20651668285528033 0.9215595042435976 -0.20651668285528033 0.07844049575640236 0.20651668285528033
1.8130630305764765E8 0.07988389306264267 0.2091201917318807 0.9201161069373572 -0.2091201917318807 0.9201161069373572 -0.2091201917318807 0.07988389306264267 0.2091201917318807
1.840424696745189E8 0.0813610499240512 0.21174897772908774 0.9186389500759489 -0.21174897772908774 0.9186389500759489 -0.21174897772908774 0.0813610499240512 0.21174897772908774
1.8681992888645732E8 0.08287274966368015 0.21440297210359852 0.9171272503363198 -0.21440297210359852 0.9171272503363198 -0.21440297210359852 0.08287274966368015 0.21440297210359852
1.8963930385668582E8 0.08441978919844444 0.21708208686265543 0.9155802108015556 -0.21708208686265537 0.9155802108015556 -0.21708208686265537 0.08441978919844444 0.21708208686265543
1.92501227152835E8 0.08600297876960963 0.21978621391871145 0.9139970212303905 -0.21978621391871145 0.9139970212303905 -0.21978621391871145 0.08600297876960963 0.21978621391871145
1.9540634088886917E8 0.08762314163716968 0.22251522423603473 0.9123768583628304 -0.22251522423603476 0.9123768583628304 -0.22251522423603476 0.08762314163716968 0.22251522423603473
1.983552968691535E8 0.08928111373704595 0.22526896697049553 0.910718886262954 -0.22526896697049553 0.910718886262954 -0.22526896697049553 0.08928111373704595 0.22526896697049553
2.0134875673469606E8 0.09097774330006282 0.22804726860385685 0.9090222566999371 -0.2280472686038568 0.9090222566999371 -0.2280472686038568 0.09097774330006282 0.22804726860385685
2.0438739211159652E8 0.09271389043167422 0.23084993207395518 0.9072861095683259 -0.23084993207395518 0.9072861095683259 -0.23084993207395518 0.09271389043167422 0.23084993207395518
2.074718847617352E8 0.09449042665144665 0.23367673590224286 0.9055095733485533 -0.23367673590224286 0.9055095733485533 -0.23367673590224286 0.09449042665144665 0.23367673590224286
2.106029267357361E8 0.09630823439132913 0.23652743332022882 0.903691765608671 -0.2365274333202288 0.903691765608671 -0.2365274333202288 0.09630823439132913 0.23652743332022882
2.1378122052823865E8 0.09816820645178001 0.23940175139644457 0.9018317935482199 -0.23940175139644457 0.9018317935482199 -0.23940175139644457 0.09816820645178001 0.23940175139644457
2.1700747923551247E8 0.10007124541485797 0.24229939016563848 0.8999287545851419 -0.24229939016563848 0.8999287545851419 -0.24229939016563848 0.10007124541485797 0.24229939016563848
2.2028242671545094E8 0.10201826301342941 0.2452200217619847 0.8979817369865707 -0.24522002176198476 0.8979817369865707 -0.24522002176198476 0.10201826301342941 0.2452200217619847
2.23606797749979E8 0.10401017945569559 0.24816328955818073 0.8959898205443043 -0.24816328955818073 0.8959898205443043 -0.24816328955818073 0.10401017945569559 0.24816328955818073
2.2698133820991236E8 0.10604792270430062 0.2511288073123925 0.8939520772956996 -0.2511288073123925 0.8939520772956996 -0.2511288073123925 0.10604792270430062 0.2511288073123925
2.3040680522230446E8 0.10813242770934142 0.2541161583250906 0.8918675722906585 -0.25411615832509066 0.8918675722906585 -0.25411615832509066 0.10813242770934142 0.2541161583250906
2.338839673403185E8 0.1102646355946768 0.2571248946079155 0.8897353644053234 -0.2571248946079155 0.8897353644053234 -0.2571248946079155 0.1102646355946768 0.2571248946079155
2.37413604715664E8 0.11244549279700429 0.2601545360667875 0.8875545072029956 -0.2601545360667875 0.8875545072029956 -0.2601545360667875 0.11244549279700429 0.2601545360667875
2.4099650927363476E8 0.11467595015726602 0.2632045697015752 0.8853240498427339 -0.2632045697015752 0.8853240498427339 -0.2632045697015752 0.11467595015726602 0.2632045697015752
2.446334848907889E8 0.11695696196403198 0.2662744488247116 0.883043038035968 -0.2662744488247116 0.883043038035968 -0.2662744488247116 0.11695696196403198 0.2662744488247116
2.4832534757531032E8 0.11928948494861796 0.2693635923012393 0.880710515051382 -0.2693635923012393 0.880710515051382 -0.2693635923012393 0.11928948494861796 0.2693635923012393
2.5207292565009177E8 0.12167447723180193 0.27247138381284225 0.8783255227681981 -0.27247138381284225 0.8783255227681981 -0.27247138381284225 0.12167447723180193 0.27247138381284225
