!Murata Part Number: LQP02TQ3N3B02
!These Parameters are Measured in Series Mode Connection
!       o--[Z]--o
!Port1              Port2
!       o-------o
!
!Freq. Start=50[MHz] Stop=20[GHz], 401[Steps]
# Hz S RI R 50
!Freq.(Hz) S11(Real) S11(Imag) S21(Real) S21(Imag) S12(Real) S12(Imag) S22(Real) S22(Imag)
5.0E7 0.00555138129007959 0.011158734780672966 0.9944486187099204 -0.011158734780672966 0.9944486187099204 -0.011158734780672966 0.00555138129007959 0.011158734780672966
5.0754570186123446E7 0.0055586292222893135 0.011326143288500916 0.9944413707777106 -0.011326143288500916 0.9944413707777106 -0.011326143288500916 0.0055586292222893135 0.011326143288500916
5.152052789556263E7 0.005566081257224201 0.011496037901449338 0.9944339187427759 -0.011496037901449338 0.9944339187427759 -0.011496037901449338 0.005566081257224201 0.011496037901449338
5.229804498202928E7 0.005573742741957783 0.011668454646798207 0.9944262572580422 -0.011668454646798209 0.9944262572580422 -0.011668454646798209 0.005573742741957783 0.011668454646798207
5.308729589274893E7 0.005581619145026913 0.011843430050285448 0.9944183808549732 -0.01184343005028545 0.9944183808549732 -0.01184343005028545 0.005581619145026913 0.011843430050285448
5.388845770760058E7 0.005589716058497753 0.01202100114291197 0.9944102839415023 -0.012021001142911969 0.9944102839415023 -0.012021001142911969 0.005589716058497753 0.01202100114291197
5.470171017884717E7 0.005598039200057724 0.012201205467882866 0.9944019607999424 -0.012201205467882866 0.9944019607999424 -0.012201205467882866 0.005598039200057724 0.012201205467882866
5.5527235771465644E7 0.005606594415135588 0.01238408108769021 0.9943934055848643 -0.01238408108769021 0.9943934055848643 -0.01238408108769021 0.005606594415135588 0.01238408108769021
5.6365219704085544E7 0.005615387679052346 0.01256966659134336 0.9943846123209477 -0.01256966659134336 0.9943846123209477 -0.01256966659134336 0.005615387679052346 0.01256966659134336
5.721584999054556E7 0.005624425099205762 0.012758001101752563 0.9943755749007943 -0.012758001101752563 0.9943755749007943 -0.012758001101752563 0.005624425099205762 0.012758001101752563
5.807931748207712E7 0.005633712917291912 0.012949124283272061 0.994366287082708 -0.012949124283272061 0.994366287082708 -0.012949124283272061 0.005633712917291912 0.012949124283272061
5.8955815910124585E7 0.0056432575115673185 0.013143076349408934 0.994356742488433 -0.013143076349408934 0.994356742488433 -0.013143076349408934 0.0056432575115673185 0.013143076349408934
5.984554192981184E7 0.005653065399155829 0.013339898070704067 0.9943469346008442 -0.013339898070704067 0.9943469346008442 -0.013339898070704067 0.005653065399155829 0.013339898070704067
6.074869516406457E7 0.00566314323840465 0.013539630782791745 0.9943368567615954 -0.013539630782791745 0.9943368567615954 -0.013539630782791745 0.00566314323840465 0.013539630782791745
6.166547824839868E7 0.0056734978312946134 0.01374231639464461 0.9943265021687056 -0.01374231639464461 0.9943265021687056 -0.01374231639464461 0.0056734978312946134 0.01374231639464461
6.2596096876384385E7 0.005684136125909961 0.013947997397010466 0.9943158638740903 -0.013947997397010465 0.9943158638740903 -0.013947997397010465 0.005684136125909961 0.013947997397010466
6.354075984579668E7 0.005695065218973744 0.014156716871048051 0.9943049347810263 -0.014156716871048053 0.9943049347810263 -0.014156716871048053 0.005695065218973744 0.014156716871048051
6.449967910546205E7 0.005706292358455186 0.014368518497168267 0.9942937076415449 -0.014368518497168267 0.9942937076415449 -0.014368518497168267 0.005706292358455186 0.014368518497168267
6.547306980281226E7 0.005717824946256062 0.014583446564087856 0.9942821750537439 -0.014583446564087856 0.9942821750537439 -0.014583446564087856 0.005717824946256062 0.014583446564087856
6.646115033215589E7 0.005729670540983697 0.014801545978102418 0.9942703294590163 -0.014801545978102418 0.9942703294590163 -0.014801545978102418 0.005729670540983697 0.014801545978102418
6.746414238367817E7 0.005741836860818676 0.01502286227258525 0.9942581631391811 -0.01502286227258525 0.9942581631391811 -0.01502286227258525 0.005741836860818676 0.01502286227258525
6.848227099318038E7 0.0057543317864861224 0.015247441617719012 0.9942456682135139 -0.015247441617719012 0.9942456682135139 -0.015247441617719012 0.0057543317864861224 0.015247441617719012
6.951576459256999E7 0.005767163364339859 0.015475330830466493 0.9942328366356602 -0.015475330830466493 0.9942328366356602 -0.015475330830466493 0.005767163364339859 0.015475330830466493
7.056485506111258E7 0.005780339809569508 0.01570657738478706 0.9942196601904307 -0.01570657738478706 0.9942196601904307 -0.01570657738478706 0.005780339809569508 0.01570657738478706
7.162977777745734E7 0.005793869509541179 0.01594122942210477 0.9942061304904587 -0.01594122942210477 0.9942061304904587 -0.01594122942210477 0.005793869509541179 0.01594122942210477
7.271077167244768E7 0.005807761027283089 0.016179335762034317 0.9941922389727167 -0.016179335762034317 0.9941922389727167 -0.016179335762034317 0.005807761027283089 0.016179335762034317
7.380807928272885E7 0.00582202310512804 0.016420945913370174 0.9941779768948719 -0.016420945913370174 0.9941779768948719 -0.016420945913370174 0.00582202310512804 0.016420945913370174
7.492194680516452E7 0.0058366646685254295 0.01666611008534438 0.9941633353314745 -0.01666611008534438 0.9941633353314745 -0.01666611008534438 0.0058366646685254295 0.01666611008534438
7.60526241520746E7 0.005851694830036071 0.016914879199157844 0.9941483051699639 -0.016914879199157844 0.9941483051699639 -0.016914879199157844 0.005851694830036071 0.016914879199157844
7.720036500730675E7 0.005867122893523758 0.017167304899789536 0.9941328771064765 -0.01716730489978954 0.9941328771064765 -0.01716730489978954 0.005867122893523758 0.017167304899789536
7.836542688315398E7 0.005882958358558163 0.01742343956808755 0.9941170416414417 -0.01742343956808755 0.9941170416414417 -0.01742343956808755 0.005882958358558163 0.01742343956808755
7.954807117813127E7 0.005899210925044305 0.01768333633314545 0.9941007890749556 -0.017683336333145446 0.9941007890749556 -0.017683336333145446 0.005899210925044305 0.01768333633314545
8.074856323562416E7 0.0059158904980943705 0.017947049084966547 0.9940841095019056 -0.017947049084966547 0.9940841095019056 -0.017947049084966547 0.0059158904980943705 0.017947049084966547
8.196717240342227E7 0.005933007193158302 0.01821463248741844 0.9940669928068417 -0.018214632487418444 0.9940669928068417 -0.018214632487418444 0.005933007193158302 0.01821463248741844
8.320417209415154E7 0.00595057134143018 0.018486141991479074 0.9940494286585698 -0.018486141991479074 0.9940494286585698 -0.018486141991479074 0.00595057134143018 0.018486141991479074
8.445983984661816E7 0.0059685934955477915 0.01876163384877496 0.9940314065044521 -0.018761633848774956 0.9940314065044521 -0.018761633848774956 0.0059685934955477915 0.01876163384877496
8.573445738807854E7 0.005987084435603435 0.019041165125411524 0.9940129155643965 -0.019041165125411524 0.9940129155643965 -0.019041165125411524 0.005987084435603435 0.019041165125411524
8.702831069744885E7 0.00600605517548436 0.01932479371609438 0.9939939448245154 -0.01932479371609438 0.9939939448245154 -0.01932479371609438 0.00600605517548436 0.01932479371609438
8.834169006946853E7 0.006025516969561652 0.019612578358539797 0.9939744830304384 -0.019612578358539797 0.9939744830304384 -0.019612578358539797 0.006025516969561652 0.019612578358539797
8.96748901798321E7 0.006045481319746675 0.019904578648171162 0.9939545186802532 -0.019904578648171162 0.9939545186802532 -0.019904578648171162 0.006045481319746675 0.019904578648171162
9.1028210151304E7 0.006065959982934622 0.020200855053098092 0.9939340400170653 -0.020200855053098092 0.9939340400170653 -0.020200855053098092 0.006065959982934622 0.020200855053098092
9.240195362083109E7 0.006086964978854667 0.0205014689293726 0.9939130350211453 -0.0205014689293726 0.9939130350211453 -0.0205014689293726 0.006086964978854667 0.0205014689293726
9.379642880766791E7 0.006108508598346673 0.020806482536517068 0.9938914914016533 -0.02080648253651707 0.9938914914016533 -0.02080648253651707 0.006108508598346673 0.020806482536517068
9.521194858253023E7 0.006130603412084242 0.021115959053316466 0.993869396587916 -0.021115959053316466 0.993869396587916 -0.021115959053316466 0.006130603412084242 0.021115959053316466
9.664883053779216E7 0.0061532622797640735 0.021429962593867116 0.9938467377202359 -0.021429962593867116 0.9938467377202359 -0.021429962593867116 0.0061532622797640735 0.021429962593867116
9.810739705874248E7 0.006176498359781399 0.021748558223872377 0.9938235016402186 -0.02174855822387238 0.9938235016402186 -0.02174855822387238 0.006176498359781399 0.021748558223872377
9.958797539591652E7 0.006200325119411215 0.022071811977175292 0.9937996748805887 -0.022071811977175292 0.9937996748805887 -0.022071811977175292 0.006200325119411215 0.022071811977175292
1.0109089773851961E8 0.006224756345514738 0.02239979087251654 0.9937752436544853 -0.02239979087251654 0.9937752436544853 -0.02239979087251654 0.006224756345514738 0.02239979087251654
1.0261650128895843E8 0.006249806155790222 0.022732562930505133 0.9937501938442098 -0.022732562930505133 0.9937501938442098 -0.022732562930505133 0.006249806155790222 0.022732562930505133
1.0416512833849736E8 0.006275489010586892 0.023070197190788438 0.9937245109894131 -0.023070197190788434 0.9937245109894131 -0.023070197190788434 0.006275489010586892 0.023070197190788438
1.0573712634405641E8 0.006301819725300226 0.02341276372940657 0.9936981802746998 -0.023412763729406566 0.9936981802746998 -0.023412763729406566 0.006301819725300226 0.02341276372940657
1.0733284800616828E8 0.006328813483366315 0.02376033367631571 0.9936711865166338 -0.023760333676315713 0.9936711865166338 -0.023760333676315713 0.006328813483366315 0.02376033367631571
1.0895265134811176E8 0.006356485849872376 0.024112979233063443 0.9936435141501279 -0.024112979233063447 0.9936435141501279 -0.024112979233063447 0.006356485849872376 0.024112979233063443
1.1059689979623953E8 0.006384852785799763 0.024470773690598666 0.9936151472142003 -0.02447077369059867 0.9936151472142003 -0.02447077369059867 0.006384852785799763 0.024470773690598666
1.1226596226151802E8 0.006413930662915065 0.024833791447197526 0.993586069337085 -0.024833791447197523 0.993586069337085 -0.024833791447197523 0.006413930662915065 0.024833791447197526
1.1396021322229806E8 0.006443736279324026 0.02520210802648601 0.993556263720676 -0.02520210802648601 0.993556263720676 -0.02520210802648601 0.006443736279324026 0.02520210802648601
1.1568003280833441E8 0.006474286875702101 0.025575800095539312 0.993525713124298 -0.025575800095539312 0.993525713124298 -0.025575800095539312 0.006474286875702101 0.025575800095539312
1.1742580688607343E8 0.0065056001522145355 0.02595494548303709 0.9934943998477853 -0.025954945483037086 0.9934943998477853 -0.025954945483037086 0.0065056001522145355 0.02595494548303709
1.1919792714522783E8 0.0065376942861378115 0.026339623197453574 0.9934623057138621 -0.02633962319745357 0.9934623057138621 -0.02633962319745357 0.0065376942861378115 0.026339623197453574
1.2099679118665792E8 0.006570587950193312 0.02672991344526059 0.9934294120498068 -0.026729913445260586 0.9934294120498068 -0.026729913445260586 0.006570587950193312 0.02672991344526059
1.2282280261157903E8 0.006604300331602867 0.027125897649121412 0.9933956996683972 -0.027125897649121405 0.9933956996683972 -0.027125897649121405 0.006604300331602867 0.027125897649121412
1.2467637111211549E8 0.006638851151874974 0.02752765846605312 0.993361148848125 -0.02752765846605312 0.993361148848125 -0.02752765846605312 0.006638851151874974 0.02752765846605312
1.265579125632208E8 0.006674260687329118 0.027935279805534768 0.9933257393126709 -0.02793527980553476 0.9933257393126709 -0.02793527980553476 0.006674260687329118 0.027935279805534768
1.284678491159853E8 0.006710549790364729 0.028348846847538533 0.9932894502096354 -0.028348846847538533 0.9932894502096354 -0.028348846847538533 0.006710549790364729 0.028348846847538533
1.3040660929235186E8 0.006747739911480129 0.028768446060461486 0.9932522600885201 -0.028768446060461486 0.9932522600885201 -0.028768446060461486 0.006747739911480129 0.028768446060461486
1.3237462808126101E8 0.0067858531220457985 0.029194165218935086 0.9932141468779541 -0.029194165218935086 0.9932141468779541 -0.029194165218935086 0.0067858531220457985 0.029194165218935086
1.3437234703624701E8 0.00682491213783523 0.02962609342149027 0.9931750878621647 -0.02962609342149027 0.9931750878621647 -0.02962609342149027 0.00682491213783523 0.02962609342149027
1.364002143745067E8 0.006864940343315634 0.030064321108055767 0.9931350596566845 -0.030064321108055774 0.9931350596566845 -0.030064321108055774 0.006864940343315634 0.030064321108055767
1.3845868507746372E8 0.006905961816700005 0.030508940077268565 0.9930940381833 -0.030508940077268565 0.9930940381833 -0.030508940077268565 0.006905961816700005 0.030508940077268565
1.405482209928499E8 0.006948001355760868 0.030960043503574723 0.9930519986442391 -0.030960043503574727 0.9930519986442391 -0.030960043503574727 0.006948001355760868 0.030960043503574723
1.426692909383278E8 0.006991084504405552 0.031417725954100285 0.9930089154955943 -0.031417725954100285 0.9930089154955943 -0.031417725954100285 0.006991084504405552 0.031417725954100285
1.4482237080667645E8 0.007035237580011989 0.03188208340527241 0.9929647624199881 -0.03188208340527241 0.9929647624199881 -0.03188208340527241 0.007035237580011989 0.03188208340527241
1.4700794367256513E8 0.007080487701523295 0.03235321325917103 0.9929195122984766 -0.03235321325917104 0.9929195122984766 -0.03235321325917104 0.007080487701523295 0.03235321325917103
1.492264999009378E8 0.007126862818299237 0.03283121435959314 0.9928731371817009 -0.032831214359593144 0.9928731371817009 -0.032831214359593144 0.007126862818299237 0.03283121435959314
1.5147853725703382E8 0.007174391739721746 0.033316187007811304 0.9928256082602781 -0.033316187007811304 0.9928256082602781 -0.033316187007811304 0.007174391739721746 0.033316187007811304
1.5376456101806876E8 0.007223104165551788 0.033808232978010014 0.9927768958344482 -0.03380823297801001 0.9927768958344482 -0.03380823297801001 0.007223104165551788 0.033808232978010014
1.5608508408660066E8 0.007273030717034437 0.03430745553238355 0.9927269692829654 -0.03430745553238355 0.9927269692829654 -0.03430745553238355 0.007273030717034437 0.03430745553238355
1.5844062710560706E8 0.007324202968749002 0.03481395943588019 0.9926757970312512 -0.03481395943588019 0.9926757970312512 -0.03481395943588019 0.007324202968749002 0.03481395943588019
1.6083171857529896E8 0.007376653481200909 0.03532785097057828 0.9926233465187991 -0.03532785097057827 0.9926233465187991 -0.03532785097057827 0.007376653481200909 0.03532785097057828
1.632588949716973E8 0.0074304158341525145 0.03584923794968089 0.9925695841658475 -0.03584923794968089 0.9925695841658475 -0.03584923794968089 0.0074304158341525145 0.03584923794968089
1.6572270086699936E8 0.007485524660689742 0.03637822973111593 0.9925144753393103 -0.03637822973111593 0.9925144753393103 -0.03637822973111593 0.007485524660689742 0.03637822973111593
1.6822368905176118E8 0.007542015682022246 0.036914937230729784 0.9924579843179777 -0.036914937230729784 0.9924579843179777 -0.036914937230729784 0.007542015682022246 0.036914937230729784
1.7076242065892437E8 0.007599925743014988 0.03745947293506354 0.9924000742569851 -0.03745947293506354 0.9924000742569851 -0.03745947293506354 0.007599925743014988 0.03745947293506354
1.7333946528971428E8 0.007659292848449597 0.03801195091370054 0.9923407071515502 -0.03801195091370054 0.9923407071515502 -0.03801195091370054 0.007659292848449597 0.03801195091370054
1.7595540114143828E8 0.007720156200014599 0.03857248683117551 0.9922798437999856 -0.03857248683117551 0.9922798437999856 -0.03857248683117551 0.007720156200014599 0.03857248683117551
1.786108151372127E8 0.007782556234024308 0.03914119795843575 0.9922174437659758 -0.03914119795843576 0.9922174437659758 -0.03914119795843576 0.007782556234024308 0.03914119795843575
1.8130630305764765E8 0.007846534659866707 0.039718203183844975 0.9921534653401334 -0.039718203183844975 0.9921534653401334 -0.039718203183844975 0.007846534659866707 0.039718203183844975
1.840424696745189E8 0.007912134499181663 0.0403036230237209 0.9920878655008184 -0.0403036230237209 0.9920878655008184 -0.0403036230237209 0.007912134499181663 0.0403036230237209
1.8681992888645732E8 0.007979400125771545 0.04089757963239821 0.9920205998742284 -0.04089757963239821 0.9920205998742284 -0.04089757963239821 0.007979400125771545 0.04089757963239821
1.8963930385668582E8 0.008048377306247226 0.04150019681180806 0.9919516226937528 -0.04150019681180807 0.9919516226937528 -0.04150019681180807 0.008048377306247226 0.04150019681180806
1.92501227152835E8 0.008119113241413272 0.042111600020565854 0.9918808867585867 -0.042111600020565854 0.9918808867585867 -0.042111600020565854 0.008119113241413272 0.042111600020565854
1.9540634088886917E8 0.008191656608397185 0.04273191638255855 0.9918083433916028 -0.04273191638255854 0.9918083433916028 -0.04273191638255854 0.008191656608397185 0.04273191638255855
1.983552968691535E8 0.008266057603528252 0.0433612746950227 0.9917339423964717 -0.0433612746950227 0.9917339423964717 -0.0433612746950227 0.008266057603528252 0.0433612746950227
2.0134875673469606E8 0.008342367985972604 0.0439998054361045 0.9916576320140273 -0.0439998054361045 0.9916576320140273 -0.0439998054361045 0.008342367985972604 0.0439998054361045
2.0438739211159652E8 0.008420641122131962 0.04464764077189208 0.9915793588778681 -0.04464764077189208 0.9915793588778681 -0.04464764077189208 0.008420641122131962 0.04464764077189208
2.074718847617352E8 0.008500932030814182 0.04530491456291026 0.9914990679691856 -0.04530491456291026 0.9914990679691856 -0.04530491456291026 0.008500932030814182 0.04530491456291026
2.106029267357361E8 0.00858329742918481 0.045971762370067656 0.9914167025708154 -0.045971762370067656 0.9914167025708154 -0.045971762370067656 0.00858329742918481 0.045971762370067656
2.1378122052823865E8 0.008667795779509237 0.04664832146004454 0.9913322042204908 -0.04664832146004454 0.9913322042204908 -0.04664832146004454 0.008667795779509237 0.04664832146004454
2.1700747923551247E8 0.008754487336696154 0.047334730810110595 0.9912455126633039 -0.047334730810110595 0.9912455126633039 -0.047334730810110595 0.008754487336696154 0.047334730810110595
2.2028242671545094E8 0.00884343419665314 0.04803113111235927 0.9911565658033468 -0.04803113111235927 0.9911565658033468 -0.04803113111235927 0.00884343419665314 0.04803113111235927
2.23606797749979E8 0.008934700345466194 0.048737664777346104 0.9910652996545336 -0.048737664777346104 0.9910652996545336 -0.048737664777346104 0.008934700345466194 0.048737664777346104
2.2698133820991236E8 0.009028351709415239 0.049454475937116826 0.9909716482905847 -0.04945447593711682 0.9909716482905847 -0.04945447593711682 0.009028351709415239 0.049454475937116826
2.3040680522230446E8 0.009124456205838093 0.05018171044761025 0.990875543794162 -0.05018171044761025 0.990875543794162 -0.05018171044761025 0.009124456205838093 0.05018171044761025
2.338839673403185E8 0.009223083794855822 0.05091951589042047 0.9907769162051443 -0.05091951589042047 0.9907769162051443 -0.05091951589042047 0.009223083794855822 0.05091951589042047
2.37413604715664E8 0.009324306531972434 0.051668041573901494 0.9906756934680274 -0.05166804157390148 0.9906756934680274 -0.05166804157390148 0.009324306531972434 0.051668041573901494
2.4099650927363476E8 0.009428198621562316 0.052427438533597125 0.9905718013784377 -0.052427438533597125 0.9905718013784377 -0.052427438533597125 0.009428198621562316 0.052427438533597125
