!Murata Part Number: LQP02TQ0N4B02
!These Parameters are Measured in Series Mode Connection
!       o--[Z]--o
!Port1              Port2
!       o-------o
!
!Freq. Start=50[MHz] Stop=20[GHz], 401[Steps]
# Hz S RI R 50
!Freq.(Hz) S11(Real) S11(Imag) S21(Real) S21(Imag) S12(Real) S12(Imag) S22(Real) S22(Imag)
5.0E7 2.6729422307495283E-4 0.001570779259550185 0.999732705776925 -0.0015707792595501852 0.999732705776925 -0.0015707792595501852 2.6729422307495283E-4 0.001570779259550185
5.0754570186123446E7 2.6781067098175665E-4 0.0015943903963978828 0.9997321893290182 -0.0015943903963978826 0.9997321893290182 -0.0015943903963978826 2.6781067098175665E-4 0.0015943903963978828
5.152052789556263E7 2.6834141864789013E-4 0.0016183539245382549 0.9997316585813523 -0.0016183539245382549 0.9997316585813523 -0.0016183539245382549 2.6834141864789013E-4 0.0016183539245382549
5.229804498202928E7 2.688868237588201E-4 0.0016426750089881769 0.9997311131762412 -0.0016426750089881769 0.9997311131762412 -0.0016426750089881769 2.688868237588201E-4 0.0016426750089881769
5.308729589274893E7 2.694472509233522E-4 0.00166735888755638 0.9997305527490765 -0.00166735888755638 0.9997305527490765 -0.00166735888755638 2.694472509233522E-4 0.00166735888755638
5.388845770760058E7 2.700230717056441E-4 0.0016924108718240037 0.9997299769282945 -0.001692410871824004 0.9997299769282945 -0.001692410871824004 2.700230717056441E-4 0.0016924108718240037
5.470171017884717E7 2.7061466465215094E-4 0.001717836348141234 0.9997293853353477 -0.001717836348141234 0.9997293853353477 -0.001717836348141234 2.7061466465215094E-4 0.001717836348141234
5.5527235771465644E7 2.712224153133186E-4 0.001743640778640623 0.9997287775846866 -0.001743640778640623 0.9997287775846866 -0.001743640778640623 2.712224153133186E-4 0.001743640778640623
5.6365219704085544E7 2.7184671625985054E-4 0.0017698297022677172 0.9997281532837403 -0.0017698297022677172 0.9997281532837403 -0.0017698297022677172 2.7184671625985054E-4 0.0017698297022677172
5.721584999054556E7 2.724879670933894E-4 0.0017964087358296552 0.9997275120329064 -0.0017964087358296552 0.9997275120329064 -0.0017964087358296552 2.724879670933894E-4 0.0017964087358296552
5.807931748207712E7 2.73146574451468E-4 0.0018233835750624363 0.9997268534255485 -0.0018233835750624363 0.9997268534255485 -0.0018233835750624363 2.73146574451468E-4 0.0018233835750624363
5.8955815910124585E7 2.738229520066074E-4 0.0018507599957175646 0.9997261770479934 -0.0018507599957175646 0.9997261770479934 -0.0018507599957175646 2.738229520066074E-4 0.0018507599957175646
5.984554192981184E7 2.745175204594548E-4 0.0018785438546688512 0.9997254824795404 -0.0018785438546688512 0.9997254824795404 -0.0018785438546688512 2.745175204594548E-4 0.0018785438546688512
6.074869516406457E7 2.752307075258824E-4 0.0019067410910401374 0.9997247692924743 -0.0019067410910401374 0.9997247692924743 -0.0019067410910401374 2.752307075258824E-4 0.0019067410910401374
6.166547824839868E7 2.7596294791799246E-4 0.0019353577273547834 0.999724037052082 -0.0019353577273547834 0.999724037052082 -0.0019353577273547834 2.7596294791799246E-4 0.0019353577273547834
6.2596096876384385E7 2.7671468331900306E-4 0.001964399870707762 0.9997232853166812 -0.001964399870707762 0.9997232853166812 -0.001964399870707762 2.7671468331900306E-4 0.001964399870707762
6.354075984579668E7 2.774863623520211E-4 0.0019938737139612484 0.9997225136376481 -0.0019938737139612484 0.9997225136376481 -0.0019938737139612484 2.774863623520211E-4 0.0019938737139612484
6.449967910546205E7 2.782784405427454E-4 0.0020237855369646257 0.9997217215594574 -0.0020237855369646253 0.9997217215594574 -0.0020237855369646253 2.782784405427454E-4 0.0020237855369646257
6.547306980281226E7 2.790913802761795E-4 0.00205414170779985 0.9997209086197238 -0.0020541417077998498 0.9997209086197238 -0.0020541417077998498 2.790913802761795E-4 0.00205414170779985
6.646115033215589E7 2.7992565074747624E-4 0.0020849486840531545 0.9997200743492526 -0.0020849486840531545 0.9997200743492526 -0.0020849486840531545 2.7992565074747624E-4 0.0020849486840531545
6.746414238367817E7 2.8078172790708044E-4 0.0021162130141140914 0.9997192182720931 -0.0021162130141140914 0.9997192182720931 -0.0021162130141140914 2.8078172790708044E-4 0.0021162130141140914
6.848227099318038E7 2.8166009440038837E-4 0.0021479413385029574 0.9997183399055994 -0.0021479413385029574 0.9997183399055994 -0.0021479413385029574 2.8166009440038837E-4 0.0021479413385029574
6.951576459256999E7 2.8256123950218595E-4 0.002180140391227645 0.9997174387604979 -0.002180140391227645 0.9997174387604979 -0.002180140391227645 2.8256123950218595E-4 0.002180140391227645
7.056485506111258E7 2.8348565904619217E-4 0.0022128170011709958 0.9997165143409539 -0.002212817001170996 0.9997165143409539 -0.002212817001170996 2.8348565904619217E-4 0.0022128170011709958
7.162977777745734E7 2.844338553500859E-4 0.002245978093509765 0.9997155661446498 -0.002245978093509765 0.9997155661446498 -0.002245978093509765 2.844338553500859E-4 0.002245978093509765
7.271077167244768E7 2.8540633713646315E-4 0.0022796306911663055 0.9997145936628635 -0.0022796306911663055 0.9997145936628635 -0.0022796306911663055 2.8540633713646315E-4 0.0022796306911663055
7.380807928272885E7 2.864036194502258E-4 0.002313781916294083 0.99971359638055 -0.0023137819162940836 0.99971359638055 -0.0023137819162940836 2.864036194502258E-4 0.002313781916294083
7.492194680516452E7 2.874262235729868E-4 0.0023484389917981826 0.999712573776427 -0.0023484389917981826 0.999712573776427 -0.0023484389917981826 2.874262235729868E-4 0.0023484389917981826
7.60526241520746E7 2.884746769351333E-4 0.0023836092428919293 0.9997115253230651 -0.0023836092428919293 0.9997115253230651 -0.0023836092428919293 2.884746769351333E-4 0.0023836092428919293
7.720036500730675E7 2.895495130262746E-4 0.002419300098690759 0.9997104504869739 -0.002419300098690759 0.9997104504869739 -0.002419300098690759 2.895495130262746E-4 0.002419300098690759
7.836542688315398E7 2.9065127130487153E-4 0.002455519093844503 0.9997093487286952 -0.002455519093844503 0.9997093487286952 -0.002455519093844503 2.9065127130487153E-4 0.002455519093844503
7.954807117813127E7 2.917804971079282E-4 0.002492273870209177 0.999708219502892 -0.002492273870209177 0.999708219502892 -0.002492273870209177 2.917804971079282E-4 0.002492273870209177
8.074856323562416E7 2.9293774156170685E-4 0.0025295721785594132 0.9997070622584383 -0.0025295721785594132 0.9997070622584383 -0.0025295721785594132 2.9293774156170685E-4 0.0025295721785594132
8.196717240342227E7 2.94123561494507E-4 0.0025674218803426042 0.9997058764385055 -0.002567421880342604 0.9997058764385055 -0.002567421880342604 2.94123561494507E-4 0.0025674218803426042
8.320417209415154E7 2.9533851935264024E-4 0.002605830949475836 0.9997046614806472 -0.002605830949475836 0.9997046614806472 -0.002605830949475836 2.9533851935264024E-4 0.002605830949475836
8.445983984661816E7 2.9658318312081295E-4 0.0026448074741866243 0.9997034168168791 -0.0026448074741866243 0.9997034168168791 -0.0026448074741866243 2.9658318312081295E-4 0.0026448074741866243
8.573445738807854E7 2.9785812624821687E-4 0.0026843596588984426 0.9997021418737518 -0.002684359658898443 0.9997021418737518 -0.002684359658898443 2.9785812624821687E-4 0.0026843596588984426
8.702831069744885E7 2.991639275817134E-4 0.0027244958261619713 0.9997008360724182 -0.0027244958261619713 0.9997008360724182 -0.0027244958261619713 2.991639275817134E-4 0.0027244958261619713
8.834169006946853E7 3.005011713075805E-4 0.002765224418632949 0.9996994988286925 -0.0027652244186329488 0.9996994988286925 -0.0027652244186329488 3.005011713075805E-4 0.002765224418632949
8.96748901798321E7 3.018704469033786E-4 0.0028065540010974214 0.9996981295530966 -0.002806554001097421 0.9996981295530966 -0.002806554001097421 3.018704469033786E-4 0.0028065540010974214
9.1028210151304E7 3.032723491015691E-4 0.0028484932625451563 0.9996967276508983 -0.0028484932625451563 0.9996967276508983 -0.0028484932625451563 3.032723491015691E-4 0.0028484932625451563
9.240195362083109E7 3.047074778665991E-4 0.002891051018291829 0.9996952925221334 -0.0028910510182918294 0.9996952925221334 -0.0028910510182918294 3.047074778665991E-4 0.002891051018291829
9.379642880766791E7 3.0617643838724373E-4 0.002934236212150591 0.9996938235616128 -0.0029342362121505907 0.9996938235616128 -0.0029342362121505907 3.0617643838724373E-4 0.002934236212150591
9.521194858253023E7 3.07679841086063E-4 0.002978057918653433 0.999692320158914 -0.002978057918653433 0.999692320158914 -0.002978057918653433 3.07679841086063E-4 0.002978057918653433
9.664883053779216E7 3.0921830164790245E-4 0.0030225253453227707 0.9996907816983522 -0.003022525345322771 0.9996907816983522 -0.003022525345322771 3.0921830164790245E-4 0.0030225253453227707
9.810739705874248E7 3.107924410694165E-4 0.0030676478349934027 0.9996892075589305 -0.0030676478349934027 0.9996892075589305 -0.0030676478349934027 3.107924410694165E-4 0.0030676478349934027
9.958797539591652E7 3.1240288573165776E-4 0.003113434868185025 0.9996875971142681 -0.003113434868185025 0.9996875971142681 -0.003113434868185025 3.1240288573165776E-4 0.003113434868185025
1.0109089773851961E8 3.140502674978083E-4 0.003159896065525266 0.999685949732502 -0.003159896065525266 0.999685949732502 -0.003159896065525266 3.140502674978083E-4 0.003159896065525266
1.0261650128895843E8 3.157352238381737E-4 0.003207041190223072 0.9996842647761618 -0.003207041190223072 0.9996842647761618 -0.003207041190223072 3.157352238381737E-4 0.003207041190223072
1.0416512833849736E8 3.1745839798457933E-4 0.003254880150592156 0.9996825416020156 -0.0032548801505921563 0.9996825416020156 -0.0032548801505921563 3.1745839798457933E-4 0.003254880150592156
1.0573712634405641E8 3.1922043911633194E-4 0.003303423002624064 0.9996807795608836 -0.003303423002624064 0.9996807795608836 -0.003303423002624064 3.1922043911633194E-4 0.003303423002624064
1.0733284800616828E8 3.21022002579903E-4 0.003352679952610224 0.9996789779974202 -0.0033526799526102232 0.9996789779974202 -0.0033526799526102232 3.21022002579903E-4 0.003352679952610224
1.0895265134811176E8 3.228637501444922E-4 0.003402661359812217 0.9996771362498555 -0.003402661359812217 0.9996771362498555 -0.003402661359812217 3.228637501444922E-4 0.003402661359812217
1.1059689979623953E8 3.247463502956011E-4 0.0034533777391793337 0.9996752536497043 -0.0034533777391793337 0.9996752536497043 -0.0034533777391793337 3.247463502956011E-4 0.0034533777391793337
1.1226596226151802E8 3.2667047856871644E-4 0.0035048397641123047 0.9996733295214313 -0.0035048397641123047 0.9996733295214313 -0.0035048397641123047 3.2667047856871644E-4 0.0035048397641123047
1.1396021322229806E8 3.286368179251487E-4 0.003557058269271908 0.999671363182075 -0.003557058269271908 0.999671363182075 -0.003557058269271908 3.286368179251487E-4 0.003557058269271908
1.1568003280833441E8 3.306460591720116E-4 0.0036100442534310125 0.999669353940828 -0.0036100442534310125 0.999669353940828 -0.0036100442534310125 3.306460591720116E-4 0.0036100442534310125
1.1742580688607343E8 3.3269890142824333E-4 0.003663808882368438 0.9996673010985717 -0.003663808882368438 0.9996673010985717 -0.003663808882368438 3.3269890142824333E-4 0.003663808882368438
1.1919792714522783E8 3.3479605263848336E-4 0.003718363491802831 0.9996652039473615 -0.0037183634918028304 0.9996652039473615 -0.0037183634918028304 3.3479605263848336E-4 0.003718363491802831
1.2099679118665792E8 3.369382301364937E-4 0.003773719590364575 0.9996630617698634 -0.003773719590364575 0.9996630617698634 -0.003773719590364575 3.369382301364937E-4 0.003773719590364575
1.2282280261157903E8 3.391261612597E-4 0.0038298888626036587 0.9996608738387404 -0.0038298888626036587 0.9996608738387404 -0.0038298888626036587 3.391261612597E-4 0.0038298888626036587
1.2467637111211549E8 3.4136058401627487E-4 0.0038868831720311778 0.9996586394159837 -0.0038868831720311778 0.9996586394159837 -0.0038868831720311778 3.4136058401627487E-4 0.0038868831720311778
1.265579125632208E8 3.436422478060296E-4 0.003944714564192081 0.999656357752194 -0.003944714564192081 0.999656357752194 -0.003944714564192081 3.436422478060296E-4 0.003944714564192081
1.284678491159853E8 3.4597191419620413E-4 0.004003395269766566 0.9996540280858038 -0.004003395269766566 0.9996540280858038 -0.004003395269766566 3.4597191419620413E-4 0.004003395269766566
1.3040660929235186E8 3.4835035775305655E-4 0.004062937707697472 0.9996516496422468 -0.004062937707697472 0.9996516496422468 -0.004062937707697472 3.4835035775305655E-4 0.004062937707697472
1.3237462808126101E8 3.5077836692994877E-4 0.0041233544883408375 0.99964922163307 -0.0041233544883408375 0.99964922163307 -0.0041233544883408375 3.5077836692994877E-4 0.0041233544883408375
1.3437234703624701E8 3.5325674501240174E-4 0.004184658416636728 0.9996467432549876 -0.004184658416636728 0.9996467432549876 -0.004184658416636728 3.5325674501240174E-4 0.004184658416636728
1.364002143745067E8 3.5578631112037043E-4 0.004246862495297338 0.9996442136888797 -0.004246862495297338 0.9996442136888797 -0.004246862495297338 3.5578631112037043E-4 0.004246862495297338
1.3845868507746372E8 3.5836790126774284E-4 0.004309979928009344 0.9996416320987322 -0.004309979928009343 0.9996416320987322 -0.004309979928009343 3.5836790126774284E-4 0.004309979928009344
1.405482209928499E8 3.6100236947880955E-4 0.004374024122647338 0.9996389976305211 -0.004374024122647338 0.9996389976305211 -0.004374024122647338 3.6100236947880955E-4 0.004374024122647338
1.426692909383278E8 3.6369058896119677E-4 0.004439008694495255 0.9996363094110389 -0.004439008694495255 0.9996363094110389 -0.004439008694495255 3.6369058896119677E-4 0.004439008694495255
1.4482237080667645E8 3.664334533344854E-4 0.00450494746947263 0.9996335665466655 -0.00450494746947263 0.9996335665466655 -0.00450494746947263 3.664334533344854E-4 0.00450494746947263
1.4700794367256513E8 3.692318779134574E-4 0.0045718544873625516 0.9996307681220867 -0.004571854487362552 0.9996307681220867 -0.004571854487362552 3.692318779134574E-4 0.0045718544873625516
1.492264999009378E8 3.7208680104463914E-4 0.004639744005038171 0.9996279131989554 -0.004639744005038171 0.9996279131989554 -0.004639744005038171 3.7208680104463914E-4 0.004639744005038171
1.5147853725703382E8 3.7499918549453146E-4 0.004708630499684774 0.9996250008145054 -0.004708630499684775 0.9996250008145054 -0.004708630499684775 3.7499918549453146E-4 0.004708630499684774
1.5376456101806876E8 3.77970019887628E-4 0.004778528672014391 0.9996220299801123 -0.004778528672014391 0.9996220299801123 -0.004778528672014391 3.77970019887628E-4 0.004778528672014391
1.5608508408660066E8 3.810003201920549E-4 0.004849453449470104 0.9996189996798079 -0.004849453449470104 0.9996189996798079 -0.004849453449470104 3.810003201920549E-4 0.004849453449470104
1.5844062710560706E8 3.8409113125038353E-4 0.0049214199894172745 0.9996159088687497 -0.004921419989417275 0.9996159088687497 -0.004921419989417275 3.8409113125038353E-4 0.0049214199894172745
1.6083171857529896E8 3.872435283529001E-4 0.004994443682319138 0.999612756471647 -0.004994443682319138 0.999612756471647 -0.004994443682319138 3.872435283529001E-4 0.004994443682319138
1.632588949716973E8 3.904586188503582E-4 0.005068540154894267 0.9996095413811495 -0.005068540154894267 0.9996095413811495 -0.005068540154894267 3.904586188503582E-4 0.005068540154894267
1.6572270086699936E8 3.9373754380298947E-4 0.005143725273253738 0.9996062624561969 -0.005143725273253738 0.9996062624561969 -0.005143725273253738 3.9373754380298947E-4 0.005143725273253738
1.6822368905176118E8 3.970814796623011E-4 0.0052200151460158935 0.9996029185203377 -0.0052200151460158935 0.9996029185203377 -0.0052200151460158935 3.970814796623011E-4 0.0052200151460158935
1.7076242065892437E8 4.0049163998197795E-4 0.005297426127396993 0.9995995083600181 -0.005297426127396993 0.9995995083600181 -0.005297426127396993 4.0049163998197795E-4 0.005297426127396993
1.7333946528971428E8 4.0396927715398234E-4 0.005375974820276138 0.999596030722846 -0.005375974820276137 0.999596030722846 -0.005375974820276137 4.0396927715398234E-4 0.005375974820276138
1.7595540114143828E8 4.075156841657618E-4 0.005455678079233232 0.9995924843158343 -0.005455678079233231 0.9995924843158343 -0.005455678079233231 4.075156841657618E-4 0.005455678079233232
1.786108151372127E8 4.111321963742967E-4 0.005536553013559002 0.9995888678036257 -0.005536553013559001 0.9995888678036257 -0.005536553013559001 4.111321963742967E-4 0.005536553013559002
1.8130630305764765E8 4.148201932925624E-4 0.005618616990236344 0.9995851798067076 -0.005618616990236344 0.9995851798067076 -0.005618616990236344 4.148201932925624E-4 0.005618616990236344
1.840424696745189E8 4.1858110038385304E-4 0.0057018876368927 0.999581418899616 -0.005701887636892701 0.999581418899616 -0.005701887636892701 4.1858110038385304E-4 0.0057018876368927
1.8681992888645732E8 4.2241639085929627E-4 0.005786382844723337 0.9995775836091408 -0.005786382844723337 0.9995775836091408 -0.005786382844723337 4.2241639085929627E-4 0.005786382844723337
1.8963930385668582E8 4.2632758747379514E-4 0.005872120771385848 0.9995736724125263 -0.005872120771385848 0.9995736724125263 -0.005872120771385848 4.2632758747379514E-4 0.005872120771385848
1.92501227152835E8 4.303162643155784E-4 0.0059591198438665475 0.9995696837356843 -0.0059591198438665475 0.9995696837356843 -0.0059591198438665475 4.303162643155784E-4 0.0059591198438665475
1.9540634088886917E8 4.343840485844784E-4 0.006047398761319633 0.9995656159514156 -0.006047398761319633 0.9995656159514156 -0.006047398761319633 4.343840485844784E-4 0.006047398761319633
1.983552968691535E8 4.3853262235405067E-4 0.006136976497880526 0.999561467377646 -0.006136976497880526 0.999561467377646 -0.006136976497880526 4.3853262235405067E-4 0.006136976497880526
2.0134875673469606E8 4.427637243126421E-4 0.006227872305455023 0.9995572362756876 -0.006227872305455023 0.9995572362756876 -0.006227872305455023 4.427637243126421E-4 0.006227872305455023
2.0438739211159652E8 4.470791514785414E-4 0.0063201057164862925 0.9995529208485213 -0.0063201057164862925 0.9995529208485213 -0.0063201057164862925 4.470791514785414E-4 0.0063201057164862925
2.074718847617352E8 4.5148076088439253E-4 0.006413696546702099 0.9995485192391158 -0.006413696546702101 0.9995485192391158 -0.006413696546702101 4.5148076088439253E-4 0.006413696546702099
2.106029267357361E8 4.5597047122612007E-4 0.00650866489784494 0.999544029528774 -0.00650866489784494 0.999544029528774 -0.00650866489784494 4.5597047122612007E-4 0.00650866489784494
2.1378122052823865E8 4.6055026447170566E-4 0.006605031160388194 0.9995394497355283 -0.006605031160388194 0.9995394497355283 -0.006605031160388194 4.6055026447170566E-4 0.006605031160388194
2.1700747923551247E8 4.652221874252625E-4 0.00670281601624168 0.9995347778125746 -0.00670281601624168 0.9995347778125746 -0.00670281601624168 4.652221874252625E-4 0.00670281601624168
2.2028242671545094E8 4.69988353241981E-4 0.0068020404414502935 0.999530011646758 -0.006802040441450295 0.999530011646758 -0.006802040441450295 4.69988353241981E-4 0.0068020404414502935
2.23606797749979E8 4.74850942889667E-4 0.0069027257088898055 0.9995251490571103 -0.0069027257088898055 0.9995251490571103 -0.0069027257088898055 4.74850942889667E-4 0.0069027257088898055
2.2698133820991236E8 4.798122065527543E-4 0.007004893390964162 0.9995201877934472 -0.007004893390964162 0.9995201877934472 -0.007004893390964162 4.798122065527543E-4 0.007004893390964162
2.3040680522230446E8 4.8487446497484887E-4 0.0071085653623089145 0.9995151255350254 -0.0071085653623089145 0.9995151255350254 -0.0071085653623089145 4.8487446497484887E-4 0.0071085653623089145
2.338839673403185E8 4.90040110736051E-4 0.007213763802505714 0.9995099598892638 -0.007213763802505713 0.9995099598892638 -0.007213763802505713 4.90040110736051E-4 0.007213763802505714
