!Murata Part Number: LQP02TQ3N0B02
!These Parameters are Measured in Series Mode Connection
!       o--[Z]--o
!Port1              Port2
!       o-------o
!
!Freq. Start=50[MHz] Stop=20[GHz], 401[Steps]
# Hz S RI R 50
!Freq.(Hz) S11(Real) S11(Imag) S21(Real) S21(Imag) S12(Real) S12(Imag) S22(Real) S22(Imag)
5.0E7 0.003263423720808847 0.010244597498711497 0.9967365762791912 -0.010244597498711497 0.9967365762791912 -0.010244597498711497 0.003263423720808847 0.010244597498711497
5.0754570186123446E7 0.0032688665788435435 0.01039887043675084 0.9967311334211565 -0.01039887043675084 0.9967311334211565 -0.01039887043675084 0.0032688665788435435 0.01039887043675084
5.152052789556263E7 0.0032744725480229526 0.010555456617522437 0.9967255274519771 -0.010555456617522437 0.9967255274519771 -0.010555456617522437 0.0032744725480229526 0.010555456617522437
5.229804498202928E7 0.0032802464440459043 0.010714390288626793 0.9967197535559541 -0.010714390288626793 0.9967197535559541 -0.010714390288626793 0.0032802464440459043 0.010714390288626793
5.308729589274893E7 0.003286193220511144 0.010875706185921756 0.9967138067794888 -0.010875706185921756 0.9967138067794888 -0.010875706185921756 0.003286193220511144 0.010875706185921756
5.388845770760058E7 0.0032923179726175866 0.01103943953971505 0.9967076820273824 -0.01103943953971505 0.9967076820273824 -0.01103943953971505 0.0032923179726175866 0.01103943953971505
5.470171017884717E7 0.0032986259409497625 0.011205626081006226 0.9967013740590502 -0.011205626081006226 0.9967013740590502 -0.011205626081006226 0.0032986259409497625 0.011205626081006226
5.5527235771465644E7 0.003305122515349536 0.011374302047777394 0.9966948774846504 -0.011374302047777394 0.9966948774846504 -0.011374302047777394 0.003305122515349536 0.011374302047777394
5.6365219704085544E7 0.0033118132388753156 0.011545504191332275 0.9966881867611246 -0.011545504191332275 0.9966881867611246 -0.011545504191332275 0.0033118132388753156 0.011545504191332275
5.721584999054556E7 0.00331870381184982 0.01171926978268277 0.9966812961881503 -0.011719269782682772 0.9966812961881503 -0.011719269782682772 0.00331870381184982 0.01171926978268277
5.807931748207712E7 0.003325800095997468 0.011895636618982592 0.9966741999040025 -0.011895636618982592 0.9966741999040025 -0.011895636618982592 0.003325800095997468 0.011895636618982592
5.8955815910124585E7 0.003333108118672467 0.012074643030007102 0.9966668918813275 -0.012074643030007102 0.9966668918813275 -0.012074643030007102 0.003333108118672467 0.012074643030007102
5.984554192981184E7 0.003340634077178559 0.01225632788467897 0.9966593659228212 -0.01225632788467897 0.9966593659228212 -0.01225632788467897 0.003340634077178559 0.01225632788467897
6.074869516406457E7 0.003348384343181376 0.012440730597638606 0.9966516156568187 -0.012440730597638606 0.9966516156568187 -0.012440730597638606 0.003348384343181376 0.012440730597638606
6.166547824839868E7 0.0033563654672143254 0.012627891135859035 0.9966436345327856 -0.012627891135859033 0.9966436345327856 -0.012627891135859033 0.0033563654672143254 0.012627891135859035
6.2596096876384385E7 0.0033645841832788395 0.012817850025304273 0.9966354158167213 -0.012817850025304271 0.9966354158167213 -0.012817850025304271 0.0033645841832788395 0.012817850025304273
6.354075984579668E7 0.0033730474135397837 0.013010648357630678 0.9966269525864604 -0.013010648357630678 0.9966269525864604 -0.013010648357630678 0.0033730474135397837 0.013010648357630678
6.449967910546205E7 0.0033817622731167718 0.013206327796930465 0.9966182377268833 -0.013206327796930465 0.9966182377268833 -0.013206327796930465 0.0033817622731167718 0.013206327796930465
6.547306980281226E7 0.0033907360749720773 0.01340493058651686 0.9966092639250278 -0.013404930586516857 0.9966092639250278 -0.013404930586516857 0.0033907360749720773 0.01340493058651686
6.646115033215589E7 0.0033999763348956944 0.013606499555750029 0.9966000236651044 -0.013606499555750029 0.9966000236651044 -0.013606499555750029 0.0033999763348956944 0.013606499555750029
6.746414238367817E7 0.0034094907765881916 0.013811078126903437 0.9965905092234119 -0.013811078126903437 0.9965905092234119 -0.013811078126903437 0.0034094907765881916 0.013811078126903437
6.848227099318038E7 0.003419287336841752 0.014018710322069725 0.9965807126631581 -0.014018710322069725 0.9965807126631581 -0.014018710322069725 0.003419287336841752 0.014018710322069725
6.951576459256999E7 0.003429374170819836 0.014229440770105795 0.9965706258291802 -0.014229440770105795 0.9965706258291802 -0.014229440770105795 0.003429374170819836 0.014229440770105795
7.056485506111258E7 0.0034397596574358104 0.014443314713616406 0.9965602403425643 -0.014443314713616406 0.9965602403425643 -0.014443314713616406 0.0034397596574358104 0.014443314713616406
7.162977777745734E7 0.003450452404830776 0.014660378015975929 0.9965495475951694 -0.014660378015975932 0.9965495475951694 -0.014660378015975932 0.003450452404830776 0.014660378015975929
7.271077167244768E7 0.003461461255950754 0.014880677168387755 0.9965385387440492 -0.014880677168387759 0.9965385387440492 -0.014880677168387759 0.003461461255950754 0.014880677168387755
7.380807928272885E7 0.0034727952942233877 0.01510425929698113 0.9965272047057767 -0.015104259296981127 0.9965272047057767 -0.015104259296981127 0.0034727952942233877 0.01510425929698113
7.492194680516452E7 0.003484463849334073 0.01533117216994501 0.9965155361506659 -0.01533117216994501 0.9965155361506659 -0.01533117216994501 0.003484463849334073 0.01533117216994501
7.60526241520746E7 0.003496476503101523 0.015561464204698961 0.9965035234968985 -0.015561464204698961 0.9965035234968985 -0.015561464204698961 0.003496476503101523 0.015561464204698961
7.720036500730675E7 0.003508843095452589 0.015795184475100844 0.9964911569045476 -0.015795184475100844 0.9964911569045476 -0.015795184475100844 0.003508843095452589 0.015795184475100844
7.836542688315398E7 0.003521573730496076 0.016032382718691535 0.9964784262695038 -0.016032382718691538 0.9964784262695038 -0.016032382718691538 0.003521573730496076 0.016032382718691535
7.954807117813127E7 0.00353467878269526 0.016273109343976713 0.9964653212173049 -0.016273109343976713 0.9964653212173049 -0.016273109343976713 0.00353467878269526 0.016273109343976713
8.074856323562416E7 0.003548168903138696 0.01651741543774609 0.9964518310968612 -0.01651741543774609 0.9964518310968612 -0.01651741543774609 0.003548168903138696 0.01651741543774609
8.196717240342227E7 0.0035620550259088286 0.01676535277243063 0.9964379449740912 -0.01676535277243063 0.9964379449740912 -0.01676535277243063 0.0035620550259088286 0.01676535277243063
8.320417209415154E7 0.00357634837454786 0.017016973813498353 0.9964236516254521 -0.01701697381349835 0.9964236516254521 -0.01701697381349835 0.00357634837454786 0.017016973813498353
8.445983984661816E7 0.0035910604686202625 0.017272331726889547 0.9964089395313797 -0.017272331726889543 0.9964089395313797 -0.017272331726889543 0.0035910604686202625 0.017272331726889547
8.573445738807854E7 0.0036062031303711953 0.017531480386492524 0.9963937968696289 -0.017531480386492524 0.9963937968696289 -0.017531480386492524 0.0036062031303711953 0.017531480386492524
8.702831069744885E7 0.0036217884914801495 0.017794474381661114 0.9963782115085198 -0.017794474381661114 0.9963782115085198 -0.017794474381661114 0.0036217884914801495 0.017794474381661114
8.834169006946853E7 0.003637828999908954 0.018061369024775457 0.996362171000091 -0.018061369024775457 0.996362171000091 -0.018061369024775457 0.003637828999908954 0.018061369024775457
8.96748901798321E7 0.0036543374268433546 0.018332220358847857 0.9963456625731565 -0.01833222035884786 0.9963456625731565 -0.01833222035884786 0.0036543374268433546 0.018332220358847857
9.1028210151304E7 0.0036713268737272437 0.018607085165175785 0.9963286731262727 -0.01860708516517578 0.9963286731262727 -0.01860708516517578 0.0036713268737272437 0.018607085165175785
9.240195362083109E7 0.003688810779388667 0.018886020971044203 0.9963111892206113 -0.018886020971044207 0.9963111892206113 -0.018886020971044207 0.003688810779388667 0.018886020971044203
9.379642880766791E7 0.003706802927256739 0.01916908605748022 0.9962931970727431 -0.019169086057480217 0.9962931970727431 -0.019169086057480217 0.003706802927256739 0.01916908605748022
9.521194858253023E7 0.0037253174526685213 0.019456339467062676 0.9962746825473315 -0.019456339467062676 0.9962746825473315 -0.019456339467062676 0.0037253174526685213 0.019456339467062676
9.664883053779216E7 0.0037443688502650525 0.019747841011790418 0.996255631149735 -0.019747841011790418 0.996255631149735 -0.019747841011790418 0.0037443688502650525 0.019747841011790418
9.810739705874248E7 0.0037639719814756838 0.02004365128101264 0.9962360280185244 -0.02004365128101264 0.9962360280185244 -0.02004365128101264 0.0037639719814756838 0.02004365128101264
9.958797539591652E7 0.003784142082089993 0.020343831649425725 0.99621585791791 -0.020343831649425728 0.99621585791791 -0.020343831649425728 0.003784142082089993 0.020343831649425725
1.0109089773851961E8 0.0038048947699166275 0.02064844428514099 0.9961951052300835 -0.02064844428514099 0.9961951052300835 -0.02064844428514099 0.0038048947699166275 0.02064844428514099
1.0261650128895843E8 0.003826246052528543 0.020957552157828425 0.9961737539474714 -0.020957552157828425 0.9961737539474714 -0.020957552157828425 0.003826246052528543 0.020957552157828425
1.0416512833849736E8 0.0038482123350942615 0.021271219046941885 0.9961517876649058 -0.021271219046941885 0.9961517876649058 -0.021271219046941885 0.0038482123350942615 0.021271219046941885
1.0573712634405641E8 0.0038708104282949335 0.021589509550031617 0.9961291895717052 -0.02158950955003162 0.9961291895717052 -0.02158950955003162 0.0038708104282949335 0.021589509550031617
1.0733284800616828E8 0.003894057556327252 0.02191248909115072 0.9961059424436727 -0.02191248909115072 0.9961059424436727 -0.02191248909115072 0.003894057556327252 0.02191248909115072
1.0895265134811176E8 0.003917971364992478 0.022240223929362448 0.9960820286350075 -0.022240223929362448 0.9960820286350075 -0.022240223929362448 0.003917971364992478 0.022240223929362448
1.1059689979623953E8 0.0039425699298721245 0.0225727811673558 0.9960574300701277 -0.022572781167355796 0.9960574300701277 -0.022572781167355796 0.0039425699298721245 0.0225727811673558
1.1226596226151802E8 0.003967871764591249 0.022910228760177665 0.9960321282354088 -0.022910228760177665 0.9960321282354088 -0.022910228760177665 0.003967871764591249 0.022910228760177665
1.1396021322229806E8 0.003993895829170585 0.023252635524089977 0.9960061041708296 -0.023252635524089977 0.9960061041708296 -0.023252635524089977 0.003993895829170585 0.023252635524089977
1.1568003280833441E8 0.004020661538469298 0.02360007114556119 0.9959793384615306 -0.023600071145561185 0.9959793384615306 -0.023600071145561185 0.004020661538469298 0.02360007114556119
1.1742580688607343E8 0.004048188770720534 0.023952606190401893 0.9959518112292794 -0.023952606190401893 0.9959518112292794 -0.023952606190401893 0.004048188770720534 0.023952606190401893
1.1919792714522783E8 0.004076497876162538 0.024310312113055007 0.9959235021238373 -0.024310312113055007 0.9959235021238373 -0.024310312113055007 0.004076497876162538 0.024310312113055007
1.2099679118665792E8 0.0041056096857687 0.024673261266051415 0.9958943903142313 -0.024673261266051415 0.9958943903142313 -0.024673261266051415 0.0041056096857687 0.024673261266051415
1.2282280261157903E8 0.004135545520080549 0.02504152690964284 0.9958644544799194 -0.025041526909642838 0.9958644544799194 -0.025041526909642838 0.004135545520080549 0.02504152690964284
1.2467637111211549E8 0.004166327198148472 0.02541518322162415 0.9958336728018515 -0.025415183221624147 0.9958336728018515 -0.025415183221624147 0.004166327198148472 0.02541518322162415
1.265579125632208E8 0.004197977046585666 0.02579430530735767 0.9958020229534144 -0.02579430530735767 0.9958020229534144 -0.02579430530735767 0.004197977046585666 0.02579430530735767
1.284678491159853E8 0.004230517908741845 0.026178969210013295 0.9957694820912583 -0.026178969210013295 0.9957694820912583 -0.026178969210013295 0.004230517908741845 0.026178969210013295
1.3040660929235186E8 0.0042639731540039935 0.026569251921037956 0.995736026845996 -0.02656925192103795 0.995736026845996 -0.02656925192103795 0.0042639731540039935 0.026569251921037956
1.3237462808126101E8 0.004298366687232603 0.026965231390869183 0.9957016333127674 -0.026965231390869183 0.9957016333127674 -0.026965231390869183 0.004298366687232603 0.026965231390869183
1.3437234703624701E8 0.004333722958342912 0.027366986539907788 0.9956662770416572 -0.02736698653990778 0.9956662770416572 -0.02736698653990778 0.004333722958342912 0.027366986539907788
1.364002143745067E8 0.004370066972041763 0.027774597269764726 0.9956299330279583 -0.027774597269764726 0.9956299330279583 -0.027774597269764726 0.004370066972041763 0.027774597269764726
1.3845868507746372E8 0.0044074242977321446 0.02818814447479895 0.9955925757022678 -0.028188144474798952 0.9955925757022678 -0.028188144474798952 0.0044074242977321446 0.02818814447479895
1.405482209928499E8 0.004445821079598589 0.02860771005396162 0.9955541789204013 -0.02860771005396162 0.9955541789204013 -0.02860771005396162 0.004445821079598589 0.02860771005396162
1.426692909383278E8 0.004485284046888213 0.0290333769229639 0.9955147159531117 -0.0290333769229639 0.9955147159531117 -0.0290333769229639 0.004485284046888213 0.0290333769229639
1.4482237080667645E8 0.004525840524403633 0.02946522902678514 0.9954741594755963 -0.02946522902678514 0.9954741594755963 -0.02946522902678514 0.004525840524403633 0.02946522902678514
1.4700794367256513E8 0.004567518443225592 0.029903351352538684 0.9954324815567743 -0.029903351352538684 0.9954324815567743 -0.029903351352538684 0.004567518443225592 0.029903351352538684
1.492264999009378E8 0.0046103463516847755 0.03034782994271228 0.9953896536483152 -0.03034782994271228 0.9953896536483152 -0.03034782994271228 0.0046103463516847755 0.03034782994271228
1.5147853725703382E8 0.004654353426604129 0.03079875190880074 0.9953456465733957 -0.030798751908800746 0.9953456465733957 -0.030798751908800746 0.004654353426604129 0.03079875190880074
1.5376456101806876E8 0.004699569484834755 0.031256205445348 0.9953004305151653 -0.031256205445348 0.9953004305151653 -0.031256205445348 0.004699569484834755 0.031256205445348
1.5608508408660066E8 0.004746024995110388 0.03172027984441536 0.9952539750048895 -0.03172027984441536 0.9952539750048895 -0.03172027984441536 0.004746024995110388 0.03172027984441536
1.5844062710560706E8 0.004793751090247455 0.03219106551049328 0.9952062489097526 -0.03219106551049328 0.9952062489097526 -0.03219106551049328 0.004793751090247455 0.03219106551049328
1.6083171857529896E8 0.004842779579719751 0.03266865397587257 0.9951572204202802 -0.03266865397587257 0.9951572204202802 -0.03266865397587257 0.004842779579719751 0.03266865397587257
1.632588949716973E8 0.00489314296263875 0.03315313791649098 0.9951068570373611 -0.03315313791649098 0.9951068570373611 -0.03315313791649098 0.00489314296263875 0.03315313791649098
1.6572270086699936E8 0.004944874441172996 0.03364461116827067 0.9950551255588268 -0.03364461116827067 0.9950551255588268 -0.03364461116827067 0.004944874441172996 0.03364461116827067
1.6822368905176118E8 0.004998007934441823 0.03414316874396039 0.9950019920655582 -0.03414316874396039 0.9950019920655582 -0.03414316874396039 0.004998007934441823 0.03414316874396039
1.7076242065892437E8 0.00505257809292119 0.034648906850495945 0.9949474219070789 -0.03464890685049595 0.9949474219070789 -0.03464890685049595 0.00505257809292119 0.034648906850495945
1.7333946528971428E8 0.005108620313401471 0.03516192290689113 0.9948913796865982 -0.03516192290689113 0.9948913796865982 -0.03516192290689113 0.005108620313401471 0.03516192290689113
1.7595540114143828E8 0.005166170754539362 0.03568231556266983 0.9948338292454606 -0.03568231556266983 0.9948338292454606 -0.03568231556266983 0.005166170754539362 0.03568231556266983
1.786108151372127E8 0.005225266353048277 0.036210184716848656 0.9947747336469518 -0.036210184716848656 0.9947747336469518 -0.036210184716848656 0.005225266353048277 0.036210184716848656
1.8130630305764765E8 0.00528594484057382 0.03674563153747758 0.994714055159426 -0.036745631537477584 0.994714055159426 -0.036745631537477584 0.00528594484057382 0.03674563153747758
1.840424696745189E8 0.005348244761303143 0.03728875848174438 0.9946517552386969 -0.03728875848174437 0.9946517552386969 -0.03728875848174437 0.005348244761303143 0.03728875848174438
1.8681992888645732E8 0.005412205490359074 0.03783966931664618 0.9945877945096409 -0.037839669316646174 0.9945877945096409 -0.037839669316646174 0.005412205490359074 0.03783966931664618
1.8963930385668582E8 0.005477867253032056 0.03839846914022973 0.9945221327469679 -0.03839846914022972 0.9945221327469679 -0.03839846914022972 0.005477867253032056 0.03839846914022973
1.92501227152835E8 0.005545271144904825 0.03896526440339868 0.9944547288550951 -0.03896526440339868 0.9944547288550951 -0.03896526440339868 0.005545271144904825 0.03896526440339868
1.9540634088886917E8 0.005614459152926721 0.039540162932284365 0.9943855408470732 -0.039540162932284365 0.9943855408470732 -0.039540162932284365 0.005614459152926721 0.039540162932284365
1.983552968691535E8 0.005685474177496223 0.04012327395117271 0.9943145258225037 -0.04012327395117271 0.9943145258225037 -0.04012327395117271 0.005685474177496223 0.04012327395117271
2.0134875673469606E8 0.005758360055611954 0.040714708105977736 0.9942416399443879 -0.040714708105977736 0.9942416399443879 -0.040714708105977736 0.005758360055611954 0.040714708105977736
2.0438739211159652E8 0.005833161585153862 0.04131457748824822 0.9941668384148462 -0.04131457748824822 0.9941668384148462 -0.04131457748824822 0.005833161585153862 0.04131457748824822
2.074718847617352E8 0.005909924550357499 0.04192299565969064 0.9940900754496422 -0.04192299565969064 0.9940900754496422 -0.04192299565969064 0.005909924550357499 0.04192299565969064
2.106029267357361E8 0.00598869574854546 0.04254007767718832 0.9940113042514543 -0.04254007767718832 0.9940113042514543 -0.04254007767718832 0.00598869574854546 0.04254007767718832
2.1378122052823865E8 0.006069523018180874 0.04316594011829254 0.993930476981819 -0.043165940118292535 0.993930476981819 -0.043165940118292535 0.006069523018180874 0.04316594011829254
2.1700747923551247E8 0.006152455268308373 0.04380070110715727 0.9938475447316917 -0.04380070110715727 0.9938475447316917 -0.04380070110715727 0.006152455268308373 0.04380070110715727
2.2028242671545094E8 0.00623754250944849 0.044444480340885995 0.9937624574905516 -0.044444480340885995 0.9937624574905516 -0.044444480340885995 0.00623754250944849 0.044444480340885995
2.23606797749979E8 0.006324835886011248 0.04509739911625359 0.9936751641139888 -0.04509739911625359 0.9936751641139888 -0.04509739911625359 0.006324835886011248 0.04509739911625359
2.2698133820991236E8 0.00641438771029483 0.04575958035676364 0.9935856122897053 -0.04575958035676365 0.9935856122897053 -0.04575958035676365 0.00641438771029483 0.04575958035676364
2.3040680522230446E8 0.0065062514981342875 0.04643114863999538 0.9934937485018657 -0.04643114863999538 0.9934937485018657 -0.04643114863999538 0.0065062514981342875 0.04643114863999538
2.338839673403185E8 0.00660048200626479 0.04711223022519202 0.9933995179937353 -0.04711223022519203 0.9933995179937353 -0.04711223022519203 0.00660048200626479 0.04711223022519202
2.37413604715664E8 0.006697135271462485 0.047802953081036416 0.9933028647285375 -0.047802953081036416 0.9933028647285375 -0.047802953081036416 0.006697135271462485 0.047802953081036416
2.4099650927363476E8 0.006796268651524669 0.048503446913556625 0.9932037313484753 -0.048503446913556625 0.9932037313484753 -0.048503446913556625 0.006796268651524669 0.048503446913556625
