!Murata Part Number: LQP02TQ3N2B02
!These Parameters are Measured in Series Mode Connection
!       o--[Z]--o
!Port1              Port2
!       o-------o
!
!Freq. Start=50[MHz] Stop=20[GHz], 401[Steps]
# Hz S RI R 50
!Freq.(Hz) S11(Real) S11(Imag) S21(Real) S21(Imag) S12(Real) S12(Imag) S22(Real) S22(Imag)
5.0E7 0.0036049498451448474 0.010918685248550934 0.9963950501548552 -0.010918685248550934 0.9963950501548552 -0.010918685248550934 0.0036049498451448474 0.010918685248550934
5.0754570186123446E7 0.003611767052060176 0.011082817436985479 0.9963882329479398 -0.011082817436985479 0.9963882329479398 -0.011082817436985479 0.003611767052060176 0.011082817436985479
5.152052789556263E7 0.0036187843233702163 0.01124939846583337 0.9963812156766297 -0.011249398465833367 0.9963812156766297 -0.011249398465833367 0.0036187843233702163 0.01124939846583337
5.229804498202928E7 0.003626007325840625 0.011418464111750463 0.9963739926741594 -0.011418464111750463 0.9963739926741594 -0.011418464111750463 0.003626007325840625 0.011418464111750463
5.308729589274893E7 0.0036334418754723086 0.01159005064522594 0.9963665581245277 -0.011590050645225941 0.9963665581245277 -0.011590050645225941 0.0036334418754723086 0.01159005064522594
5.388845770760058E7 0.0036410939408429467 0.011764194836476772 0.996358906059157 -0.011764194836476772 0.996358906059157 -0.011764194836476772 0.0036410939408429467 0.011764194836476772
5.470171017884717E7 0.003648969646495199 0.011940933961395868 0.9963510303535048 -0.011940933961395868 0.9963510303535048 -0.011940933961395868 0.003648969646495199 0.011940933961395868
5.5527235771465644E7 0.003657075276371121 0.012120305807555153 0.9963429247236288 -0.01212030580755515 0.9963429247236288 -0.01212030580755515 0.003657075276371121 0.012120305807555153
5.6365219704085544E7 0.0036654172772922432 0.012302348680264991 0.9963345827227077 -0.012302348680264991 0.9963345827227077 -0.012302348680264991 0.0036654172772922432 0.012302348680264991
5.721584999054556E7 0.0036740022624848255 0.012487101408691668 0.9963259977375152 -0.012487101408691668 0.9963259977375152 -0.012487101408691668 0.0036740022624848255 0.012487101408691668
5.807931748207712E7 0.003682837015149691 0.012674603352034535 0.9963171629848502 -0.012674603352034537 0.9963171629848502 -0.012674603352034537 0.003682837015149691 0.012674603352034535
5.8955815910124585E7 0.0036919284920761434 0.012864894405764937 0.9963080715079239 -0.012864894405764937 0.9963080715079239 -0.012864894405764937 0.0036919284920761434 0.012864894405764937
5.984554192981184E7 0.0037012838272993736 0.013058015007928931 0.9962987161727007 -0.013058015007928931 0.9962987161727007 -0.013058015007928931 0.0037012838272993736 0.013058015007928931
6.074869516406457E7 0.0037109103358008108 0.013254006145516101 0.996289089664199 -0.013254006145516101 0.996289089664199 -0.013254006145516101 0.0037109103358008108 0.013254006145516101
6.166547824839868E7 0.0037208155172509375 0.01345290936089711 0.996279184482749 -0.01345290936089711 0.996279184482749 -0.01345290936089711 0.0037208155172509375 0.01345290936089711
6.2596096876384385E7 0.003731007059794038 0.013654766758332682 0.996268992940206 -0.013654766758332682 0.996268992940206 -0.013654766758332682 0.003731007059794038 0.013654766758332682
6.354075984579668E7 0.0037414928438744234 0.013859621010556935 0.9962585071561257 -0.013859621010556938 0.9962585071561257 -0.013859621010556938 0.0037414928438744234 0.013859621010556935
6.449967910546205E7 0.003752280946103767 0.014067515365438396 0.9962477190538964 -0.014067515365438392 0.9962477190538964 -0.014067515365438392 0.003752280946103767 0.014067515365438396
6.547306980281226E7 0.0037633796431692105 0.014278493652722058 0.9962366203568309 -0.014278493652722058 0.9962366203568309 -0.014278493652722058 0.0037633796431692105 0.014278493652722058
6.646115033215589E7 0.003774797415781992 0.014492600290856387 0.9962252025842179 -0.014492600290856387 0.9962252025842179 -0.014492600290856387 0.003774797415781992 0.014492600290856387
6.746414238367817E7 0.0037865429526664817 0.014709880293909086 0.9962134570473333 -0.014709880293909086 0.9962134570473333 -0.014709880293909086 0.0037865429526664817 0.014709880293909086
6.848227099318038E7 0.0037986251545895724 0.01493037927857602 0.9962013748454105 -0.01493037927857602 0.9962013748454105 -0.01493037927857602 0.0037986251545895724 0.01493037927857602
6.951576459256999E7 0.00381105313843064 0.015154143471287995 0.9961889468615692 -0.015154143471287991 0.9961889468615692 -0.015154143471287991 0.00381105313843064 0.015154143471287995
7.056485506111258E7 0.003823836241292251 0.015381219715420072 0.9961761637587078 -0.015381219715420068 0.9961761637587078 -0.015381219715420068 0.003823836241292251 0.015381219715420072
7.162977777745734E7 0.003836984024652209 0.015611655478608783 0.9961630159753478 -0.015611655478608783 0.9961630159753478 -0.015611655478608783 0.003836984024652209 0.015611655478608783
7.271077167244768E7 0.0038505062785575803 0.015845498860182765 0.9961494937214425 -0.015845498860182765 0.9961494937214425 -0.015845498860182765 0.0038505062785575803 0.015845498860182765
7.380807928272885E7 0.003864413025861666 0.016082798598712592 0.9961355869741383 -0.016082798598712592 0.9961355869741383 -0.016082798598712592 0.003864413025861666 0.016082798598712592
7.492194680516452E7 0.003878714526505104 0.016323604079686034 0.9961212854734949 -0.016323604079686034 0.9961212854734949 -0.016323604079686034 0.003878714526505104 0.016323604079686034
7.60526241520746E7 0.0038934212818426566 0.016567965343315297 0.9961065787181573 -0.016567965343315293 0.9961065787181573 -0.016567965343315293 0.0038934212818426566 0.016567965343315297
7.720036500730675E7 0.003908544039017472 0.016815933092483002 0.9960914559609825 -0.016815933092483002 0.9960914559609825 -0.016815933092483002 0.003908544039017472 0.016815933092483002
7.836542688315398E7 0.0039240937953850825 0.017067558700834207 0.996075906204615 -0.017067558700834207 0.996075906204615 -0.017067558700834207 0.0039240937953850825 0.017067558700834207
7.954807117813127E7 0.003940081802989701 0.017322894221021908 0.9960599181970103 -0.017322894221021908 0.9960599181970103 -0.017322894221021908 0.003940081802989701 0.017322894221021908
8.074856323562416E7 0.003956519573095913 0.017581992393113897 0.996043480426904 -0.017581992393113897 0.996043480426904 -0.017581992393113897 0.003956519573095913 0.017581992393113897
8.196717240342227E7 0.003973418880779227 0.01784490665316914 0.9960265811192207 -0.01784490665316914 0.9960265811192207 -0.01784490665316914 0.003973418880779227 0.01784490665316914
8.320417209415154E7 0.003990791769579588 0.018111691141992247 0.9960092082304203 -0.018111691141992247 0.9960092082304203 -0.018111691141992247 0.003990791769579588 0.018111691141992247
8.445983984661816E7 0.004008650556222391 0.018382400714074668 0.9959913494437775 -0.018382400714074668 0.9959913494437775 -0.018382400714074668 0.004008650556222391 0.018382400714074668
8.573445738807854E7 0.004027007835412185 0.018657090946731795 0.9959729921645878 -0.018657090946731795 0.9959729921645878 -0.018657090946731795 0.004027007835412185 0.018657090946731795
8.702831069744885E7 0.004045876484704972 0.01893581814944537 0.995954123515295 -0.01893581814944537 0.995954123515295 -0.01893581814944537 0.004045876484704972 0.01893581814944537
8.834169006946853E7 0.004065269669465503 0.01921863937342062 0.9959347303305344 -0.019218639373420617 0.9959347303305344 -0.019218639373420617 0.004065269669465503 0.01921863937342062
8.96748901798321E7 0.00408520084791687 0.01950561242136805 0.9959147991520831 -0.01950561242136805 0.9959147991520831 -0.01950561242136805 0.00408520084791687 0.01950561242136805
9.1028210151304E7 0.004105683776290391 0.0197967958575199 0.9958943162237097 -0.0197967958575199 0.9958943162237097 -0.0197967958575199 0.004105683776290391 0.0197967958575199
9.240195362083109E7 0.0041267325140846006 0.020092249017891355 0.9958732674859152 -0.02009224901789135 0.9958732674859152 -0.02009224901789135 0.0041267325140846006 0.020092249017891355
9.379642880766791E7 0.0041483614294430095 0.0203920320207968 0.9958516385705569 -0.0203920320207968 0.9958516385705569 -0.0203920320207968 0.0041483614294430095 0.0203920320207968
9.521194858253023E7 0.0041705852046612065 0.020696205777631514 0.9958294147953389 -0.020696205777631514 0.9958294147953389 -0.020696205777631514 0.0041705852046612065 0.020696205777631514
9.664883053779216E7 0.0041934188418348015 0.021004832003929143 0.995806581158165 -0.02100483200392914 0.995806581158165 -0.02100483200392914 0.0041934188418348015 0.021004832003929143
9.810739705874248E7 0.004216877668660731 0.021317973230705337 0.9957831223313395 -0.02131797323070534 0.9957831223313395 -0.02131797323070534 0.004216877668660731 0.021317973230705337
9.958797539591652E7 0.004240977344405353 0.02163569281609775 0.9957590226555947 -0.021635692816097746 0.9957590226555947 -0.021635692816097746 0.004240977344405353 0.02163569281609775
1.0109089773851961E8 0.00426573386605395 0.02195805495731271 0.995734266133946 -0.02195805495731271 0.995734266133946 -0.02195805495731271 0.00426573386605395 0.02195805495731271
1.0261650128895843E8 0.004291163574657213 0.02228512470288832 0.9957088364253429 -0.02228512470288832 0.9957088364253429 -0.02228512470288832 0.004291163574657213 0.02228512470288832
1.0416512833849736E8 0.004317283161891487 0.022616967965283702 0.9956827168381085 -0.022616967965283702 0.9956827168381085 -0.022616967965283702 0.004317283161891487 0.022616967965283702
1.0573712634405641E8 0.004344109676850591 0.0229536515338038 0.9956558903231494 -0.0229536515338038 0.9956558903231494 -0.0229536515338038 0.004344109676850591 0.0229536515338038
1.0733284800616828E8 0.004371660533088316 0.02329524308786853 0.9956283394669115 -0.02329524308786853 0.9956283394669115 -0.02329524308786853 0.004371660533088316 0.02329524308786853
1.0895265134811176E8 0.00439995351593168 0.023641811210634505 0.9956000464840684 -0.023641811210634505 0.9956000464840684 -0.023641811210634505 0.00439995351593168 0.023641811210634505
1.1059689979623953E8 0.004429006790086408 0.02399342540297749 0.9955709932099136 -0.023993425402977494 0.9955709932099136 -0.023993425402977494 0.004429006790086408 0.02399342540297749
1.1226596226151802E8 0.004458838907557119 0.024350156097842288 0.995541161092443 -0.02435015609784229 0.995541161092443 -0.02435015609784229 0.004458838907557119 0.024350156097842288
1.1396021322229806E8 0.0044894688159059365 0.02471207467496646 0.995510531184094 -0.024712074674966462 0.995510531184094 -0.024712074674966462 0.0044894688159059365 0.02471207467496646
1.1568003280833441E8 0.004520915866874453 0.025079253475983578 0.9954790841331257 -0.025079253475983578 0.9954790841331257 -0.025079253475983578 0.004520915866874453 0.025079253475983578
1.1742580688607343E8 0.004553199825394987 0.025451765819909867 0.9954468001746051 -0.025451765819909867 0.9954468001746051 -0.025451765819909867 0.004553199825394987 0.025451765819909867
1.1919792714522783E8 0.00458634087901837 0.025829686019018278 0.9954136591209817 -0.025829686019018278 0.9954136591209817 -0.025829686019018278 0.00458634087901837 0.025829686019018278
1.2099679118665792E8 0.004620359647786408 0.026213089395101568 0.9953796403522136 -0.026213089395101568 0.9953796403522136 -0.026213089395101568 0.004620359647786408 0.026213089395101568
1.2282280261157903E8 0.004655277194578301 0.026602052296125667 0.9953447228054216 -0.026602052296125667 0.9953447228054216 -0.026602052296125667 0.004655277194578301 0.026602052296125667
1.2467637111211549E8 0.0046911150359612965 0.026996652113272818 0.9953088849640385 -0.026996652113272818 0.9953088849640385 -0.026996652113272818 0.0046911150359612965 0.026996652113272818
1.265579125632208E8 0.004727895153576678 0.02739696729837222 0.9952721048464235 -0.02739696729837222 0.9952721048464235 -0.02739696729837222 0.004727895153576678 0.02739696729837222
1.284678491159853E8 0.004765640006093138 0.02780307738171505 0.9952343599939069 -0.02780307738171505 0.9952343599939069 -0.02780307738171505 0.004765640006093138 0.02780307738171505
1.3040660929235186E8 0.004804372541760281 0.028215062990248358 0.9951956274582399 -0.028215062990248358 0.9951956274582399 -0.028215062990248358 0.004804372541760281 0.028215062990248358
1.3237462808126101E8 0.00484411621159572 0.028633005866141033 0.9951558837884041 -0.028633005866141033 0.9951558837884041 -0.028633005866141033 0.00484411621159572 0.028633005866141033
1.3437234703624701E8 0.004884894983239785 0.02905698888571294 0.9951151050167604 -0.02905698888571294 0.9951151050167604 -0.02905698888571294 0.004884894983239785 0.02905698888571294
1.364002143745067E8 0.004926733355512231 0.029487096078716427 0.9950732666444876 -0.029487096078716427 0.9950732666444876 -0.029487096078716427 0.004926733355512231 0.029487096078716427
1.3845868507746372E8 0.004969656373705896 0.0299234126479578 0.995030343626294 -0.0299234126479578 0.995030343626294 -0.0299234126479578 0.004969656373705896 0.0299234126479578
1.405482209928499E8 0.005013689645652185 0.030366024989243616 0.9949863103543477 -0.030366024989243613 0.9949863103543477 -0.030366024989243613 0.005013689645652185 0.030366024989243616
1.426692909383278E8 0.005058859358593529 0.03081502071163508 0.9949411406414065 -0.03081502071163508 0.9949411406414065 -0.03081502071163508 0.005058859358593529 0.03081502071163508
1.4482237080667645E8 0.005105192296897878 0.031270488657991764 0.9948948077031023 -0.031270488657991764 0.9948948077031023 -0.031270488657991764 0.005105192296897878 0.031270488657991764
1.4700794367256513E8 0.005152715860649918 0.031732518925783076 0.99484728413935 -0.031732518925783076 0.99484728413935 -0.031732518925783076 0.005152715860649918 0.031732518925783076
1.492264999009378E8 0.005201458085153523 0.03220120288814447 0.9947985419148464 -0.03220120288814447 0.9947985419148464 -0.03220120288814447 0.005201458085153523 0.03220120288814447
1.5147853725703382E8 0.00525144766137927 0.032676633215152615 0.9947485523386207 -0.032676633215152615 0.9947485523386207 -0.032676633215152615 0.00525144766137927 0.032676633215152615
1.5376456101806876E8 0.005302713957390228 0.03315890389529202 0.9946972860426099 -0.03315890389529202 0.9946972860426099 -0.03315890389529202 0.005302713957390228 0.03315890389529202
1.5608508408660066E8 0.005355287040778297 0.03364811025708303 0.9946447129592215 -0.03364811025708303 0.9946447129592215 -0.03364811025708303 0.005355287040778297 0.03364811025708303
1.5844062710560706E8 0.005409197702142435 0.03414434899083945 0.9945908022978575 -0.03414434899083945 0.9945908022978575 -0.03414434899083945 0.005409197702142435 0.03414434899083945
1.6083171857529896E8 0.005464477479638827 0.034647718170521556 0.9945355225203611 -0.034647718170521556 0.9945355225203611 -0.034647718170521556 0.005464477479638827 0.034647718170521556
1.632588949716973E8 0.005521158684631715 0.03515831727564846 0.9944788413153682 -0.03515831727564846 0.9944788413153682 -0.03515831727564846 0.005521158684631715 0.03515831727564846
1.6572270086699936E8 0.005579274428472213 0.03567624721323239 0.9944207255715277 -0.03567624721323239 0.9944207255715277 -0.03567624721323239 0.005579274428472213 0.03567624721323239
1.6822368905176118E8 0.005638858650430496 0.036201610339694344 0.9943611413495695 -0.036201610339694344 0.9943611413495695 -0.036201610339694344 0.005638858650430496 0.036201610339694344
1.7076242065892437E8 0.005699946146805312 0.03673451048272059 0.9943000538531945 -0.036734510482720584 0.9943000538531945 -0.036734510482720584 0.005699946146805312 0.03673451048272059
1.7333946528971428E8 0.0057625726012324255 0.03727505296301644 0.9942374273987675 -0.03727505296301644 0.9942374273987675 -0.03727505296301644 0.0057625726012324255 0.03727505296301644
1.7595540114143828E8 0.005826774616211944 0.03782334461591351 0.9941732253837883 -0.037823344615913516 0.9941732253837883 -0.037823344615913516 0.005826774616211944 0.03782334461591351
1.786108151372127E8 0.005892589745871859 0.03837949381278439 0.994107410254128 -0.03837949381278439 0.994107410254128 -0.03837949381278439 0.005892589745871859 0.03837949381278439
1.8130630305764765E8 0.0059600565299833 0.03894361048221861 0.9940399434700168 -0.03894361048221861 0.9940399434700168 -0.03894361048221861 0.0059600565299833 0.03894361048221861
1.840424696745189E8 0.006029214529240231 0.039515806130911796 0.9939707854707597 -0.0395158061309118 0.9939707854707597 -0.0395158061309118 0.006029214529240231 0.039515806130911796
1.8681992888645732E8 0.006100104361814209 0.040096193864220614 0.9938998956381859 -0.040096193864220614 0.9938998956381859 -0.040096193864220614 0.006100104361814209 0.040096193864220614
1.8963930385668582E8 0.006172767741192126 0.04068488840633381 0.993827232258808 -0.04068488840633381 0.993827232258808 -0.04068488840633381 0.006172767741192126 0.04068488840633381
1.92501227152835E8 0.006247247515302425 0.041282006120011205 0.9937527524846975 -0.041282006120011205 0.9937527524846975 -0.041282006120011205 0.006247247515302425 0.041282006120011205
1.9540634088886917E8 0.0063235877069327895 0.04188766502584112 0.9936764122930674 -0.041887665025841125 0.9936764122930674 -0.041887665025841125 0.0063235877069327895 0.04188766502584112
1.983552968691535E8 0.006401833555439663 0.0425019848209673 0.9935981664445603 -0.0425019848209673 0.9935981664445603 -0.0425019848209673 0.006401833555439663 0.0425019848209673
2.0134875673469606E8 0.006482031559747546 0.04312508689723687 0.9935179684402525 -0.043125086897236875 0.9935179684402525 -0.043125086897236875 0.006482031559747546 0.04312508689723687
2.0438739211159652E8 0.006564229522633513 0.04375709435872106 0.9934357704773663 -0.043757094358721056 0.9934357704773663 -0.043757094358721056 0.006564229522633513 0.04375709435872106
2.074718847617352E8 0.006648476596290059 0.04439813203856168 0.9933515234037099 -0.04439813203856168 0.9933515234037099 -0.04439813203856168 0.006648476596290059 0.04439813203856168
2.106029267357361E8 0.0067348233291569205 0.045048326515096625 0.9932651766708431 -0.04504832651509662 0.9932651766708431 -0.04504832651509662 0.0067348233291569205 0.045048326515096625
2.1378122052823865E8 0.006823321714010447 0.045707806127219475 0.9931766782859897 -0.04570780612721947 0.9931766782859897 -0.04570780612721947 0.006823321714010447 0.045707806127219475
2.1700747923551247E8 0.006914025237296963 0.04637670098892938 0.993085974762703 -0.04637670098892939 0.993085974762703 -0.04637670098892939 0.006914025237296963 0.04637670098892938
2.2028242671545094E8 0.00700698892969451 0.047055143003028745 0.9929930110703055 -0.04705514300302874 0.9929930110703055 -0.04705514300302874 0.00700698892969451 0.047055143003028745
2.23606797749979E8 0.007102269417885647 0.04774326587392808 0.9928977305821142 -0.047743265873928076 0.9928977305821142 -0.047743265873928076 0.007102269417885647 0.04774326587392808
2.2698133820991236E8 0.007199924977522251 0.048441205119519444 0.9928000750224777 -0.048441205119519444 0.9928000750224777 -0.048441205119519444 0.007199924977522251 0.048441205119519444
2.3040680522230446E8 0.007300015587361887 0.049149098082081615 0.9926999844126381 -0.049149098082081615 0.9926999844126381 -0.049149098082081615 0.007300015587361887 0.049149098082081615
2.338839673403185E8 0.007402602984553815 0.04986708393818185 0.9925973970154462 -0.04986708393818185 0.9925973970154462 -0.04986708393818185 0.007402602984553815 0.04986708393818185
2.37413604715664E8 0.007507750721051956 0.05059530370754271 0.9924922492789481 -0.05059530370754272 0.9924922492789481 -0.05059530370754272 0.007507750721051956 0.05059530370754271
2.4099650927363476E8 0.007615524221130815 0.05133390026084258 0.9923844757788691 -0.05133390026084258 0.9923844757788691 -0.05133390026084258 0.007615524221130815 0.05133390026084258
