!Murata Part Number: LQP02TQ1N2B02
!These Parameters are Measured in Series Mode Connection
!       o--[Z]--o
!Port1              Port2
!       o-------o
!
!Freq. Start=50[MHz] Stop=20[GHz], 401[Steps]
# Hz S RI R 50
!Freq.(Hz) S11(Real) S11(Imag) S21(Real) S21(Imag) S12(Real) S12(Imag) S22(Real) S22(Imag)
5.0E7 0.0011783749629761693 0.0043344262887820995 0.9988216250370238 -0.0043344262887820995 0.9988216250370238 -0.0043344262887820995 0.0011783749629761693 0.0043344262887820995
5.0754570186123446E7 0.001180822800651532 0.00439938166365622 0.9988191771993483 -0.00439938166365622 0.9988191771993483 -0.00439938166365622 0.001180822800651532 0.00439938166365622
5.152052789556263E7 0.0011833380814682203 0.004465298263457493 0.9988166619185319 -0.004465298263457493 0.9988166619185319 -0.004465298263457493 0.0011833380814682203 0.004465298263457493
5.229804498202928E7 0.0011859224729087767 0.004532189858444016 0.9988140775270913 -0.004532189858444016 0.9988140775270913 -0.004532189858444016 0.0011859224729087767 0.004532189858444016
5.308729589274893E7 0.0011885776735754963 0.004600070402281135 0.9988114223264245 -0.004600070402281135 0.9988114223264245 -0.004600070402281135 0.0011885776735754963 0.004600070402281135
5.388845770760058E7 0.0011913054132576108 0.004668954034282763 0.9988086945867423 -0.004668954034282762 0.9988086945867423 -0.004668954034282762 0.0011913054132576108 0.004668954034282763
5.470171017884717E7 0.001194107452971284 0.004738855081695773 0.9988058925470287 -0.004738855081695773 0.9988058925470287 -0.004738855081695773 0.001194107452971284 0.004738855081695773
5.5527235771465644E7 0.001196985584971465 0.004809788062029946 0.9988030144150286 -0.004809788062029946 0.9988030144150286 -0.004809788062029946 0.001196985584971465 0.004809788062029946
5.6365219704085544E7 0.0011999416327347725 0.004881767685436226 0.9988000583672653 -0.0048817676854362255 0.9988000583672653 -0.0048817676854362255 0.0011999416327347725 0.004881767685436226
5.721584999054556E7 0.0012029774509126068 0.004954808857136075 0.9987970225490874 -0.004954808857136075 0.9987970225490874 -0.004954808857136075 0.0012029774509126068 0.004954808857136075
5.807931748207712E7 0.0012060949252537946 0.005028926679904958 0.9987939050747463 -0.005028926679904958 0.9987939050747463 -0.005028926679904958 0.0012060949252537946 0.005028926679904958
5.8955815910124585E7 0.001209295972496156 0.005104136456613094 0.9987907040275038 -0.005104136456613093 0.9987907040275038 -0.005104136456613093 0.001209295972496156 0.005104136456613094
5.984554192981184E7 0.001212582540226513 0.0051804536928268035 0.9987874174597736 -0.0051804536928268035 0.9987874174597736 -0.0051804536928268035 0.001212582540226513 0.0051804536928268035
6.074869516406457E7 0.001215956606708747 0.0052578940994738865 0.9987840433932913 -0.0052578940994738865 0.9987840433932913 -0.0052578940994738865 0.001215956606708747 0.0052578940994738865
6.166547824839868E7 0.0012194201806796868 0.005336473595576716 0.9987805798193202 -0.005336473595576715 0.9987805798193202 -0.005336473595576715 0.0012194201806796868 0.005336473595576716
6.2596096876384385E7 0.001222975301112734 0.005416208311056788 0.9987770246988872 -0.005416208311056788 0.9987770246988872 -0.005416208311056788 0.001222975301112734 0.005416208311056788
6.354075984579668E7 0.0012266240369493012 0.005497114589614693 0.9987733759630508 -0.005497114589614692 0.9987733759630508 -0.005497114589614692 0.0012266240369493012 0.005497114589614693
6.449967910546205E7 0.0012303684867983379 0.005579208991689587 0.9987696315132016 -0.005579208991689587 0.9987696315132016 -0.005579208991689587 0.0012303684867983379 0.005579208991689587
6.547306980281226E7 0.0012342107786043961 0.005662508297502444 0.9987657892213957 -0.005662508297502444 0.9987657892213957 -0.005662508297502444 0.0012342107786043961 0.005662508297502444
6.646115033215589E7 0.0012381530692849123 0.005747029510187408 0.9987618469307149 -0.005747029510187408 0.9987618469307149 -0.005747029510187408 0.0012381530692849123 0.005747029510187408
6.746414238367817E7 0.0012421975443376108 0.005832789859015841 0.9987578024556623 -0.005832789859015841 0.9987578024556623 -0.005832789859015841 0.0012421975443376108 0.005832789859015841
6.848227099318038E7 0.001246346417419194 0.005919806802717645 0.9987536535825807 -0.005919806802717645 0.9987536535825807 -0.005919806802717645 0.001246346417419194 0.005919806802717645
6.951576459256999E7 0.001250601929896717 0.006008098032904665 0.9987493980701033 -0.006008098032904665 0.9987493980701033 -0.006008098032904665 0.001250601929896717 0.006008098032904665
7.056485506111258E7 0.001254966350373385 0.006097681477601042 0.9987450336496266 -0.006097681477601042 0.9987450336496266 -0.006097681477601042 0.001254966350373385 0.006097681477601042
7.162977777745734E7 0.001259441974190745 0.006188575304885429 0.9987405580258093 -0.0061885753048854285 0.9987405580258093 -0.0061885753048854285 0.001259441974190745 0.006188575304885429
7.271077167244768E7 0.001264031122909611 0.0062807979266501605 0.9987359688770905 -0.0062807979266501605 0.9987359688770905 -0.0062807979266501605 0.001264031122909611 0.0062807979266501605
7.380807928272885E7 0.0012687361437723887 0.006374368002482459 0.9987312638562278 -0.006374368002482459 0.9987312638562278 -0.006374368002482459 0.0012687361437723887 0.006374368002482459
7.492194680516452E7 0.001273559409149775 0.006469304443672762 0.9987264405908503 -0.006469304443672761 0.9987264405908503 -0.006469304443672761 0.001273559409149775 0.006469304443672762
7.60526241520746E7 0.00127850331597525 0.006565626417355433 0.9987214966840247 -0.006565626417355433 0.9987214966840247 -0.006565626417355433 0.00127850331597525 0.006565626417355433
7.720036500730675E7 0.0012835702851710675 0.006663353350786881 0.9987164297148289 -0.006663353350786881 0.9987164297148289 -0.006663353350786881 0.0012835702851710675 0.006663353350786881
7.836542688315398E7 0.0012887627610699323 0.006762504935766317 0.9987112372389301 -0.006762504935766318 0.9987112372389301 -0.006762504935766318 0.0012887627610699323 0.006762504935766317
7.954807117813127E7 0.001294083210836896 0.006863101133204183 0.998705916789163 -0.006863101133204183 0.998705916789163 -0.006863101133204183 0.001294083210836896 0.006863101133204183
8.074856323562416E7 0.00129953412389644 0.006965162177843213 0.9987004658761035 -0.006965162177843213 0.9987004658761035 -0.006965162177843213 0.00129953412389644 0.006965162177843213
8.196717240342227E7 0.0013051180113701586 0.007068708583137048 0.99869488198863 -0.007068708583137048 0.99869488198863 -0.007068708583137048 0.0013051180113701586 0.007068708583137048
8.320417209415154E7 0.0013108374055308498 0.007173761146291102 0.9986891625944693 -0.007173761146291104 0.9986891625944693 -0.007173761146291104 0.0013108374055308498 0.007173761146291102
8.445983984661816E7 0.0013166948592792966 0.0072803409534702435 0.9986833051407209 -0.007280340953470245 0.9986833051407209 -0.007280340953470245 0.0013166948592792966 0.0072803409534702435
8.573445738807854E7 0.0013226929456504346 0.007388469385177619 0.9986773070543494 -0.007388469385177617 0.9986773070543494 -0.007388469385177617 0.0013226929456504346 0.007388469385177619
8.702831069744885E7 0.0013288342573560537 0.007498168121808691 0.998671165742644 -0.007498168121808691 0.998671165742644 -0.007498168121808691 0.0013288342573560537 0.007498168121808691
8.834169006946853E7 0.0013351214063716053 0.0076094591493842826 0.9986648785936283 -0.007609459149384281 0.9986648785936283 -0.007609459149384281 0.0013351214063716053 0.0076094591493842826
8.96748901798321E7 0.0013415570235751333 0.007722364765466074 0.998658442976425 -0.007722364765466074 0.998658442976425 -0.007722364765466074 0.0013415570235751333 0.007722364765466074
9.1028210151304E7 0.0013481437584467579 0.007836907585257685 0.9986518562415534 -0.007836907585257683 0.9986518562415534 -0.007836907585257683 0.0013481437584467579 0.007836907585257685
9.240195362083109E7 0.0013548842788375216 0.007953110547893891 0.9986451157211622 -0.00795311054789389 0.9986451157211622 -0.00795311054789389 0.0013548842788375216 0.007953110547893891
9.379642880766791E7 0.0013617812708168462 0.008070996922920346 0.9986382187291831 -0.008070996922920346 0.9986382187291831 -0.008070996922920346 0.0013617812708168462 0.008070996922920346
9.521194858253023E7 0.0013688374386081684 0.008190590316965372 0.998631162561392 -0.008190590316965372 0.998631162561392 -0.008190590316965372 0.0013688374386081684 0.008190590316965372
9.664883053779216E7 0.001376055504622687 0.008311914680605118 0.9986239444953772 -0.008311914680605118 0.9986239444953772 -0.008311914680605118 0.001376055504622687 0.008311914680605118
9.810739705874248E7 0.0013834382096014526 0.008434994315422599 0.9986165617903986 -0.008434994315422599 0.9986165617903986 -0.008434994315422599 0.0013834382096014526 0.008434994315422599
9.958797539591652E7 0.0013909883128763257 0.008559853881260633 0.9986090116871239 -0.008559853881260633 0.9986090116871239 -0.008559853881260633 0.0013909883128763257 0.008559853881260633
1.0109089773851961E8 0.0013987085927605466 0.008686518403668029 0.9986012914072394 -0.008686518403668029 0.9986012914072394 -0.008686518403668029 0.0013987085927605466 0.008686518403668029
1.0261650128895843E8 0.001406601847079868 0.008815013281537575 0.9985933981529203 -0.008815013281537575 0.9985933981529203 -0.008815013281537575 0.001406601847079868 0.008815013281537575
1.0416512833849736E8 0.0014146708938553522 0.008945364294933818 0.9985853291061446 -0.008945364294933818 0.9985853291061446 -0.008945364294933818 0.0014146708938553522 0.008945364294933818
1.0573712634405641E8 0.0014229185721490135 0.009077597613107733 0.9985770814278511 -0.009077597613107734 0.9985770814278511 -0.009077597613107734 0.0014229185721490135 0.009077597613107733
1.0733284800616828E8 0.0014313477430835694 0.009211739802694718 0.9985686522569164 -0.009211739802694718 0.9985686522569164 -0.009211739802694718 0.0014313477430835694 0.009211739802694718
1.0895265134811176E8 0.0014399612910474795 0.009347817836091347 0.9985600387089526 -0.009347817836091347 0.9985600387089526 -0.009347817836091347 0.0014399612910474795 0.009347817836091347
1.1059689979623953E8 0.0014487621250964507 0.009485859100005814 0.9985512378749036 -0.009485859100005814 0.9985512378749036 -0.009485859100005814 0.0014487621250964507 0.009485859100005814
1.1226596226151802E8 0.0014577531805623745 0.009625891404175815 0.9985422468194376 -0.009625891404175815 0.9985422468194376 -0.009625891404175815 0.0014577531805623745 0.009625891404175815
1.1396021322229806E8 0.001466937420880469 0.00976794299024698 0.9985330625791194 -0.00976794299024698 0.9985330625791194 -0.00976794299024698 0.001466937420880469 0.00976794299024698
1.1568003280833441E8 0.0014763178396451436 0.009912042540804133 0.9985236821603548 -0.009912042540804133 0.9985236821603548 -0.009912042540804133 0.0014763178396451436 0.009912042540804133
1.1742580688607343E8 0.0014858974629046637 0.01005821918854663 0.9985141025370953 -0.01005821918854663 0.9985141025370953 -0.01005821918854663 0.0014858974629046637 0.01005821918854663
1.1919792714522783E8 0.001495679351704359 0.01020650252559847 0.9985043206482959 -0.01020650252559847 0.9985043206482959 -0.01020650252559847 0.001495679351704359 0.01020650252559847
1.2099679118665792E8 0.0015056666048875026 0.010356922612942738 0.9984943333951123 -0.010356922612942738 0.9984943333951123 -0.010356922612942738 0.0015056666048875026 0.010356922612942738
1.2282280261157903E8 0.0015158623621624864 0.01050950998996951 0.9984841376378374 -0.01050950998996951 0.9984841376378374 -0.01050950998996951 0.0015158623621624864 0.01050950998996951
1.2467637111211549E8 0.001526269807444183 0.010664295684125174 0.9984737301925559 -0.010664295684125174 0.9984737301925559 -0.010664295684125174 0.001526269807444183 0.010664295684125174
1.265579125632208E8 0.001536892172476703 0.010821311220650874 0.9984631078275233 -0.010821311220650874 0.9984631078275233 -0.010821311220650874 0.001536892172476703 0.010821311220650874
1.284678491159853E8 0.0015477327407439113 0.010980588632396706 0.9984522672592563 -0.010980588632396706 0.9984522672592563 -0.010980588632396706 0.0015477327407439113 0.010980588632396706
1.3040660929235186E8 0.0015587948516731678 0.011142160469697859 0.9984412051483269 -0.011142160469697859 0.9984412051483269 -0.011142160469697859 0.0015587948516731678 0.011142160469697859
1.3237462808126101E8 0.001570081905136875 0.011306059810298441 0.9984299180948633 -0.01130605981029844 0.9984299180948633 -0.01130605981029844 0.001570081905136875 0.011306059810298441
1.3437234703624701E8 0.0015815973662553179 0.011472320269307976 0.9984184026337447 -0.011472320269307975 0.9984184026337447 -0.011472320269307975 0.0015815973662553179 0.011472320269307976
1.364002143745067E8 0.0015933447705032877 0.011640976009175406 0.9984066552294968 -0.011640976009175406 0.9984066552294968 -0.011640976009175406 0.0015933447705032877 0.011640976009175406
1.3845868507746372E8 0.0016053277291218158 0.011812061749664957 0.9983946722708781 -0.011812061749664959 0.9983946722708781 -0.011812061749664959 0.0016053277291218158 0.011812061749664957
1.405482209928499E8 0.0016175499348352069 0.01198561277781809 0.9983824500651647 -0.01198561277781809 0.9983824500651647 -0.01198561277781809 0.0016175499348352069 0.01198561277781809
1.426692909383278E8 0.0016300151678723398 0.012161664957885437 0.9983699848321278 -0.012161664957885437 0.9983699848321278 -0.012161664957885437 0.0016300151678723398 0.012161664957885437
1.4482237080667645E8 0.0016427273022899971 0.012340254741212829 0.9983572726977099 -0.012340254741212829 0.9983572726977099 -0.012340254741212829 0.0016427273022899971 0.012340254741212829
1.4700794367256513E8 0.001655690312594709 0.012521419176065378 0.9983443096874052 -0.012521419176065378 0.9983443096874052 -0.012521419176065378 0.001655690312594709 0.012521419176065378
1.492264999009378E8 0.0016689082806583657 0.012705195917373806 0.9983310917193416 -0.012705195917373806 0.9983310917193416 -0.012705195917373806 0.0016689082806583657 0.012705195917373806
1.5147853725703382E8 0.001682385402921539 0.012891623236387453 0.9983176145970785 -0.012891623236387453 0.9983176145970785 -0.012891623236387453 0.001682385402921539 0.012891623236387453
1.5376456101806876E8 0.0016961259978772812 0.013080740030218896 0.9983038740021228 -0.013080740030218899 0.9983038740021228 -0.013080740030218899 0.0016961259978772812 0.013080740030218896
1.5608508408660066E8 0.0017101345138268163 0.013272585831265395 0.9982898654861733 -0.013272585831265397 0.9982898654861733 -0.013272585831265397 0.0017101345138268163 0.013272585831265395
1.5844062710560706E8 0.0017244155368974275 0.013467200816493122 0.9982755844631026 -0.013467200816493122 0.9982755844631026 -0.013467200816493122 0.0017244155368974275 0.013467200816493122
1.6083171857529896E8 0.0017389737993116212 0.013664625816570828 0.9982610262006884 -0.013664625816570828 0.9982610262006884 -0.013664625816570828 0.0017389737993116212 0.013664625816570828
1.632588949716973E8 0.001753814187895518 0.01386490232484036 0.9982461858121047 -0.013864902324840356 0.9982461858121047 -0.013864902324840356 0.001753814187895518 0.01386490232484036
1.6572270086699936E8 0.0017689417528133715 0.01406807250611228 0.9982310582471867 -0.014068072506112281 0.9982310582471867 -0.014068072506112281 0.0017689417528133715 0.01406807250611228
1.6822368905176118E8 0.0017843617165141069 0.014274179205276157 0.9982156382834859 -0.01427417920527616 0.9982156382834859 -0.01427417920527616 0.0017843617165141069 0.014274179205276157
1.7076242065892437E8 0.001800079482874816 0.014483265955715675 0.9981999205171251 -0.014483265955715679 0.9981999205171251 -0.014483265955715679 0.001800079482874816 0.014483265955715675
1.7333946528971428E8 0.0018161006465253486 0.014695376987520412 0.9981838993534747 -0.014695376987520409 0.9981838993534747 -0.014695376987520409 0.0018161006465253486 0.014695376987520412
1.7595540114143828E8 0.0018324310023373294 0.014910557235487003 0.9981675689976627 -0.014910557235487005 0.9981675689976627 -0.014910557235487005 0.0018324310023373294 0.014910557235487003
1.786108151372127E8 0.0018490765550603257 0.015128852346904044 0.9981509234449396 -0.015128852346904047 0.9981509234449396 -0.015128852346904047 0.0018490765550603257 0.015128852346904044
1.8130630305764765E8 0.0018660435290872945 0.015350308689116153 0.9981339564709126 -0.015350308689116157 0.9981339564709126 -0.015350308689116157 0.0018660435290872945 0.015350308689116153
1.840424696745189E8 0.0018833383783310156 0.01557497335686428 0.998116661621669 -0.015574973356864284 0.998116661621669 -0.015574973356864284 0.0018833383783310156 0.01557497335686428
1.8681992888645732E8 0.0019009677961928804 0.015802894179400787 0.998099032203807 -0.015802894179400787 0.998099032203807 -0.015802894179400787 0.0019009677961928804 0.015802894179400787
1.8963930385668582E8 0.0019189387256051793 0.016034119727379226 0.9980810612743949 -0.016034119727379226 0.9980810612743949 -0.016034119727379226 0.0019189387256051793 0.016034119727379226
1.92501227152835E8 0.0019372583691279405 0.01626869931952033 0.998062741630872 -0.01626869931952033 0.998062741630872 -0.01626869931952033 0.0019372583691279405 0.01626869931952033
1.9540634088886917E8 0.0019559341990813862 0.016506683029057362 0.9980440658009185 -0.016506683029057362 0.9980440658009185 -0.016506683029057362 0.0019559341990813862 0.016506683029057362
1.983552968691535E8 0.001974973967695209 0.01674812168996534 0.9980250260323047 -0.01674812168996534 0.9980250260323047 -0.01674812168996534 0.001974973967695209 0.01674812168996534
2.0134875673469606E8 0.0019943857172560987 0.016993066902980195 0.9980056142827439 -0.016993066902980195 0.9980056142827439 -0.016993066902980195 0.0019943857172560987 0.016993066902980195
2.0438739211159652E8 0.002014177790235362 0.017241571041415646 0.9979858222097644 -0.017241571041415642 0.9979858222097644 -0.017241571041415642 0.002014177790235362 0.017241571041415646
2.074718847617352E8 0.002034358839378901 0.017493687256786714 0.9979656411606211 -0.017493687256786714 0.9979656411606211 -0.017493687256786714 0.002034358839378901 0.017493687256786714
2.106029267357361E8 0.002054937837742421 0.017749469484250532 0.9979450621622573 -0.017749469484250532 0.9979450621622573 -0.017749469484250532 0.002054937837742421 0.017749469484250532
2.1378122052823865E8 0.0020759240886554383 0.018008972447876373 0.9979240759113446 -0.018008972447876373 0.9979240759113446 -0.018008972447876373 0.0020759240886554383 0.018008972447876373
2.1700747923551247E8 0.002097327235598368 0.01827225166575803 0.9979026727644018 -0.01827225166575803 0.9979026727644018 -0.01827225166575803 0.002097327235598368 0.01827225166575803
2.2028242671545094E8 0.0021191572719779284 0.018539363454983266 0.997880842728022 -0.018539363454983266 0.997880842728022 -0.018539363454983266 0.0021191572719779284 0.018539363454983266
2.23606797749979E8 0.002141424550786974 0.01881036493647607 0.9978585754492131 -0.01881036493647607 0.9978585754492131 -0.01881036493647607 0.002141424550786974 0.01881036493647607
2.2698133820991236E8 0.0021641397941359057 0.01908531403972846 0.997835860205864 -0.01908531403972846 0.997835860205864 -0.01908531403972846 0.0021641397941359057 0.01908531403972846
2.3040680522230446E8 0.002187314102643933 0.019364269507440107 0.9978126858973563 -0.019364269507440104 0.9978126858973563 -0.019364269507440104 0.002187314102643933 0.019364269507440107
2.338839673403185E8 0.0022109589646795253 0.019647290900084366 0.9977890410353206 -0.019647290900084366 0.9977890410353206 -0.019647290900084366 0.0022109589646795253 0.019647290900084366
2.37413604715664E8 0.002235086265440714 0.019934438600421097 0.9977649137345594 -0.019934438600421097 0.9977649137345594 -0.019934438600421097 0.002235086265440714 0.019934438600421097
