!Murata Part Number: LQP02TQ9N1H02
!These Parameters are Measured in Series Mode Connection
!       o--[Z]--o
!Port1              Port2
!       o-------o
!
!Freq. Start=50[MHz] Stop=20[GHz], 401[Steps]
# Hz S RI R 50
!Freq.(Hz) S11(Real) S11(Imag) S21(Real) S21(Imag) S12(Real) S12(Imag) S22(Real) S22(Imag)
5.0E7 0.011433448686788946 0.03061684436241564 0.9885665513132111 -0.030616844362415647 0.9885665513132111 -0.030616844362415647 0.011433448686788946 0.03061684436241564
5.0754570186123446E7 0.011477802532094928 0.03106783121941345 0.9885221974679052 -0.03106783121941345 0.9885221974679052 -0.03106783121941345 0.011477802532094928 0.03106783121941345
5.152052789556263E7 0.01152322553878565 0.03152535995381455 0.9884767744612145 -0.03152535995381455 0.9884767744612145 -0.03152535995381455 0.01152322553878565 0.03152535995381455
5.229804498202928E7 0.011569744064023276 0.03198952550009563 0.9884302559359768 -0.03198952550009563 0.9884302559359768 -0.03198952550009563 0.011569744064023276 0.03198952550009563
5.308729589274893E7 0.011617385265096154 0.032460424179214555 0.988382614734904 -0.032460424179214555 0.988382614734904 -0.032460424179214555 0.011617385265096154 0.032460424179214555
5.388845770760058E7 0.011666177126723668 0.03293815371212685 0.9883338228732764 -0.03293815371212685 0.9883338228732764 -0.03293815371212685 0.011666177126723668 0.03293815371212685
5.470171017884717E7 0.011716148488878888 0.033422813232974954 0.9882838515111211 -0.033422813232974954 0.9882838515111211 -0.033422813232974954 0.011716148488878888 0.033422813232974954
5.5527235771465644E7 0.011767329075115861 0.03391450330194899 0.9882326709248842 -0.033914503301948985 0.9882326709248842 -0.033914503301948985 0.011767329075115861 0.03391450330194899
5.6365219704085544E7 0.011819749521389243 0.03441332591782043 0.9881802504786108 -0.03441332591782043 0.9881802504786108 -0.03441332591782043 0.011819749521389243 0.03441332591782043
5.721584999054556E7 0.011873441405354434 0.03491938453015129 0.9881265585946457 -0.034919384530151296 0.9881265585946457 -0.034919384530151296 0.011873441405354434 0.03491938453015129
5.807931748207712E7 0.011928437276137793 0.035432784051184336 0.9880715627238622 -0.03543278405118433 0.9880715627238622 -0.03543278405118433 0.011928437276137793 0.035432784051184336
5.8955815910124585E7 0.011984770684567428 0.03595363086742117 0.9880152293154325 -0.03595363086742117 0.9880152293154325 -0.03595363086742117 0.011984770684567428 0.03595363086742117
5.984554192981184E7 0.012042476213856847 0.03648203285089742 0.9879575237861431 -0.03648203285089742 0.9879575237861431 -0.03648203285089742 0.012042476213856847 0.03648203285089742
6.074869516406457E7 0.012101589510735328 0.037018099370165765 0.9878984104892646 -0.037018099370165765 0.9878984104892646 -0.037018099370165765 0.012101589510735328 0.037018099370165765
6.166547824839868E7 0.012162147317020845 0.0375619413009995 0.9878378526829793 -0.0375619413009995 0.9878378526829793 -0.0375619413009995 0.012162147317020845 0.0375619413009995
6.2596096876384385E7 0.012224187501633486 0.03811367103683076 0.9877758124983665 -0.03811367103683076 0.9877758124983665 -0.03811367103683076 0.012224187501633486 0.03811367103683076
6.354075984579668E7 0.012287749093049747 0.03867340249893918 0.9877122509069503 -0.03867340249893918 0.9877122509069503 -0.03867340249893918 0.012287749093049747 0.03867340249893918
6.449967910546205E7 0.012352872312200464 0.039241251146407446 0.9876471276877994 -0.039241251146407446 0.9876471276877994 -0.039241251146407446 0.012352872312200464 0.039241251146407446
6.547306980281226E7 0.012419598605818032 0.039817333985862284 0.9875804013941819 -0.039817333985862284 0.9875804013941819 -0.039817333985862284 0.012419598605818032 0.039817333985862284
6.646115033215589E7 0.012487970680241208 0.040401769581019126 0.9875120293197588 -0.040401769581019126 0.9875120293197588 -0.040401769581019126 0.012487970680241208 0.040401769581019126
6.746414238367817E7 0.012558032535689162 0.040994678062050455 0.9874419674643107 -0.040994678062050455 0.9874419674643107 -0.040994678062050455 0.012558032535689162 0.040994678062050455
6.848227099318038E7 0.012629829501019147 0.041596181134797405 0.9873701704989807 -0.041596181134797405 0.9873701704989807 -0.041596181134797405 0.012629829501019147 0.041596181134797405
6.951576459256999E7 0.012703408268985859 0.042206402089844816 0.9872965917310141 -0.042206402089844816 0.9872965917310141 -0.042206402089844816 0.012703408268985859 0.042206402089844816
7.056485506111258E7 0.01277881693202363 0.04282546581147971 0.9872211830679765 -0.04282546581147972 0.9872211830679765 -0.04282546581147972 0.01277881693202363 0.04282546581147971
7.162977777745734E7 0.01285610501857631 0.04345349878655312 0.9871438949814236 -0.04345349878655312 0.9871438949814236 -0.04345349878655312 0.01285610501857631 0.04345349878655312
7.271077167244768E7 0.01293532353000296 0.044090629113263946 0.9870646764699972 -0.044090629113263946 0.9870646764699972 -0.044090629113263946 0.01293532353000296 0.044090629113263946
7.380807928272885E7 0.013016524978091224 0.04473698650988338 0.9869834750219089 -0.04473698650988338 0.9869834750219089 -0.04473698650988338 0.013016524978091224 0.04473698650988338
7.492194680516452E7 0.013099763423213878 0.04539270232343668 0.9869002365767863 -0.04539270232343667 0.9869002365767863 -0.04539270232343667 0.013099763423213878 0.04539270232343668
7.60526241520746E7 0.013185094513167418 0.04605790953835796 0.9868149054868328 -0.04605790953835796 0.9868149054868328 -0.04605790953835796 0.013185094513167418 0.04605790953835796
7.720036500730675E7 0.013272575522735494 0.04673274278513171 0.9867274244772645 -0.04673274278513171 0.9867274244772645 -0.04673274278513171 0.013272575522735494 0.04673274278513171
7.836542688315398E7 0.013362265394023146 0.04741733834893284 0.9866377346059768 -0.04741733834893284 0.9866377346059768 -0.04741733834893284 0.013362265394023146 0.04741733834893284
7.954807117813127E7 0.013454224777611708 0.0481118341782744 0.9865457752223884 -0.0481118341782744 0.9865457752223884 -0.0481118341782744 0.013454224777611708 0.0481118341782744
8.074856323562416E7 0.013548516074587378 0.048816369893670074 0.9864514839254126 -0.04881636989367008 0.9864514839254126 -0.04881636989367008 0.013548516074587378 0.048816369893670074
8.196717240342227E7 0.013645203479499832 0.04953108679631467 0.9863547965205002 -0.049531086796314676 0.9863547965205002 -0.049531086796314676 0.013645203479499832 0.04953108679631467
8.320417209415154E7 0.013744353024310716 0.05025612787678379 0.9862556469756895 -0.05025612787678379 0.9862556469756895 -0.05025612787678379 0.013744353024310716 0.05025612787678379
8.445983984661816E7 0.013846032623394518 0.05099163782374888 0.9861539673766057 -0.050991637823748895 0.9861539673766057 -0.050991637823748895 0.013846032623394518 0.05099163782374888
8.573445738807854E7 0.013950312119657745 0.05173776303270192 0.9860496878803423 -0.05173776303270192 0.9860496878803423 -0.05173776303270192 0.013950312119657745 0.05173776303270192
8.702831069744885E7 0.01405726333184456 0.05249465161467741 0.9859427366681555 -0.05249465161467741 0.9859427366681555 -0.05249465161467741 0.01405726333184456 0.05249465161467741
8.834169006946853E7 0.014166960103100113 0.05326245340495803 0.9858330398968999 -0.05326245340495803 0.9858330398968999 -0.05326245340495803 0.014166960103100113 0.05326245340495803
8.96748901798321E7 0.014279478350864773 0.054041319971742635 0.9857205216491353 -0.054041319971742635 0.9857205216491353 -0.054041319971742635 0.014279478350864773 0.054041319971742635
9.1028210151304E7 0.014394896118174787 0.054831404624753034 0.9856051038818253 -0.054831404624753034 0.9856051038818253 -0.054831404624753034 0.014394896118174787 0.054831404624753034
9.240195362083109E7 0.014513293626446613 0.05563286242374869 0.9854867063735534 -0.05563286242374869 0.9854867063735534 -0.05563286242374869 0.014513293626446613 0.05563286242374869
9.379642880766791E7 0.014634753329824075 0.05644585018691512 0.9853652466701759 -0.05644585018691512 0.9853652466701759 -0.05644585018691512 0.014634753329824075 0.05644585018691512
9.521194858253023E7 0.014759359971168354 0.05727052649908446 0.9852406400288318 -0.05727052649908446 0.9852406400288318 -0.05727052649908446 0.014759359971168354 0.05727052649908446
9.664883053779216E7 0.014887200639772268 0.05810705171974224 0.9851127993602278 -0.05810705171974224 0.9851127993602278 -0.05810705171974224 0.014887200639772268 0.05810705171974224
9.810739705874248E7 0.015018364830880794 0.058955587990767805 0.9849816351691193 -0.05895558799076782 0.9849816351691193 -0.05895558799076782 0.015018364830880794 0.058955587990767805
9.958797539591652E7 0.015152944507100058 0.059816299243849694 0.9848470554929 -0.059816299243849694 0.9848470554929 -0.059816299243849694 0.015152944507100058 0.059816299243849694
1.0109089773851961E8 0.015291034161777338 0.060689351207511635 0.9847089658382229 -0.06068935120751164 0.9847089658382229 -0.06068935120751164 0.015291034161777338 0.060689351207511635
1.0261650128895843E8 0.015432730884433874 0.061574911413677526 0.9845672691155661 -0.06157491141367751 0.9845672691155661 -0.06157491141367751 0.015432730884433874 0.061574911413677526
1.0416512833849736E8 0.015578134428331806 0.06247314920369803 0.9844218655716681 -0.06247314920369803 0.9844218655716681 -0.06247314920369803 0.015578134428331806 0.06247314920369803
1.0573712634405641E8 0.01572734728025561 0.06338423573375498 0.9842726527197442 -0.06338423573375498 0.9842726527197442 -0.06338423573375498 0.01572734728025561 0.06338423573375498
1.0733284800616828E8 0.01588047473258607 0.06430834397955168 0.984119525267414 -0.06430834397955168 0.984119525267414 -0.06430834397955168 0.01588047473258607 0.06430834397955168
1.0895265134811176E8 0.01603762495774411 0.06524564874019269 0.9839623750422557 -0.06524564874019269 0.9839623750422557 -0.06524564874019269 0.01603762495774411 0.06524564874019269
1.1059689979623953E8 0.016198909085078414 0.0661963266411486 0.9838010909149216 -0.0661963266411486 0.9838010909149216 -0.0661963266411486 0.016198909085078414 0.0661963266411486
1.1226596226151802E8 0.016364441280268302 0.0671605561361944 0.983635558719732 -0.0671605561361944 0.983635558719732 -0.0671605561361944 0.016364441280268302 0.0671605561361944
1.1396021322229806E8 0.016534338827310535 0.0681385175082049 0.9834656611726894 -0.0681385175082049 0.9834656611726894 -0.0681385175082049 0.016534338827310535 0.0681385175082049
1.1568003280833441E8 0.01670872221315433 0.06913039286868224 0.9832912777868458 -0.06913039286868224 0.9832912777868458 -0.06913039286868224 0.01670872221315433 0.06913039286868224
1.1742580688607343E8 0.016887715215045316 0.0701363661558856 0.9831122847849546 -0.0701363661558856 0.9831122847849546 -0.0701363661558856 0.016887715215045316 0.0701363661558856
1.1919792714522783E8 0.017071444990634795 0.07115662313142664 0.9829285550093653 -0.07115662313142664 0.9829285550093653 -0.07115662313142664 0.017071444990634795 0.07115662313142664
1.2099679118665792E8 0.01726004217090483 0.07219135137518636 0.9827399578290954 -0.07219135137518636 0.9827399578290954 -0.07219135137518636 0.01726004217090483 0.07219135137518636
1.2282280261157903E8 0.017453640955955713 0.07324074027840632 0.9825463590440442 -0.07324074027840632 0.9825463590440442 -0.07324074027840632 0.017453640955955713 0.07324074027840632
1.2467637111211549E8 0.01765237921369529 0.0743049810347982 0.9823476207863047 -0.0743049810347982 0.9823476207863047 -0.0743049810347982 0.01765237921369529 0.0743049810347982
1.265579125632208E8 0.017856398581464396 0.07538426662951218 0.9821436014185355 -0.07538426662951218 0.9821436014185355 -0.07538426662951218 0.017856398581464396 0.07538426662951218
1.284678491159853E8 0.018065844570625662 0.07647879182579878 0.9819341554293745 -0.07647879182579878 0.9819341554293745 -0.07647879182579878 0.018065844570625662 0.07647879182579878
1.3040660929235186E8 0.01828086667413625 0.07758875314919385 0.9817191333258638 -0.07758875314919386 0.9817191333258638 -0.07758875314919386 0.01828086667413625 0.07758875314919385
1.3237462808126101E8 0.018501618477117794 0.07871434886905215 0.981498381522882 -0.07871434886905215 0.981498381522882 -0.07871434886905215 0.018501618477117794 0.07871434886905215
1.3437234703624701E8 0.01872825777042931 0.0798557789772501 0.9812717422295707 -0.07985577897725009 0.9812717422295707 -0.07985577897725009 0.01872825777042931 0.0798557789772501
1.364002143745067E8 0.01896094666724103 0.08101324516387541 0.981039053332759 -0.08101324516387541 0.981039053332759 -0.08101324516387541 0.01896094666724103 0.08101324516387541
1.3845868507746372E8 0.01919985172259893 0.08218695078971724 0.9808001482774011 -0.08218695078971724 0.9808001482774011 -0.08218695078971724 0.01919985172259893 0.08218695078971724
1.405482209928499E8 0.019445144055961597 0.08337710085536727 0.9805548559440385 -0.08337710085536727 0.9805548559440385 -0.08337710085536727 0.019445144055961597 0.08337710085536727
1.426692909383278E8 0.019696999476682284 0.0845839019667405 0.9803030005233178 -0.08458390196674051 0.9803030005233178 -0.08458390196674051 0.019696999476682284 0.0845839019667405
1.4482237080667645E8 0.0199555986124005 0.08580756229682115 0.9800444013875995 -0.08580756229682115 0.9800444013875995 -0.08580756229682115 0.0199555986124005 0.08580756229682115
1.4700794367256513E8 0.020221127040298745 0.08704829154343895 0.9797788729597012 -0.08704829154343896 0.9797788729597012 -0.08704829154343896 0.020221127040298745 0.08704829154343895
1.492264999009378E8 0.020493775421170528 0.08830630088287761 0.9795062245788296 -0.08830630088287761 0.9795062245788296 -0.08830630088287761 0.020493775421170528 0.08830630088287761
1.5147853725703382E8 0.020773739636237687 0.0895818029191194 0.9792262603637623 -0.0895818029191194 0.9792262603637623 -0.0895818029191194 0.020773739636237687 0.0895818029191194
1.5376456101806876E8 0.02106122092664504 0.09087501162852675 0.9789387790733549 -0.09087501162852675 0.9789387790733549 -0.09087501162852675 0.02106122092664504 0.09087501162852675
1.5608508408660066E8 0.02135642603555202 0.0921861422997634 0.9786435739644479 -0.0921861422997634 0.9786435739644479 -0.0921861422997634 0.02135642603555202 0.0921861422997634
1.5844062710560706E8 0.0216595673527316 0.0935154114687579 0.9783404326472683 -0.0935154114687579 0.9783404326472683 -0.0935154114687579 0.0216595673527316 0.0935154114687579
1.6083171857529896E8 0.021970863061577986 0.09486303684851351 0.9780291369384221 -0.09486303684851351 0.9780291369384221 -0.09486303684851351 0.021970863061577986 0.09486303684851351
1.632588949716973E8 0.02229053728841563 0.09622923725356876 0.9777094627115842 -0.09622923725356876 0.9777094627115842 -0.09622923725356876 0.02229053728841563 0.09622923725356876
1.6572270086699936E8 0.022618820253993394 0.09761423251891709 0.9773811797460065 -0.09761423251891709 0.9773811797460065 -0.09761423251891709 0.022618820253993394 0.09761423251891709
1.6822368905176118E8 0.022955948427038967 0.09901824341319315 0.977044051572961 -0.09901824341319312 0.977044051572961 -0.09901824341319312 0.022955948427038967 0.09901824341319315
1.7076242065892437E8 0.023302164679740386 0.10044149154593879 0.9766978353202598 -0.10044149154593879 0.9766978353202598 -0.10044149154593879 0.023302164679740386 0.10044149154593879
1.7333946528971428E8 0.023657718445013035 0.1018841992687628 0.976342281554987 -0.10188419926876277 0.976342281554987 -0.10188419926876277 0.023657718445013035 0.1018841992687628
1.7595540114143828E8 0.024022865875402602 0.1033465895702119 0.9759771341245973 -0.1033465895702119 0.9759771341245973 -0.1033465895702119 0.024022865875402602 0.1033465895702119
1.786108151372127E8 0.024397870003466438 0.10482888596417526 0.9756021299965335 -0.10482888596417524 0.9756021299965335 -0.10482888596417524 0.024397870003466438 0.10482888596417526
1.8130630305764765E8 0.02478300090346805 0.1063313123716459 0.9752169990965319 -0.1063313123716459 0.9752169990965319 -0.1063313123716459 0.02478300090346805 0.1063313123716459
1.840424696745189E8 0.02517853585421257 0.10785409299566986 0.9748214641457873 -0.10785409299566986 0.9748214641457873 -0.10785409299566986 0.02517853585421257 0.10785409299566986
1.8681992888645732E8 0.02558475950284281 0.10939745218931408 0.9744152404971573 -0.10939745218931411 0.9744152404971573 -0.10939745218931411 0.02558475950284281 0.10939745218931408
1.8963930385668582E8 0.0260019640294098 0.11096161431649239 0.9739980359705903 -0.11096161431649239 0.9739980359705903 -0.11096161431649239 0.0260019640294098 0.11096161431649239
1.92501227152835E8 0.026430449312023666 0.11254680360548949 0.9735695506879765 -0.11254680360548949 0.9735695506879765 -0.11254680360548949 0.026430449312023666 0.11254680360548949
1.9540634088886917E8 0.026870523092385315 0.11415324399503077 0.9731294769076148 -0.11415324399503077 0.9731294769076148 -0.11415324399503077 0.026870523092385315 0.11415324399503077
1.983552968691535E8 0.027322501141491956 0.11578115897274806 0.9726774988585082 -0.11578115897274806 0.9726774988585082 -0.11578115897274806 0.027322501141491956 0.11578115897274806
2.0134875673469606E8 0.027786707425304428 0.11743077140589764 0.9722132925746955 -0.11743077140589764 0.9722132925746955 -0.11743077140589764 0.027786707425304428 0.11743077140589764
2.0438739211159652E8 0.028263474270157234 0.11910230336419068 0.9717365257298428 -0.11910230336419068 0.9717365257298428 -0.11910230336419068 0.028263474270157234 0.11910230336419068
2.074718847617352E8 0.028753142527687067 0.12079597593460152 0.9712468574723129 -0.12079597593460152 0.9712468574723129 -0.12079597593460152 0.028753142527687067 0.12079597593460152
2.106029267357361E8 0.02925606173904994 0.12251200902802505 0.9707439382609498 -0.12251200902802505 0.9707439382609498 -0.12251200902802505 0.02925606173904994 0.12251200902802505
2.1378122052823865E8 0.029772590298190744 0.12425062117765659 0.9702274097018094 -0.12425062117765659 0.9702274097018094 -0.12425062117765659 0.029772590298190744 0.12425062117765659
2.1700747923551247E8 0.030303095613924694 0.1260120293289767 0.9696969043860754 -0.12601202932897673 0.9696969043860754 -0.12601202932897673 0.030303095613924694 0.1260120293289767
2.2028242671545094E8 0.03084795427058344 0.127796448621224 0.9691520457294164 -0.127796448621224 0.9691520457294164 -0.127796448621224 0.03084795427058344 0.127796448621224
2.23606797749979E8 0.03140755218697492 0.12960409216024768 0.9685924478130252 -0.12960409216024768 0.9685924478130252 -0.12960409216024768 0.03140755218697492 0.12960409216024768
2.2698133820991236E8 0.031982284773398865 0.13143517078263345 0.9680177152266011 -0.13143517078263345 0.9680177152266011 -0.13143517078263345 0.031982284773398865 0.13143517078263345
2.3040680522230446E8 0.03257255708645688 0.1332898928110052 0.9674274429135433 -0.13328989281100523 0.9674274429135433 -0.13328989281100523 0.03257255708645688 0.1332898928110052
2.338839673403185E8 0.03317878398138827 0.13516846380040418 0.9668212160186117 -0.13516846380040418 0.9668212160186117 -0.13516846380040418 0.03317878398138827 0.13516846380040418
2.37413604715664E8 0.033801390261660305 0.13707108627565937 0.9661986097383396 -0.1370710862756594 0.9661986097383396 -0.1370710862756594 0.033801390261660305 0.13707108627565937
2.4099650927363476E8 0.03444081082553435 0.13899795945966276 0.9655591891744657 -0.13899795945966273 0.9655591891744657 -0.13899795945966273 0.03444081082553435 0.13899795945966276
2.446334848907889E8 0.035097490809325144 0.14094927899246965 0.9649025091906748 -0.14094927899246965 0.9649025091906748 -0.14094927899246965 0.035097490809325144 0.14094927899246965
2.4832534757531032E8 0.0357718857270652 0.1429252366411515 0.964228114272935 -0.14292523664115153 0.964228114272935 -0.14292523664115153 0.0357718857270652 0.1429252366411515
