!Murata Part Number: LQP02TQ10NH02
!These Parameters are Measured in Series Mode Connection
!       o--[Z]--o
!Port1              Port2
!       o-------o
!
!Freq. Start=50[MHz] Stop=20[GHz], 401[Steps]
# Hz S RI R 50
!Freq.(Hz) S11(Real) S11(Imag) S21(Real) S21(Imag) S12(Real) S12(Imag) S22(Real) S22(Imag)
5.0E7 0.01208123717990404 0.03331624176872712 0.9879187628200959 -0.03331624176872712 0.9879187628200959 -0.03331624176872712 0.01208123717990404 0.03331624176872712
5.0754570186123446E7 0.012128632889745335 0.03381151463547622 0.9878713671102548 -0.03381151463547622 0.9878713671102548 -0.03381151463547622 0.012128632889745335 0.03381151463547622
5.152052789556263E7 0.012177328732826273 0.03431404784781558 0.9878226712671737 -0.03431404784781558 0.9878226712671737 -0.03431404784781558 0.012177328732826273 0.03431404784781558
5.229804498202928E7 0.012227359904513097 0.034823944388873616 0.987772640095487 -0.034823944388873616 0.987772640095487 -0.034823944388873616 0.012227359904513097 0.034823944388873616
5.308729589274893E7 0.012278762552926797 0.03534130863326365 0.9877212374470731 -0.03534130863326365 0.9877212374470731 -0.03534130863326365 0.012278762552926797 0.03534130863326365
5.388845770760058E7 0.012331573808090527 0.035866246363175626 0.9876684261919096 -0.03586624636317563 0.9876684261919096 -0.03586624636317563 0.012331573808090527 0.035866246363175626
5.470171017884717E7 0.012385831812047636 0.03639886478430034 0.9876141681879524 -0.03639886478430035 0.9876141681879524 -0.03639886478430035 0.012385831812047636 0.03639886478430034
5.5527235771465644E7 0.01244157574996813 0.03693927254155376 0.9875584242500319 -0.03693927254155376 0.9875584242500319 -0.03693927254155376 0.01244157574996813 0.03693927254155376
5.6365219704085544E7 0.012498845882260209 0.037487579734567796 0.9875011541177398 -0.037487579734567796 0.9875011541177398 -0.037487579734567796 0.012498845882260209 0.037487579734567796
5.721584999054556E7 0.012557683577701968 0.03804389793291257 0.987442316422298 -0.03804389793291257 0.987442316422298 -0.03804389793291257 0.012557683577701968 0.03804389793291257
5.807931748207712E7 0.012618131347607354 0.03860834019101437 0.9873818686523926 -0.03860834019101437 0.9873818686523926 -0.03860834019101437 0.012618131347607354 0.03860834019101437
5.8955815910124585E7 0.012680232881038802 0.0391810210627324 0.9873197671189612 -0.0391810210627324 0.9873197671189612 -0.0391810210627324 0.012680232881038802 0.0391810210627324
5.984554192981184E7 0.012744033081077476 0.039762056615556776 0.9872559669189226 -0.039762056615556776 0.9872559669189226 -0.039762056615556776 0.012744033081077476 0.039762056615556776
6.074869516406457E7 0.012809578102160546 0.04035156444438883 0.9871904218978395 -0.04035156444438883 0.9871904218978395 -0.04035156444438883 0.012809578102160546 0.04035156444438883
6.166547824839868E7 0.012876915388493261 0.040949663684865516 0.9871230846115067 -0.04094966368486552 0.9871230846115067 -0.04094966368486552 0.012876915388493261 0.040949663684865516
6.2596096876384385E7 0.012946093713541839 0.04155647502618725 0.9870539062864581 -0.04155647502618725 0.9870539062864581 -0.04155647502618725 0.012946093713541839 0.04155647502618725
6.354075984579668E7 0.013017163220611602 0.042172120723410256 0.9869828367793884 -0.042172120723410256 0.9869828367793884 -0.042172120723410256 0.013017163220611602 0.042172120723410256
6.449967910546205E7 0.013090175464513047 0.04279672460916252 0.986909824535487 -0.04279672460916252 0.986909824535487 -0.04279672460916252 0.013090175464513047 0.04279672460916252
6.547306980281226E7 0.013165183454316562 0.043430412104743285 0.9868348165456834 -0.04343041210474328 0.9868348165456834 -0.04343041210474328 0.013165183454316562 0.043430412104743285
6.646115033215589E7 0.013242241697195364 0.04407331023056619 0.9867577583028045 -0.04407331023056618 0.9867577583028045 -0.04407331023056618 0.013242241697195364 0.04407331023056619
6.746414238367817E7 0.013321406243353606 0.04472554761590506 0.9866785937566462 -0.04472554761590506 0.9866785937566462 -0.04472554761590506 0.013321406243353606 0.04472554761590506
6.848227099318038E7 0.013402734732035976 0.04538725450790383 0.986597265267964 -0.045387254507903825 0.986597265267964 -0.045387254507903825 0.013402734732035976 0.04538725450790383
6.951576459256999E7 0.013486286438612561 0.04605856277981004 0.9865137135613875 -0.04605856277981003 0.9865137135613875 -0.04605856277981003 0.013486286438612561 0.04605856277981004
7.056485506111258E7 0.013572122322731705 0.046739605938394095 0.9864278776772681 -0.046739605938394095 0.9864278776772681 -0.046739605938394095 0.013572122322731705 0.046739605938394095
7.162977777745734E7 0.013660305077531965 0.047430519130515866 0.986339694922468 -0.047430519130515866 0.986339694922468 -0.047430519130515866 0.013660305077531965 0.047430519130515866
7.271077167244768E7 0.013750899179902729 0.04813143914880155 0.9862491008200972 -0.04813143914880156 0.9862491008200972 -0.04813143914880156 0.013750899179902729 0.04813143914880155
7.380807928272885E7 0.013843970941781783 0.048842504436394506 0.9861560290582181 -0.0488425044363945 0.9861560290582181 -0.0488425044363945 0.013843970941781783 0.048842504436394506
7.492194680516452E7 0.013939588562476929 0.04956385509074492 0.9860604114375231 -0.04956385509074492 0.9860604114375231 -0.04956385509074492 0.013939588562476929 0.04956385509074492
7.60526241520746E7 0.014037822181997686 0.050295632866404594 0.9859621778180023 -0.050295632866404594 0.9859621778180023 -0.050295632866404594 0.014037822181997686 0.050295632866404594
7.720036500730675E7 0.014138743935381903 0.051037981176793694 0.9858612560646182 -0.051037981176793694 0.9858612560646182 -0.051037981176793694 0.014138743935381903 0.051037981176793694
7.836542688315398E7 0.014242428008001464 0.051791045094908374 0.9857575719919988 -0.051791045094908374 0.9857575719919988 -0.051791045094908374 0.014242428008001464 0.051791045094908374
7.954807117813127E7 0.014348950691830531 0.05255497135293932 0.9856510493081695 -0.05255497135293932 0.9856510493081695 -0.05255497135293932 0.014348950691830531 0.05255497135293932
8.074856323562416E7 0.014458390442659041 0.053329908340772496 0.9855416095573408 -0.053329908340772496 0.9855416095573408 -0.053329908340772496 0.014458390442659041 0.053329908340772496
8.196717240342227E7 0.01457082793823396 0.05411600610334514 0.9854291720617661 -0.05411600610334514 0.9854291720617661 -0.05411600610334514 0.01457082793823396 0.05411600610334514
8.320417209415154E7 0.014686346137310484 0.054913416336831986 0.9853136538626898 -0.054913416336831986 0.9853136538626898 -0.054913416336831986 0.014686346137310484 0.054913416336831986
8.445983984661816E7 0.014805030339595031 0.05572229238363694 0.985194969660405 -0.05572229238363694 0.985194969660405 -0.05572229238363694 0.014805030339595031 0.05572229238363694
8.573445738807854E7 0.014926968246562575 0.05654278922616915 0.9850730317534375 -0.056542789226169156 0.9850730317534375 -0.056542789226169156 0.014926968246562575 0.05654278922616915
8.702831069744885E7 0.015052250023130284 0.0573750634793814 0.9849477499768696 -0.0573750634793814 0.9849477499768696 -0.0573750634793814 0.015052250023130284 0.0573750634793814
8.834169006946853E7 0.015180968360170327 0.05821927338205246 0.9848190316398294 -0.058219273382052454 0.9848190316398294 -0.058219273382052454 0.015180968360170327 0.05821927338205246
8.96748901798321E7 0.015313218537845548 0.05907557878679593 0.9846867814621544 -0.05907557878679593 0.9846867814621544 -0.05907557878679593 0.015313218537845548 0.05907557878679593
9.1028210151304E7 0.015449098489751421 0.05994414114877851 0.9845509015102487 -0.05994414114877851 0.9845509015102487 -0.05994414114877851 0.015449098489751421 0.05994414114877851
9.240195362083109E7 0.015588708867849908 0.06082512351313376 0.98441129113215 -0.06082512351313376 0.98441129113215 -0.06082512351313376 0.015588708867849908 0.06082512351313376
9.379642880766791E7 0.01573215310818073 0.06171869050105773 0.9842678468918195 -0.06171869050105773 0.9842678468918195 -0.06171869050105773 0.01573215310818073 0.06171869050105773
9.521194858253023E7 0.01587953749733755 0.06262500829457407 0.9841204625026626 -0.06262500829457407 0.9841204625026626 -0.06262500829457407 0.01587953749733755 0.06262500829457407
9.664883053779216E7 0.01603097123969758 0.06354424461995861 0.9839690287603025 -0.06354424461995861 0.9839690287603025 -0.06354424461995861 0.01603097123969758 0.06354424461995861
9.810739705874248E7 0.016186566525394595 0.06447656872981253 0.9838134334746055 -0.06447656872981253 0.9838134334746055 -0.06447656872981253 0.016186566525394595 0.06447656872981253
9.958797539591652E7 0.01634643859902724 0.06542215138377626 0.9836535614009728 -0.06542215138377626 0.9836535614009728 -0.06542215138377626 0.01634643859902724 0.06542215138377626
1.0109089773851961E8 0.01651070582909613 0.06638116482787622 0.9834892941709039 -0.06638116482787623 0.9834892941709039 -0.06638116482787623 0.01651070582909613 0.06638116482787622
1.0261650128895843E8 0.016679489778165187 0.06735378277249704 0.9833205102218349 -0.06735378277249704 0.9833205102218349 -0.06735378277249704 0.016679489778165187 0.06735378277249704
1.0416512833849736E8 0.01685291527374485 0.06834018036897324 0.9831470847262552 -0.06834018036897324 0.9831470847262552 -0.06834018036897324 0.01685291527374485 0.06834018036897324
1.0573712634405641E8 0.017031110479896812 0.06934053418479433 0.9829688895201033 -0.06934053418479433 0.9829688895201033 -0.06934053418479433 0.017031110479896812 0.06934053418479433
1.0733284800616828E8 0.017214206969562627 0.07035502217741842 0.9827857930304374 -0.07035502217741842 0.9827857930304374 -0.07035502217741842 0.017214206969562627 0.07035502217741842
1.0895265134811176E8 0.017402339797620594 0.07138382366668884 0.9825976602023794 -0.07138382366668884 0.9825976602023794 -0.07138382366668884 0.017402339797620594 0.07138382366668884
1.1059689979623953E8 0.01759564757467809 0.07242711930584858 0.9824043524253219 -0.07242711930584858 0.9824043524253219 -0.07242711930584858 0.01759564757467809 0.07242711930584858
1.1226596226151802E8 0.01779427254160945 0.07348509105114787 0.9822057274583907 -0.07348509105114787 0.9822057274583907 -0.07348509105114787 0.01779427254160945 0.07348509105114787
1.1396021322229806E8 0.017998360644852118 0.07455792213003959 0.9820016393551476 -0.07455792213003959 0.9820016393551476 -0.07455792213003959 0.017998360644852118 0.07455792213003959
1.1568003280833441E8 0.01820806161247674 0.07564579700795625 0.9817919383875233 -0.07564579700795625 0.9817919383875233 -0.07564579700795625 0.01820806161247674 0.07564579700795625
1.1742580688607343E8 0.018423529031050108 0.07674890135366261 0.98157647096895 -0.07674890135366261 0.98157647096895 -0.07674890135366261 0.018423529031050108 0.07674890135366261
1.1919792714522783E8 0.01864492042331322 0.07786742200317666 0.9813550795766868 -0.07786742200317666 0.9813550795766868 -0.07786742200317666 0.01864492042331322 0.07786742200317666
1.2099679118665792E8 0.018872397326699635 0.07900154692225052 0.9811276026733003 -0.07900154692225052 0.9811276026733003 -0.07900154692225052 0.018872397326699635 0.07900154692225052
1.2282280261157903E8 0.019106125372723305 0.08015146516740182 0.9808938746272766 -0.08015146516740182 0.9808938746272766 -0.08015146516740182 0.019106125372723305 0.08015146516740182
1.2467637111211549E8 0.0193462743672684 0.08131736684548481 0.9806537256327316 -0.08131736684548481 0.9806537256327316 -0.08131736684548481 0.0193462743672684 0.08131736684548481
1.265579125632208E8 0.019593018371817206 0.08249944307178747 0.9804069816281828 -0.08249944307178747 0.9804069816281828 -0.08249944307178747 0.019593018371817206 0.08249944307178747
1.284678491159853E8 0.019846535785656365 0.08369788592664042 0.9801534642143435 -0.08369788592664042 0.9801534642143435 -0.08369788592664042 0.019846535785656365 0.08369788592664042
1.3040660929235186E8 0.020107009429105704 0.0849128884105201 0.9798929905708944 -0.0849128884105201 0.9798929905708944 -0.0849128884105201 0.020107009429105704 0.0849128884105201
1.3237462808126101E8 0.02037462662781735 0.0861446443976254 0.9796253733721826 -0.08614464439762541 0.9796253733721826 -0.08614464439762541 0.02037462662781735 0.0861446443976254
1.3437234703624701E8 0.02064957929819785 0.08739334858790548 0.9793504207018022 -0.08739334858790548 0.9793504207018022 -0.08739334858790548 0.02064957929819785 0.08739334858790548
1.364002143745067E8 0.020932064034009504 0.08865919645751053 0.9790679359659906 -0.08865919645751053 0.9790679359659906 -0.08865919645751053 0.020932064034009504 0.08865919645751053
1.3845868507746372E8 0.0212222821942122 0.08994238420763663 0.9787777178057878 -0.08994238420763663 0.9787777178057878 -0.08994238420763663 0.0212222821942122 0.08994238420763663
1.405482209928499E8 0.021520439992110563 0.09124310871172765 0.9784795600078894 -0.09124310871172765 0.9784795600078894 -0.09124310871172765 0.021520439992110563 0.09124310871172765
1.426692909383278E8 0.021826748585876417 0.09256156746099532 0.9781732514141236 -0.09256156746099532 0.9781732514141236 -0.09256156746099532 0.021826748585876417 0.09256156746099532
1.4482237080667645E8 0.02214142417052075 0.09389795850821205 0.9778585758294792 -0.09389795850821203 0.9778585758294792 -0.09389795850821203 0.02214142417052075 0.09389795850821205
1.4700794367256513E8 0.022464688071393544 0.09525248040972453 0.9775353119286064 -0.09525248040972453 0.9775353119286064 -0.09525248040972453 0.022464688071393544 0.09525248040972453
1.492264999009378E8 0.022796766839294588 0.09662533216563088 0.9772032331607055 -0.09662533216563088 0.9772032331607055 -0.09662533216563088 0.022796766839294588 0.09662533216563088
1.5147853725703382E8 0.023137892347282748 0.0980167131580561 0.9768621076527172 -0.0980167131580561 0.9768621076527172 -0.0980167131580561 0.023137892347282748 0.0980167131580561
1.5376456101806876E8 0.023488301889274952 0.0994268230874532 0.976511698110725 -0.0994268230874532 0.976511698110725 -0.0994268230874532 0.023488301889274952 0.0994268230874532
1.5608508408660066E8 0.023848238280530776 0.10085586190684871 0.9761517617194694 -0.10085586190684871 0.9761517617194694 -0.10085586190684871 0.023848238280530776 0.10085586190684871
1.5844062710560706E8 0.02421794996012161 0.10230402975394177 0.9757820500398784 -0.10230402975394177 0.9757820500398784 -0.10230402975394177 0.02421794996012161 0.10230402975394177
1.6083171857529896E8 0.024597691095488067 0.10377152688095774 0.975402308904512 -0.10377152688095774 0.975402308904512 -0.10377152688095774 0.024597691095488067 0.10377152688095774
1.632588949716973E8 0.024987721689190848 0.10525855358214309 0.9750122783108092 -0.10525855358214307 0.9750122783108092 -0.10525855358214307 0.024987721689190848 0.10525855358214309
1.6572270086699936E8 0.025388307687965243 0.10676531011878182 0.9746116923120347 -0.10676531011878182 0.9746116923120347 -0.10676531011878182 0.025388307687965243 0.10676531011878182
1.6822368905176118E8 0.025799721094189442 0.10829199664159603 0.9742002789058106 -0.10829199664159606 0.9742002789058106 -0.10829199664159606 0.025799721094189442 0.10829199664159603
1.7076242065892437E8 0.026222240079880763 0.10983881311038479 0.9737777599201193 -0.10983881311038479 0.9737777599201193 -0.10983881311038479 0.026222240079880763 0.10983881311038479
1.7333946528971428E8 0.026656149103333426 0.11140595921073777 0.9733438508966665 -0.1114059592107378 0.9733438508966665 -0.1114059592107378 0.026656149103333426 0.11140595921073777
1.7595540114143828E8 0.027101739028512702 0.1129936342676484 0.9728982609714872 -0.1129936342676484 0.9728982609714872 -0.1129936342676484 0.027101739028512702 0.1129936342676484
1.786108151372127E8 0.02755930724731985 0.11460203715583328 0.9724406927526801 -0.11460203715583328 0.9724406927526801 -0.11460203715583328 0.02755930724731985 0.11460203715583328
1.8130630305764765E8 0.028029157804840547 0.1162313662065503 0.9719708421951594 -0.1162313662065503 0.9719708421951594 -0.1162313662065503 0.028029157804840547 0.1162313662065503
1.840424696745189E8 0.028511601527687242 0.11788181911068836 0.9714883984723127 -0.11788181911068836 0.9714883984723127 -0.11788181911068836 0.028511601527687242 0.11788181911068836
1.8681992888645732E8 0.029006956155542475 0.1195535928178862 0.9709930438444576 -0.1195535928178862 0.9709930438444576 -0.1195535928178862 0.029006956155542475 0.1195535928178862
1.8963930385668582E8 0.029515546476005412 0.12124688343141735 0.9704844535239946 -0.12124688343141735 0.9704844535239946 -0.12124688343141735 0.029515546476005412 0.12124688343141735
1.92501227152835E8 0.030037704462837416 0.12296188609855921 0.9699622955371625 -0.12296188609855922 0.9699622955371625 -0.12296188609855922 0.030037704462837416 0.12296188609855921
1.9540634088886917E8 0.030573769417695285 0.1246987948961457 0.9694262305823048 -0.12469879489614573 0.9694262305823048 -0.12469879489614573 0.030573769417695285 0.1246987948961457
1.983552968691535E8 0.031124088115431436 0.12645780271098045 0.9688759118845686 -0.12645780271098045 0.9688759118845686 -0.12645780271098045 0.031124088115431436 0.12645780271098045
2.0134875673469606E8 0.031689014953029344 0.12823910111476852 0.9683109850469707 -0.12823910111476855 0.9683109850469707 -0.12823910111476855 0.031689014953029344 0.12823910111476852
2.0438739211159652E8 0.03226891210223008 0.13004288023320246 0.9677310878977698 -0.13004288023320246 0.9677310878977698 -0.13004288023320246 0.03226891210223008 0.13004288023320246
2.074718847617352E8 0.03286414966589121 0.13186932860881712 0.9671358503341088 -0.1318693286088171 0.9671358503341088 -0.1318693286088171 0.03286414966589121 0.13186932860881712
2.106029267357361E8 0.03347510583810309 0.1337186330572079 0.966524894161897 -0.1337186330572079 0.966524894161897 -0.1337186330572079 0.03347510583810309 0.1337186330572079
2.1378122052823865E8 0.03410216706806819 0.13559097851618257 0.9658978329319318 -0.13559097851618257 0.9658978329319318 -0.13559097851618257 0.03410216706806819 0.13559097851618257
2.1700747923551247E8 0.03474572822772979 0.13748654788739936 0.9652542717722702 -0.13748654788739934 0.9652542717722702 -0.13748654788739934 0.03474572822772979 0.13748654788739936
2.2028242671545094E8 0.03540619278311216 0.13940552187002078 0.9645938072168877 -0.13940552187002078 0.9645938072168877 -0.13940552187002078 0.03540619278311216 0.13940552187002078
2.23606797749979E8 0.03608397296930987 0.14134807878589314 0.9639160270306901 -0.14134807878589314 0.9639160270306901 -0.14134807878589314 0.03608397296930987 0.14134807878589314
2.2698133820991236E8 0.03677948996903653 0.14331439439574284 0.9632205100309634 -0.14331439439574287 0.9632205100309634 -0.14331439439574287 0.03677948996903653 0.14331439439574284
2.3040680522230446E8 0.03749317409461326 0.14530464170586216 0.9625068259053868 -0.14530464170586216 0.9625068259053868 -0.14530464170586216 0.03749317409461326 0.14530464170586216
2.338839673403185E8 0.03822546497324475 0.1473189907647375 0.9617745350267553 -0.1473189907647375 0.9617745350267553 -0.1473189907647375 0.03822546497324475 0.1473189907647375
2.37413604715664E8 0.03897681173539772 0.14935760844906296 0.9610231882646023 -0.14935760844906296 0.9610231882646023 -0.14935760844906296 0.03897681173539772 0.14935760844906296
2.4099650927363476E8 0.03974767320605792 0.1514206582385592 0.960252326793942 -0.15142065823855919 0.960252326793942 -0.15142065823855919 0.03974767320605792 0.1514206582385592
2.446334848907889E8 0.04053851809860464 0.15350829997901413 0.9594614819013952 -0.15350829997901413 0.9594614819013952 -0.15350829997901413 0.04053851809860464 0.15350829997901413
2.4832534757531032E8 0.04134982521099978 0.15562068963294418 0.9586501747890003 -0.1556206896329442 0.9586501747890003 -0.1556206896329442 0.04134982521099978 0.15562068963294418
