!Murata Part Number: LQP02TQ0N8B02
!These Parameters are Measured in Series Mode Connection
!       o--[Z]--o
!Port1              Port2
!       o-------o
!
!Freq. Start=50[MHz] Stop=20[GHz], 401[Steps]
# Hz S RI R 50
!Freq.(Hz) S11(Real) S11(Imag) S21(Real) S21(Imag) S12(Real) S12(Imag) S22(Real) S22(Imag)
5.0E7 5.116895769824979E-4 0.002981127586105583 0.9994883104230176 -0.002981127586105583 0.9994883104230176 -0.002981127586105583 5.116895769824979E-4 0.002981127586105583
5.0754570186123446E7 5.135002511439665E-4 0.0030257309192302452 0.999486499748856 -0.0030257309192302452 0.999486499748856 -0.0030257309192302452 5.135002511439665E-4 0.0030257309192302452
5.152052789556263E7 5.153595936030371E-4 0.003070991661599833 0.999484640406397 -0.003070991661599833 0.999484640406397 -0.003070991661599833 5.153595936030371E-4 0.003070991661599833
5.229804498202928E7 5.172687448192715E-4 0.0031169191515235365 0.9994827312551807 -0.0031169191515235365 0.9994827312551807 -0.0031169191515235365 5.172687448192715E-4 0.0031169191515235365
5.308729589274893E7 5.192288634886451E-4 0.0031635228505190144 0.9994807711365115 -0.0031635228505190144 0.9994807711365115 -0.0031635228505190144 5.192288634886451E-4 0.0031635228505190144
5.388845770760058E7 5.212411264322085E-4 0.003210812344895565 0.9994787588735679 -0.003210812344895565 0.9994787588735679 -0.003210812344895565 5.212411264322085E-4 0.003210812344895565
5.470171017884717E7 5.233067284650276E-4 0.0032587973473754512 0.9994766932715349 -0.0032587973473754517 0.9994766932715349 -0.0032587973473754517 5.233067284650276E-4 0.0032587973473754512
5.5527235771465644E7 5.254268822453068E-4 0.0033074876987554836 0.9994745731177547 -0.0033074876987554845 0.9994745731177547 -0.0033074876987554845 5.254268822453068E-4 0.0033074876987554836
5.6365219704085544E7 5.276028181036921E-4 0.003356893369611051 0.9994723971818964 -0.003356893369611051 0.9994723971818964 -0.003356893369611051 5.276028181036921E-4 0.003356893369611051
5.721584999054556E7 5.298357838528574E-4 0.0034070244620448796 0.9994701642161471 -0.003407024462044879 0.9994701642161471 -0.003407024462044879 5.298357838528574E-4 0.0034070244620448796
5.807931748207712E7 5.321270445775865E-4 0.0034578912114828727 0.9994678729554224 -0.0034578912114828727 0.9994678729554224 -0.0034578912114828727 5.321270445775865E-4 0.0034578912114828727
5.8955815910124585E7 5.344778824056864E-4 0.0035095039885194457 0.9994655221175943 -0.003509503988519445 0.9994655221175943 -0.003509503988519445 5.344778824056864E-4 0.0035095039885194457
5.984554192981184E7 5.368895962601972E-4 0.0035618733008148788 0.9994631104037398 -0.0035618733008148796 0.9994631104037398 -0.0035618733008148796 5.368895962601972E-4 0.0035618733008148788
6.074869516406457E7 5.39363501593503E-4 0.003615009795047217 0.9994606364984066 -0.003615009795047216 0.9994606364984066 -0.003615009795047216 5.39363501593503E-4 0.003615009795047217
6.166547824839868E7 5.419009301041043E-4 0.0036689242589213675 0.9994580990698959 -0.003668924258921368 0.9994580990698959 -0.003668924258921368 5.419009301041043E-4 0.0036689242589213675
6.2596096876384385E7 5.44503229436962E-4 0.003723627623238055 0.9994554967705629 -0.003723627623238055 0.9994554967705629 -0.003723627623238055 5.44503229436962E-4 0.003723627623238055
6.354075984579668E7 5.471717628684993E-4 0.003779130964025345 0.9994528282371316 -0.003779130964025345 0.9994528282371316 -0.003779130964025345 5.471717628684993E-4 0.003779130964025345
6.449967910546205E7 5.499079089775216E-4 0.0038354455047354807 0.9994500920910224 -0.0038354455047354807 0.9994500920910224 -0.0038354455047354807 5.499079089775216E-4 0.0038354455047354807
6.547306980281226E7 5.527130613035095E-4 0.0038925826185098327 0.9994472869386963 -0.0038925826185098327 0.9994472869386963 -0.0038925826185098327 5.527130613035095E-4 0.0038925826185098327
6.646115033215589E7 5.555886279939192E-4 0.003950553830514708 0.9994444113720061 -0.003950553830514708 0.9994444113720061 -0.003950553830514708 5.555886279939192E-4 0.003950553830514708
6.746414238367817E7 5.585360314423456E-4 0.004009370820350816 0.9994414639685577 -0.004009370820350816 0.9994414639685577 -0.004009370820350816 5.585360314423456E-4 0.004009370820350816
6.848227099318038E7 5.615567079196017E-4 0.004069045424539158 0.9994384432920803 -0.004069045424539158 0.9994384432920803 -0.004069045424539158 5.615567079196017E-4 0.004069045424539158
6.951576459256999E7 5.646521071999994E-4 0.004129589639086102 0.9994353478927999 -0.004129589639086102 0.9994353478927999 -0.004129589639086102 5.646521071999994E-4 0.004129589639086102
7.056485506111258E7 5.678236921853147E-4 0.004191015622130267 0.9994321763078146 -0.004191015622130267 0.9994321763078146 -0.004191015622130267 5.678236921853147E-4 0.004191015622130267
7.162977777745734E7 5.710729385291867E-4 0.004253335696673931 0.9994289270614708 -0.00425333569667393 0.9994289270614708 -0.00425333569667393 5.710729385291867E-4 0.004253335696673931
7.271077167244768E7 5.744013342648904E-4 0.00431656235340144 0.999425598665735 -0.0043165623534014395 0.999425598665735 -0.0043165623534014395 5.744013342648904E-4 0.00431656235340144
7.380807928272885E7 5.778103794396919E-4 0.004380708253587112 0.9994221896205603 -0.004380708253587112 0.9994221896205603 -0.004380708253587112 5.778103794396919E-4 0.004380708253587112
7.492194680516452E7 5.813015857592113E-4 0.0044457862320949285 0.9994186984142408 -0.0044457862320949285 0.9994186984142408 -0.0044457862320949285 5.813015857592113E-4 0.0044457862320949285
7.60526241520746E7 5.848764762454609E-4 0.004511809300472235 0.9994151235237545 -0.004511809300472235 0.9994151235237545 -0.004511809300472235 5.848764762454609E-4 0.004511809300472235
7.720036500730675E7 5.885365849124544E-4 0.004578790650139431 0.9994114634150875 -0.004578790650139431 0.9994114634150875 -0.004578790650139431 5.885365849124544E-4 0.004578790650139431
7.836542688315398E7 5.922834564635241E-4 0.0046467436556775375 0.9994077165435366 -0.0046467436556775375 0.9994077165435366 -0.0046467436556775375 5.922834564635241E-4 0.0046467436556775375
7.954807117813127E7 5.961186460146862E-4 0.004715681878215199 0.9994038813539853 -0.004715681878215199 0.9994038813539853 -0.004715681878215199 5.961186460146862E-4 0.004715681878215199
8.074856323562416E7 6.000437188486394E-4 0.004785619068916606 0.9993999562811513 -0.0047856190689166056 0.9993999562811513 -0.0047856190689166056 6.000437188486394E-4 0.004785619068916606
8.196717240342227E7 6.040602502041533E-4 0.004856569172571386 0.9993959397497958 -0.004856569172571386 0.9993959397497958 -0.004856569172571386 6.040602502041533E-4 0.004856569172571386
8.320417209415154E7 6.081698251058269E-4 0.004928546331287398 0.9993918301748942 -0.004928546331287398 0.9993918301748942 -0.004928546331287398 6.081698251058269E-4 0.004928546331287398
8.445983984661816E7 6.123740382393546E-4 0.0050015648882869275 0.9993876259617607 -0.005001564888286928 0.9993876259617607 -0.005001564888286928 6.123740382393546E-4 0.0050015648882869275
8.573445738807854E7 6.166744938776165E-4 0.005075639391806561 0.9993833255061224 -0.005075639391806561 0.9993833255061224 -0.005075639391806561 6.166744938776165E-4 0.005075639391806561
8.702831069744885E7 6.210728058630307E-4 0.005150784599100589 0.9993789271941371 -0.005150784599100589 0.9993789271941371 -0.005150784599100589 6.210728058630307E-4 0.005150784599100589
8.834169006946853E7 6.255705976517463E-4 0.0052270154805474575 0.9993744294023481 -0.005227015480547457 0.9993744294023481 -0.005227015480547457 6.255705976517463E-4 0.0052270154805474575
8.96748901798321E7 6.301695024253353E-4 0.005304347223858388 0.9993698304975746 -0.005304347223858388 0.9993698304975746 -0.005304347223858388 6.301695024253353E-4 0.005304347223858388
9.1028210151304E7 6.348711632757131E-4 0.005382795238386877 0.9993651288367243 -0.005382795238386876 0.9993651288367243 -0.005382795238386876 6.348711632757131E-4 0.005382795238386877
9.240195362083109E7 6.396772334690612E-4 0.005462375159537346 0.9993603227665309 -0.005462375159537345 0.9993603227665309 -0.005462375159537345 6.396772334690612E-4 0.005462375159537346
9.379642880766791E7 6.445893767945188E-4 0.005543102853270787 0.9993554106232055 -0.005543102853270786 0.9993554106232055 -0.005543102853270786 6.445893767945188E-4 0.005543102853270787
9.521194858253023E7 6.496092680033871E-4 0.0056249944207047604 0.9993503907319966 -0.0056249944207047604 0.9993503907319966 -0.0056249944207047604 6.496092680033871E-4 0.0056249944207047604
9.664883053779216E7 6.547385933445315E-4 0.0057080662028047065 0.9993452614066556 -0.0057080662028047065 0.9993452614066556 -0.0057080662028047065 6.547385933445315E-4 0.0057080662028047065
9.810739705874248E7 6.599790512015401E-4 0.0057923347851629265 0.9993400209487986 -0.005792334785162927 0.9993400209487986 -0.005792334785162927 6.599790512015401E-4 0.0057923347851629265
9.958797539591652E7 6.65332352837073E-4 0.005877817002861258 0.9993346676471629 -0.005877817002861257 0.9993346676471629 -0.005877817002861257 6.65332352837073E-4 0.005877817002861258
1.0109089773851961E8 6.70800223249635E-4 0.005964529945412872 0.9993291997767504 -0.005964529945412872 0.9993291997767504 -0.005964529945412872 6.70800223249635E-4 0.005964529945412872
1.0261650128895843E8 6.763844021477769E-4 0.006052490961778203 0.9993236155978522 -0.006052490961778204 0.9993236155978522 -0.006052490961778204 6.763844021477769E-4 0.006052490961778203
1.0416512833849736E8 6.820866450464474E-4 0.006141717665449494 0.9993179133549536 -0.006141717665449495 0.9993179133549536 -0.006141717665449495 6.820866450464474E-4 0.006141717665449494
1.0573712634405641E8 6.879087244899098E-4 0.00623222793959805 0.9993120912755099 -0.00623222793959805 0.9993120912755099 -0.00623222793959805 6.879087244899098E-4 0.00623222793959805
1.0733284800616828E8 6.938524314052442E-4 0.0063240399422777515 0.9993061475685947 -0.0063240399422777515 0.9993061475685947 -0.0063240399422777515 6.938524314052442E-4 0.0063240399422777515
1.0895265134811176E8 6.999195765900708E-4 0.0064171721116780345 0.99930008042341 -0.0064171721116780345 0.99930008042341 -0.0064171721116780345 6.999195765900708E-4 0.0064171721116780345
1.1059689979623953E8 7.061119923376452E-4 0.006511643171419054 0.9992938880076625 -0.006511643171419056 0.9992938880076625 -0.006511643171419056 7.061119923376452E-4 0.006511643171419054
1.1226596226151802E8 7.124315342019881E-4 0.006607472135881437 0.9992875684657981 -0.006607472135881437 0.9992875684657981 -0.006607472135881437 7.124315342019881E-4 0.006607472135881437
1.1396021322229806E8 7.188800829051585E-4 0.0067046783155626085 0.9992811199170948 -0.0067046783155626085 0.9992811199170948 -0.0067046783155626085 7.188800829051585E-4 0.0067046783155626085
1.1568003280833441E8 7.25459546388196E-4 0.0068032813224514505 0.9992745404536117 -0.006803281322451449 0.9992745404536117 -0.006803281322451449 7.25459546388196E-4 0.0068032813224514505
1.1742580688607343E8 7.321718620066211E-4 0.006903301075412673 0.9992678281379934 -0.006903301075412673 0.9992678281379934 -0.006903301075412673 7.321718620066211E-4 0.006903301075412673
1.1919792714522783E8 7.39018998870733E-4 0.007004757805572144 0.9992609810011293 -0.007004757805572144 0.9992609810011293 -0.007004757805572144 7.39018998870733E-4 0.007004757805572144
1.2099679118665792E8 7.460029603302377E-4 0.007107672061694179 0.99925399703967 -0.007107672061694179 0.99925399703967 -0.007107672061694179 7.460029603302377E-4 0.007107672061694179
1.2282280261157903E8 7.531257866020191E-4 0.007212064715541718 0.999246874213398 -0.007212064715541718 0.999246874213398 -0.007212064715541718 7.531257866020191E-4 0.007212064715541718
1.2467637111211549E8 7.603895575391136E-4 0.007317956967210177 0.9992396104424608 -0.007317956967210177 0.9992396104424608 -0.007317956967210177 7.603895575391136E-4 0.007317956967210177
1.265579125632208E8 7.677963955381795E-4 0.0074253703504258434 0.9992322036044619 -0.0074253703504258434 0.9992322036044619 -0.0074253703504258434 7.677963955381795E-4 0.0074253703504258434
1.284678491159853E8 7.753484685819647E-4 0.0075343267377996365 0.9992246515314183 -0.007534326737799637 0.9992246515314183 -0.007534326737799637 7.753484685819647E-4 0.0075343267377996365
1.3040660929235186E8 7.830479934124793E-4 0.007644848346027267 0.9992169520065874 -0.007644848346027267 0.9992169520065874 -0.007644848346027267 7.830479934124793E-4 0.007644848346027267
1.3237462808126101E8 7.908972388297825E-4 0.007756957741026933 0.99920910276117 -0.007756957741026933 0.99920910276117 -0.007756957741026933 7.908972388297825E-4 0.007756957741026933
1.3437234703624701E8 7.988985291104776E-4 0.007870677843005972 0.9992011014708896 -0.00787067784300597 0.9992011014708896 -0.00787067784300597 7.988985291104776E-4 0.007870677843005972
1.364002143745067E8 8.070542475392337E-4 0.007986031931448206 0.9991929457524608 -0.007986031931448206 0.9991929457524608 -0.007986031931448206 8.070542475392337E-4 0.007986031931448206
1.3845868507746372E8 8.153668400458599E-4 0.008103043650014168 0.9991846331599541 -0.008103043650014168 0.9991846331599541 -0.008103043650014168 8.153668400458599E-4 0.008103043650014168
1.405482209928499E8 8.238388189396878E-4 0.008221737011346656 0.9991761611810602 -0.008221737011346656 0.9991761611810602 -0.008221737011346656 8.238388189396878E-4 0.008221737011346656
1.426692909383278E8 8.324727667322964E-4 0.00834213640177488 0.9991675272332675 -0.00834213640177488 0.9991675272332675 -0.00834213640177488 8.324727667322964E-4 0.00834213640177488
1.4482237080667645E8 8.412713400388869E-4 0.00846426658591074 0.9991587286599612 -0.00846426658591074 0.9991587286599612 -0.00846426658591074 8.412713400388869E-4 0.00846426658591074
1.4700794367256513E8 8.502372735479618E-4 0.00858815271113173 0.9991497627264521 -0.008588152711131728 0.9991497627264521 -0.008588152711131728 8.502372735479618E-4 0.00858815271113173
1.492264999009378E8 8.593733840483138E-4 0.008713820311945382 0.9991406266159517 -0.008713820311945382 0.9991406266159517 -0.008713820311945382 8.593733840483138E-4 0.008713820311945382
1.5147853725703382E8 8.686825745017637E-4 0.00884129531423121 0.9991313174254981 -0.00884129531423121 0.9991313174254981 -0.00884129531423121 8.686825745017637E-4 0.00884129531423121
1.5376456101806876E8 8.781678381495518E-4 0.008970604039356705 0.9991218321618505 -0.008970604039356705 0.9991218321618505 -0.008970604039356705 8.781678381495518E-4 0.008970604039356705
1.5608508408660066E8 8.878322626398065E-4 0.009101773208164979 0.9991121677373602 -0.009101773208164979 0.9991121677373602 -0.009101773208164979 8.878322626398065E-4 0.009101773208164979
1.5844062710560706E8 8.976790341631199E-4 0.009234829944832467 0.9991023209658371 -0.009234829944832467 0.9991023209658371 -0.009234829944832467 8.976790341631199E-4 0.009234829944832467
1.6083171857529896E8 9.077114415828905E-4 0.009369801780596102 0.999092288558417 -0.009369801780596102 0.999092288558417 -0.009369801780596102 9.077114415828905E-4 0.009369801780596102
1.632588949716973E8 9.179328805468497E-4 0.009506716657350405 0.9990820671194532 -0.009506716657350403 0.9990820671194532 -0.009506716657350403 9.179328805468497E-4 0.009506716657350405
1.6572270086699936E8 9.283468575659292E-4 0.009645602931115816 0.999071653142434 -0.009645602931115814 0.999071653142434 -0.009645602931115814 9.283468575659292E-4 0.009645602931115816
1.6822368905176118E8 9.389569940465547E-4 0.009786489375380873 0.9990610430059533 -0.009786489375380873 0.9990610430059533 -0.009786489375380873 9.389569940465547E-4 0.009786489375380873
1.7076242065892437E8 9.497670302623354E-4 0.009929405184321626 0.9990502329697377 -0.009929405184321626 0.9990502329697377 -0.009929405184321626 9.497670302623354E-4 0.009929405184321626
1.7333946528971428E8 9.60780829251169E-4 0.010074379975903023 0.9990392191707487 -0.010074379975903023 0.9990392191707487 -0.010074379975903023 9.60780829251169E-4 0.010074379975903023
1.7595540114143828E8 9.72002380623859E-4 0.010221443794867868 0.999027997619376 -0.010221443794867868 0.999027997619376 -0.010221443794867868 9.72002380623859E-4 0.010221443794867868
1.786108151372127E8 9.834358042705058E-4 0.01037062711562015 0.9990165641957296 -0.01037062711562015 0.9990165641957296 -0.01037062711562015 9.834358042705058E-4 0.01037062711562015
1.8130630305764765E8 9.950853539511854E-4 0.01052196084501064 0.999004914646049 -0.01052196084501064 0.999004914646049 -0.01052196084501064 9.950853539511854E-4 0.01052196084501064
1.840424696745189E8 0.0010069554207577237 0.010675476325033538 0.9989930445792422 -0.010675476325033538 0.9989930445792422 -0.010675476325033538 0.0010069554207577237 0.010675476325033538
1.8681992888645732E8 0.0010190505364337879 0.010831205335444283 0.9989809494635661 -0.010831205335444283 0.9989809494635661 -0.010831205335444283 0.0010190505364337879 0.010831205335444283
1.8963930385668582E8 0.0010313753765409403 0.010989180096309368 0.9989686246234589 -0.010989180096309368 0.9989686246234589 -0.010989180096309368 0.0010313753765409403 0.010989180096309368
1.92501227152835E8 0.0010439347634588522 0.011149433270500228 0.9989560652365411 -0.011149433270500228 0.9989560652365411 -0.011149433270500228 0.0010439347634588522 0.011149433270500228
1.9540634088886917E8 0.0010567336692084428 0.01131199796614415 0.9989432663307916 -0.011311997966144148 0.9989432663307916 -0.011311997966144148 0.0010567336692084428 0.01131199796614415
1.983552968691535E8 0.0010697772180873644 0.011476907739046029 0.9989302227819126 -0.01147690773904603 0.9989302227819126 -0.01147690773904603 0.0010697772180873644 0.011476907739046029
2.0134875673469606E8 0.0010830706891079638 0.01164419659509588 0.9989169293108922 -0.011644196595095881 0.9989169293108922 -0.011644196595095881 0.0010830706891079638 0.01164419659509588
2.0438739211159652E8 0.001096619518228603 0.011813898992677619 0.9989033804817716 -0.01181389899267762 0.9989033804817716 -0.01181389899267762 0.001096619518228603 0.011813898992677619
2.074718847617352E8 0.001110429300370052 0.011986049845095725 0.99888957069963 -0.011986049845095725 0.99888957069963 -0.011986049845095725 0.001110429300370052 0.011986049845095725
2.106029267357361E8 0.0011245057912095025 0.012160684523036949 0.9988754942087904 -0.012160684523036949 0.9988754942087904 -0.012160684523036949 0.0011245057912095025 0.012160684523036949
2.1378122052823865E8 0.001138854908745691 0.012337838857085096 0.9988611450912545 -0.012337838857085098 0.9988611450912545 -0.012337838857085098 0.001138854908745691 0.012337838857085096
2.1700747923551247E8 0.0011534827346295269 0.01251754914030748 0.9988465172653704 -0.01251754914030748 0.9988465172653704 -0.01251754914030748 0.0011534827346295269 0.01251754914030748
2.2028242671545094E8 0.0011683955152556632 0.012699852130932521 0.9988316044847444 -0.012699852130932523 0.9988316044847444 -0.012699852130932523 0.0011683955152556632 0.012699852130932521
2.23606797749979E8 0.0011835996626113983 0.012884785055138142 0.9988164003373885 -0.012884785055138142 0.9988164003373885 -0.012884785055138142 0.0011835996626113983 0.012884785055138142
2.2698133820991236E8 0.0011991017548804324 0.01307238560997164 0.9988008982451195 -0.01307238560997164 0.9988008982451195 -0.01307238560997164 0.0011991017548804324 0.01307238560997164
2.3040680522230446E8 0.001214908536800021 0.013262691966421804 0.9987850914631998 -0.013262691966421804 0.9987850914631998 -0.013262691966421804 0.001214908536800021 0.013262691966421804
2.338839673403185E8 0.0012310269197712274 0.013455742772664694 0.9987689730802287 -0.01345574277266469 0.9987689730802287 -0.01345574277266469 0.0012310269197712274 0.013455742772664694
2.37413604715664E8 0.0012474639817231076 0.013651577157504901 0.9987525360182768 -0.013651577157504901 0.9987525360182768 -0.013651577157504901 0.0012474639817231076 0.013651577157504901
