!Murata Part Number: LQP02TQ3N7B02
!These Parameters are Measured in Series Mode Connection
!       o--[Z]--o
!Port1              Port2
!       o-------o
!
!Freq. Start=50[MHz] Stop=20[GHz], 401[Steps]
# Hz S RI R 50
!Freq.(Hz) S11(Real) S11(Imag) S21(Real) S21(Imag) S12(Real) S12(Imag) S22(Real) S22(Imag)
5.0E7 0.004964442109776422 0.012588195492961068 0.9950355578902236 -0.012588195492961068 0.9950355578902236 -0.012588195492961068 0.004964442109776422 0.012588195492961068
5.0754570186123446E7 0.004973649629157212 0.012777039495809992 0.9950263503708429 -0.012777039495809992 0.9950263503708429 -0.012777039495809992 0.004973649629157212 0.012777039495809992
5.152052789556263E7 0.00498312124313069 0.012968685819161515 0.9950168787568691 -0.012968685819161515 0.9950168787568691 -0.012968685819161515 0.00498312124313069 0.012968685819161515
5.229804498202928E7 0.004992864104189964 0.013163174872473678 0.9950071358958101 -0.013163174872473678 0.9950071358958101 -0.013163174872473678 0.004992864104189964 0.013163174872473678
5.308729589274893E7 0.005002885536856891 0.013360547609432933 0.9949971144631432 -0.013360547609432937 0.9949971144631432 -0.013360547609432937 0.005002885536856891 0.013360547609432933
5.388845770760058E7 0.005013193040818955 0.013560845534485519 0.9949868069591811 -0.013560845534485519 0.9949868069591811 -0.013560845534485519 0.005013193040818955 0.013560845534485519
5.470171017884717E7 0.00502379429408681 0.01376411070946655 0.9949762057059133 -0.013764110709466551 0.9949762057059133 -0.013764110709466551 0.00502379429408681 0.01376411070946655
5.5527235771465644E7 0.005034697156172355 0.013970385760331805 0.9949653028438278 -0.013970385760331808 0.9949653028438278 -0.013970385760331808 0.005034697156172355 0.013970385760331805
5.6365219704085544E7 0.005045909671287331 0.01417971388399754 0.9949540903287126 -0.01417971388399754 0.9949540903287126 -0.01417971388399754 0.005045909671287331 0.01417971388399754
5.721584999054556E7 0.005057440071562576 0.014392138855293784 0.9949425599284374 -0.014392138855293784 0.9949425599284374 -0.014392138855293784 0.005057440071562576 0.014392138855293784
5.807931748207712E7 0.0050692967802883765 0.014607705034037285 0.9949307032197116 -0.014607705034037285 0.9949307032197116 -0.014607705034037285 0.0050692967802883765 0.014607705034037285
5.8955815910124585E7 0.005081488415176497 0.014826457372230055 0.9949185115848233 -0.014826457372230055 0.9949185115848233 -0.014826457372230055 0.005081488415176497 0.014826457372230055
5.984554192981184E7 0.005094023791644847 0.015048441421390465 0.994905976208355 -0.015048441421390465 0.994905976208355 -0.015048441421390465 0.005094023791644847 0.015048441421390465
6.074869516406457E7 0.0051069119261259325 0.015273703340023478 0.9948930880738741 -0.015273703340023478 0.9948930880738741 -0.015273703340023478 0.0051069119261259325 0.015273703340023478
6.166547824839868E7 0.0051201620394006955 0.015502289901237679 0.9948798379605993 -0.015502289901237679 0.9948798379605993 -0.015502289901237679 0.0051201620394006955 0.015502289901237679
6.2596096876384385E7 0.005133783559959582 0.015734248500516357 0.9948662164400404 -0.015734248500516357 0.9948662164400404 -0.015734248500516357 0.005133783559959582 0.015734248500516357
6.354075984579668E7 0.005147786127393203 0.015969627163650996 0.9948522138726068 -0.015969627163650996 0.9948522138726068 -0.015969627163650996 0.005147786127393203 0.015969627163650996
6.449967910546205E7 0.005162179595815308 0.016208474554845143 0.9948378204041847 -0.01620847455484514 0.9948378204041847 -0.01620847455484514 0.005162179595815308 0.016208474554845143
6.547306980281226E7 0.005176974037321298 0.01645083998499756 0.9948230259626787 -0.01645083998499756 0.9948230259626787 -0.01645083998499756 0.005176974037321298 0.01645083998499756
6.646115033215589E7 0.005192179745486032 0.016696773420173533 0.994807820254514 -0.016696773420173533 0.994807820254514 -0.016696773420173533 0.005192179745486032 0.016696773420173533
6.746414238367817E7 0.005207807238905205 0.016946325490273497 0.9947921927610949 -0.016946325490273497 0.9947921927610949 -0.016946325490273497 0.005207807238905205 0.016946325490273497
6.848227099318038E7 0.005223867264785232 0.01719954749790882 0.9947761327352148 -0.01719954749790882 0.9947761327352148 -0.01719954749790882 0.005223867264785232 0.01719954749790882
6.951576459256999E7 0.005240370802587128 0.017456491427494357 0.9947596291974129 -0.017456491427494357 0.9947596291974129 -0.017456491427494357 0.005240370802587128 0.017456491427494357
7.056485506111258E7 0.005257329067730617 0.017717209954567936 0.9947426709322693 -0.017717209954567936 0.9947426709322693 -0.017717209954567936 0.005257329067730617 0.017717209954567936
7.162977777745734E7 0.005274753515365471 0.017981756455347216 0.9947252464846348 -0.017981756455347216 0.9947252464846348 -0.017981756455347216 0.005274753515365471 0.017981756455347216
7.271077167244768E7 0.0052926558442176926 0.018250185016534238 0.9947073441557823 -0.018250185016534238 0.9947073441557823 -0.018250185016534238 0.0052926558442176926 0.018250185016534238
7.380807928272885E7 0.005311048000519185 0.01852255044537864 0.9946889519994808 -0.01852255044537864 0.9946889519994808 -0.01852255044537864 0.005311048000519185 0.01852255044537864
7.492194680516452E7 0.0053299421820301625 0.018798908280009977 0.9946700578179699 -0.018798908280009977 0.9946700578179699 -0.018798908280009977 0.0053299421820301625 0.018798908280009977
7.60526241520746E7 0.00534935084216474 0.01907931480005048 0.9946506491578351 -0.01907931480005048 0.9946506491578351 -0.01907931480005048 0.00534935084216474 0.01907931480005048
7.720036500730675E7 0.005369286694230771 0.019363827037518835 0.994630713305769 -0.019363827037518832 0.994630713305769 -0.019363827037518832 0.005369286694230771 0.019363827037518835
7.836542688315398E7 0.005389762715796215 0.019652502788036045 0.9946102372842037 -0.019652502788036045 0.9946102372842037 -0.019652502788036045 0.005389762715796215 0.019652502788036045
7.954807117813127E7 0.005410792153195231 0.019945400622344324 0.9945892078468047 -0.019945400622344324 0.9945892078468047 -0.019945400622344324 0.005410792153195231 0.019945400622344324
8.074856323562416E7 0.005432388526188219 0.020242579898149548 0.9945676114738117 -0.020242579898149544 0.9945676114738117 -0.020242579898149544 0.005432388526188219 0.020242579898149548
8.196717240342227E7 0.005454565632791182 0.020544100772297864 0.9945454343672087 -0.020544100772297864 0.9945454343672087 -0.020544100772297864 0.005454565632791182 0.020544100772297864
8.320417209415154E7 0.005477337554290837 0.020850024213296903 0.9945226624457092 -0.020850024213296906 0.9945226624457092 -0.020850024213296906 0.005477337554290837 0.020850024213296903
8.445983984661816E7 0.0055007186604629985 0.02116041201419106 0.9944992813395368 -0.02116041201419106 0.9944992813395368 -0.02116041201419106 0.0055007186604629985 0.02116041201419106
8.573445738807854E7 0.005524723615013064 0.02147532680580091 0.9944752763849869 -0.021475326805800908 0.9944752763849869 -0.021475326805800908 0.005524723615013064 0.02147532680580091
8.702831069744885E7 0.005549367381258349 0.021794832070335245 0.9944506326187417 -0.021794832070335245 0.9944506326187417 -0.021794832070335245 0.005549367381258349 0.021794832070335245
8.834169006946853E7 0.005574665228073415 0.02211899215538444 0.9944253347719265 -0.02211899215538444 0.9944253347719265 -0.02211899215538444 0.005574665228073415 0.02211899215538444
8.96748901798321E7 0.005600632736120612 0.022447872288302775 0.9943993672638796 -0.02244787228830277 0.9943993672638796 -0.02244787228830277 0.005600632736120612 0.022447872288302775
9.1028210151304E7 0.005627285804389167 0.022781538590986684 0.9943727141956109 -0.022781538590986684 0.9943727141956109 -0.022781538590986684 0.005627285804389167 0.022781538590986684
9.240195362083109E7 0.005654640657067474 0.02312005809505496 0.9943453593429324 -0.02312005809505496 0.9943453593429324 -0.02312005809505496 0.005654640657067474 0.02312005809505496
9.379642880766791E7 0.005682713850774183 0.023463498757436113 0.9943172861492258 -0.02346349875743611 0.9943172861492258 -0.02346349875743611 0.005682713850774183 0.023463498757436113
9.521194858253023E7 0.0057115222821749415 0.023811929476366837 0.9942884777178249 -0.023811929476366837 0.9942884777178249 -0.023811929476366837 0.0057115222821749415 0.023811929476366837
9.664883053779216E7 0.0057410831960127 0.024165420107804675 0.9942589168039873 -0.024165420107804675 0.9942589168039873 -0.024165420107804675 0.0057410831960127 0.024165420107804675
9.810739705874248E7 0.005771414193580393 0.024524041482256138 0.9942285858064194 -0.024524041482256138 0.9942285858064194 -0.024524041482256138 0.005771414193580393 0.024524041482256138
9.958797539591652E7 0.005802533241666023 0.024887865422021007 0.9941974667583341 -0.024887865422021004 0.9941974667583341 -0.024887865422021004 0.005802533241666023 0.024887865422021007
1.0109089773851961E8 0.005834458682000805 0.02525696475885114 0.9941655413179993 -0.02525696475885114 0.9941655413179993 -0.02525696475885114 0.005834458682000805 0.02525696475885114
1.0261650128895843E8 0.005867209241242147 0.02563141335202145 0.994132790758758 -0.025631413352021452 0.994132790758758 -0.025631413352021452 0.005867209241242147 0.02563141335202145
1.0416512833849736E8 0.005900804041523797 0.026011286106808293 0.9940991959584761 -0.026011286106808293 0.9940991959584761 -0.026011286106808293 0.005900804041523797 0.026011286106808293
1.0573712634405641E8 0.005935262611606242 0.02639665899336939 0.9940647373883935 -0.02639665899336939 0.9940647373883935 -0.02639665899336939 0.005935262611606242 0.02639665899336939
1.0733284800616828E8 0.005970604898661024 0.026787609066017126 0.9940293951013389 -0.026787609066017126 0.9940293951013389 -0.026787609066017126 0.005970604898661024 0.026787609066017126
1.0895265134811176E8 0.006006851280723039 0.02718421448287546 0.9939931487192768 -0.027184214482875453 0.9939931487192768 -0.027184214482875453 0.006006851280723039 0.02718421448287546
1.1059689979623953E8 0.00604402257984529 0.02758655452590863 0.9939559774201546 -0.02758655452590863 0.9939559774201546 -0.02758655452590863 0.00604402257984529 0.02758655452590863
1.1226596226151802E8 0.006082140075990727 0.027994709621307845 0.9939178599240093 -0.02799470962130784 0.9939178599240093 -0.02799470962130784 0.006082140075990727 0.027994709621307845
1.1396021322229806E8 0.006121225521695901 0.028408761360219966 0.9938787744783041 -0.028408761360219966 0.9938787744783041 -0.028408761360219966 0.006121225521695901 0.028408761360219966
1.1568003280833441E8 0.006161301157541068 0.028828792519800146 0.9938386988424589 -0.028828792519800146 0.9938386988424589 -0.028828792519800146 0.006161301157541068 0.028828792519800146
1.1742580688607343E8 0.006202389728461255 0.029254887084568495 0.9937976102715388 -0.029254887084568495 0.9937976102715388 -0.029254887084568495 0.006202389728461255 0.029254887084568495
1.1919792714522783E8 0.006244514500932292 0.029687130268048107 0.9937554854990677 -0.029687130268048114 0.9937554854990677 -0.029687130268048114 0.006244514500932292 0.029687130268048107
1.2099679118665792E8 0.006287699281065453 0.0301256085346604 0.9937123007189347 -0.030125608534660397 0.9937123007189347 -0.030125608534660397 0.006287699281065453 0.0301256085346604
1.2282280261157903E8 0.006331968433643499 0.030570409621850703 0.9936680315663563 -0.0305704096218507 0.9936680315663563 -0.0305704096218507 0.006331968433643499 0.030570409621850703
1.2467637111211549E8 0.006377346902130228 0.03102162256241582 0.9936226530978698 -0.031021622562415828 0.9936226530978698 -0.031021622562415828 0.006377346902130228 0.03102162256241582
1.265579125632208E8 0.006423860229684533 0.03147933770700244 0.9935761397703156 -0.031479337707002446 0.9935761397703156 -0.031479337707002446 0.006423860229684533 0.03147933770700244
1.284678491159853E8 0.00647153458120882 0.03194364674674366 0.9935284654187911 -0.03194364674674366 0.9935284654187911 -0.03194364674674366 0.00647153458120882 0.03194364674674366
1.3040660929235186E8 0.006520396766460387 0.03241464273599897 0.9934796032335396 -0.03241464273599897 0.9934796032335396 -0.03241464273599897 0.006520396766460387 0.03241464273599897
1.3237462808126101E8 0.006570474264252764 0.03289242011516087 0.9934295257357472 -0.03289242011516087 0.9934295257357472 -0.03289242011516087 0.006570474264252764 0.03289242011516087
1.3437234703624701E8 0.006621795247772494 0.03337707473348975 0.9933782047522275 -0.03337707473348975 0.9933782047522275 -0.03337707473348975 0.006621795247772494 0.03337707473348975
1.364002143745067E8 0.006674388611035073 0.033868703871937085 0.993325611388965 -0.033868703871937085 0.993325611388965 -0.033868703871937085 0.006674388611035073 0.033868703871937085
1.3845868507746372E8 0.006728283996501789 0.03436740626591525 0.9932717160034982 -0.03436740626591525 0.9932717160034982 -0.03436740626591525 0.006728283996501789 0.03436740626591525
1.405482209928499E8 0.006783511823877278 0.0348732821279709 0.9932164881761227 -0.0348732821279709 0.9932164881761227 -0.0348732821279709 0.006783511823877278 0.0348732821279709
1.426692909383278E8 0.00684010332010548 0.03538643317031803 0.9931598966798945 -0.035386433170318025 0.9931598966798945 -0.035386433170318025 0.00684010332010548 0.03538643317031803
1.4482237080667645E8 0.006898090550579408 0.0359069626271851 0.9931019094494206 -0.03590696262718511 0.9931019094494206 -0.03590696262718511 0.006898090550579408 0.0359069626271851
1.4700794367256513E8 0.0069575064515779265 0.03643497527693023 0.993042493548422 -0.03643497527693022 0.993042493548422 -0.03643497527693022 0.0069575064515779265 0.03643497527693023
1.492264999009378E8 0.007018384863940335 0.03697057746387772 0.9929816151360598 -0.03697057746387772 0.9929816151360598 -0.03697057746387772 0.007018384863940335 0.03697057746387772
1.5147853725703382E8 0.0070807605679871965 0.03751387711982835 0.9929192394320129 -0.03751387711982835 0.9929192394320129 -0.03751387711982835 0.0070807605679871965 0.03751387711982835
1.5376456101806876E8 0.007144669319693342 0.038064983785196044 0.9928553306803067 -0.038064983785196044 0.9928553306803067 -0.038064983785196044 0.007144669319693342 0.038064983785196044
1.5608508408660066E8 0.007210147888116618 0.03862400862972273 0.9927898521118834 -0.03862400862972273 0.9927898521118834 -0.03862400862972273 0.007210147888116618 0.03862400862972273
1.5844062710560706E8 0.007277234094083486 0.03919106447272402 0.9927227659059165 -0.03919106447272402 0.9927227659059165 -0.03919106447272402 0.007277234094083486 0.03919106447272402
1.6083171857529896E8 0.007345966850130193 0.03976626580281828 0.9926540331498699 -0.03976626580281828 0.9926540331498699 -0.03976626580281828 0.007345966850130193 0.03976626580281828
1.632588949716973E8 0.007416386201695788 0.040349728797091845 0.9925836137983044 -0.040349728797091845 0.9925836137983044 -0.040349728797091845 0.007416386201695788 0.040349728797091845
1.6572270086699936E8 0.0074885333695611485 0.04094157133965458 0.9925114666304388 -0.04094157133965457 0.9925114666304388 -0.04094157133965457 0.0074885333695611485 0.04094157133965458
1.6822368905176118E8 0.007562450793525747 0.041541913039539906 0.9924375492064743 -0.04154191303953991 0.9924375492064743 -0.04154191303953991 0.007562450793525747 0.041541913039539906
1.7076242065892437E8 0.007638182177311938 0.042150875247905485 0.992361817822688 -0.04215087524790548 0.992361817822688 -0.04215087524790548 0.007638182177311938 0.042150875247905485
1.7333946528971428E8 0.007715772534684542 0.04276858107449087 0.9922842274653154 -0.04276858107449088 0.9922842274653154 -0.04276858107449088 0.007715772534684542 0.04276858107449087
1.7595540114143828E8 0.0077952682367714915 0.04339515540329086 0.9922047317632284 -0.043395155403290864 0.9922047317632284 -0.043395155403290864 0.0077952682367714915 0.04339515540329086
1.786108151372127E8 0.007876717060569796 0.04403072490740392 0.9921232829394302 -0.04403072490740392 0.9921232829394302 -0.04403072490740392 0.007876717060569796 0.04403072490740392
1.8130630305764765E8 0.007960168238619381 0.044675418063017405 0.9920398317613807 -0.044675418063017405 0.9920398317613807 -0.044675418063017405 0.007960168238619381 0.044675418063017405
1.840424696745189E8 0.008045672509826076 0.04532936516249268 0.991954327490174 -0.04532936516249268 0.991954327490174 -0.04532936516249268 0.008045672509826076 0.04532936516249268
1.8681992888645732E8 0.008133282171413608 0.04599269832651485 0.9918667178285864 -0.04599269832651485 0.9918667178285864 -0.04599269832651485 0.008133282171413608 0.04599269832651485
1.8963930385668582E8 0.00822305113198386 0.046665551515274906 0.9917769488680162 -0.046665551515274906 0.9917769488680162 -0.046665551515274906 0.00822305113198386 0.046665551515274906
1.92501227152835E8 0.008315034965663241 0.047348060538652204 0.9916849650343368 -0.047348060538652204 0.9916849650343368 -0.047348060538652204 0.008315034965663241 0.047348060538652204
1.9540634088886917E8 0.008409290967313006 0.048040363065369525 0.9915907090326871 -0.048040363065369525 0.9915907090326871 -0.048040363065369525 0.008409290967313006 0.048040363065369525
1.983552968691535E8 0.008505878208780408 0.048742598631092836 0.9914941217912195 -0.048742598631092836 0.9914941217912195 -0.048742598631092836 0.008505878208780408 0.048742598631092836
2.0134875673469606E8 0.008604857596167671 0.04945490864545188 0.9913951424038323 -0.04945490864545188 0.9913951424038323 -0.04945490864545188 0.008604857596167671 0.04945490864545188
2.0438739211159652E8 0.008706291928095628 0.05017743639795846 0.9912937080719043 -0.05017743639795846 0.9912937080719043 -0.05017743639795846 0.008706291928095628 0.05017743639795846
2.074718847617352E8 0.008810245954938968 0.050910327062802116 0.9911897540450608 -0.0509103270628021 0.9911897540450608 -0.0509103270628021 0.008810245954938968 0.050910327062802116
2.106029267357361E8 0.008916786439010475 0.05165372770250455 0.9910832135609896 -0.05165372770250455 0.9910832135609896 -0.05165372770250455 0.008916786439010475 0.05165372770250455
2.1378122052823865E8 0.009025982215672121 0.05240778727041647 0.9909740177843279 -0.05240778727041647 0.9909740177843279 -0.05240778727041647 0.009025982215672121 0.05240778727041647
2.1700747923551247E8 0.009137904255351692 0.05317265661204244 0.9908620957446483 -0.05317265661204243 0.9908620957446483 -0.05317265661204243 0.009137904255351692 0.05317265661204244
2.2028242671545094E8 0.009252625726444226 0.05394848846518026 0.9907473742735556 -0.05394848846518026 0.9907473742735556 -0.05394848846518026 0.009252625726444226 0.05394848846518026
2.23606797749979E8 0.009370222059078906 0.05473543745886516 0.9906297779409212 -0.05473543745886516 0.9906297779409212 -0.05473543745886516 0.009370222059078906 0.05473543745886516
2.2698133820991236E8 0.009490771009733008 0.055533660111108274 0.9905092289902668 -0.055533660111108274 0.9905092289902668 -0.055533660111108274 0.009490771009733008 0.055533660111108274
2.3040680522230446E8 0.009614352726675926 0.056343314825422826 0.990385647273324 -0.056343314825422826 0.990385647273324 -0.056343314825422826 0.009614352726675926 0.056343314825422826
2.338839673403185E8 0.009741049816227594 0.057164561886130824 0.9902589501837724 -0.057164561886130824 0.9902589501837724 -0.057164561886130824 0.009741049816227594 0.057164561886130824
2.37413604715664E8 0.009870947409817383 0.05799756345244605 0.9901290525901826 -0.05799756345244605 0.9901290525901826 -0.05799756345244605 0.009870947409817383 0.05799756345244605
2.4099650927363476E8 0.01000413323183105 0.058842483551329317 0.9899958667681691 -0.058842483551329317 0.9899958667681691 -0.058842483551329317 0.01000413323183105 0.058842483551329317
