!Murata Part Number: LQP02TQ2N7B02
!These Parameters are Measured in Series Mode Connection
!       o--[Z]--o
!Port1              Port2
!       o-------o
!
!Freq. Start=50[MHz] Stop=20[GHz], 401[Steps]
# Hz S RI R 50
!Freq.(Hz) S11(Real) S11(Imag) S21(Real) S21(Imag) S12(Real) S12(Imag) S22(Real) S22(Imag)
5.0E7 0.0032484025961577578 0.009298178401090767 0.9967515974038422 -0.009298178401090767 0.9967515974038422 -0.009298178401090767 0.0032484025961577578 0.009298178401090767
5.0754570186123446E7 0.0032534566632897405 0.00943815133147833 0.9967465433367103 -0.00943815133147833 0.9967465433367103 -0.00943815133147833 0.0032534566632897405 0.00943815133147833
5.152052789556263E7 0.0032586619125709 0.009580220906299931 0.996741338087429 -0.009580220906299933 0.996741338087429 -0.009580220906299933 0.0032586619125709 0.009580220906299931
5.229804498202928E7 0.003264022790255645 0.009724418068070229 0.9967359772097443 -0.009724418068070229 0.9967359772097443 -0.009724418068070229 0.003264022790255645 0.009724418068070229
5.308729589274893E7 0.0032695438688374275 0.009870774196021573 0.9967304561311624 -0.009870774196021571 0.9967304561311624 -0.009870774196021571 0.0032695438688374275 0.009870774196021573
5.388845770760058E7 0.003275229850366942 0.010019321111443403 0.9967247701496331 -0.010019321111443403 0.9967247701496331 -0.010019321111443403 0.003275229850366942 0.010019321111443403
5.470171017884717E7 0.0032810855698420568 0.010170091083054835 0.996718914430158 -0.010170091083054835 0.996718914430158 -0.010170091083054835 0.0032810855698420568 0.010170091083054835
5.5527235771465644E7 0.003287115998670134 0.010323116832409525 0.9967128840013298 -0.010323116832409525 0.9967128840013298 -0.010323116832409525 0.003287115998670134 0.010323116832409525
5.6365219704085544E7 0.0032933262482033156 0.010478431539331727 0.9967066737517966 -0.010478431539331727 0.9967066737517966 -0.010478431539331727 0.0032933262482033156 0.010478431539331727
5.721584999054556E7 0.0032997215733473143 0.010636068847382612 0.9967002784266527 -0.01063606884738261 0.9967002784266527 -0.01063606884738261 0.0032997215733473143 0.010636068847382612
5.807931748207712E7 0.003306307376244172 0.010796062869355682 0.9966936926237557 -0.01079606286935568 0.9966936926237557 -0.01079606286935568 0.003306307376244172 0.010796062869355682
5.8955815910124585E7 0.003313089210029413 0.01095844819280036 0.9966869107899706 -0.01095844819280036 0.9966869107899706 -0.01095844819280036 0.003313089210029413 0.01095844819280036
5.984554192981184E7 0.0033200727826639166 0.011123259885572478 0.9966799272173361 -0.011123259885572478 0.9966799272173361 -0.011123259885572478 0.0033200727826639166 0.011123259885572478
6.074869516406457E7 0.0033272639608407477 0.01129053350141065 0.9966727360391593 -0.01129053350141065 0.9966727360391593 -0.01129053350141065 0.0033272639608407477 0.01129053350141065
6.166547824839868E7 0.003334668773967167 0.011460305085537302 0.996665331226033 -0.011460305085537303 0.996665331226033 -0.011460305085537303 0.003334668773967167 0.011460305085537302
6.2596096876384385E7 0.003342293418221887 0.011632611180283265 0.9966577065817783 -0.011632611180283265 0.9966577065817783 -0.011632611180283265 0.003342293418221887 0.011632611180283265
6.354075984579668E7 0.003350144260687572 0.011807488830734741 0.9966498557393123 -0.01180748883073474 0.9966498557393123 -0.01180748883073474 0.003350144260687572 0.011807488830734741
6.449967910546205E7 0.003358227843558538 0.011984975590401398 0.9966417721564416 -0.011984975590401398 0.9966417721564416 -0.011984975590401398 0.003358227843558538 0.011984975590401398
6.547306980281226E7 0.0033665508884233968 0.012165109526904517 0.9966334491115766 -0.012165109526904517 0.9966334491115766 -0.012165109526904517 0.0033665508884233968 0.012165109526904517
6.646115033215589E7 0.0033751203006223912 0.012347929227683912 0.9966248796993776 -0.012347929227683912 0.9966248796993776 -0.012347929227683912 0.0033751203006223912 0.012347929227683912
6.746414238367817E7 0.003383943173679017 0.01253347380572256 0.9966160568263208 -0.012533473805722558 0.9966160568263208 -0.012533473805722558 0.003383943173679017 0.01253347380572256
6.848227099318038E7 0.003393026793805371 0.012721782905287683 0.9966069732061945 -0.012721782905287683 0.9966069732061945 -0.012721782905287683 0.003393026793805371 0.012721782905287683
6.951576459256999E7 0.0034023786444806197 0.012912896707687253 0.9965976213555193 -0.012912896707687253 0.9965976213555193 -0.012912896707687253 0.0034023786444806197 0.012912896707687253
7.056485506111258E7 0.003412006411101793 0.013106855937040786 0.9965879935888984 -0.013106855937040786 0.9965879935888984 -0.013106855937040786 0.003412006411101793 0.013106855937040786
7.162977777745734E7 0.0034219179857060077 0.013303701866063364 0.9965780820142943 -0.013303701866063368 0.9965780820142943 -0.013303701866063368 0.0034219179857060077 0.013303701866063364
7.271077167244768E7 0.0034321214717630893 0.013503476321861933 0.9965678785282368 -0.013503476321861933 0.9965678785282368 -0.013503476321861933 0.0034321214717630893 0.013503476321861933
7.380807928272885E7 0.0034426251890373994 0.013706221691742893 0.9965573748109627 -0.013706221691742893 0.9965573748109627 -0.013706221691742893 0.0034426251890373994 0.013706221691742893
7.492194680516452E7 0.0034534376785175327 0.013911980929030105 0.9965465623214826 -0.013911980929030105 0.9965465623214826 -0.013911980929030105 0.0034534376785175327 0.013911980929030105
7.60526241520746E7 0.0034645677074124515 0.01412079755889264 0.9965354322925878 -0.01412079755889264 0.9965354322925878 -0.01412079755889264 0.0034645677074124515 0.01412079755889264
7.720036500730675E7 0.003476024274212391 0.014332715684181435 0.9965239757257875 -0.014332715684181435 0.9965239757257875 -0.014332715684181435 0.003476024274212391 0.014332715684181435
7.836542688315398E7 0.0034878166138127354 0.01454777999127438 0.9965121833861872 -0.01454777999127438 0.9965121833861872 -0.01454777999127438 0.0034878166138127354 0.01454777999127438
7.954807117813127E7 0.0034999542026989783 0.014766035755929368 0.9965000457973011 -0.01476603575592937 0.9965000457973011 -0.01476603575592937 0.0034999542026989783 0.014766035755929368
8.074856323562416E7 0.0035124467641906108 0.01498752884914497 0.9964875532358095 -0.014987528849144971 0.9964875532358095 -0.014987528849144971 0.0035124467641906108 0.01498752884914497
8.196717240342227E7 0.003525304273741669 0.015212305743028565 0.9964746957262584 -0.015212305743028561 0.9964746957262584 -0.015212305743028561 0.003525304273741669 0.015212305743028565
8.320417209415154E7 0.003538536964295537 0.015440413516672045 0.9964614630357045 -0.015440413516672045 0.9964614630357045 -0.015440413516672045 0.003538536964295537 0.015440413516672045
8.445983984661816E7 0.0035521553316913697 0.015671899862035123 0.9964478446683085 -0.015671899862035123 0.9964478446683085 -0.015671899862035123 0.0035521553316913697 0.015671899862035123
8.573445738807854E7 0.0035661701401193684 0.015906813089836845 0.9964338298598804 -0.015906813089836845 0.9964338298598804 -0.015906813089836845 0.0035661701401193684 0.015906813089836845
8.702831069744885E7 0.0035805924276220116 0.016145202135455766 0.9964194075723779 -0.016145202135455766 0.9964194075723779 -0.016145202135455766 0.0035805924276220116 0.016145202135455766
8.834169006946853E7 0.0035954335116381115 0.016387116564839835 0.9964045664883618 -0.016387116564839835 0.9964045664883618 -0.016387116564839835 0.0035954335116381115 0.016387116564839835
8.96748901798321E7 0.0036107049945864854 0.016632606580427093 0.9963892950054135 -0.016632606580427093 0.9963892950054135 -0.016632606580427093 0.0036107049945864854 0.016632606580427093
9.1028210151304E7 0.0036264187694857817 0.016881723027078598 0.9963735812305141 -0.016881723027078594 0.9963735812305141 -0.016881723027078594 0.0036264187694857817 0.016881723027078598
9.240195362083109E7 0.003642587025606987 0.017134517398025392 0.9963574129743931 -0.017134517398025392 0.9963574129743931 -0.017134517398025392 0.003642587025606987 0.017134517398025392
9.379642880766791E7 0.0036592222541548744 0.01739104184083169 0.9963407777458451 -0.01739104184083169 0.9963407777458451 -0.01739104184083169 0.0036592222541548744 0.01739104184083169
9.521194858253023E7 0.0036763372539746165 0.01765134916337662 0.9963236627460252 -0.017651349163376618 0.9963236627460252 -0.017651349163376618 0.0036763372539746165 0.01765134916337662
9.664883053779216E7 0.0036939451372795993 0.017915492839857595 0.9963060548627205 -0.0179154928398576 0.9963060548627205 -0.0179154928398576 0.0036939451372795993 0.017915492839857595
9.810739705874248E7 0.0037120593353964287 0.018183527016818392 0.9962879406646036 -0.018183527016818392 0.9962879406646036 -0.018183527016818392 0.0037120593353964287 0.018183527016818392
9.958797539591652E7 0.003730693604523007 0.018455506519205866 0.9962693063954771 -0.018455506519205866 0.9962693063954771 -0.018455506519205866 0.003730693604523007 0.018455506519205866
1.0109089773851961E8 0.0037498620314954855 0.018731486856459513 0.9962501379685045 -0.018731486856459513 0.9962501379685045 -0.018731486856459513 0.0037498620314954855 0.018731486856459513
1.0261650128895843E8 0.003769579039559834 0.01901152422863846 0.9962304209604401 -0.01901152422863846 0.9962304209604401 -0.01901152422863846 0.003769579039559834 0.01901152422863846
1.0416512833849736E8 0.003789859394143785 0.01929567553259131 0.9962101406058562 -0.01929567553259131 0.9962101406058562 -0.01929567553259131 0.003789859394143785 0.01929567553259131
1.0573712634405641E8 0.0038107182086248516 0.019583998368174562 0.9961892817913752 -0.019583998368174562 0.9961892817913752 -0.019583998368174562 0.0038107182086248516 0.019583998368174562
1.0733284800616828E8 0.0038321709500902194 0.019876551044526215 0.9961678290499099 -0.019876551044526215 0.9961678290499099 -0.019876551044526215 0.0038321709500902194 0.019876551044526215
1.0895265134811176E8 0.0038542334450842354 0.020173392586401256 0.9961457665549158 -0.020173392586401252 0.9961457665549158 -0.020173392586401252 0.0038542334450842354 0.020173392586401256
1.1059689979623953E8 0.003876921885339482 0.020474582740577077 0.9961230781146606 -0.020474582740577077 0.9961230781146606 -0.020474582740577077 0.003876921885339482 0.020474582740577077
1.1226596226151802E8 0.0039002528334873905 0.020780181982337033 0.9960997471665127 -0.02078018198233703 0.9960997471665127 -0.02078018198233703 0.0039002528334873905 0.020780181982337033
1.1396021322229806E8 0.003924243228744629 0.02109025152204118 0.9960757567712554 -0.02109025152204118 0.9960757567712554 -0.02109025152204118 0.003924243228744629 0.02109025152204118
1.1568003280833441E8 0.003948910392571628 0.02140485331179413 0.9960510896074285 -0.02140485331179413 0.9960510896074285 -0.02140485331179413 0.003948910392571628 0.02140485331179413
1.1742580688607343E8 0.003974272034299936 0.021724050052220556 0.9960257279657 -0.02172405005222056 0.9960257279657 -0.02172405005222056 0.003974272034299936 0.021724050052220556
1.1919792714522783E8 0.004000346256725339 0.02204790519935962 0.9959996537432745 -0.02204790519935962 0.9959996537432745 -0.02204790519935962 0.004000346256725339 0.02204790519935962
1.2099679118665792E8 0.004027151561664092 0.022376482971690616 0.995972848438336 -0.022376482971690616 0.995972848438336 -0.022376482971690616 0.004027151561664092 0.022376482971690616
1.2282280261157903E8 0.004054706855469998 0.022709848357302723 0.99594529314453 -0.022709848357302723 0.99594529314453 -0.022709848357302723 0.004054706855469998 0.022709848357302723
1.2467637111211549E8 0.004083031454510608 0.023048067121222895 0.9959169685454895 -0.023048067121222895 0.9959169685454895 -0.023048067121222895 0.004083031454510608 0.023048067121222895
1.265579125632208E8 0.0041121450906012325 0.02339120581291622 0.9958878549093989 -0.02339120581291622 0.9958878549093989 -0.02339120581291622 0.0041121450906012325 0.02339120581291622
1.284678491159853E8 0.004142067916396279 0.023739331773974706 0.9958579320836037 -0.023739331773974706 0.9958579320836037 -0.023739331773974706 0.004142067916396279 0.023739331773974706
1.3040660929235186E8 0.0041728205107379205 0.024092513146010786 0.9958271794892619 -0.024092513146010786 0.9958271794892619 -0.024092513146010786 0.0041728205107379205 0.024092513146010786
1.3237462808126101E8 0.004204423883962984 0.024450818878772852 0.9957955761160369 -0.024450818878772852 0.9957955761160369 -0.024450818878772852 0.004204423883962984 0.024450818878772852
1.3437234703624701E8 0.004236899483169773 0.02481431873850097 0.9957631005168304 -0.02481431873850097 0.9957631005168304 -0.02481431873850097 0.004236899483169773 0.02481431873850097
1.364002143745067E8 0.004270269197447435 0.02518308331654213 0.9957297308025527 -0.025183083316542128 0.9957297308025527 -0.025183083316542128 0.004270269197447435 0.02518308331654213
1.3845868507746372E8 0.004304555363071586 0.02555718403824482 0.9956954446369285 -0.02555718403824482 0.9956954446369285 -0.02555718403824482 0.004304555363071586 0.02555718403824482
1.405482209928499E8 0.004339780768670879 0.025936693172153698 0.995660219231329 -0.025936693172153698 0.995660219231329 -0.025936693172153698 0.004339780768670879 0.025936693172153698
1.426692909383278E8 0.004375968660370549 0.026321683839526253 0.9956240313396295 -0.026321683839526253 0.9956240313396295 -0.026321683839526253 0.004375968660370549 0.026321683839526253
1.4482237080667645E8 0.004413142746920159 0.026712230024193637 0.9955868572530799 -0.026712230024193637 0.9955868572530799 -0.026712230024193637 0.004413142746920159 0.026712230024193637
1.4700794367256513E8 0.004451327204814196 0.027108406582789187 0.9955486727951858 -0.027108406582789187 0.9955486727951858 -0.027108406582789187 0.004451327204814196 0.027108406582789187
1.492264999009378E8 0.004490546683415684 0.0275102892553684 0.9955094533165841 -0.0275102892553684 0.9955094533165841 -0.0275102892553684 0.004490546683415684 0.0275102892553684
1.5147853725703382E8 0.004530826310094499 0.027917954676445166 0.9954691736899056 -0.027917954676445166 0.9954691736899056 -0.027917954676445166 0.004530826310094499 0.027917954676445166
1.5376456101806876E8 0.004572191695393816 0.028331480386469328 0.9954278083046063 -0.028331480386469324 0.9954278083046063 -0.028331480386469324 0.004572191695393816 0.028331480386469328
1.5608508408660066E8 0.004614668938239893 0.028750944843771633 0.99538533106176 -0.02875094484377164 0.99538533106176 -0.02875094484377164 0.004614668938239893 0.028750944843771633
1.5844062710560706E8 0.004658284631212236 0.029176427437002186 0.9953417153687878 -0.029176427437002186 0.9953417153687878 -0.029176427437002186 0.004658284631212236 0.029176427437002186
1.6083171857529896E8 0.004703065865893255 0.029608008498089197 0.9952969341341067 -0.02960800849808919 0.9952969341341067 -0.02960800849808919 0.004703065865893255 0.029608008498089197
1.632588949716973E8 0.0047490402383184626 0.030045769315744913 0.9952509597616815 -0.030045769315744913 0.9952509597616815 -0.030045769315744913 0.0047490402383184626 0.030045769315744913
1.6572270086699936E8 0.004796235854550603 0.03048979214954624 0.9952037641454494 -0.03048979214954624 0.9952037641454494 -0.03048979214954624 0.004796235854550603 0.03048979214954624
1.6822368905176118E8 0.0048446813364031605 0.030940160244616783 0.9951553186635969 -0.03094016024461678 0.9951553186635969 -0.03094016024461678 0.0048446813364031605 0.030940160244616783
1.7076242065892437E8 0.004894405827341204 0.031396957846938134 0.9951055941726588 -0.031396957846938134 0.9951055941726588 -0.031396957846938134 0.004894405827341204 0.031396957846938134
1.7333946528971428E8 0.0049454389985898045 0.031860270219317234 0.9950545610014102 -0.031860270219317234 0.9950545610014102 -0.031860270219317234 0.0049454389985898045 0.031860270219317234
1.7595540114143828E8 0.00499781105548281 0.032330183658036395 0.9950021889445173 -0.0323301836580364 0.9950021889445173 -0.0323301836580364 0.00499781105548281 0.032330183658036395
1.786108151372127E8 0.005051552744087327 0.03280678551021288 0.9949484472559128 -0.03280678551021288 0.9949484472559128 -0.03280678551021288 0.005051552744087327 0.03280678551021288
1.8130630305764765E8 0.0051066953581417485 0.03329016419189309 0.9948933046418582 -0.03329016419189309 0.9948933046418582 -0.03329016419189309 0.0051066953581417485 0.03329016419189309
1.840424696745189E8 0.005163270746347941 0.033780409206906926 0.9948367292536522 -0.033780409206906926 0.9948367292536522 -0.033780409206906926 0.005163270746347941 0.033780409206906926
1.8681992888645732E8 0.005221311320060791 0.03427761116650593 0.9947786886799391 -0.03427761116650593 0.9947786886799391 -0.03427761116650593 0.005221311320060791 0.03427761116650593
1.8963930385668582E8 0.005280850061421072 0.03478186180980834 0.9947191499385788 -0.03478186180980834 0.9947191499385788 -0.03478186180980834 0.005280850061421072 0.03478186180980834
1.92501227152835E8 0.005341920531980238 0.035293254025072544 0.9946580794680197 -0.035293254025072544 0.9946580794680197 -0.035293254025072544 0.005341920531980238 0.035293254025072544
1.9540634088886917E8 0.005404556881868535 0.0358118818718192 0.9945954431181315 -0.0358118818718192 0.9945954431181315 -0.0358118818718192 0.005404556881868535 0.0358118818718192
1.983552968691535E8 0.005468793859560463 0.0363378406038201 0.9945312061404397 -0.03633784060382011 0.9945312061404397 -0.03633784060382011 0.005468793859560463 0.0363378406038201
2.0134875673469606E8 0.005534666822294326 0.03687122669297094 0.9944653331777057 -0.03687122669297094 0.9944653331777057 -0.03687122669297094 0.005534666822294326 0.03687122669297094
2.0438739211159652E8 0.005602211747205214 0.037412137854061764 0.9943977882527949 -0.037412137854061764 0.9943977882527949 -0.037412137854061764 0.005602211747205214 0.037412137854061764
2.074718847617352E8 0.005671465243233299 0.037960673070457876 0.9943285347567666 -0.037960673070457876 0.9943285347567666 -0.037960673070457876 0.005671465243233299 0.037960673070457876
2.106029267357361E8 0.005742464563871936 0.0385169326207006 0.994257535436128 -0.0385169326207006 0.994257535436128 -0.0385169326207006 0.005742464563871936 0.0385169326207006
2.1378122052823865E8 0.005815247620822268 0.0390810181060351 0.9941847523791779 -0.0390810181060351 0.9941847523791779 -0.0390810181060351 0.005815247620822268 0.0390810181060351
2.1700747923551247E8 0.005889852998623537 0.03965303247886961 0.9941101470013766 -0.0396530324788696 0.9941101470013766 -0.0396530324788696 0.005889852998623537 0.03965303247886961
2.2028242671545094E8 0.005966319970330353 0.04023308007216693 0.9940336800296696 -0.04023308007216693 0.9940336800296696 -0.04023308007216693 0.005966319970330353 0.04023308007216693
2.23606797749979E8 0.006044688514310229 0.0408212666297665 0.9939553114856897 -0.0408212666297665 0.9939553114856897 -0.0408212666297665 0.006044688514310229 0.0408212666297665
2.2698133820991236E8 0.00612499933223666 0.04141769933763154 0.9938750006677635 -0.04141769933763154 0.9938750006677635 -0.04141769933763154 0.00612499933223666 0.04141769933763154
2.3040680522230446E8 0.006207293868354651 0.04202248685601228 0.9937927061316454 -0.04202248685601228 0.9937927061316454 -0.04202248685601228 0.006207293868354651 0.04202248685601228
2.338839673403185E8 0.006291614330097202 0.04263573935251255 0.993708385669903 -0.04263573935251255 0.993708385669903 -0.04263573935251255 0.006291614330097202 0.04263573935251255
2.37413604715664E8 0.006378003710132658 0.043257568536043636 0.9936219962898675 -0.04325756853604364 0.9936219962898675 -0.04325756853604364 0.006378003710132658 0.043257568536043636
2.4099650927363476E8 0.006466505809923841 0.04388808769164446 0.9935334941900761 -0.04388808769164446 0.9935334941900761 -0.04388808769164446 0.006466505809923841 0.04388808769164446
