!Murata Part Number: LQP02TQ4N7H02
!These Parameters are Measured in Series Mode Connection
!       o--[Z]--o
!Port1              Port2
!       o-------o
!
!Freq. Start=50[MHz] Stop=20[GHz], 401[Steps]
# Hz S RI R 50
!Freq.(Hz) S11(Real) S11(Imag) S21(Real) S21(Imag) S12(Real) S12(Imag) S22(Real) S22(Imag)
5.0E7 0.005410758366281404 0.016228661132823667 0.9945892416337185 -0.016228661132823667 0.9945892416337185 -0.016228661132823667 0.005410758366281404 0.016228661132823667
5.0754570186123446E7 0.005427175208406943 0.016470795476458883 0.994572824791593 -0.016470795476458883 0.994572824791593 -0.016470795476458883 0.005427175208406943 0.016470795476458883
5.152052789556263E7 0.005444042879656045 0.016716473211794085 0.9945559571203438 -0.016716473211794085 0.9945559571203438 -0.016716473211794085 0.005444042879656045 0.016716473211794085
5.229804498202928E7 0.005461372603501915 0.01696574385935056 0.9945386273964981 -0.016965743859350558 0.9945386273964981 -0.016965743859350558 0.005461372603501915 0.01696574385935056
5.308729589274893E7 0.005479175831009477 0.017218657576117197 0.9945208241689906 -0.017218657576117194 0.9945208241689906 -0.017218657576117194 0.005479175831009477 0.017218657576117197
5.388845770760058E7 0.005497464243670633 0.017475265163984788 0.9945025357563294 -0.017475265163984788 0.9945025357563294 -0.017475265163984788 0.005497464243670633 0.017475265163984788
5.470171017884717E7 0.005516249756266699 0.017735618078425046 0.9944837502437334 -0.017735618078425046 0.9944837502437334 -0.017735618078425046 0.005516249756266699 0.017735618078425046
5.5527235771465644E7 0.005535544519765483 0.01799976843742657 0.9944644554802344 -0.017999768437426573 0.9944644554802344 -0.017999768437426573 0.005535544519765483 0.01799976843742657
5.6365219704085544E7 0.005555360924261346 0.01826776903070035 0.9944446390757385 -0.018267769030700348 0.9944446390757385 -0.018267769030700348 0.005555360924261346 0.01826776903070035
5.721584999054556E7 0.0055757116019676395 0.018539673329167485 0.9944242883980324 -0.018539673329167485 0.9944242883980324 -0.018539673329167485 0.0055757116019676395 0.018539673329167485
5.807931748207712E7 0.005596609430271859 0.01881553549474188 0.9944033905697279 -0.01881553549474188 0.9944033905697279 -0.01881553549474188 0.005596609430271859 0.01881553549474188
5.8955815910124585E7 0.005618067534864974 0.019095410390420803 0.994381932465135 -0.019095410390420803 0.994381932465135 -0.019095410390420803 0.005618067534864974 0.019095410390420803
5.984554192981184E7 0.00564009929295752 0.01937935359069628 0.9943599007070425 -0.01937935359069628 0.9943599007070425 -0.01937935359069628 0.00564009929295752 0.01937935359069628
6.074869516406457E7 0.005662718336596164 0.01966742139229993 0.9943372816634041 -0.01966742139229993 0.9943372816634041 -0.01966742139229993 0.005662718336596164 0.01966742139229993
6.166547824839868E7 0.00568593855609566 0.01995967082529408 0.9943140614439042 -0.01995967082529408 0.9943140614439042 -0.01995967082529408 0.00568593855609566 0.01995967082529408
6.2596096876384385E7 0.005709774103602457 0.020256159664521513 0.9942902258963975 -0.02025615966452151 0.9942902258963975 -0.02025615966452151 0.005709774103602457 0.020256159664521513
6.354075984579668E7 0.005734239396807302 0.020556946441426017 0.9942657606031927 -0.020556946441426017 0.9942657606031927 -0.020556946441426017 0.005734239396807302 0.020556946441426017
6.449967910546205E7 0.005759349122825681 0.020862090456255502 0.9942406508771743 -0.020862090456255502 0.9942406508771743 -0.020862090456255502 0.005759349122825681 0.020862090456255502
6.547306980281226E7 0.005785118242266129 0.021171651790658833 0.9942148817577339 -0.021171651790658833 0.9942148817577339 -0.021171651790658833 0.005785118242266129 0.021171651790658833
6.646115033215589E7 0.005811561993507841 0.02148569132068723 0.9941884380064923 -0.02148569132068723 0.9941884380064923 -0.02148569132068723 0.005811561993507841 0.02148569132068723
6.746414238367817E7 0.005838695897210339 0.021804270730210008 0.9941613041027897 -0.021804270730210008 0.9941613041027897 -0.021804270730210008 0.005838695897210339 0.021804270730210008
6.848227099318038E7 0.005866535761079321 0.022127452524753916 0.9941334642389207 -0.022127452524753916 0.9941334642389207 -0.022127452524753916 0.005866535761079321 0.022127452524753916
6.951576459256999E7 0.005895097684914121 0.022455300045774288 0.9941049023150857 -0.022455300045774288 0.9941049023150857 -0.022455300045774288 0.005895097684914121 0.022455300045774288
7.056485506111258E7 0.005924398065963571 0.022787877485365236 0.9940756019340363 -0.022787877485365236 0.9940756019340363 -0.022787877485365236 0.005924398065963571 0.022787877485365236
7.162977777745734E7 0.005954453604618288 0.023125249901414784 0.9940455463953817 -0.023125249901414787 0.9940455463953817 -0.023125249901414787 0.005954453604618288 0.023125249901414784
7.271077167244768E7 0.005985281310468782 0.02346748323320991 0.9940147186895312 -0.02346748323320991 0.9940147186895312 -0.02346748323320991 0.005985281310468782 0.02346748323320991
7.380807928272885E7 0.006016898508759838 0.023814644317494672 0.9939831014912401 -0.023814644317494672 0.9939831014912401 -0.023814644317494672 0.006016898508759838 0.023814644317494672
7.492194680516452E7 0.00604932284727287 0.0241668009049832 0.9939506771527272 -0.0241668009049832 0.9939506771527272 -0.0241668009049832 0.00604932284727287 0.0241668009049832
7.60526241520746E7 0.006082572303669018 0.024524021677327923 0.9939174276963308 -0.024524021677327923 0.9939174276963308 -0.024524021677327923 0.006082572303669018 0.024524021677327923
7.720036500730675E7 0.006116665193326718 0.024886376264541266 0.9938833348066732 -0.024886376264541266 0.9938833348066732 -0.024886376264541266 0.006116665193326718 0.024886376264541266
7.836542688315398E7 0.006151620177708347 0.025253935262867313 0.9938483798222917 -0.025253935262867313 0.9938483798222917 -0.025253935262867313 0.006151620177708347 0.025253935262867313
7.954807117813127E7 0.0061874562732914164 0.025626770253098067 0.9938125437267086 -0.025626770253098067 0.9938125437267086 -0.025626770253098067 0.0061874562732914164 0.025626770253098067
8.074856323562416E7 0.006224192861100305 0.026004953819326528 0.9937758071388998 -0.026004953819326528 0.9937758071388998 -0.026004953819326528 0.006224192861100305 0.026004953819326528
8.196717240342227E7 0.006261849696875233 0.026388559568126965 0.9937381503031248 -0.026388559568126958 0.9937381503031248 -0.026388559568126958 0.006261849696875233 0.026388559568126965
8.320417209415154E7 0.006300446921915378 0.02677766214815024 0.9936995530780847 -0.02677766214815024 0.9936995530780847 -0.02677766214815024 0.006300446921915378 0.02677766214815024
8.445983984661816E7 0.00634000507463333 0.027172337270119508 0.9936599949253668 -0.027172337270119508 0.9936599949253668 -0.027172337270119508 0.00634000507463333 0.027172337270119508
8.573445738807854E7 0.006380545102858194 0.02757266172720974 0.9936194548971419 -0.027572661727209746 0.9936194548971419 -0.027572661727209746 0.006380545102858194 0.02757266172720974
8.702831069744885E7 0.006422088376924359 0.02797871341579137 0.9935779116230757 -0.02797871341579137 0.9935779116230757 -0.02797871341579137 0.006422088376924359 0.02797871341579137
8.834169006946853E7 0.006464656703582809 0.028390571356516233 0.9935353432964172 -0.028390571356516226 0.9935353432964172 -0.028390571356516226 0.006464656703582809 0.028390571356516233
8.96748901798321E7 0.006508272340771133 0.028808315715721178 0.9934917276592289 -0.028808315715721178 0.9934917276592289 -0.028808315715721178 0.006508272340771133 0.028808315715721178
9.1028210151304E7 0.006552958013277874 0.029232027827122607 0.9934470419867223 -0.029232027827122607 0.9934470419867223 -0.029232027827122607 0.006552958013277874 0.029232027827122607
9.240195362083109E7 0.006598736929335724 0.029661790213771758 0.9934012630706641 -0.029661790213771758 0.9934012630706641 -0.029661790213771758 0.006598736929335724 0.029661790213771758
9.379642880766791E7 0.00664563279817704 0.030097686610239132 0.9933543672018229 -0.03009768661023914 0.9933543672018229 -0.03009768661023914 0.00664563279817704 0.030097686610239132
9.521194858253023E7 0.006693669848583734 0.030539801984993026 0.9933063301514162 -0.030539801984993026 0.9933063301514162 -0.030539801984993026 0.006693669848583734 0.030539801984993026
9.664883053779216E7 0.006742872848461982 0.0309882225629354 0.993257127151538 -0.030988222562935402 0.993257127151538 -0.030988222562935402 0.006742872848461982 0.0309882225629354
9.810739705874248E7 0.006793267125470433 0.03144303584805554 0.9932067328745295 -0.03144303584805554 0.9932067328745295 -0.03144303584805554 0.006793267125470433 0.03144303584805554
9.958797539591652E7 0.006844878588728536 0.031904330646160065 0.9931551214112715 -0.031904330646160065 0.9931551214112715 -0.031904330646160065 0.006844878588728536 0.031904330646160065
1.0109089773851961E8 0.006897733751629398 0.03237219708763577 0.9931022662483706 -0.03237219708763577 0.9931022662483706 -0.03237219708763577 0.006897733751629398 0.03237219708763577
1.0261650128895843E8 0.006951859755779202 0.03284672665019973 0.9930481402442208 -0.032846726650199734 0.9930481402442208 -0.032846726650199734 0.006951859755779202 0.03284672665019973
1.0416512833849736E8 0.00700728439608243 0.033328012181589296 0.9929927156039177 -0.033328012181589296 0.9929927156039177 -0.033328012181589296 0.00700728439608243 0.033328012181589296
1.0573712634405641E8 0.007064036146989654 0.03381614792214369 0.9929359638530103 -0.03381614792214369 0.9929359638530103 -0.03381614792214369 0.007064036146989654 0.03381614792214369
1.0733284800616828E8 0.0071221441899214704 0.034311229527226955 0.9928778558100784 -0.03431122952722695 0.9928778558100784 -0.03431122952722695 0.0071221441899214704 0.034311229527226955
1.0895265134811176E8 0.007181638441879099 0.034813354089441056 0.9928183615581209 -0.034813354089441056 0.9928183615581209 -0.034813354089441056 0.007181638441879099 0.034813354089441056
1.1059689979623953E8 0.007242549585249174 0.03532262016057776 0.9927574504147509 -0.03532262016057776 0.9927574504147509 -0.03532262016057776 0.007242549585249174 0.03532262016057776
1.1226596226151802E8 0.007304909098806714 0.035839127773256436 0.9926950909011935 -0.03583912777325644 0.9926950909011935 -0.03583912777325644 0.007304909098806714 0.035839127773256436
1.1396021322229806E8 0.0073687492899171675 0.03636297846219603 0.9926312507100828 -0.03636297846219603 0.9926312507100828 -0.03636297846219603 0.0073687492899171675 0.03636297846219603
1.1568003280833441E8 0.007434103327934651 0.03689427528506744 0.9925658966720654 -0.03689427528506744 0.9925658966720654 -0.03689427528506744 0.007434103327934651 0.03689427528506744
1.1742580688607343E8 0.007501005278790628 0.03743312284287578 0.9924989947212094 -0.03743312284287578 0.9924989947212094 -0.03743312284287578 0.007501005278790628 0.03743312284287578
1.1919792714522783E8 0.007569490140763354 0.037979627299819865 0.9924305098592368 -0.037979627299819865 0.9924305098592368 -0.037979627299819865 0.007569490140763354 0.037979627299819865
1.2099679118665792E8 0.007639593881415358 0.038533896402579204 0.9923604061185849 -0.03853389640257921 0.9923604061185849 -0.03853389640257921 0.007639593881415358 0.038533896402579204
1.2282280261157903E8 0.007711353475682945 0.039096039498979336 0.9922886465243171 -0.039096039498979336 0.9922886465243171 -0.039096039498979336 0.007711353475682945 0.039096039498979336
1.2467637111211549E8 0.007784806945098425 0.03966616755598808 0.9922151930549016 -0.03966616755598807 0.9922151930549016 -0.03966616755598807 0.007784806945098425 0.03966616755598808
1.265579125632208E8 0.007859993398122805 0.040244393176997184 0.9921400066018772 -0.04024439317699718 0.9921400066018772 -0.04024439317699718 0.007859993398122805 0.040244393176997184
1.284678491159853E8 0.00793695307156387 0.040830830618346435 0.9920630469284359 -0.040830830618346435 0.9920630469284359 -0.040830830618346435 0.00793695307156387 0.040830830618346435
1.3040660929235186E8 0.008015727373051928 0.04142559580504937 0.9919842726269482 -0.04142559580504938 0.9919842726269482 -0.04142559580504938 0.008015727373051928 0.04142559580504937
1.3237462808126101E8 0.008096358924542905 0.042028806345682734 0.9919036410754569 -0.04202880634568273 0.9919036410754569 -0.04202880634568273 0.008096358924542905 0.042028806345682734
1.3437234703624701E8 0.008178891606816648 0.04264058154640507 0.9918211083931833 -0.04264058154640507 0.9918211083931833 -0.04264058154640507 0.008178891606816648 0.04264058154640507
1.364002143745067E8 0.00826337060493603 0.04326104242407265 0.991736629395064 -0.04326104242407265 0.991736629395064 -0.04326104242407265 0.00826337060493603 0.04326104242407265
1.3845868507746372E8 0.008349842454631266 0.04389031171842511 0.9916501575453689 -0.04389031171842512 0.9916501575453689 -0.04389031171842512 0.008349842454631266 0.04389031171842511
1.405482209928499E8 0.008438355089572238 0.04452851390331569 0.9915616449104276 -0.04452851390331569 0.9915616449104276 -0.04452851390331569 0.008438355089572238 0.04452851390331569
1.426692909383278E8 0.008528957889491182 0.04517577519696638 0.9914710421105087 -0.04517577519696638 0.9914710421105087 -0.04517577519696638 0.008528957889491182 0.04517577519696638
1.4482237080667645E8 0.008621701729117059 0.04583222357123031 0.9913782982708829 -0.04583222357123031 0.9913782982708829 -0.04583222357123031 0.008621701729117059 0.04583222357123031
1.4700794367256513E8 0.008716639027883307 0.04649798875984947 0.9912833609721169 -0.04649798875984947 0.9912833609721169 -0.04649798875984947 0.008716639027883307 0.04649798875984947
1.492264999009378E8 0.008813823800370517 0.047173202265698246 0.9911861761996295 -0.047173202265698246 0.9911861761996295 -0.047173202265698246 0.008813823800370517 0.047173202265698246
1.5147853725703382E8 0.00891331170744651 0.04785799736700896 0.9910866882925534 -0.04785799736700896 0.9910866882925534 -0.04785799736700896 0.00891331170744651 0.04785799736700896
1.5376456101806876E8 0.009015160108067048 0.048552509122577615 0.9909848398919331 -0.048552509122577615 0.9909848398919331 -0.048552509122577615 0.009015160108067048 0.048552509122577615
1.5608508408660066E8 0.009119428111702162 0.049256874375954066 0.9908805718882978 -0.04925687437595407 0.9908805718882978 -0.04925687437595407 0.009119428111702162 0.049256874375954066
1.5844062710560706E8 0.009226176631354683 0.049971231758623016 0.9907738233686454 -0.04997123175862302 0.9907738233686454 -0.04997123175862302 0.009226176631354683 0.049971231758623016
1.6083171857529896E8 0.009335468437139713 0.05069572169218657 0.9906645315628604 -0.05069572169218657 0.9906645315628604 -0.05069572169218657 0.009335468437139713 0.05069572169218657
1.632588949716973E8 0.009447368210396644 0.051430486389562845 0.9905526317896033 -0.051430486389562845 0.9905526317896033 -0.051430486389562845 0.009447368210396644 0.051430486389562845
1.6572270086699936E8 0.009561942598307943 0.05217566985521797 0.990438057401692 -0.05217566985521797 0.990438057401692 -0.05217566985521797 0.009561942598307943 0.05217566985521797
1.6822368905176118E8 0.009679260269002286 0.05293141788445174 0.9903207397309978 -0.05293141788445174 0.9903207397309978 -0.05293141788445174 0.009679260269002286 0.05293141788445174
1.7076242065892437E8 0.009799391967123287 0.053697878061760906 0.9902006080328769 -0.053697878061760906 0.9902006080328769 -0.053697878061760906 0.009799391967123287 0.053697878061760906
1.7333946528971428E8 0.009922410569848772 0.0544751997583052 0.990077589430151 -0.0544751997583052 0.990077589430151 -0.0544751997583052 0.009922410569848772 0.0544751997583052
1.7595540114143828E8 0.010048391143349836 0.055263534128504925 0.98995160885665 -0.05526353412850491 0.98995160885665 -0.05526353412850491 0.010048391143349836 0.055263534128504925
1.786108151372127E8 0.010177410999683056 0.05606303410579905 0.9898225890003168 -0.05606303410579905 0.9898225890003168 -0.05606303410579905 0.010177410999683056 0.05606303410579905
1.8130630305764765E8 0.010309549754114068 0.0568738543975962 0.9896904502458858 -0.05687385439759619 0.9896904502458858 -0.05687385439759619 0.010309549754114068 0.0568738543975962
1.840424696745189E8 0.010444889382875213 0.057696151479450127 0.9895551106171249 -0.057696151479450127 0.9895551106171249 -0.057696151479450127 0.010444889382875213 0.057696151479450127
1.8681992888645732E8 0.010583514281364989 0.058530083588493396 0.9894164857186349 -0.058530083588493396 0.9894164857186349 -0.058530083588493396 0.010583514281364989 0.058530083588493396
1.8963930385668582E8 0.010725511322801941 0.05937581071616275 0.989274488677198 -0.05937581071616275 0.989274488677198 -0.05937581071616275 0.010725511322801941 0.05937581071616275
1.92501227152835E8 0.010870969917350759 0.06023349460024938 0.9891290300826491 -0.06023349460024938 0.9891290300826491 -0.06023349460024938 0.010870969917350759 0.06023349460024938
1.9540634088886917E8 0.011019982071743461 0.06110329871630782 0.9889800179282564 -0.06110329871630782 0.9889800179282564 -0.06110329871630782 0.011019982071743461 0.06110329871630782
1.983552968691535E8 0.011172642449423453 0.06198538826845458 0.9888273575505765 -0.06198538826845458 0.9888273575505765 -0.06198538826845458 0.011172642449423453 0.06198538826845458
2.0134875673469606E8 0.011329048431245893 0.06287993017958876 0.9886709515687542 -0.06287993017958876 0.9886709515687542 -0.06287993017958876 0.011329048431245893 0.06287993017958876
2.0438739211159652E8 0.011489300176772124 0.06378709308106312 0.9885106998232277 -0.06378709308106312 0.9885106998232277 -0.06378709308106312 0.011489300176772124 0.06378709308106312
2.074718847617352E8 0.011653500686201586 0.06470704730183303 0.9883464993137984 -0.06470704730183305 0.9883464993137984 -0.06470704730183305 0.011653500686201586 0.06470704730183303
2.106029267357361E8 0.011821755862989069 0.06563996485710882 0.9881782441370109 -0.06563996485710882 0.9881782441370109 -0.06563996485710882 0.011821755862989069 0.06563996485710882
2.1378122052823865E8 0.011994174577200213 0.06658601943653322 0.9880058254228 -0.06658601943653322 0.9880058254228 -0.06658601943653322 0.011994174577200213 0.06658601943653322
2.1700747923551247E8 0.012170868729662465 0.06754538639190323 0.9878291312703374 -0.06754538639190323 0.9878291312703374 -0.06754538639190323 0.012170868729662465 0.06754538639190323
2.2028242671545094E8 0.01235195331697364 0.06851824272445282 0.9876480466830264 -0.06851824272445282 0.9876480466830264 -0.06851824272445282 0.01235195331697364 0.06851824272445282
2.23606797749979E8 0.012537546497433875 0.06950476707170791 0.9874624535025661 -0.06950476707170791 0.9874624535025661 -0.06950476707170791 0.012537546497433875 0.06950476707170791
2.2698133820991236E8 0.012727769657971464 0.07050513969392257 0.9872722303420285 -0.07050513969392255 0.9872722303420285 -0.07050513969392255 0.012727769657971464 0.07050513969392257
2.3040680522230446E8 0.012922747482136442 0.07151954246010013 0.9870772525178635 -0.07151954246010013 0.9870772525178635 -0.07151954246010013 0.012922747482136442 0.07151954246010013
2.338839673403185E8 0.013122608019239724 0.07254815883359934 0.9868773919807605 -0.07254815883359934 0.9868773919807605 -0.07254815883359934 0.013122608019239724 0.07254815883359934
2.37413604715664E8 0.013327482754718968 0.07359117385732038 0.9866725172452813 -0.07359117385732039 0.9866725172452813 -0.07359117385732039 0.013327482754718968 0.07359117385732038
2.4099650927363476E8 0.013537506681815473 0.07464877413846101 0.9864624933181844 -0.07464877413846101 0.9864624933181844 -0.07464877413846101 0.013537506681815473 0.07464877413846101
2.446334848907889E8 0.013752818374649482 0.07572114783282859 0.9862471816253505 -0.07572114783282859 0.9862471816253505 -0.07572114783282859 0.013752818374649482 0.07572114783282859
