!Murata Part Number: LQP02TQ1N0B02
!These Parameters are Measured in Series Mode Connection
!       o--[Z]--o
!Port1              Port2
!       o-------o
!
!Freq. Start=50[MHz] Stop=20[GHz], 401[Steps]
# Hz S RI R 50
!Freq.(Hz) S11(Real) S11(Imag) S21(Real) S21(Imag) S12(Real) S12(Imag) S22(Real) S22(Imag)
5.0E7 0.0010551455662212014 0.0035957146624656195 0.9989448544337789 -0.0035957146624656195 0.9989448544337789 -0.0035957146624656195 0.0010551455662212014 0.0035957146624656195
5.0754570186123446E7 0.0010569018060753957 0.003649664942520913 0.9989430981939247 -0.003649664942520913 0.9989430981939247 -0.003649664942520913 0.0010569018060753957 0.003649664942520913
5.152052789556263E7 0.0010587067558106428 0.0037044162764203474 0.9989412932441895 -0.0037044162764203474 0.9989412932441895 -0.0037044162764203474 0.0010587067558106428 0.0037044162764203474
5.229804498202928E7 0.0010605616384671123 0.003759980242022014 0.9989394383615329 -0.003759980242022015 0.9989394383615329 -0.003759980242022015 0.0010605616384671123 0.003759980242022014
5.308729589274893E7 0.0010624677010216714 0.0038163685746827763 0.9989375322989785 -0.0038163685746827763 0.9989375322989785 -0.0038163685746827763 0.0010624677010216714 0.0038163685746827763
5.388845770760058E7 0.0010644262145151078 0.0038735931692409353 0.9989355737854847 -0.0038735931692409358 0.9989355737854847 -0.0038735931692409358 0.0010644262145151078 0.0038735931692409353
5.470171017884717E7 0.0010664384741627354 0.003931666082033253 0.9989335615258372 -0.003931666082033253 0.9989335615258372 -0.003931666082033253 0.0010664384741627354 0.003931666082033253
5.5527235771465644E7 0.0010685057994477046 0.003990599532947959 0.9989314942005523 -0.003990599532947959 0.9989314942005523 -0.003990599532947959 0.0010685057994477046 0.003990599532947959
5.6365219704085544E7 0.0010706295341964655 0.004050405907515652 0.9989293704658035 -0.004050405907515652 0.9989293704658035 -0.004050405907515652 0.0010706295341964655 0.004050405907515652
5.721584999054556E7 0.0010728110466358114 0.0041110977590399595 0.9989271889533642 -0.0041110977590399595 0.9989271889533642 -0.0041110977590399595 0.0010728110466358114 0.0041110977590399595
5.807931748207712E7 0.001075051729431011 0.004172687810770018 0.9989249482705691 -0.0041726878107700175 0.9989249482705691 -0.0041726878107700175 0.001075051729431011 0.004172687810770018
5.8955815910124585E7 0.0010773529997046133 0.004235188958116911 0.9989226470002953 -0.0042351889581169104 0.9989226470002953 -0.0042351889581169104 0.0010773529997046133 0.004235188958116911
5.984554192981184E7 0.0010797162990355286 0.004298614270916309 0.9989202837009645 -0.004298614270916309 0.9989202837009645 -0.004298614270916309 0.0010797162990355286 0.004298614270916309
6.074869516406457E7 0.0010821430934381266 0.004362976995739636 0.998917856906562 -0.004362976995739636 0.998917856906562 -0.004362976995739636 0.0010821430934381266 0.004362976995739636
6.166547824839868E7 0.0010846348733211325 0.004428290558256273 0.9989153651266789 -0.004428290558256273 0.9989153651266789 -0.004428290558256273 0.0010846348733211325 0.004428290558256273
6.2596096876384385E7 0.0010871931534262192 0.00449456856564931 0.9989128068465739 -0.00449456856564931 0.9989128068465739 -0.00449456856564931 0.0010871931534262192 0.00449456856564931
6.354075984579668E7 0.001089819472746304 0.004561824809087564 0.9989101805272538 -0.004561824809087564 0.9989101805272538 -0.004561824809087564 0.001089819472746304 0.004561824809087564
6.449967910546205E7 0.0010925153944236576 0.004630073266256604 0.9989074846055764 -0.004630073266256604 0.9989074846055764 -0.004630073266256604 0.0010925153944236576 0.004630073266256604
6.547306980281226E7 0.0010952825056280804 0.004699328103951699 0.9989047174943719 -0.004699328103951699 0.9989047174943719 -0.004699328103951699 0.0010952825056280804 0.004699328103951699
6.646115033215589E7 0.001098122417415519 0.004769603680735626 0.9989018775825843 -0.004769603680735626 0.9989018775825843 -0.004769603680735626 0.001098122417415519 0.004769603680735626
6.746414238367817E7 0.0011010367645676723 0.004840914549664436 0.9988989632354323 -0.004840914549664436 0.9988989632354323 -0.004840914549664436 0.0011010367645676723 0.004840914549664436
6.848227099318038E7 0.0011040272054132685 0.004913275461084334 0.9988959727945868 -0.004913275461084333 0.9988959727945868 -0.004913275461084333 0.0011040272054132685 0.004913275461084334
6.951576459256999E7 0.001107095421631888 0.004986701365502895 0.9988929045783678 -0.004986701365502894 0.9988929045783678 -0.004986701365502894 0.001107095421631888 0.004986701365502895
7.056485506111258E7 0.0011102431180413884 0.0050612074165379715 0.9988897568819587 -0.0050612074165379715 0.9988897568819587 -0.0050612074165379715 0.0011102431180413884 0.0050612074165379715
7.162977777745734E7 0.0011134720223701712 0.005136808973947621 0.9988865279776298 -0.005136808973947621 0.9988865279776298 -0.005136808973947621 0.0011134720223701712 0.005136808973947621
7.271077167244768E7 0.0011167838850157635 0.005213521606744546 0.9988832161149841 -0.005213521606744546 0.9988832161149841 -0.005213521606744546 0.0011167838850157635 0.005213521606744546
7.380807928272885E7 0.0011201804787913773 0.005291361096398499 0.9988798195212084 -0.005291361096398499 0.9988798195212084 -0.005291361096398499 0.0011201804787913773 0.005291361096398499
7.492194680516452E7 0.0011236635986623617 0.005370343440130188 0.9988763364013376 -0.005370343440130187 0.9988763364013376 -0.005370343440130187 0.0011236635986623617 0.005370343440130188
7.60526241520746E7 0.0011272350614746943 0.0054504848543001925 0.9988727649385253 -0.0054504848543001925 0.9988727649385253 -0.0054504848543001925 0.0011272350614746943 0.0054504848543001925
7.720036500730675E7 0.0011308967056779162 0.005531801777896476 0.998869103294322 -0.005531801777896476 0.998869103294322 -0.005531801777896476 0.0011308967056779162 0.005531801777896476
7.836542688315398E7 0.0011346503910451649 0.005614310876124 0.9988653496089547 -0.005614310876124 0.9988653496089547 -0.005614310876124 0.0011346503910451649 0.005614310876124
7.954807117813127E7 0.0011384979983932396 0.005698029044099939 0.9988615020016068 -0.00569802904409994 0.9988615020016068 -0.00569802904409994 0.0011384979983932396 0.005698029044099939
8.074856323562416E7 0.0011424414293058978 0.00578297341065796 0.9988575585706942 -0.00578297341065796 0.9988575585706942 -0.00578297341065796 0.0011424414293058978 0.00578297341065796
8.196717240342227E7 0.0011464826058638865 0.005869161342264948 0.9988535173941361 -0.005869161342264948 0.9988535173941361 -0.005869161342264948 0.0011464826058638865 0.005869161342264948
8.320417209415154E7 0.0011506234703854764 0.005956610447053514 0.9988493765296145 -0.005956610447053514 0.9988493765296145 -0.005956610447053514 0.0011506234703854764 0.005956610447053514
8.445983984661816E7 0.0011548659851815554 0.00604533857897337 0.9988451340148183 -0.006045338578973369 0.9988451340148183 -0.006045338578973369 0.0011548659851815554 0.00604533857897337
8.573445738807854E7 0.0011592121323296812 0.006135363842064746 0.9988407878676705 -0.0061353638420647465 0.9988407878676705 -0.0061353638420647465 0.0011592121323296812 0.006135363842064746
8.702831069744885E7 0.0011636639134717124 0.006226704594856636 0.9988363360865283 -0.006226704594856636 0.9988363360865283 -0.006226704594856636 0.0011636639134717124 0.006226704594856636
8.834169006946853E7 0.0011682233496399903 0.006319379454892621 0.9988317766503599 -0.006319379454892621 0.9988317766503599 -0.006319379454892621 0.0011682233496399903 0.006319379454892621
8.96748901798321E7 0.0011728924811173103 0.006413407303386744 0.9988271075188826 -0.006413407303386744 0.9988271075188826 -0.006413407303386744 0.0011728924811173103 0.006413407303386744
9.1028210151304E7 0.001177673367336191 0.006508807290011672 0.9988223266326638 -0.006508807290011672 0.9988223266326638 -0.006508807290011672 0.001177673367336191 0.006508807290011672
9.240195362083109E7 0.0011825680868232543 0.006605598837821107 0.9988174319131767 -0.006605598837821107 0.9988174319131767 -0.006605598837821107 0.0011825680868232543 0.006605598837821107
9.379642880766791E7 0.0011875787371947648 0.00670380164830817 0.9988124212628052 -0.006703801648308171 0.9988124212628052 -0.006703801648308171 0.0011875787371947648 0.00670380164830817
9.521194858253023E7 0.0011927074352096412 0.006803435706601021 0.9988072925647903 -0.006803435706601021 0.9988072925647903 -0.006803435706601021 0.0011927074352096412 0.006803435706601021
9.664883053779216E7 0.001197956316886488 0.006904521286796822 0.9988020436831136 -0.006904521286796821 0.9988020436831136 -0.006904521286796821 0.001197956316886488 0.006904521286796822
9.810739705874248E7 0.0012033275376913807 0.007007078957434488 0.9987966724623087 -0.007007078957434488 0.9987966724623087 -0.007007078957434488 0.0012033275376913807 0.007007078957434488
9.958797539591652E7 0.00120882327280338 0.007111129587106617 0.9987911767271964 -0.007111129587106615 0.9987911767271964 -0.007111129587106615 0.00120882327280338 0.007111129587106617
1.0109089773851961E8 0.0012144457174648729 0.007216694350210208 0.998785554282535 -0.007216694350210208 0.998785554282535 -0.007216694350210208 0.0012144457174648729 0.007216694350210208
1.0261650128895843E8 0.001220197087423974 0.007323794732835537 0.9987798029125758 -0.007323794732835535 0.9987798029125758 -0.007323794732835535 0.001220197087423974 0.007323794732835537
1.0416512833849736E8 0.0012260796194763725 0.007432452538791973 0.9987739203805237 -0.007432452538791972 0.9987739203805237 -0.007432452538791972 0.0012260796194763725 0.007432452538791973
1.0573712634405641E8 0.0012320955721140197 0.007542689895769077 0.9987679044278859 -0.007542689895769077 0.9987679044278859 -0.007542689895769077 0.0012320955721140197 0.007542689895769077
1.0733284800616828E8 0.0012382472262881428 0.007654529261630748 0.9987617527737118 -0.007654529261630746 0.9987617527737118 -0.007654529261630746 0.0012382472262881428 0.007654529261630748
1.0895265134811176E8 0.0012445368862940046 0.0077679934308396035 0.9987554631137059 -0.0077679934308396035 0.9987554631137059 -0.0077679934308396035 0.0012445368862940046 0.0077679934308396035
1.1059689979623953E8 0.0012509668807848457 0.007883105541008378 0.9987490331192153 -0.007883105541008378 0.9987490331192153 -0.007883105541008378 0.0012509668807848457 0.007883105541008378
1.1226596226151802E8 0.0012575395639222893 0.007999889079574354 0.9987424604360776 -0.007999889079574355 0.9987424604360776 -0.007999889079574355 0.0012575395639222893 0.007999889079574354
1.1396021322229806E8 0.0012642573166703832 0.008118367890592407 0.9987357426833295 -0.008118367890592407 0.9987357426833295 -0.008118367890592407 0.0012642573166703832 0.008118367890592407
1.1568003280833441E8 0.0012711225482402624 0.00823856618164164 0.9987288774517599 -0.00823856618164164 0.9987288774517599 -0.00823856618164164 0.0012711225482402624 0.00823856618164164
1.1742580688607343E8 0.001278137697692134 0.00836050853083995 0.9987218623023078 -0.00836050853083995 0.9987218623023078 -0.00836050853083995 0.001278137697692134 0.00836050853083995
1.1919792714522783E8 0.0012853052357010525 0.008484219893960367 0.9987146947642989 -0.008484219893960369 0.9987146947642989 -0.008484219893960369 0.0012853052357010525 0.008484219893960367
1.2099679118665792E8 0.001292627666492545 0.008609725611642438 0.9987073723335074 -0.008609725611642438 0.9987073723335074 -0.008609725611642438 0.001292627666492545 0.008609725611642438
1.2282280261157903E8 0.001300107529953783 0.008737051416691297 0.9986998924700462 -0.008737051416691297 0.9986998924700462 -0.008737051416691297 0.001300107529953783 0.008737051416691297
1.2467637111211549E8 0.0013077474039255269 0.008866223441456718 0.9986922525960744 -0.008866223441456716 0.9986922525960744 -0.008866223441456716 0.0013077474039255269 0.008866223441456718
1.265579125632208E8 0.0013155499066795557 0.00899726822528369 0.9986844500933205 -0.00899726822528369 0.9986844500933205 -0.00899726822528369 0.0013155499066795557 0.00899726822528369
1.284678491159853E8 0.0013235176995857504 0.009130212722025894 0.9986764823004143 -0.009130212722025896 0.9986764823004143 -0.009130212722025896 0.0013235176995857504 0.009130212722025894
1.3040660929235186E8 0.001331653489972364 0.009265084307612737 0.9986683465100274 -0.009265084307612737 0.9986683465100274 -0.009265084307612737 0.001331653489972364 0.009265084307612737
1.3237462808126101E8 0.0013399600341823794 0.009401910787660424 0.9986600399658175 -0.009401910787660424 0.9986600399658175 -0.009401910787660424 0.0013399600341823794 0.009401910787660424
1.3437234703624701E8 0.0013484401408281194 0.00954072040511707 0.9986515598591719 -0.00954072040511707 0.9986515598591719 -0.00954072040511707 0.0013484401408281194 0.00954072040511707
1.364002143745067E8 0.0013570966742455525 0.009681541847931664 0.9986429033257546 -0.009681541847931662 0.9986429033257546 -0.009681541847931662 0.0013570966742455525 0.009681541847931664
1.3845868507746372E8 0.0013659325581489381 0.009824404256736377 0.9986340674418512 -0.009824404256736375 0.9986340674418512 -0.009824404256736375 0.0013659325581489381 0.009824404256736377
1.405482209928499E8 0.0013749507794856297 0.009969337232531586 0.9986250492205145 -0.009969337232531586 0.9986250492205145 -0.009969337232531586 0.0013749507794856297 0.009969337232531586
1.426692909383278E8 0.0013841543924900132 0.010116370844362859 0.9986158456075098 -0.010116370844362857 0.9986158456075098 -0.010116370844362857 0.0013841543924900132 0.010116370844362859
1.4482237080667645E8 0.0013935465229346774 0.010265535636979097 0.9986064534770652 -0.010265535636979097 0.9986064534770652 -0.010265535636979097 0.0013935465229346774 0.010265535636979097
1.4700794367256513E8 0.00140313037257601 0.010416862638461092 0.9985968696274241 -0.010416862638461092 0.9985968696274241 -0.010416862638461092 0.00140313037257601 0.010416862638461092
1.492264999009378E8 0.0014129092237905423 0.010570383367809827 0.9985870907762094 -0.010570383367809827 0.9985870907762094 -0.010570383367809827 0.0014129092237905423 0.010570383367809827
1.5147853725703382E8 0.0014228864443973826 0.010726129842484047 0.9985771135556029 -0.010726129842484047 0.9985771135556029 -0.010726129842484047 0.0014228864443973826 0.010726129842484047
1.5376456101806876E8 0.001433065492661256 0.010884134585876908 0.9985669345073389 -0.01088413458587691 0.9985669345073389 -0.01088413458587691 0.001433065492661256 0.010884134585876908
1.5608508408660066E8 0.0014434499224696867 0.011044430634721852 0.9985565500775304 -0.011044430634721852 0.9985565500775304 -0.011044430634721852 0.0014434499224696867 0.011044430634721852
1.5844062710560706E8 0.001454043388677003 0.01120705154641816 0.9985459566113231 -0.01120705154641816 0.9985459566113231 -0.01120705154641816 0.001454043388677003 0.01120705154641816
1.6083171857529896E8 0.001464849652606992 0.011372031406267415 0.9985351503473929 -0.011372031406267417 0.9985351503473929 -0.011372031406267417 0.001464849652606992 0.011372031406267415
1.632588949716973E8 0.0014758725877051383 0.011539404834612308 0.9985241274122949 -0.01153940483461231 0.9985241274122949 -0.01153940483461231 0.0014758725877051383 0.011539404834612308
1.6572270086699936E8 0.0014871161853306513 0.011709206993870236 0.9985128838146692 -0.011709206993870236 0.9985128838146692 -0.011709206993870236 0.0014871161853306513 0.011709206993870236
1.6822368905176118E8 0.0014985845606776441 0.011881473595454604 0.9985014154393226 -0.011881473595454606 0.9985014154393226 -0.011881473595454606 0.0014985845606776441 0.011881473595454604
1.7076242065892437E8 0.0015102819588141828 0.012056240906577675 0.9984897180411857 -0.012056240906577675 0.9984897180411857 -0.012056240906577675 0.0015102819588141828 0.012056240906577675
1.7333946528971428E8 0.0015222127608272248 0.012233545756929663 0.9984777872391728 -0.012233545756929665 0.9984777872391728 -0.012233545756929665 0.0015222127608272248 0.012233545756929663
1.7595540114143828E8 0.0015343814900608853 0.012413425545229602 0.9984656185099392 -0.012413425545229602 0.9984656185099392 -0.012413425545229602 0.0015343814900608853 0.012413425545229602
1.786108151372127E8 0.0015467928184349374 0.01259591824564462 0.998453207181565 -0.01259591824564462 0.998453207181565 -0.01259591824564462 0.0015467928184349374 0.01259591824564462
1.8130630305764765E8 0.0015594515728300042 0.012781062414075275 0.9984405484271699 -0.012781062414075275 0.9984405484271699 -0.012781062414075275 0.0015594515728300042 0.012781062414075275
1.840424696745189E8 0.0015723627415254982 0.012968897194305523 0.9984276372584746 -0.012968897194305523 0.9984276372584746 -0.012968897194305523 0.0015723627415254982 0.012968897194305523
1.8681992888645732E8 0.0015855314806760665 0.0131594623240172 0.9984144685193238 -0.0131594623240172 0.9984144685193238 -0.0131594623240172 0.0015855314806760665 0.0131594623240172
1.8963930385668582E8 0.001598963120812114 0.01335279814067008 0.9984010368791879 -0.01335279814067008 0.9984010368791879 -0.01335279814067008 0.001598963120812114 0.01335279814067008
1.92501227152835E8 0.0016126631733497515 0.013548945587249311 0.9983873368266504 -0.013548945587249311 0.9983873368266504 -0.013548945587249311 0.0016126631733497515 0.013548945587249311
1.9540634088886917E8 0.0016266373370955889 0.01374794621788402 0.9983733626629044 -0.01374794621788402 0.9983733626629044 -0.01374794621788402 0.0016266373370955889 0.01374794621788402
1.983552968691535E8 0.0016408915047317072 0.0139498422033412 0.9983591084952683 -0.013949842203341197 0.9983591084952683 -0.013949842203341197 0.0016408915047317072 0.0139498422033412
2.0134875673469606E8 0.0016554317692663418 0.014154676336400815 0.9983445682307336 -0.014154676336400811 0.9983445682307336 -0.014154676336400811 0.0016554317692663418 0.014154676336400815
2.0438739211159652E8 0.001670264430436006 0.014362492037119118 0.998329735569564 -0.014362492037119118 0.998329735569564 -0.014362492037119118 0.001670264430436006 0.014362492037119118
2.074718847617352E8 0.0016853960010450376 0.014573333357988136 0.9983146039989549 -0.014573333357988136 0.9983146039989549 -0.014573333357988136 0.0016853960010450376 0.014573333357988136
2.106029267357361E8 0.0017008332132289904 0.014787244989000844 0.9982991667867711 -0.014787244989000844 0.9982991667867711 -0.014787244989000844 0.0017008332132289904 0.014787244989000844
2.1378122052823865E8 0.0017165830246286934 0.015004272262632356 0.9982834169753713 -0.01500427226263236 0.9982834169753713 -0.01500427226263236 0.0017165830246286934 0.015004272262632356
2.1700747923551247E8 0.0017326526244623738 0.01522446115874888 0.9982673473755375 -0.01522446115874888 0.9982673473755375 -0.01522446115874888 0.0017326526244623738 0.01522446115874888
2.2028242671545094E8 0.0017490494394838442 0.015447858309457153 0.9982509505605163 -0.015447858309457153 0.9982509505605163 -0.015447858309457153 0.0017490494394838442 0.015447858309457153
2.23606797749979E8 0.001765781139815405 0.015674511003907956 0.9982342188601845 -0.015674511003907956 0.9982342188601845 -0.015674511003907956 0.001765781139815405 0.015674511003907956
2.2698133820991236E8 0.0017828556446449313 0.01590446719306891 0.9982171443553552 -0.01590446719306891 0.9982171443553552 -0.01590446719306891 0.0017828556446449313 0.01590446719306891
2.3040680522230446E8 0.001800281127777354 0.016137775494482018 0.9981997188722227 -0.016137775494482018 0.9981997188722227 -0.016137775494482018 0.001800281127777354 0.016137775494482018
2.338839673403185E8 0.0018180660230316548 0.01637448519702285 0.9981819339769684 -0.01637448519702285 0.9981819339769684 -0.01637448519702285 0.0018180660230316548 0.01637448519702285
2.37413604715664E8 0.0018362190294754287 0.016614646265679038 0.9981637809705246 -0.01661464626567904 0.9981637809705246 -0.01661464626567904 0.0018362190294754287 0.016614646265679038
