!Murata Part Number: LQP02TQ22NH02
!These Parameters are Measured in Series Mode Connection
!       o--[Z]--o
!Port1              Port2
!       o-------o
!
!Freq. Start=50[MHz] Stop=20[GHz], 401[Steps]
# Hz S RI R 50
!Freq.(Hz) S11(Real) S11(Imag) S21(Real) S21(Imag) S12(Real) S12(Imag) S22(Real) S22(Imag)
5.0E7 0.030538116026317022 0.07257640246365542 0.969461883973683 -0.07257640246365542 0.969461883973683 -0.07257640246365542 0.030538116026317022 0.07257640246365542
5.0754570186123446E7 0.03075067894261075 0.07362961500370943 0.9692493210573893 -0.07362961500370943 0.9692493210573893 -0.07362961500370943 0.03075067894261075 0.07362961500370943
5.152052789556263E7 0.030968948561969765 0.07469737088726476 0.9690310514380303 -0.07469737088726476 0.9690310514380303 -0.07469737088726476 0.030968948561969765 0.07469737088726476
5.229804498202928E7 0.031193072288611293 0.0757798455526583 0.9688069277113889 -0.0757798455526583 0.9688069277113889 -0.0757798455526583 0.031193072288611293 0.0757798455526583
5.308729589274893E7 0.03142320117686974 0.07687721583774877 0.9685767988231302 -0.07687721583774876 0.9685767988231302 -0.07687721583774876 0.03142320117686974 0.07687721583774877
5.388845770760058E7 0.031659490030859286 0.07798965996456046 0.9683405099691406 -0.07798965996456046 0.9683405099691406 -0.07798965996456046 0.031659490030859286 0.07798965996456046
5.470171017884717E7 0.03190209750733712 0.07911735752145437 0.968097902492663 -0.07911735752145437 0.968097902492663 -0.07911735752145437 0.03190209750733712 0.07911735752145437
5.5527235771465644E7 0.032151186221806606 0.08026048944262094 0.9678488137781933 -0.08026048944262094 0.9678488137781933 -0.08026048944262094 0.032151186221806606 0.08026048944262094
5.6365219704085544E7 0.0324069228578923 0.0814192379846841 0.9675930771421077 -0.0814192379846841 0.9675930771421077 -0.0814192379846841 0.0324069228578923 0.0814192379846841
5.721584999054556E7 0.032669478280008095 0.08259378670019336 0.9673305217199919 -0.08259378670019336 0.9673305217199919 -0.08259378670019336 0.032669478280008095 0.08259378670019336
5.807931748207712E7 0.03293902764933073 0.08378432040777581 0.9670609723506693 -0.08378432040777581 0.9670609723506693 -0.08378432040777581 0.03293902764933073 0.08378432040777581
5.8955815910124585E7 0.03321575054307903 0.08499102515871004 0.9667842494569211 -0.08499102515871004 0.9667842494569211 -0.08499102515871004 0.03321575054307903 0.08499102515871004
5.984554192981184E7 0.033499831077088975 0.0862140881996785 0.9665001689229109 -0.0862140881996785 0.9665001689229109 -0.0862140881996785 0.033499831077088975 0.0862140881996785
6.074869516406457E7 0.03379145803166053 0.08745369793144529 0.9662085419683395 -0.0874536979314453 0.9662085419683395 -0.0874536979314453 0.03379145803166053 0.08745369793144529
6.166547824839868E7 0.03409082498064073 0.0887100438632036 0.9659091750193594 -0.0887100438632036 0.9659091750193594 -0.0887100438632036 0.03409082498064073 0.0887100438632036
6.2596096876384385E7 0.0343981304236926 0.08998331656232807 0.9656018695763073 -0.08998331656232807 0.9656018695763073 -0.08998331656232807 0.0343981304236926 0.08998331656232807
6.354075984579668E7 0.034713577921686105 0.09127370759926595 0.9652864220783139 -0.09127370759926595 0.9652864220783139 -0.09127370759926595 0.034713577921686105 0.09127370759926595
6.449967910546205E7 0.03503737623513091 0.09258140948729282 0.9649626237648692 -0.09258140948729282 0.9649626237648692 -0.09258140948729282 0.03503737623513091 0.09258140948729282
6.547306980281226E7 0.03536973946555727 0.09390661561685992 0.9646302605344427 -0.09390661561685994 0.9646302605344427 -0.09390661561685994 0.03536973946555727 0.09390661561685992
6.646115033215589E7 0.03571088719973303 0.09524952018425417 0.964289112800267 -0.09524952018425419 0.964289112800267 -0.09524952018425419 0.03571088719973303 0.09524952018425417
6.746414238367817E7 0.0360610446565902 0.09661031811429228 0.9639389553434099 -0.09661031811429228 0.9639389553434099 -0.09661031811429228 0.0360610446565902 0.09661031811429228
6.848227099318038E7 0.03642044283671681 0.09798920497676976 0.9635795571632831 -0.09798920497676976 0.9635795571632831 -0.09798920497676976 0.03642044283671681 0.09798920497676976
6.951576459256999E7 0.03678931867425268 0.09938637689638584 0.9632106813257474 -0.09938637689638583 0.9632106813257474 -0.09938637689638583 0.03678931867425268 0.09938637689638584
7.056485506111258E7 0.03716791519101076 0.1008020304558666 0.9628320848089892 -0.1008020304558666 0.9628320848089892 -0.1008020304558666 0.03716791519101076 0.1008020304558666
7.162977777745734E7 0.0375564816526284 0.10223636259201287 0.9624435183473715 -0.10223636259201285 0.9624435183473715 -0.10223636259201285 0.0375564816526284 0.10223636259201287
7.271077167244768E7 0.037955273726534296 0.10368957048439992 0.9620447262734658 -0.10368957048439995 0.9620447262734658 -0.10368957048439995 0.037955273726534296 0.10368957048439992
7.380807928272885E7 0.03836455364150096 0.10516185143646462 0.9616354463584991 -0.10516185143646462 0.9616354463584991 -0.10516185143646462 0.03836455364150096 0.10516185143646462
7.492194680516452E7 0.038784590348533446 0.10665340274871792 0.9612154096514666 -0.10665340274871792 0.9612154096514666 -0.10665340274871792 0.038784590348533446 0.10665340274871792
7.60526241520746E7 0.039215659682829 0.10816442158382988 0.960784340317171 -0.10816442158382988 0.960784340317171 -0.10816442158382988 0.039215659682829 0.10816442158382988
7.720036500730675E7 0.03965804452652448 0.10969510482334119 0.9603419554734756 -0.10969510482334119 0.9603419554734756 -0.10969510482334119 0.03965804452652448 0.10969510482334119
7.836542688315398E7 0.040112034971931575 0.11124564891576379 0.9598879650280684 -0.11124564891576376 0.9598879650280684 -0.11124564891576376 0.040112034971931575 0.11124564891576379
7.954807117813127E7 0.04057792848494407 0.11281624971584406 0.959422071515056 -0.11281624971584409 0.959422071515056 -0.11281624971584409 0.04057792848494407 0.11281624971584406
8.074856323562416E7 0.041056030068284045 0.11440710231477214 0.9589439699317159 -0.11440710231477214 0.9589439699317159 -0.11440710231477214 0.041056030068284045 0.11440710231477214
8.196717240342227E7 0.041546652424239654 0.11601840086113234 0.9584533475757603 -0.11601840086113234 0.9584533475757603 -0.11601840086113234 0.041546652424239654 0.11601840086113234
8.320417209415154E7 0.04205011611653129 0.11765033837240443 0.9579498838834689 -0.11765033837240443 0.9579498838834689 -0.11765033837240443 0.04205011611653129 0.11765033837240443
8.445983984661816E7 0.04256674973092839 0.11930310653683533 0.9574332502690717 -0.11930310653683533 0.9574332502690717 -0.11930310653683533 0.04256674973092839 0.11930310653683533
8.573445738807854E7 0.04309689003422562 0.12097689550551939 0.9569031099657744 -0.12097689550551939 0.9569031099657744 -0.12097689550551939 0.04309689003422562 0.12097689550551939
8.702831069744885E7 0.04364088213117376 0.12267189367453701 0.9563591178688262 -0.12267189367453701 0.9563591178688262 -0.12267189367453701 0.04364088213117376 0.12267189367453701
8.834169006946853E7 0.044199079618947826 0.12438828745701909 0.955800920381052 -0.12438828745701909 0.955800920381052 -0.12438828745701909 0.044199079618947826 0.12438828745701909
8.96748901798321E7 0.044771844738723816 0.12612626104502084 0.9552281552612762 -0.12612626104502087 0.9552281552612762 -0.12612626104502087 0.044771844738723816 0.12612626104502084
9.1028210151304E7 0.045359548523923196 0.12788599616110502 0.9546404514760768 -0.12788599616110502 0.9546404514760768 -0.12788599616110502 0.045359548523923196 0.12788599616110502
9.240195362083109E7 0.04596257094467532 0.12966767179955319 0.9540374290553245 -0.12966767179955319 0.9540374290553245 -0.12966767179955319 0.04596257094467532 0.12966767179955319
9.379642880766791E7 0.04658130104803714 0.1314714639571409 0.9534186989519629 -0.13147146395714093 0.9534186989519629 -0.13147146395714093 0.04658130104803714 0.1314714639571409
9.521194858253023E7 0.04721613709350111 0.13329754535343166 0.952783862906499 -0.13329754535343166 0.952783862906499 -0.13329754535343166 0.04721613709350111 0.13329754535343166
9.664883053779216E7 0.047867486683315065 0.1351460851405643 0.952132513316685 -0.13514608514056434 0.952132513316685 -0.13514608514056434 0.047867486683315065 0.1351460851405643
9.810739705874248E7 0.04853576688712899 0.13701724860252654 0.951464233112871 -0.13701724860252654 0.951464233112871 -0.13701724860252654 0.04853576688712899 0.13701724860252654
9.958797539591652E7 0.049221404360478054 0.1389111968439277 0.950778595639522 -0.1389111968439277 0.950778595639522 -0.1389111968439277 0.049221404360478054 0.1389111968439277
1.0109089773851961E8 0.04992483545660583 0.1408280864683054 0.9500751645433941 -0.14082808646830544 0.9500751645433941 -0.14082808646830544 0.04992483545660583 0.1408280864683054
1.0261650128895843E8 0.050646506331126065 0.14276806924601881 0.949353493668874 -0.14276806924601881 0.949353493668874 -0.14276806924601881 0.050646506331126065 0.14276806924601881
1.0416512833849736E8 0.051386873039017116 0.14473129177180333 0.9486131269609829 -0.14473129177180333 0.9486131269609829 -0.14473129177180333 0.051386873039017116 0.14473129177180333
1.0573712634405641E8 0.052146401623440676 0.14671789511208302 0.9478535983765595 -0.14671789511208302 0.9478535983765595 -0.14671789511208302 0.052146401623440676 0.14671789511208302
1.0733284800616828E8 0.05292556819587266 0.14872801444215697 0.9470744318041274 -0.14872801444215697 0.9470744318041274 -0.14872801444215697 0.05292556819587266 0.14872801444215697
1.0895265134811176E8 0.053724859007033166 0.1507617786733985 0.946275140992967 -0.1507617786733985 0.946275140992967 -0.1507617786733985 0.053724859007033166 0.1507617786733985
1.1059689979623953E8 0.054544770508100755 0.15281931007062663 0.9454552294918992 -0.15281931007062666 0.9454552294918992 -0.15281931007062666 0.054544770508100755 0.15281931007062663
1.1226596226151802E8 0.05538580940169652 0.15490072385983308 0.9446141905983035 -0.15490072385983308 0.9446141905983035 -0.15490072385983308 0.05538580940169652 0.15490072385983308
1.1396021322229806E8 0.056248492682123 0.15700612782646675 0.943751507317877 -0.15700612782646678 0.943751507317877 -0.15700612782646678 0.056248492682123 0.15700612782646675
1.1568003280833441E8 0.05713334766434583 0.15913562190450412 0.9428666523356543 -0.15913562190450412 0.9428666523356543 -0.15913562190450412 0.05713334766434583 0.15913562190450412
1.1742580688607343E8 0.05804091200120633 0.16128929775655299 0.9419590879987938 -0.16128929775655299 0.9419590879987938 -0.16128929775655299 0.05804091200120633 0.16128929775655299
1.1919792714522783E8 0.05897173368835784 0.16346723834526158 0.9410282663116422 -0.16346723834526158 0.9410282663116422 -0.16346723834526158 0.05897173368835784 0.16346723834526158
1.2099679118665792E8 0.059926371056421 0.16566951749632589 0.9400736289435789 -0.16566951749632589 0.9400736289435789 -0.16566951749632589 0.059926371056421 0.16566951749632589
1.2282280261157903E8 0.060905392749859254 0.1678961994534135 0.9390946072501406 -0.16789619945341347 0.9390946072501406 -0.16789619945341347 0.060905392749859254 0.1678961994534135
1.2467637111211549E8 0.061909377692080526 0.17014733842534271 0.9380906223079195 -0.17014733842534271 0.9380906223079195 -0.17014733842534271 0.061909377692080526 0.17014733842534271
1.265579125632208E8 0.06293891503627783 0.17242297812587917 0.9370610849637221 -0.17242297812587917 0.9370610849637221 -0.17242297812587917 0.06293891503627783 0.17242297812587917
1.284678491159853E8 0.06399460410152971 0.17472315130653707 0.9360053958984701 -0.17472315130653707 0.9360053958984701 -0.17472315130653707 0.06399460410152971 0.17472315130653707
1.3040660929235186E8 0.0650770542936894 0.17704787928279156 0.9349229457063106 -0.1770478792827916 0.9349229457063106 -0.1770478792827916 0.0650770542936894 0.17704787928279156
1.3237462808126101E8 0.06618688501060127 0.17939717145413542 0.9338131149893987 -0.17939717145413542 0.9338131149893987 -0.17939717145413542 0.06618688501060127 0.17939717145413542
1.3437234703624701E8 0.06732472553119431 0.18177102481843224 0.9326752744688056 -0.18177102481843227 0.9326752744688056 -0.18177102481843227 0.06732472553119431 0.18177102481843224
1.364002143745067E8 0.06849121488801402 0.1841694234810448 0.931508785111986 -0.1841694234810448 0.931508785111986 -0.1841694234810448 0.06849121488801402 0.1841694234810448
1.3845868507746372E8 0.06968700172276697 0.18659233815923537 0.9303129982772329 -0.18659233815923537 0.9303129982772329 -0.18659233815923537 0.06968700172276697 0.18659233815923537
1.405482209928499E8 0.07091274412446631 0.1890397256823598 0.9290872558755336 -0.18903972568235974 0.9290872558755336 -0.18903972568235974 0.07091274412446631 0.1890397256823598
1.426692909383278E8 0.07216910944978197 0.19151152848839684 0.927830890550218 -0.19151152848839684 0.927830890550218 -0.19151152848839684 0.07216910944978197 0.19151152848839684
1.4482237080667645E8 0.07345677412521574 0.19400767411737613 0.9265432258747843 -0.19400767411737613 0.9265432258747843 -0.19400767411737613 0.07345677412521574 0.19400767411737613
1.4700794367256513E8 0.07477642343073848 0.19652807470228703 0.9252235765692614 -0.19652807470228703 0.9252235765692614 -0.19652807470228703 0.07477642343073848 0.19652807470228703
1.492264999009378E8 0.07612875126454621 0.19907262645807272 0.9238712487354536 -0.19907262645807267 0.9238712487354536 -0.19907262645807267 0.07612875126454621 0.19907262645807272
1.5147853725703382E8 0.07751445988860986 0.20164120916932832 0.9224855401113901 -0.20164120916932832 0.9224855401113901 -0.20164120916932832 0.07751445988860986 0.20164120916932832
1.5376456101806876E8 0.0789342596547161 0.20423368567734443 0.921065740345284 -0.20423368567734443 0.921065740345284 -0.20423368567734443 0.0789342596547161 0.20423368567734443
1.5608508408660066E8 0.08038886871071749 0.20684990136715062 0.9196111312892825 -0.2068499013671506 0.9196111312892825 -0.2068499013671506 0.08038886871071749 0.20684990136715062
1.5844062710560706E8 0.08187901268673119 0.20948968365522996 0.9181209873132689 -0.20948968365522996 0.9181209873132689 -0.20948968365522996 0.08187901268673119 0.20948968365522996
1.6083171857529896E8 0.08340542436105132 0.21215284147858998 0.9165945756389487 -0.21215284147858998 0.9165945756389487 -0.21215284147858998 0.08340542436105132 0.21215284147858998
1.632588949716973E8 0.08496884330556224 0.2148391647858894 0.9150311566944379 -0.21483916478588944 0.9150311566944379 -0.21483916478588944 0.08496884330556224 0.2148391647858894
1.6572270086699936E8 0.08657001551046412 0.21754842403132899 0.9134299844895358 -0.21754842403132899 0.9134299844895358 -0.21754842403132899 0.08657001551046412 0.21754842403132899
1.6822368905176118E8 0.08820969298814826 0.2202803696720274 0.9117903070118518 -0.22028036967202747 0.9117903070118518 -0.22028036967202747 0.08820969298814826 0.2202803696720274
1.7076242065892437E8 0.0898886333560827 0.2230347316696102 0.9101113666439171 -0.22303473166961016 0.9101113666439171 -0.22303473166961016 0.0898886333560827 0.2230347316696102
1.7333946528971428E8 0.09160759939859565 0.22581121899674692 0.9083924006014044 -0.22581121899674692 0.9083924006014044 -0.22581121899674692 0.09160759939859565 0.22581121899674692
1.7595540114143828E8 0.09336735860746609 0.22860951914937788 0.9066326413925339 -0.22860951914937788 0.9066326413925339 -0.22860951914937788 0.09336735860746609 0.22860951914937788
1.786108151372127E8 0.09516868270125893 0.23142929766537418 0.9048313172987409 -0.23142929766537415 0.9048313172987409 -0.23142929766537415 0.09516868270125893 0.23142929766537418
1.8130630305764765E8 0.09701234712336172 0.23427019765037907 0.9029876528766382 -0.23427019765037907 0.9029876528766382 -0.23427019765037907 0.09701234712336172 0.23427019765037907
1.840424696745189E8 0.09889913051870633 0.2371318393115778 0.9011008694812936 -0.2371318393115778 0.9011008694812936 -0.2371318393115778 0.09889913051870633 0.2371318393115778
1.8681992888645732E8 0.10082981418917798 0.2400138195001438 0.899170185810822 -0.2400138195001438 0.899170185810822 -0.2400138195001438 0.10082981418917798 0.2400138195001438
1.8963930385668582E8 0.1028051815277374 0.242915711263108 0.8971948184722627 -0.24291571126310793 0.8971948184722627 -0.24291571126310793 0.1028051815277374 0.242915711263108
1.92501227152835E8 0.1048260174312987 0.24583706340539416 0.8951739825687014 -0.24583706340539416 0.8951739825687014 -0.24583706340539416 0.1048260174312987 0.24583706340539416
1.9540634088886917E8 0.10689310769242433 0.24877740006276172 0.8931068923075757 -0.24877740006276172 0.8931068923075757 -0.24877740006276172 0.10689310769242433 0.24877740006276172
1.983552968691535E8 0.10900723836991422 0.25173622028639114 0.8909927616300859 -0.25173622028639114 0.8909927616300859 -0.25173622028639114 0.10900723836991422 0.25173622028639114
2.0134875673469606E8 0.11116919513837982 0.2547129976398465 0.8888308048616202 -0.25471299763984656 0.8888308048616202 -0.25471299763984656 0.11116919513837982 0.2547129976398465
2.0438739211159652E8 0.11337976261690662 0.2577071798091437 0.8866202373830934 -0.2577071798091437 0.8866202373830934 -0.2577071798091437 0.11337976261690662 0.2577071798091437
2.074718847617352E8 0.11563972367691615 0.26071818822664816 0.8843602763230838 -0.26071818822664816 0.8843602763230838 -0.26071818822664816 0.11563972367691615 0.26071818822664816
2.106029267357361E8 0.11794985872934836 0.26374541770952653 0.8820501412706516 -0.26374541770952653 0.8820501412706516 -0.26374541770952653 0.11794985872934836 0.26374541770952653
2.1378122052823865E8 0.12031094499129066 0.26678823611347285 0.8796890550087093 -0.26678823611347285 0.8796890550087093 -0.26678823611347285 0.12031094499129066 0.26678823611347285
2.1700747923551247E8 0.12272375573218096 0.26984598400243 0.8772762442678191 -0.26984598400243 0.8772762442678191 -0.26984598400243 0.12272375573218096 0.26984598400243
2.2028242671545094E8 0.12518905949971673 0.27291797433503107 0.8748109405002835 -0.27291797433503107 0.8748109405002835 -0.27291797433503107 0.12518905949971673 0.27291797433503107
2.23606797749979E8 0.12770761932559943 0.27600349216848874 0.8722923806744007 -0.27600349216848874 0.8722923806744007 -0.27600349216848874 0.12770761932559943 0.27600349216848874
2.2698133820991236E8 0.13028019191124246 0.2791017943806673 0.8697198080887577 -0.2791017943806673 0.8697198080887577 -0.2791017943806673 0.13028019191124246 0.2791017943806673
2.3040680522230446E8 0.1329075267935692 0.28221210941108676 0.8670924732064308 -0.28221210941108676 0.8670924732064308 -0.28221210941108676 0.1329075267935692 0.28221210941108676
2.338839673403185E8 0.1355903654910215 0.2853336370216191 0.8644096345089786 -0.2853336370216192 0.8644096345089786 -0.2853336370216192 0.1355903654910215 0.2853336370216191
2.37413604715664E8 0.138329440629897 0.2884655480776588 0.8616705593701031 -0.2884655480776588 0.8616705593701031 -0.2884655480776588 0.138329440629897 0.2884655480776588
2.4099650927363476E8 0.14112547505113 0.2916069843505714 0.85887452494887 -0.2916069843505714 0.85887452494887 -0.2916069843505714 0.14112547505113 0.2916069843505714
2.446334848907889E8 0.1439791808976252 0.29475705834225535 0.8560208191023749 -0.2947570583422554 0.8560208191023749 -0.2947570583422554 0.1439791808976252 0.29475705834225535
2.4832534757531032E8 0.14689125868225608 0.2979148531326811 0.8531087413177438 -0.2979148531326812 0.8531087413177438 -0.2979148531326812 0.14689125868225608 0.2979148531326811
2.5207292565009177E8 0.1498623963366374 0.3010794222513159 0.8501376036633626 -0.3010794222513159 0.8501376036633626 -0.3010794222513159 0.1498623963366374 0.3010794222513159
2.558770599385812E8 0.15289326824078756 0.3042497895733818 0.8471067317592125 -0.3042497895733817 0.8471067317592125 -0.3042497895733817 0.15289326824078756 0.3042497895733818
