!Murata Part Number: LQP02TQ20NH02
!These Parameters are Measured in Series Mode Connection
!       o--[Z]--o
!Port1              Port2
!       o-------o
!
!Freq. Start=50[MHz] Stop=20[GHz], 401[Steps]
# Hz S RI R 50
!Freq.(Hz) S11(Real) S11(Imag) S21(Real) S21(Imag) S12(Real) S12(Imag) S22(Real) S22(Imag)
5.0E7 0.024382413699313186 0.0672966841829926 0.9756175863006868 -0.06729668418299262 0.9756175863006868 -0.06729668418299262 0.024382413699313186 0.0672966841829926
5.0754570186123446E7 0.024569289037564928 0.06827517780329355 0.9754307109624352 -0.06827517780329355 0.9754307109624352 -0.06827517780329355 0.024569289037564928 0.06827517780329355
5.152052789556263E7 0.024761305231370462 0.06926737668091679 0.9752386947686296 -0.06926737668091679 0.9752386947686296 -0.06926737668091679 0.024761305231370462 0.06926737668091679
5.229804498202928E7 0.024958601840097672 0.0702734435149981 0.9750413981599024 -0.07027344351499809 0.9750413981599024 -0.07027344351499809 0.024958601840097672 0.0702734435149981
5.308729589274893E7 0.025161321678949536 0.07129354188574008 0.9748386783210503 -0.07129354188574008 0.9748386783210503 -0.07129354188574008 0.025161321678949536 0.07129354188574008
5.388845770760058E7 0.025369610880531697 0.07232783622810728 0.9746303891194683 -0.07232783622810726 0.9746303891194683 -0.07232783622810726 0.025369610880531697 0.07232783622810728
5.470171017884717E7 0.02558361895748594 0.07337649180437507 0.974416381042514 -0.07337649180437507 0.974416381042514 -0.07337649180437507 0.02558361895748594 0.07337649180437507
5.5527235771465644E7 0.02580349886622474 0.07443967467550056 0.9741965011337752 -0.07443967467550056 0.9741965011337752 -0.07443967467550056 0.02580349886622474 0.07443967467550056
5.6365219704085544E7 0.02602940707180358 0.0755175516712793 0.9739705929281963 -0.0755175516712793 0.9739705929281963 -0.0755175516712793 0.02602940707180358 0.0755175516712793
5.721584999054556E7 0.026261503613971032 0.07661029035924978 0.973738496386029 -0.07661029035924978 0.973738496386029 -0.07661029035924978 0.026261503613971032 0.07661029035924978
5.807931748207712E7 0.02649995217443923 0.07771805901230353 0.9735000478255608 -0.07771805901230353 0.9735000478255608 -0.07771805901230353 0.02649995217443923 0.07771805901230353
5.8955815910124585E7 0.026744920145419057 0.0788410265749548 0.9732550798545807 -0.0788410265749548 0.9732550798545807 -0.0788410265749548 0.026744920145419057 0.0788410265749548
5.984554192981184E7 0.026996578699468417 0.07997936262821978 0.9730034213005316 -0.07997936262821978 0.9730034213005316 -0.07997936262821978 0.026996578699468417 0.07997936262821978
6.074869516406457E7 0.02725510286070229 0.08113323735304927 0.9727448971392977 -0.08113323735304927 0.9727448971392977 -0.08113323735304927 0.02725510286070229 0.08113323735304927
6.166547824839868E7 0.027520671577417572 0.08230282149225551 0.9724793284225827 -0.08230282149225551 0.9724793284225827 -0.08230282149225551 0.027520671577417572 0.08230282149225551
6.2596096876384385E7 0.027793467796185876 0.08348828631086605 0.9722065322038143 -0.08348828631086605 0.9722065322038143 -0.08348828631086605 0.027793467796185876 0.08348828631086605
6.354075984579668E7 0.028073678537470437 0.08468980355483263 0.9719263214625296 -0.08468980355483263 0.9719263214625296 -0.08468980355483263 0.028073678537470437 0.08468980355483263
6.449967910546205E7 0.028361494972824027 0.08590754540801551 0.971638505027176 -0.08590754540801551 0.971638505027176 -0.08590754540801551 0.028361494972824027 0.08590754540801551
6.547306980281226E7 0.028657112503726007 0.08714168444735677 0.971342887496274 -0.08714168444735677 0.971342887496274 -0.08714168444735677 0.028657112503726007 0.08714168444735677
6.646115033215589E7 0.02896073084211769 0.0883923935961491 0.9710392691578824 -0.0883923935961491 0.9710392691578824 -0.0883923935961491 0.02896073084211769 0.0883923935961491
6.746414238367817E7 0.029272554092694577 0.08965984607529653 0.9707274459073054 -0.08965984607529653 0.9707274459073054 -0.08965984607529653 0.029272554092694577 0.08965984607529653
6.848227099318038E7 0.029592790837014733 0.09094421535245745 0.9704072091629854 -0.09094421535245746 0.9704072091629854 -0.09094421535245746 0.029592790837014733 0.09094421535245745
6.951576459256999E7 0.029921654219480436 0.09224567508894851 0.9700783457805195 -0.09224567508894851 0.9700783457805195 -0.09224567508894851 0.029921654219480436 0.09224567508894851
7.056485506111258E7 0.030259362035250092 0.09356439908428099 0.9697406379647501 -0.093564399084281 0.9697406379647501 -0.093564399084281 0.030259362035250092 0.09356439908428099
7.162977777745734E7 0.030606136820133755 0.09490056121818931 0.9693938631798662 -0.09490056121818931 0.9693938631798662 -0.09490056121818931 0.030606136820133755 0.09490056121818931
7.271077167244768E7 0.03096220594252381 0.09625433539000271 0.9690377940574761 -0.09625433539000271 0.9690377940574761 -0.09625433539000271 0.03096220594252381 0.09625433539000271
7.380807928272885E7 0.03132780169740733 0.09762589545519922 0.9686721983025928 -0.09762589545519923 0.9686721983025928 -0.09762589545519923 0.03132780169740733 0.09762589545519922
7.492194680516452E7 0.03170316140250296 0.09901541515897128 0.9682968385974969 -0.09901541515897126 0.9682968385974969 -0.09901541515897126 0.03170316140250296 0.09901541515897128
7.60526241520746E7 0.032088527496558945 0.10042306806662145 0.9679114725034411 -0.10042306806662143 0.9679114725034411 -0.10042306806662143 0.032088527496558945 0.10042306806662145
7.720036500730675E7 0.032484147639842115 0.10184902749059432 0.9675158523601578 -0.1018490274905943 0.9675158523601578 -0.1018490274905943 0.032484147639842115 0.10184902749059432
7.836542688315398E7 0.0328902748168406 0.1032934664139415 0.9671097251831594 -0.10329346641394152 0.9671097251831594 -0.10329346641394152 0.0328902748168406 0.1032934664139415
7.954807117813127E7 0.033307167441193615 0.10475655741000385 0.9666928325588064 -0.10475655741000388 0.9666928325588064 -0.10475655741000388 0.033307167441193615 0.10475655741000385
8.074856323562416E7 0.033735089462851996 0.10623847255808486 0.966264910537148 -0.10623847255808486 0.966264910537148 -0.10623847255808486 0.033735089462851996 0.10623847255808486
8.196717240342227E7 0.034174310477462354 0.10773938335487854 0.9658256895225374 -0.10773938335487854 0.9658256895225374 -0.10773938335487854 0.034174310477462354 0.10773938335487854
8.320417209415154E7 0.034625105837955444 0.10925946062140514 0.9653748941620447 -0.10925946062140514 0.9653748941620447 -0.10925946062140514 0.034625105837955444 0.10925946062140514
8.445983984661816E7 0.03508775676830527 0.1107988744051954 0.9649122432316948 -0.1107988744051954 0.9649122432316948 -0.1107988744051954 0.03508775676830527 0.1107988744051954
8.573445738807854E7 0.03556255047941241 0.11235779387745945 0.9644374495205876 -0.11235779387745945 0.9644374495205876 -0.11235779387745945 0.03556255047941241 0.11235779387745945
8.702831069744885E7 0.03604978028704775 0.11393638722496251 0.9639502197129522 -0.11393638722496251 0.9639502197129522 -0.11393638722496251 0.03604978028704775 0.11393638722496251
8.834169006946853E7 0.03654974573177655 0.11553482153632519 0.9634502542682235 -0.11553482153632519 0.9634502542682235 -0.11553482153632519 0.03654974573177655 0.11553482153632519
8.96748901798321E7 0.03706275270076552 0.11715326268245682 0.9629372472992345 -0.11715326268245682 0.9629372472992345 -0.11715326268245682 0.03706275270076552 0.11715326268245682
9.1028210151304E7 0.03758911355135469 0.11879187519082601 0.9624108864486454 -0.11879187519082601 0.9624108864486454 -0.11879187519082601 0.03758911355135469 0.11879187519082601
9.240195362083109E7 0.038129147236257654 0.1204508221132653 0.9618708527637423 -0.1204508221132653 0.9618708527637423 -0.1204508221132653 0.038129147236257654 0.1204508221132653
9.379642880766791E7 0.038683179430231376 0.12213026488700521 0.9613168205697686 -0.12213026488700518 0.9613168205697686 -0.12213026488700518 0.038683179430231376 0.12213026488700521
9.521194858253023E7 0.03925154265803518 0.12383036318862917 0.9607484573419647 -0.12383036318862917 0.9607484573419647 -0.12383036318862917 0.03925154265803518 0.12383036318862917
9.664883053779216E7 0.03983457642347563 0.1255512747806398 0.9601654235765245 -0.1255512747806398 0.9601654235765245 -0.1255512747806398 0.03983457642347563 0.1255512747806398
9.810739705874248E7 0.04043262733931119 0.12729315535032895 0.959567372660689 -0.12729315535032895 0.959567372660689 -0.12729315535032895 0.04043262733931119 0.12729315535032895
9.958797539591652E7 0.041046049257764804 0.1290561583406436 0.9589539507422353 -0.1290561583406436 0.9589539507422353 -0.1290561583406436 0.041046049257764804 0.1290561583406436
1.0109089773851961E8 0.04167520340137036 0.13084043477274657 0.9583247965986297 -0.13084043477274657 0.9583247965986297 -0.13084043477274657 0.04167520340137036 0.13084043477274657
1.0261650128895843E8 0.042320458493851965 0.13264613305997408 0.9576795415061479 -0.13264613305997405 0.9576795415061479 -0.13264613305997405 0.042320458493851965 0.13264613305997408
1.0416512833849736E8 0.042982190890711446 0.13447339881290155 0.9570178091092886 -0.13447339881290157 0.9570178091092886 -0.13447339881290157 0.042982190890711446 0.13447339881290155
1.0573712634405641E8 0.04366078470917373 0.1363223746352376 0.9563392152908262 -0.1363223746352376 0.9563392152908262 -0.1363223746352376 0.04366078470917373 0.1363223746352376
1.0733284800616828E8 0.04435663195711527 0.13819319991027745 0.9556433680428845 -0.13819319991027745 0.9556433680428845 -0.13819319991027745 0.04435663195711527 0.13819319991027745
1.0895265134811176E8 0.04507013266057604 0.14008601057766176 0.9549298673394241 -0.14008601057766176 0.9549298673394241 -0.14008601057766176 0.04507013266057604 0.14008601057766176
1.1059689979623953E8 0.04580169498943108 0.14200093890019874 0.9541983050105687 -0.14200093890019871 0.9541983050105687 -0.14200093890019871 0.04580169498943108 0.14200093890019874
1.1226596226151802E8 0.04655173538077568 0.14393811322052988 0.9534482646192243 -0.14393811322052988 0.9534482646192243 -0.14393811322052988 0.04655173538077568 0.14393811322052988
1.1396021322229806E8 0.04732067865955362 0.145897657707433 0.9526793213404463 -0.145897657707433 0.9526793213404463 -0.145897657707433 0.04732067865955362 0.145897657707433
1.1568003280833441E8 0.04810895815593831 0.14787969209158078 0.9518910418440616 -0.14787969209158078 0.9518910418440616 -0.14787969209158078 0.04810895815593831 0.14787969209158078
1.1742580688607343E8 0.048917015818955266 0.1498843313905951 0.9510829841810449 -0.1498843313905951 0.9510829841810449 -0.1498843313905951 0.048917015818955266 0.1498843313905951
1.1919792714522783E8 0.049745302325815574 0.15191168562325993 0.9502546976741844 -0.15191168562325993 0.9502546976741844 -0.15191168562325993 0.049745302325815574 0.15191168562325993
1.2099679118665792E8 0.05059427718641261 0.15396185951278374 0.9494057228135874 -0.15396185951278374 0.9494057228135874 -0.15396185951278374 0.05059427718641261 0.15396185951278374
1.2282280261157903E8 0.0514644088424184 0.15603495217902721 0.9485355911575816 -0.15603495217902721 0.9485355911575816 -0.15603495217902721 0.0514644088424184 0.15603495217902721
1.2467637111211549E8 0.052356174760401976 0.15813105681964285 0.9476438252395981 -0.15813105681964285 0.9476438252395981 -0.15813105681964285 0.052356174760401976 0.15813105681964285
1.265579125632208E8 0.05327006151837908 0.16025026038009957 0.9467299384816209 -0.16025026038009957 0.9467299384816209 -0.16025026038009957 0.05327006151837908 0.16025026038009957
1.284678491159853E8 0.054206564885194056 0.16239264321259952 0.945793435114806 -0.16239264321259952 0.945793435114806 -0.16239264321259952 0.054206564885194056 0.16239264321259952
1.3040660929235186E8 0.05516618989212431 0.16455827872392143 0.9448338101078756 -0.1645582787239214 0.9448338101078756 -0.1645582787239214 0.05516618989212431 0.16455827872392143
1.3237462808126101E8 0.05614945089609344 0.1667472330122601 0.9438505491039065 -0.1667472330122601 0.9438505491039065 -0.1667472330122601 0.05614945089609344 0.1667472330122601
1.3437234703624701E8 0.057156871633874035 0.16895956449316096 0.942843128366126 -0.168959564493161 0.942843128366126 -0.168959564493161 0.057156871633874035 0.16895956449316096
1.364002143745067E8 0.05818898526665991 0.171195323514682 0.9418110147333402 -0.171195323514682 0.9418110147333402 -0.171195323514682 0.05818898526665991 0.171195323514682
1.3845868507746372E8 0.05924633441438733 0.17345455196194753 0.9407536655856127 -0.1734545519619475 0.9407536655856127 -0.1734545519619475 0.05924633441438733 0.17345455196194753
1.405482209928499E8 0.06032947117918789 0.17573728285128914 0.9396705288208121 -0.17573728285128914 0.9396705288208121 -0.17573728285128914 0.06032947117918789 0.17573728285128914
1.426692909383278E8 0.061438957157358684 0.17804353991420033 0.9385610428426413 -0.17804353991420033 0.9385610428426413 -0.17804353991420033 0.061438957157358684 0.17804353991420033
1.4482237080667645E8 0.0625753634392438 0.18037333717136345 0.9374246365607561 -0.18037333717136345 0.9374246365607561 -0.18037333717136345 0.0625753634392438 0.18037333717136345
1.4700794367256513E8 0.06373927059642742 0.18272667849703478 0.9362607294035725 -0.18272667849703478 0.9362607294035725 -0.18272667849703478 0.06373927059642742 0.18272667849703478
1.492264999009378E8 0.06493126865564937 0.18510355717410337 0.9350687313443508 -0.18510355717410334 0.9350687313443508 -0.18510355717410334 0.06493126865564937 0.18510355717410337
1.5147853725703382E8 0.06615195705886609 0.18750395544016696 0.933848042941134 -0.18750395544016696 0.933848042941134 -0.18750395544016696 0.06615195705886609 0.18750395544016696
1.5376456101806876E8 0.06740194460889128 0.1899278440249931 0.9325980553911087 -0.1899278440249931 0.9325980553911087 -0.1899278440249931 0.06740194460889128 0.1899278440249931
1.5608508408660066E8 0.06868184940006516 0.19237518167975812 0.9313181505999348 -0.19237518167975812 0.9313181505999348 -0.19237518167975812 0.06868184940006516 0.19237518167975812
1.5844062710560706E8 0.06999229873341672 0.19484591469848034 0.9300077012665833 -0.1948459146984804 0.9300077012665833 -0.1948459146984804 0.06999229873341672 0.19484591469848034
1.6083171857529896E8 0.0713339290157964 0.1973399764320835 0.9286660709842036 -0.1973399764320835 0.9286660709842036 -0.1973399764320835 0.0713339290157964 0.1973399764320835
1.632588949716973E8 0.0727073856424765 0.19985728679554723 0.9272926143575234 -0.19985728679554718 0.9272926143575234 -0.19985728679554718 0.0727073856424765 0.19985728679554723
1.6572270086699936E8 0.07411332286272843 0.20239775176861832 0.9258866771372716 -0.2023977517686183 0.9258866771372716 -0.2023977517686183 0.07411332286272843 0.20239775176861832
1.6822368905176118E8 0.07555240362790487 0.20496126289057148 0.9244475963720952 -0.20496126289057148 0.9244475963720952 -0.20496126289057148 0.07555240362790487 0.20496126289057148
1.7076242065892437E8 0.07702529942157033 0.20754769674952558 0.9229747005784296 -0.20754769674952558 0.9229747005784296 -0.20754769674952558 0.07702529942157033 0.20754769674952558
1.7333946528971428E8 0.07853269007123685 0.21015691446683007 0.9214673099287631 -0.21015691446683007 0.9214673099287631 -0.21015691446683007 0.07853269007123685 0.21015691446683007
1.7595540114143828E8 0.08007526354127872 0.21278876117705126 0.9199247364587214 -0.2127887611770512 0.9199247364587214 -0.2127887611770512 0.08007526354127872 0.21278876117705126
1.786108151372127E8 0.08165371570661045 0.21544306550409573 0.9183462842933896 -0.21544306550409567 0.9183462842933896 -0.21544306550409567 0.08165371570661045 0.21544306550409573
1.8130630305764765E8 0.083268750106727 0.2181196390340194 0.9167312498932729 -0.21811963903401943 0.9167312498932729 -0.21811963903401943 0.083268750106727 0.2181196390340194
1.840424696745189E8 0.08492107767971308 0.22081827578507604 0.9150789223202871 -0.2208182757850761 0.9150789223202871 -0.2208182757850761 0.08492107767971308 0.22081827578507604
1.8681992888645732E8 0.08661141647583828 0.223538751675569 0.9133885835241617 -0.223538751675569 0.9133885835241617 -0.223538751675569 0.08661141647583828 0.223538751675569
1.8963930385668582E8 0.08834049135036316 0.22628082399007782 0.9116595086496369 -0.22628082399007782 0.9116595086496369 -0.22628082399007782 0.08834049135036316 0.22628082399007782
1.92501227152835E8 0.0901090336351822 0.22904423084463585 0.9098909663648176 -0.22904423084463585 0.9098909663648176 -0.22904423084463585 0.0901090336351822 0.22904423084463585
1.9540634088886917E8 0.09191778078893753 0.23182869065144676 0.9080822192110624 -0.2318286906514468 0.9080822192110624 -0.2318286906514468 0.09191778078893753 0.23182869065144676
1.983552968691535E8 0.09376747602523378 0.23463390158373298 0.9062325239747664 -0.23463390158373298 0.9062325239747664 -0.23463390158373298 0.09376747602523378 0.23463390158373298
2.0134875673469606E8 0.09565886791858562 0.23745954104132203 0.9043411320814142 -0.23745954104132208 0.9043411320814142 -0.23745954104132208 0.09565886791858562 0.23745954104132203
2.0438739211159652E8 0.09759270998772618 0.2403052651175881 0.9024072900122739 -0.24030526511758812 0.9024072900122739 -0.24030526511758812 0.09759270998772618 0.2403052651175881
2.074718847617352E8 0.09956976025589706 0.24317070806837587 0.900430239744103 -0.24317070806837587 0.900430239744103 -0.24317070806837587 0.09956976025589706 0.24317070806837587
2.106029267357361E8 0.10159078078773774 0.24605548178355813 0.8984092192122621 -0.24605548178355807 0.8984092192122621 -0.24605548178355807 0.10159078078773774 0.24605548178355813
2.1378122052823865E8 0.10365653720237855 0.24895917526188732 0.8963434627976216 -0.24895917526188735 0.8963434627976216 -0.24895917526188735 0.10365653720237855 0.24895917526188732
2.1700747923551247E8 0.10576779816233861 0.2518813540898354 0.8942322018376614 -0.25188135408983536 0.8942322018376614 -0.25188135408983536 0.10576779816233861 0.2518813540898354
2.2028242671545094E8 0.10792533483781139 0.2548215599251303 0.8920746651621885 -0.2548215599251303 0.8920746651621885 -0.2548215599251303 0.10792533483781139 0.2548215599251303
2.23606797749979E8 0.11012992034591876 0.2577793099857407 0.8898700796540813 -0.25777930998574067 0.8898700796540813 -0.25777930998574067 0.11012992034591876 0.2577793099857407
2.2698133820991236E8 0.11238232916449488 0.26075409654508314 0.8876176708355052 -0.26075409654508314 0.8876176708355052 -0.26075409654508314 0.11238232916449488 0.26075409654508314
2.3040680522230446E8 0.11468333651995945 0.263745386434276 0.8853166634800408 -0.263745386434276 0.8853166634800408 -0.263745386434276 0.11468333651995945 0.263745386434276
2.338839673403185E8 0.11703371774882323 0.2667526205523009 0.8829662822511768 -0.2667526205523009 0.8829662822511768 -0.2667526205523009 0.11703371774882323 0.2667526205523009
2.37413604715664E8 0.11943424763236826 0.2697752133849893 0.8805657523676317 -0.2697752133849893 0.8805657523676317 -0.2697752133849893 0.11943424763236826 0.2697752133849893
2.4099650927363476E8 0.12188569970403679 0.27281255253380055 0.8781143002959632 -0.2728125525338005 0.8781143002959632 -0.2728125525338005 0.12188569970403679 0.27281255253380055
2.446334848907889E8 0.12438884552906232 0.27586399825542285 0.8756111544709376 -0.27586399825542285 0.8756111544709376 -0.27586399825542285 0.12438884552906232 0.27586399825542285
2.4832534757531032E8 0.12694445395588147 0.2789288830132933 0.8730555460441185 -0.2789288830132933 0.8730555460441185 -0.2789288830132933 0.12694445395588147 0.2789288830132933
2.5207292565009177E8 0.12955329033887078 0.28200651104220253 0.8704467096611291 -0.2820065110422025 0.8704467096611291 -0.2820065110422025 0.12955329033887078 0.28200651104220253
