!Murata Part Number: LQP02TQ1N6B02
!These Parameters are Measured in Series Mode Connection
!       o--[Z]--o
!Port1              Port2
!       o-------o
!
!Freq. Start=50[MHz] Stop=20[GHz], 401[Steps]
# Hz S RI R 50
!Freq.(Hz) S11(Real) S11(Imag) S21(Real) S21(Imag) S12(Real) S12(Imag) S22(Real) S22(Imag)
5.0E7 0.001610276589650706 0.0057671276810733535 0.9983897234103494 -0.005767127681073354 0.9983897234103494 -0.005767127681073354 0.001610276589650706 0.0057671276810733535
5.0754570186123446E7 0.001614347534979656 0.0058533814673415304 0.9983856524650202 -0.0058533814673415304 0.9983856524650202 -0.0058533814673415304 0.001614347534979656 0.0058533814673415304
5.152052789556263E7 0.0016185303946108188 0.005940904384402425 0.9983814696053893 -0.005940904384402425 0.9983814696053893 -0.005940904384402425 0.0016185303946108188 0.005940904384402425
5.229804498202928E7 0.0016228279183287694 0.006029714322715318 0.9983771720816712 -0.006029714322715318 0.9983771720816712 -0.006029714322715318 0.0016228279183287694 0.006029714322715318
5.308729589274893E7 0.0016272429059720932 0.006119829400600949 0.9983727570940281 -0.006119829400600949 0.9983727570940281 -0.006119829400600949 0.0016272429059720932 0.006119829400600949
5.388845770760058E7 0.0016317782074336585 0.006211267966754609 0.9983682217925662 -0.006211267966754609 0.9983682217925662 -0.006211267966754609 0.0016317782074336585 0.006211267966754609
5.470171017884717E7 0.0016364367226089755 0.006304048602812052 0.9983635632773911 -0.006304048602812052 0.9983635632773911 -0.006304048602812052 0.0016364367226089755 0.006304048602812052
5.5527235771465644E7 0.0016412214012907335 0.00639819012597223 0.9983587785987091 -0.006398190125972228 0.9983587785987091 -0.006398190125972228 0.0016412214012907335 0.00639819012597223
5.6365219704085544E7 0.0016461352430077578 0.006493711591681241 0.9983538647569923 -0.006493711591681243 0.9983538647569923 -0.006493711591681243 0.0016461352430077578 0.006493711591681241
5.721584999054556E7 0.0016511812968066759 0.00659063229638203 0.9983488187031934 -0.00659063229638203 0.9983488187031934 -0.00659063229638203 0.0016511812968066759 0.00659063229638203
5.807931748207712E7 0.0016563626609747818 0.006688971780334749 0.9983436373390252 -0.0066889717803347475 0.9983436373390252 -0.0066889717803347475 0.0016563626609747818 0.006688971780334749
5.8955815910124585E7 0.0016616824827026513 0.006788749830512884 0.9983383175172973 -0.006788749830512886 0.9983383175172973 -0.006788749830512886 0.0016616824827026513 0.006788749830512884
5.984554192981184E7 0.0016671439576853263 0.006889986483580663 0.9983328560423146 -0.006889986483580664 0.9983328560423146 -0.006889986483580664 0.0016671439576853263 0.006889986483580663
6.074869516406457E7 0.0016727503296609869 0.0069927020289573105 0.9983272496703389 -0.0069927020289573105 0.9983272496703389 -0.0069927020289573105 0.0016727503296609869 0.0069927020289573105
6.166547824839868E7 0.0016785048898863137 0.007096917011974287 0.9983214951101137 -0.007096917011974288 0.9983214951101137 -0.007096917011974288 0.0016785048898863137 0.007096917011974287
6.2596096876384385E7 0.0016844109765479646 0.00720265223713174 0.9983155890234519 -0.00720265223713174 0.9983155890234519 -0.00720265223713174 0.0016844109765479646 0.00720265223713174
6.354075984579668E7 0.0016904719741098377 0.007309928771460722 0.9983095280258901 -0.007309928771460722 0.9983095280258901 -0.007309928771460722 0.0016904719741098377 0.007309928771460722
6.449967910546205E7 0.0016966913125961206 0.007418767947998031 0.9983033086874039 -0.007418767947998031 0.9983033086874039 -0.007418767947998031 0.0016966913125961206 0.007418767947998031
6.547306980281226E7 0.0017030724668104255 0.007529191369380833 0.9982969275331898 -0.007529191369380833 0.9982969275331898 -0.007529191369380833 0.0017030724668104255 0.007529191369380833
6.646115033215589E7 0.0017096189554916723 0.007641220911568382 0.9982903810445082 -0.007641220911568382 0.9982903810445082 -0.007641220911568382 0.0017096189554916723 0.007641220911568382
6.746414238367817E7 0.0017163343404077787 0.0077548787276985835 0.998283665659592 -0.0077548787276985835 0.998283665659592 -0.0077548787276985835 0.0017163343404077787 0.0077548787276985835
6.848227099318038E7 0.0017232222253885843 0.007870187252087185 0.9982767777746115 -0.007870187252087185 0.9982767777746115 -0.007870187252087185 0.0017232222253885843 0.007870187252087185
6.951576459256999E7 0.001730286255299941 0.007987169204377807 0.9982697137447001 -0.007987169204377807 0.9982697137447001 -0.007987169204377807 0.001730286255299941 0.007987169204377807
7.056485506111258E7 0.0017375301149613277 0.008105847593851096 0.9982624698850388 -0.008105847593851096 0.9982624698850388 -0.008105847593851096 0.0017375301149613277 0.008105847593851096
7.162977777745734E7 0.0017449575280098705 0.008226245723901536 0.9982550424719903 -0.008226245723901536 0.9982550424719903 -0.008226245723901536 0.0017449575280098705 0.008226245723901536
7.271077167244768E7 0.0017525722557142124 0.008348387196690614 0.9982474277442857 -0.008348387196690614 0.9982474277442857 -0.008348387196690614 0.0017525722557142124 0.008348387196690614
7.380807928272885E7 0.0017603780957421938 0.008472295917985215 0.9982396219042577 -0.008472295917985215 0.9982396219042577 -0.008472295917985215 0.0017603780957421938 0.008472295917985215
7.492194680516452E7 0.0017683788808869466 0.008597996102190069 0.9982316211191129 -0.008597996102190069 0.9982316211191129 -0.008597996102190069 0.0017683788808869466 0.008597996102190069
7.60526241520746E7 0.0017765784777566142 0.008725512277583421 0.9982234215222434 -0.008725512277583421 0.9982234215222434 -0.008725512277583421 0.0017765784777566142 0.008725512277583421
7.720036500730675E7 0.001784980785433588 0.00885486929176492 0.9982150192145666 -0.00885486929176492 0.9982150192145666 -0.00885486929176492 0.001784980785433588 0.00885486929176492
7.836542688315398E7 0.0017935897341097766 0.008986092317324751 0.9982064102658901 -0.008986092317324751 0.9982064102658901 -0.008986092317324751 0.0017935897341097766 0.008986092317324751
7.954807117813127E7 0.0018024092837052226 0.009119206857743116 0.9981975907162948 -0.009119206857743116 0.9981975907162948 -0.009119206857743116 0.0018024092837052226 0.009119206857743116
8.074856323562416E7 0.0018114434224780038 0.009254238753528867 0.998188556577522 -0.009254238753528867 0.998188556577522 -0.009254238753528867 0.0018114434224780038 0.009254238753528867
8.196717240342227E7 0.0018206961656342098 0.00939121418860625 0.9981793038343658 -0.00939121418860625 0.9981793038343658 -0.00939121418860625 0.0018206961656342098 0.00939121418860625
8.320417209415154E7 0.0018301715539474636 0.009530159696958144 0.9981698284460526 -0.009530159696958146 0.9981698284460526 -0.009530159696958146 0.0018301715539474636 0.009530159696958144
8.445983984661816E7 0.0018398736523982863 0.009671102169534276 0.9981601263476015 -0.009671102169534275 0.9981601263476015 -0.009671102169534275 0.0018398736523982863 0.009671102169534276
8.573445738807854E7 0.0018498065488443869 0.00981406886143236 0.9981501934511557 -0.009814068861432362 0.9981501934511557 -0.009814068861432362 0.0018498065488443869 0.00981406886143236
8.702831069744885E7 0.001859974352733713 0.009959087399359802 0.9981400256472663 -0.009959087399359802 0.9981400256472663 -0.009959087399359802 0.001859974352733713 0.009959087399359802
8.834169006946853E7 0.0018703811938729346 0.01010618578938312 0.9981296188061272 -0.01010618578938312 0.9981296188061272 -0.01010618578938312 0.0018703811938729346 0.01010618578938312
8.96748901798321E7 0.0018810312212647995 0.010255392424971822 0.9981189687787351 -0.010255392424971822 0.9981189687787351 -0.010255392424971822 0.0018810312212647995 0.010255392424971822
9.1028210151304E7 0.001891928602028566 0.010406736095342763 0.9981080713979715 -0.010406736095342761 0.9981080713979715 -0.010406736095342761 0.001891928602028566 0.010406736095342763
9.240195362083109E7 0.0019030775204184793 0.010560245994110389 0.9980969224795816 -0.010560245994110389 0.9980969224795816 -0.010560245994110389 0.0019030775204184793 0.010560245994110389
9.379642880766791E7 0.0019144821769560023 0.010715951728247596 0.9980855178230442 -0.010715951728247596 0.9980855178230442 -0.010715951728247596 0.0019144821769560023 0.010715951728247596
9.521194858253023E7 0.0019261467876922045 0.010873883327361026 0.9980738532123078 -0.010873883327361026 0.9980738532123078 -0.010873883327361026 0.0019261467876922045 0.010873883327361026
9.664883053779216E7 0.0019380755836173778 0.011034071253283895 0.9980619244163824 -0.011034071253283897 0.9980619244163824 -0.011034071253283897 0.0019380755836173778 0.011034071253283895
9.810739705874248E7 0.0019502728102355567 0.011196546409988208 0.9980497271897644 -0.011196546409988208 0.9980497271897644 -0.011196546409988208 0.0019502728102355567 0.011196546409988208
9.958797539591652E7 0.0019627427273222176 0.011361340153817522 0.9980372572726778 -0.01136134015381752 0.9980372572726778 -0.01136134015381752 0.0019627427273222176 0.011361340153817522
1.0109089773851961E8 0.0019754896088839185 0.011528484304040128 0.9980245103911161 -0.01152848430404013 0.9980245103911161 -0.01152848430404013 0.0019754896088839185 0.011528484304040128
1.0261650128895843E8 0.0019885177433390548 0.011698011153721316 0.9980114822566609 -0.011698011153721316 0.9980114822566609 -0.011698011153721316 0.0019885177433390548 0.011698011153721316
1.0416512833849736E8 0.0020018314339393475 0.011869953480912302 0.9979981685660606 -0.011869953480912302 0.9979981685660606 -0.011869953480912302 0.0020018314339393475 0.011869953480912302
1.0573712634405641E8 0.002015434999451847 0.012044344560152001 0.9979845650005481 -0.012044344560152001 0.9979845650005481 -0.012044344560152001 0.002015434999451847 0.012044344560152001
1.0733284800616828E8 0.0020293327751215442 0.012221218174276518 0.9979706672248785 -0.012221218174276518 0.9979706672248785 -0.012221218174276518 0.0020293327751215442 0.012221218174276518
1.0895265134811176E8 0.0020435291139346587 0.0124006086265298 0.9979564708860652 -0.0124006086265298 0.9979564708860652 -0.0124006086265298 0.0020435291139346587 0.0124006086265298
1.1059689979623953E8 0.0020580283882027637 0.01258255075296754 0.9979419716117972 -0.01258255075296754 0.9979419716117972 -0.01258255075296754 0.0020580283882027637 0.01258255075296754
1.1226596226151802E8 0.0020728349914876766 0.01276707993514486 0.9979271650085124 -0.01276707993514486 0.9979271650085124 -0.01276707993514486 0.0020728349914876766 0.01276707993514486
1.1396021322229806E8 0.0020879533408868943 0.012954232113076876 0.9979120466591131 -0.012954232113076874 0.9979120466591131 -0.012954232113076874 0.0020879533408868943 0.012954232113076876
1.1568003280833441E8 0.0021033878796989087 0.013144043798459706 0.997896612120301 -0.013144043798459706 0.997896612120301 -0.013144043798459706 0.0021033878796989087 0.013144043798459706
1.1742580688607343E8 0.0021191430804872887 0.013336552088138 0.9978808569195127 -0.013336552088138 0.9978808569195127 -0.013336552088138 0.0021191430804872887 0.013336552088138
1.1919792714522783E8 0.002135223448561776 0.013531794677803542 0.9978647765514382 -0.013531794677803542 0.9978647765514382 -0.013531794677803542 0.002135223448561776 0.013531794677803542
1.2099679118665792E8 0.002151633525893869 0.013729809875908001 0.9978483664741064 -0.013729809875908001 0.9978483664741064 -0.013729809875908001 0.002151633525893869 0.013729809875908001
1.2282280261157903E8 0.0021683778954834794 0.013930636617771431 0.9978316221045165 -0.013930636617771431 0.9978316221045165 -0.013930636617771431 0.0021683778954834794 0.013930636617771431
1.2467637111211549E8 0.0021854611861922713 0.014134314479866912 0.997814538813808 -0.014134314479866912 0.997814538813808 -0.014134314479866912 0.0021854611861922713 0.014134314479866912
1.265579125632208E8 0.0022028880780579725 0.014340883694259834 0.997797111921942 -0.014340883694259834 0.997797111921942 -0.014340883694259834 0.0022028880780579725 0.014340883694259834
1.284678491159853E8 0.0022206633081028825 0.014550385163179868 0.9977793366918972 -0.014550385163179868 0.9977793366918972 -0.014550385163179868 0.0022206633081028825 0.014550385163179868
1.3040660929235186E8 0.002238791676648147 0.014762860473701673 0.9977612083233518 -0.014762860473701673 0.9977612083233518 -0.014762860473701673 0.002238791676648147 0.014762860473701673
1.3237462808126101E8 0.002257278054143965 0.014978351912509779 0.997742721945856 -0.014978351912509779 0.997742721945856 -0.014978351912509779 0.002257278054143965 0.014978351912509779
1.3437234703624701E8 0.002276127388524179 0.01519690248072194 0.9977238726114759 -0.01519690248072194 0.9977238726114759 -0.01519690248072194 0.002276127388524179 0.01519690248072194
1.364002143745067E8 0.0022953447130919166 0.015418555908744417 0.9977046552869082 -0.015418555908744417 0.9977046552869082 -0.015418555908744417 0.0022953447130919166 0.015418555908744417
1.3845868507746372E8 0.0023149351549410966 0.015643356671131897 0.9976850648450589 -0.015643356671131897 0.9976850648450589 -0.015643356671131897 0.0023149351549410966 0.015643356671131897
1.405482209928499E8 0.0023349039439166165 0.015871350001424152 0.9976650960560833 -0.015871350001424152 0.9976650960560833 -0.015871350001424152 0.0023349039439166165 0.015871350001424152
1.426692909383278E8 0.002355256422114031 0.0161025819069312 0.9976447435778862 -0.0161025819069312 0.9976447435778862 -0.0161025819069312 0.002355256422114031 0.0161025819069312
1.4482237080667645E8 0.002375998053917388 0.016337099183438415 0.9976240019460828 -0.016337099183438415 0.9976240019460828 -0.016337099183438415 0.002375998053917388 0.016337099183438415
1.4700794367256513E8 0.0023971344365717757 0.016574949429803 0.9976028655634284 -0.016574949429803 0.9976028655634284 -0.016574949429803 0.0023971344365717757 0.016574949429803
1.492264999009378E8 0.002418671311284872 0.016816181062413175 0.9975813286887152 -0.016816181062413175 0.9975813286887152 -0.016816181062413175 0.002418671311284872 0.016816181062413175
1.5147853725703382E8 0.0024406145748496547 0.017060843329482028 0.9975593854251503 -0.017060843329482024 0.9975593854251503 -0.017060843329482024 0.0024406145748496547 0.017060843329482028
1.5376456101806876E8 0.0024629702917781833 0.01730898632514818 0.9975370297082219 -0.01730898632514818 0.9975370297082219 -0.01730898632514818 0.0024629702917781833 0.01730898632514818
1.5608508408660066E8 0.0024857447069341404 0.017560661003356237 0.9975142552930658 -0.017560661003356237 0.9975142552930658 -0.017560661003356237 0.0024857447069341404 0.017560661003356237
1.5844062710560706E8 0.002508944258649728 0.01781591919149076 0.9974910557413502 -0.017815919191490764 0.9974910557413502 -0.017815919191490764 0.002508944258649728 0.01781591919149076
1.6083171857529896E8 0.0025325755923103384 0.01807481360373877 0.9974674244076897 -0.01807481360373877 0.9974674244076897 -0.01807481360373877 0.0025325755923103384 0.01807481360373877
1.632588949716973E8 0.002556645574388422 0.01833739785415671 0.9974433544256115 -0.01833739785415671 0.9974433544256115 -0.01833739785415671 0.002556645574388422 0.01833739785415671
1.6572270086699936E8 0.0025811613069060585 0.01860372646941979 0.9974188386930939 -0.018603726469419792 0.9974188386930939 -0.018603726469419792 0.0025811613069060585 0.01860372646941979
1.6822368905176118E8 0.0026061301423037607 0.018873854901232383 0.9973938698576962 -0.018873854901232383 0.9973938698576962 -0.018873854901232383 0.0026061301423037607 0.018873854901232383
1.7076242065892437E8 0.002631559698691534 0.01914783953838096 0.9973684403013086 -0.01914783953838096 0.9973684403013086 -0.01914783953838096 0.002631559698691534 0.01914783953838096
1.7333946528971428E8 0.0026574578754564393 0.019425737718412238 0.9973425421245435 -0.019425737718412238 0.9973425421245435 -0.019425737718412238 0.0026574578754564393 0.019425737718412238
1.7595540114143828E8 0.002683832869199607 0.01970760773892162 0.9973161671308005 -0.01970760773892162 0.9973161671308005 -0.01970760773892162 0.002683832869199607 0.01970760773892162
1.786108151372127E8 0.002710693189974322 0.01999350886843913 0.9972893068100257 -0.01999350886843913 0.9972893068100257 -0.01999350886843913 0.002710693189974322 0.01999350886843913
1.8130630305764765E8 0.0027380476777957956 0.020283501356902683 0.997261952322204 -0.02028350135690268 0.997261952322204 -0.02028350135690268 0.0027380476777957956 0.020283501356902683
1.840424696745189E8 0.0027659055193922713 0.02057764644571041 0.9972340944806077 -0.02057764644571041 0.9972340944806077 -0.02057764644571041 0.0027659055193922713 0.02057764644571041
1.8681992888645732E8 0.002794276265166497 0.02087600637734694 0.9972057237348335 -0.02087600637734694 0.9972057237348335 -0.02087600637734694 0.002794276265166497 0.02087600637734694
1.8963930385668582E8 0.002823169846336089 0.02117864440458073 0.9971768301536641 -0.021178644404580733 0.9971768301536641 -0.021178644404580733 0.002823169846336089 0.02117864440458073
1.92501227152835E8 0.0028525965922210363 0.02148562479923225 0.997147403407779 -0.02148562479923225 0.997147403407779 -0.02148562479923225 0.0028525965922210363 0.02148562479923225
1.9540634088886917E8 0.00288256724764659 0.02179701286051576 0.9971174327523536 -0.02179701286051576 0.9971174327523536 -0.02179701286051576 0.00288256724764659 0.02179701286051576
1.983552968691535E8 0.0029130929904298635 0.022112874922959568 0.9970869070095701 -0.02211287492295957 0.9970869070095701 -0.02211287492295957 0.0029130929904298635 0.022112874922959568
2.0134875673469606E8 0.0029441854489189985 0.022433278363913265 0.997055814551081 -0.02243327836391326 0.997055814551081 -0.02243327836391326 0.0029441854489189985 0.022433278363913265
2.0438739211159652E8 0.0029758567195541717 0.022758291610651873 0.9970241432804458 -0.022758291610651873 0.9970241432804458 -0.022758291610651873 0.0029758567195541717 0.022758291610651873
2.074718847617352E8 0.0030081193844206807 0.023087984147090682 0.9969918806155792 -0.023087984147090682 0.9969918806155792 -0.023087984147090682 0.0030081193844206807 0.023087984147090682
2.106029267357361E8 0.0030409865287652727 0.02342242652012615 0.9969590134712345 -0.02342242652012615 0.9969590134712345 -0.02342242652012615 0.0030409865287652727 0.02342242652012615
2.1378122052823865E8 0.0030744717584481203 0.023761690345621304 0.9969255282415518 -0.023761690345621304 0.9969255282415518 -0.023761690345621304 0.0030744717584481203 0.023761690345621304
2.1700747923551247E8 0.0031085892173042294 0.02410584831405622 0.9968914107826956 -0.02410584831405622 0.9968914107826956 -0.02410584831405622 0.0031085892173042294 0.02410584831405622
2.2028242671545094E8 0.0031433536043896553 0.02445497419586642 0.9968566463956104 -0.024454974195866425 0.9968566463956104 -0.024454974195866425 0.0031433536043896553 0.02445497419586642
2.23606797749979E8 0.003178780191089624 0.02480914284649432 0.9968212198089106 -0.024809142846494322 0.9968212198089106 -0.024809142846494322 0.003178780191089624 0.02480914284649432
2.2698133820991236E8 0.0032148848380675324 0.02516843021118063 0.9967851151619324 -0.025168430211180634 0.9967851151619324 -0.025168430211180634 0.0032148848380675324 0.02516843021118063
2.3040680522230446E8 0.003251684012035861 0.0255329133295249 0.9967483159879639 -0.0255329133295249 0.9967483159879639 -0.0255329133295249 0.003251684012035861 0.0255329133295249
2.338839673403185E8 0.0032891948023321344 0.02590267033984562 0.9967108051976676 -0.02590267033984562 0.9967108051976676 -0.02590267033984562 0.0032891948023321344 0.02590267033984562
2.37413604715664E8 0.0033274349372853706 0.026277780483372214 0.9966725650627145 -0.026277780483372214 0.9966725650627145 -0.026277780483372214 0.0033274349372853706 0.026277780483372214
