!Murata Part Number: GJM0225C1E2R8BB01
!These Parameters are Measured in Series Mode Connection
!       o--ll--o
!Port1            Port2
!       o------o
!Operation Temp=25[degC], DC Bias Voltage=0[V]
!Freq. Start=100[MHz] Stop=30[GHz], 401[Steps]
!Data Generated on Feb 1, 2023
# Hz S RI R 50
!Freq.(Hz) S11(Real) S11(Imag) S21(Real) S21(Imag) S12(Real) S12(Imag) S22(Real) S22(Imag)
1.0E8 0.9699065933549181 -0.1706568697033173 0.030093406645081918 0.1706568697033173 0.030093406645081918 0.1706568697033173 0.9699065933549181 -0.1706568697033173
1.7475E8 0.9133985731263783 -0.280922355485016 0.08660142687362178 0.280922355485016 0.08660142687362178 0.280922355485016 0.9133985731263783 -0.280922355485016
2.495E8 0.837891574497246 -0.36808198672204817 0.16210842550275395 0.36808198672204817 0.16210842550275395 0.36808198672204817 0.837891574497246 -0.36808198672204817
3.2425E8 0.7534543492414266 -0.4303907515003551 0.2465456507585734 0.4303907515003551 0.2465456507585734 0.4303907515003551 0.7534543492414266 -0.4303907515003551
3.99E8 0.6682930766643187 -0.4700758927917169 0.33170692333568125 0.4700758927917169 0.33170692333568125 0.4700758927917169 0.6682930766643187 -0.4700758927917169
4.7375E8 0.5878106391986925 -0.49133657436661443 0.4121893608013076 0.49133657436661443 0.4121893608013076 0.49133657436661443 0.5878106391986925 -0.49133657436661443
5.485E8 0.5148523539295335 -0.49874448118340775 0.4851476460704664 0.49874448118340775 0.4851476460704664 0.49874448118340775 0.5148523539295335 -0.49874448118340775
6.2325E8 0.4504287965889575 -0.4963584238360513 0.5495712034110426 0.4963584238360513 0.5495712034110426 0.4963584238360513 0.4504287965889575 -0.4963584238360513
6.98E8 0.3944390992869775 -0.4874074666239382 0.6055609007130225 0.4874074666239382 0.6055609007130225 0.4874074666239382 0.3944390992869775 -0.4874074666239382
7.7275E8 0.3462105378157106 -0.4742936677100608 0.6537894621842893 0.4742936677100608 0.6537894621842893 0.4742936677100608 0.3462105378157106 -0.4742936677100608
8.475E8 0.3048410063896325 -0.45872612813224256 0.6951589936103676 0.45872612813224256 0.6951589936103676 0.45872612813224256 0.3048410063896325 -0.45872612813224256
9.2225E8 0.26939190028985616 -0.44188243817964673 0.730608099710144 0.44188243817964673 0.730608099710144 0.44188243817964673 0.26939190028985616 -0.44188243817964673
9.97E8 0.23898433471788266 -0.4245528395751477 0.7610156652821174 0.4245528395751477 0.7610156652821174 0.4245528395751477 0.23898433471788266 -0.4245528395751477
1.07175E9 0.21283896571931465 -0.4072540966267466 0.7871610342806854 0.4072540966267466 0.7871610342806854 0.4072540966267466 0.21283896571931465 -0.4072540966267466
1.1465E9 0.190285555394851 -0.390313885439601 0.809714444605149 0.390313885439601 0.809714444605149 0.390313885439601 0.190285555394851 -0.390313885439601
1.22125E9 0.1707577658642999 -0.3739310954853666 0.8292422341357001 0.3739310954853666 0.8292422341357001 0.3739310954853666 0.1707577658642999 -0.3739310954853666
1.296E9 0.15378176426747112 -0.3582179887698845 0.8462182357325291 0.3582179887698845 0.8462182357325291 0.3582179887698845 0.15378176426747112 -0.3582179887698845
1.37075E9 0.13896310985893742 -0.3432292801788645 0.8610368901410624 0.3432292801788645 0.8610368901410624 0.3432292801788645 0.13896310985893742 -0.3432292801788645
1.4455E9 0.1259740784922905 -0.3289820222505498 0.8740259215077095 0.3289820222505498 0.8740259215077095 0.3289820222505498 0.1259740784922905 -0.3289820222505498
1.52025E9 0.11454233407770079 -0.3154691178499805 0.8854576659222992 0.3154691178499805 0.8854576659222992 0.3154691178499805 0.11454233407770079 -0.3154691178499805
1.595E9 0.10444121846391577 -0.3026684540080218 0.8955587815360843 0.3026684540080218 0.8955587815360843 0.3026684540080218 0.10444121846391577 -0.3026684540080218
1.66975E9 0.09548162565075763 -0.29054904077723975 0.9045183743492424 0.29054904077723975 0.9045183743492424 0.29054904077723975 0.09548162565075763 -0.29054904077723975
1.7445E9 0.08750529658919508 -0.2790751070054151 0.912494703410805 0.2790751070054151 0.912494703410805 0.2790751070054151 0.08750529658919508 -0.2790751070054151
1.81925E9 0.08037933045008934 -0.26820880469947467 0.9196206695499106 0.26820880469947467 0.9196206695499106 0.26820880469947467 0.08037933045008934 -0.26820880469947467
1.894E9 0.07399171047723217 -0.25791196722398374 0.9260082895227677 0.25791196722398374 0.9260082895227677 0.25791196722398374 0.07399171047723217 -0.25791196722398374
1.96875E9 0.06824766293636954 -0.24814722542367842 0.9317523370636304 0.24814722542367842 0.9317523370636304 0.24814722542367842 0.06824766293636954 -0.24814722542367842
2.0435E9 0.06306669388022572 -0.23887868945149818 0.9369333061197743 0.23887868945149818 0.9369333061197743 0.23887868945149818 0.06306669388022572 -0.23887868945149818
2.11825E9 0.05838017458203239 -0.23007233838314126 0.9416198254179675 0.23007233838314126 0.9416198254179675 0.23007233838314126 0.05838017458203239 -0.23007233838314126
2.193E9 0.05412937002772261 -0.22169621482915025 0.9458706299722777 0.22169621482915025 0.9458706299722777 0.22169621482915025 0.05412937002772261 -0.22169621482915025
2.26775E9 0.050263824978833825 -0.21372049105641566 0.9497361750211663 0.21372049105641566 0.9497361750211663 0.21372049105641566 0.050263824978833825 -0.21372049105641566
2.3425E9 0.0467400388130434 -0.20611745208351878 0.9532599611869567 0.20611745208351878 0.9532599611869567 0.20611745208351878 0.0467400388130434 -0.20611745208351878
2.41725E9 0.04352037395334561 -0.19886142675448412 0.9564796260466545 0.19886142675448412 0.9564796260466545 0.19886142675448412 0.04352037395334561 -0.19886142675448412
2.492E9 0.04057215366101601 -0.1919286878440057 0.9594278463389838 0.1919286878440057 0.9594278463389838 0.1919286878440057 0.04057215366101601 -0.1919286878440057
2.56675E9 0.03786691374606177 -0.18529733539004276 0.9621330862539381 0.18529733539004276 0.9621330862539381 0.18529733539004276 0.03786691374606177 -0.18529733539004276
2.6415E9 0.03537977975194064 -0.17894717272260435 0.9646202202480592 0.17894717272260435 0.9646202202480592 0.17894717272260435 0.03537977975194064 -0.17894717272260435
2.71625E9 0.03308894674890673 -0.17285958140080895 0.9669110532510933 0.17285958140080895 0.9669110532510933 0.17285958140080895 0.03308894674890673 -0.17285958140080895
2.791E9 0.030975243311562074 -0.16701739903098803 0.969024756688438 0.16701739903098803 0.969024756688438 0.16701739903098803 0.030975243311562074 -0.16701739903098803
2.86575E9 0.029021764795313543 -0.16140480240466257 0.9709782352046866 0.16140480240466257 0.9709782352046866 0.16140480240466257 0.029021764795313543 -0.16140480240466257
2.9405E9 0.02721356385090306 -0.15600719735095445 0.972786436149097 0.15600719735095445 0.972786436149097 0.15600719735095445 0.02721356385090306 -0.15600719735095445
3.01525E9 0.02553738837484847 -0.15081111599383146 0.9744626116251515 0.15081111599383146 0.9744626116251515 0.15081111599383146 0.02553738837484847 -0.15081111599383146
3.09E9 0.023981458904160813 -0.1458041216365142 0.9760185410958392 0.1458041216365142 0.9760185410958392 0.1458041216365142 0.023981458904160813 -0.1458041216365142
3.16475E9 0.022535278918864098 -0.14097472119090015 0.9774647210811361 0.14097472119090015 0.9774647210811361 0.14097472119090015 0.022535278918864098 -0.14097472119090015
3.2395E9 0.02118947268871602 -0.13631228487835895 0.9788105273112838 0.13631228487835895 0.9788105273112838 0.13631228487835895 0.02118947268871602 -0.13631228487835895
3.31425E9 0.019935646248682375 -0.13180697281432585 0.9800643537513176 0.13180697281432585 0.9800643537513176 0.13180697281432585 0.019935646248682375 -0.13180697281432585
3.389E9 0.018766267856550844 -0.1274496680280114 0.9812337321434492 0.1274496680280114 0.9812337321434492 0.1274496680280114 0.018766267856550844 -0.1274496680280114
3.46375E9 0.017674564911427697 -0.12323191544295344 0.9823254350885725 0.12323191544295344 0.9823254350885725 0.12323191544295344 0.017674564911427697 -0.12323191544295344
3.5385E9 0.01665443482210462 -0.11914586634197805 0.9833455651778954 0.11914586634197805 0.9833455651778954 0.11914586634197805 0.01665443482210462 -0.11914586634197805
3.61325E9 0.015700367731898812 -0.11518422785301252 0.984299632268101 0.11518422785301252 0.984299632268101 0.11518422785301252 0.015700367731898812 -0.11518422785301252
3.688E9 0.014807379349433335 -0.1113402170142924 0.9851926206505667 0.1113402170142924 0.9851926206505667 0.1113402170142924 0.014807379349433335 -0.1113402170142924
3.76275E9 0.0139709524171796 -0.10760751900483063 0.9860290475828203 0.10760751900483063 0.9860290475828203 0.10760751900483063 0.0139709524171796 -0.10760751900483063
3.8375E9 0.013186985582813898 -0.10398024915586067 0.9868130144171862 0.10398024915586067 0.9868130144171862 0.10398024915586067 0.013186985582813898 -0.10398024915586067
3.91225E9 0.012451748631665779 -0.10045291838951291 0.9875482513683344 0.10045291838951291 0.9875482513683344 0.10045291838951291 0.012451748631665779 -0.10045291838951291
3.987E9 0.011761843199089829 -0.09702040176105652 0.9882381568009102 0.09702040176105652 0.9882381568009102 0.09702040176105652 0.011761843199089829 -0.09702040176105652
4.06175E9 0.011114168215381814 -0.09367790980989033 0.9888858317846181 0.09367790980989033 0.9888858317846181 0.09367790980989033 0.011114168215381814 -0.09367790980989033
4.1365E9 0.010505889447661121 -0.09042096245166062 0.9894941105523389 0.09042096245166062 0.9894941105523389 0.09042096245166062 0.010505889447661121 -0.09042096245166062
4.21125E9 0.00993441259682618 -0.08724536516918958 0.990065587403174 0.08724536516918958 0.990065587403174 0.08724536516918958 0.00993441259682618 -0.08724536516918958
4.286E9 0.009397359486405231 -0.08414718728322454 0.9906026405135946 0.08414718728322454 0.9906026405135946 0.08414718728322454 0.009397359486405231 -0.08414718728322454
4.36075E9 0.008892546946438196 -0.0811227421053711 0.9911074530535617 0.0811227421053711 0.9911074530535617 0.0811227421053711 0.008892546946438196 -0.0811227421053711
4.4355E9 0.008417968051534061 -0.0781685687950116 0.9915820319484657 0.0781685687950116 0.9915820319484657 0.0781685687950116 0.008417968051534061 -0.0781685687950116
4.51025E9 0.007971775419673302 -0.07528141575963698 0.9920282245803269 0.07528141575963698 0.9920282245803269 0.07528141575963698 0.007971775419673302 -0.07528141575963698
4.585E9 0.007552266318580175 -0.0724582254539529 0.9924477336814197 0.0724582254539529 0.9924477336814197 0.0724582254539529 0.007552266318580175 -0.0724582254539529
4.65975E9 0.0071578693607413976 -0.06969612044748892 0.9928421306392586 0.06969612044748892 0.9928421306392586 0.06969612044748892 0.0071578693607413976 -0.06969612044748892
4.7345E9 0.006787132597359131 -0.06699239064337165 0.9932128674026407 0.06699239064337165 0.9932128674026407 0.06699239064337165 0.006787132597359131 -0.06699239064337165
4.80925E9 0.006438712846496649 -0.06434448154255318 0.9935612871535034 0.06434448154255318 0.9935612871535034 0.06434448154255318 0.006438712846496649 -0.06434448154255318
4.884E9 0.0061113661120670276 -0.061749983458228276 0.993888633887933 0.061749983458228276 0.993888633887933 0.061749983458228276 0.0061113661120670276 -0.061749983458228276
4.95875E9 0.005803938968682107 -0.059206621594550486 0.9941960610313177 0.059206621594550486 0.9941960610313177 0.059206621594550486 0.005803938968682107 -0.059206621594550486
5.0335E9 0.005515360803181682 -0.05671224691217023 0.9944846391968184 0.05671224691217023 0.9944846391968184 0.05671224691217023 0.005515360803181682 -0.05671224691217023
5.10825E9 0.005244636817287725 -0.05426482771066625 0.9947553631827123 0.05426482771066625 0.9947553631827123 0.05426482771066625 0.005244636817287725 -0.05426482771066625
5.183E9 0.004990841707599334 -0.05186244186471504 0.9950091582924008 0.05186244186471504 0.9950091582924008 0.05186244186471504 0.004990841707599334 -0.05186244186471504
5.25775E9 0.004753113949333224 -0.04950326965692021 0.9952468860506667 0.04950326965692021 0.9952468860506667 0.04950326965692021 0.004753113949333224 -0.04950326965692021
5.3325E9 0.00453065061905176 -0.04718558715568009 0.9954693493809482 0.04718558715568009 0.9954693493809482 0.04718558715568009 0.00453065061905176 -0.04718558715568009
5.40725E9 0.004322702699299256 -0.044907760091370326 0.9956772973007008 0.044907760091370326 0.9956772973007008 0.044907760091370326 0.004322702699299256 -0.044907760091370326
5.482E9 0.00412857081475193 -0.04266823818852109 0.9958714291852481 0.04266823818852109 0.9958714291852481 0.04266823818852109 0.00412857081475193 -0.04266823818852109
5.55675E9 0.00394760135531631 -0.04046554991562212 0.9960523986446835 0.04046554991562212 0.9960523986446835 0.04046554991562212 0.00394760135531631 -0.04046554991562212
5.6315E9 0.0037791829467038983 -0.03829829761775131 0.9962208170532961 0.03829829761775131 0.9962208170532961 0.03829829761775131 0.0037791829467038983 -0.03829829761775131
5.70625E9 0.003622743233466281 -0.036165153000420114 0.996377256766534 0.036165153000420114 0.996377256766534 0.036165153000420114 0.003622743233466281 -0.036165153000420114
5.781E9 0.0034777459433817767 -0.0340648529359172 0.9965222540566184 0.0340648529359172 0.9965222540566184 0.0340648529359172 0.0034777459433817767 -0.0340648529359172
5.85575E9 0.003343688205514587 -0.031996195566028535 0.9966563117944853 0.031996195566028535 0.9966563117944853 0.031996195566028535 0.003343688205514587 -0.031996195566028535
5.9305E9 0.0032200980972837373 -0.02995803667735619 0.9967799019027166 0.02995803667735619 0.9967799019027166 0.02995803667735619 0.0032200980972837373 -0.02995803667735619
6.00525E9 0.0031065323985359373 -0.02794928632757519 0.9968934676014638 0.02794928632757519 0.9968934676014638 0.02794928632757519 0.0031065323985359373 -0.02794928632757519
6.08E9 0.0030025745329599054 -0.02596890570287662 0.99699742546704 0.02596890570287662 0.99699742546704 0.02596890570287662 0.0030025745329599054 -0.02596890570287662
6.15475E9 0.0029078326792500997 -0.02401590418857416 0.9970921673207499 0.02401590418857416 0.9970921673207499 0.02401590418857416 0.0029078326792500997 -0.02401590418857416
6.2295E9 0.0028219380362594685 -0.0220893366364124 0.9971780619637406 0.0220893366364124 0.9971780619637406 0.0220893366364124 0.0028219380362594685 -0.0220893366364124
6.30425E9 0.002744543228003645 -0.0201883008135313 0.9972554567719963 0.0201883008135313 0.9972554567719963 0.0201883008135313 0.002744543228003645 -0.0201883008135313
6.379E9 0.0026753208358187867 -0.018311935019321626 0.9973246791641812 0.018311935019321626 0.9973246791641812 0.018311935019321626 0.0026753208358187867 -0.018311935019321626
6.45375E9 0.002613962046254449 -0.01645941585757026 0.9973860379537458 0.01645941585757026 0.9973860379537458 0.01645941585757026 0.002613962046254449 -0.01645941585757026
6.5285E9 0.0025601754044207604 -0.014629956152347209 0.9974398245955793 0.014629956152347209 0.9974398245955793 0.014629956152347209 0.0025601754044207604 -0.014629956152347209
6.60325E9 0.0025136856635229014 -0.012822802997046537 0.9974863143364772 0.012822802997046537 0.9974863143364772 0.012822802997046537 0.0025136856635229014 -0.012822802997046537
6.678E9 0.002474232722219905 -0.011037235926862477 0.9975257672777799 0.011037235926862477 0.9975257672777799 0.011037235926862477 0.002474232722219905 -0.011037235926862477
6.75275E9 0.002441570642252225 -0.009272565205775631 0.9975584293577479 0.009272565205775631 0.9975584293577479 0.009272565205775631 0.002441570642252225 -0.009272565205775631
6.8275E9 0.0024154667395044353 -0.00752813021984545 0.9975845332604953 0.00752813021984545 0.9975845332604953 0.00752813021984545 0.0024154667395044353 -0.00752813021984545
6.90225E9 0.0023957007423156336 -0.0058032979692615476 0.9976042992576842 0.0058032979692615476 0.9976042992576842 0.0058032979692615476 0.0023957007423156336 -0.0058032979692615476
6.977E9 0.002382064011429384 -0.004097461652207729 0.9976179359885704 0.004097461652207729 0.9976179359885704 0.004097461652207729 0.002382064011429384 -0.004097461652207729
7.05175E9 0.00237435881649474 -0.002410039334137208 0.9976256411835056 0.002410039334137208 0.9976256411835056 0.002410039334137208 0.00237435881649474 -0.002410039334137208
7.1265E9 0.0023723976644967454 -7.404726965600351E-4 0.9976276023355031 7.404726965600351E-4 0.9976276023355031 7.404726965600351E-4 0.0023723976644967454 -7.404726965600351E-4
7.20125E9 0.0023760026759147273 9.117741401025873E-4 0.9976239973240854 -9.117741401025873E-4 0.9976239973240854 -9.117741401025873E-4 0.0023760026759147273 9.117741401025873E-4
7.276E9 0.0023850050047846145 0.002547215724622106 0.9976149949952154 -0.002547215724622106 0.9976149949952154 -0.002547215724622106 0.0023850050047846145 0.002547215724622106
7.35075E9 0.0023992442991822697 0.004166346318668834 0.9976007557008177 -0.004166346318668834 0.9976007557008177 -0.004166346318668834 0.0023992442991822697 0.004166346318668834
7.4255E9 0.0024185681989521094 0.005769640880413818 0.997581431801048 -0.005769640880413818 0.997581431801048 -0.005769640880413818 0.0024185681989521094 0.005769640880413818
7.50025E9 0.002442831867782868 0.0073575559919985935 0.9975571681322172 -0.0073575559919985935 0.9975571681322172 -0.0073575559919985935 0.002442831867782868 0.0073575559919985935
7.575E9 0.0024718975569833165 0.00893053073455085 0.9975281024430166 -0.00893053073455085 0.9975281024430166 -0.00893053073455085 0.0024718975569833165 0.00893053073455085
7.64975E9 0.0025056341985377805 0.010488987514152249 0.9974943658014622 -0.010488987514152249 0.9974943658014622 -0.010488987514152249 0.0025056341985377805 0.010488987514152249
7.7245E9 0.002543917025227013 0.012033332841918421 0.9974560829747732 -0.012033332841918421 0.9974560829747732 -0.012033332841918421 0.002543917025227013 0.012033332841918421
7.79925E9 0.002586627215786427 0.013563958071120041 0.9974133727842136 -0.013563958071120041 0.9974133727842136 -0.013563958071120041 0.002586627215786427 0.013563958071120041
7.874E9 0.002633651563242959 0.015081240094065957 0.9973663484367572 -0.015081240094065957 0.9973663484367572 -0.015081240094065957 0.002633651563242959 0.015081240094065957
7.94875E9 0.0026848821647255045 0.016585542001274264 0.9973151178352744 -0.016585542001274264 0.9973151178352744 -0.016585542001274264 0.0026848821647255045 0.016585542001274264
8.0235E9 0.0027402161311836856 0.018077213705279836 0.9972597838688163 -0.018077213705279836 0.9972597838688163 -0.018077213705279836 0.0027402161311836856 0.018077213705279836
8.09825E9 0.0027995553155768047 0.01955659253126199 0.9972004446844233 -0.01955659253126199 0.9972004446844233 -0.01955659253126199 0.0027995553155768047 0.01955659253126199
8.173E9 0.002862806058210745 0.021024003776524875 0.9971371939417892 -0.021024003776524875 0.9971371939417892 -0.021024003776524875 0.002862806058210745 0.021024003776524875
8.24775E9 0.0029298789480060572 0.022479761240722117 0.9970701210519939 -0.022479761240722117 0.9970701210519939 -0.022479761240722117 0.0029298789480060572 0.022479761240722117
8.3225E9 0.0030006885985768912 0.023924167728589952 0.9969993114014233 -0.023924167728589952 0.9969993114014233 -0.023924167728589952 0.0030006885985768912 0.023924167728589952
8.39725E9 0.003075153438088281 0.025357515526831145 0.9969248465619117 -0.025357515526831145 0.9969248465619117 -0.025357515526831145 0.003075153438088281 0.025357515526831145
8.472E9 0.003153195511939706 0.026780086856683462 0.9968468044880604 -0.026780086856683462 0.9968468044880604 -0.026780086856683462 0.003153195511939706 0.026780086856683462
8.54675E9 0.0032347402973963366 0.028192154303603407 0.9967652597026035 -0.028192154303603407 0.9967652597026035 -0.028192154303603407 0.0032347402973963366 0.028192154303603407
8.6215E9 0.0033197165293566045 0.02959398122540078 0.9966802834706434 -0.02959398122540078 0.9966802834706434 -0.02959398122540078 0.0033197165293566045 0.02959398122540078
