!Murata Part Number: GJM0225C1E4R6BB01
!These Parameters are Measured in Series Mode Connection
!       o--ll--o
!Port1            Port2
!       o------o
!Operation Temp=25[degC], DC Bias Voltage=0[V]
!Freq. Start=100[MHz] Stop=30[GHz], 401[Steps]
!Data Generated on Feb 1, 2023
# Hz S RI R 50
!Freq.(Hz) S11(Real) S11(Imag) S21(Real) S21(Imag) S12(Real) S12(Imag) S22(Real) S22(Imag)
1.0E8 0.9227585793207108 -0.26674290551732194 0.07724142067928923 0.26674290551732194 0.07724142067928923 0.26674290551732194 0.9227585793207108 -0.26674290551732194
1.7475E8 0.7962711138100463 -0.40236539373649904 0.20372888618995372 0.40236539373649904 0.20372888618995372 0.40236539373649904 0.7962711138100463 -0.40236539373649904
2.495E8 0.6569066797377209 -0.4741645250827235 0.34309332026227907 0.4741645250827235 0.34309332026227907 0.4741645250827235 0.6569066797377209 -0.4741645250827235
3.2425E8 0.5308426159783629 -0.49829586811854926 0.46915738402163715 0.49829586811854926 0.46915738402163715 0.49829586811854926 0.5308426159783629 -0.49829586811854926
3.99E8 0.427083181794812 -0.4937276603599083 0.572916818205188 0.4937276603599083 0.572916818205188 0.4937276603599083 0.427083181794812 -0.4937276603599083
4.7375E8 0.34522620871505705 -0.4743391332239143 0.6547737912849432 0.4743391332239143 0.6547737912849432 0.4743391332239143 0.34522620871505705 -0.4743391332239143
5.485E8 0.28160940447213656 -0.44850392083383533 0.7183905955278634 0.44850392083383533 0.7183905955278634 0.44850392083383533 0.28160940447213656 -0.44850392083383533
6.2325E8 0.23220594732122316 -0.420781205261699 0.7677940526787769 0.420781205261699 0.7677940526787769 0.420781205261699 0.23220594732122316 -0.420781205261699
6.98E8 0.19359471351836932 -0.39347637242117106 0.8064052864816305 0.39347637242117106 0.8064052864816305 0.39347637242117106 0.19359471351836932 -0.39347637242117106
7.7275E8 0.16312346507242861 -0.36765788667686217 0.8368765349275713 0.36765788667686217 0.8368765349275713 0.36765788667686217 0.16312346507242861 -0.36765788667686217
8.475E8 0.13880949697391315 -0.343743412806237 0.861190503026087 0.343743412806237 0.861190503026087 0.343743412806237 0.13880949697391315 -0.343743412806237
9.2225E8 0.11918874803090408 -0.32182027089374016 0.8808112519690959 0.32182027089374016 0.8808112519690959 0.32182027089374016 0.11918874803090408 -0.32182027089374016
9.97E8 0.1031807542429216 -0.3018162266490643 0.8968192457570783 0.3018162266490643 0.8968192457570783 0.3018162266490643 0.1031807542429216 -0.3018162266490643
1.07175E9 0.08998383716765199 -0.2835890315001431 0.910016162832348 0.2835890315001431 0.910016162832348 0.2835890315001431 0.08998383716765199 -0.2835890315001431
1.1465E9 0.07899815639847316 -0.2669725109861669 0.9210018436015268 0.2669725109861669 0.9210018436015268 0.2669725109861669 0.07899815639847316 -0.2669725109861669
1.22125E9 0.0697704679510592 -0.2517995664402445 0.9302295320489407 0.2517995664402445 0.9302295320489407 0.2517995664402445 0.0697704679510592 -0.2517995664402445
1.296E9 0.06195473665100768 -0.23791297622018892 0.9380452633489925 0.23791297622018892 0.9380452633489925 0.23791297622018892 0.06195473665100768 -0.23791297622018892
1.37075E9 0.05528402131910197 -0.2251698121993124 0.944715978680898 0.2251698121993124 0.944715978680898 0.2251698121993124 0.05528402131910197 -0.2251698121993124
1.4455E9 0.04955029814774575 -0.2134425823461456 0.9504497018522541 0.2134425823461456 0.9504497018522541 0.2134425823461456 0.04955029814774575 -0.2134425823461456
1.52025E9 0.04458986930699349 -0.20261876273176674 0.9554101306930065 0.20261876273176674 0.9554101306930065 0.20261876273176674 0.04458986930699349 -0.20261876273176674
1.595E9 0.040272716792099886 -0.19259960373458757 0.9597272832079001 0.19259960373458757 0.9597272832079001 0.19259960373458757 0.040272716792099886 -0.19259960373458757
1.66975E9 0.03649466153617549 -0.18329867454264964 0.9635053384638245 0.18329867454264964 0.9635053384638245 0.18329867454264964 0.03649466153617549 -0.18329867454264964
1.7445E9 0.033171533332739325 -0.17464038230842888 0.9668284666672609 0.17464038230842888 0.9668284666672609 0.17464038230842888 0.033171533332739325 -0.17464038230842888
1.81925E9 0.030234794822885408 -0.1665585793271258 0.9697652051771144 0.1665585793271258 0.9697652051771144 0.1665585793271258 0.030234794822885408 -0.1665585793271258
1.894E9 0.027628226549285862 -0.15899530584576863 0.9723717734507142 0.15899530584576863 0.9723717734507142 0.15899530584576863 0.027628226549285862 -0.15899530584576863
1.96875E9 0.02530539339203845 -0.15189968169911372 0.9746946066079618 0.15189968169911372 0.9746946066079618 0.15189968169911372 0.02530539339203845 -0.15189968169911372
2.0435E9 0.02322769162120537 -0.14522694271970518 0.9767723083787946 0.14522694271970518 0.9767723083787946 0.14522694271970518 0.02322769162120537 -0.14522694271970518
2.11825E9 0.021362831182783655 -0.13893760995072554 0.9786371688172165 0.13893760995072554 0.9786371688172165 0.13893760995072554 0.021362831182783655 -0.13893760995072554
2.193E9 0.01968364701589394 -0.13299677676155278 0.9803163529841061 0.13299677676155278 0.9803163529841061 0.13299677676155278 0.01968364701589394 -0.13299677676155278
2.26775E9 0.018167161151734713 -0.12737349862234779 0.9818328388482653 0.12737349862234779 0.9818328388482653 0.12737349862234779 0.018167161151734713 -0.12737349862234779
2.3425E9 0.016793837456074923 -0.12204027120943568 0.9832061625439253 0.12204027120943568 0.9832061625439253 0.12204027120943568 0.016793837456074923 -0.12204027120943568
2.41725E9 0.015546985468069832 -0.11697258396551896 0.9844530145319301 0.11697258396551896 0.9844530145319301 0.11697258396551896 0.015546985468069832 -0.11697258396551896
2.492E9 0.014412280461418 -0.11214853784392552 0.985587719538582 0.11214853784392552 0.985587719538582 0.11214853784392552 0.014412280461418 -0.11214853784392552
2.56675E9 0.013377374723945158 -0.10754851752911522 0.9866226252760548 0.10754851752911522 0.9866226252760548 0.10754851752911522 0.013377374723945158 -0.10754851752911522
2.6415E9 0.01243158089995882 -0.10315490985592425 0.9875684191000412 0.10315490985592425 0.9875684191000412 0.10315490985592425 0.01243158089995882 -0.10315490985592425
2.71625E9 0.011565612618231556 -0.09895186141360639 0.9884343873817683 0.09895186141360639 0.9884343873817683 0.09895186141360639 0.011565612618231556 -0.09895186141360639
2.791E9 0.010771370930355989 -0.09492506941345442 0.9892286290696441 0.09492506941345442 0.9892286290696441 0.09492506941345442 0.010771370930355989 -0.09492506941345442
2.86575E9 0.010041767591559128 -0.09106160083108758 0.9899582324084409 0.09106160083108758 0.9899582324084409 0.09106160083108758 0.010041767591559128 -0.09106160083108758
2.9405E9 0.009370578132821572 -0.08734973562312187 0.9906294218671784 0.08734973562312187 0.9906294218671784 0.08734973562312187 0.009370578132821572 -0.08734973562312187
3.01525E9 0.008752319147858281 -0.08377883048143017 0.9912476808521419 0.08377883048143017 0.9912476808521419 0.08377883048143017 0.008752319147858281 -0.08377883048143017
3.09E9 0.00818214536014313 -0.08033920014460441 0.9918178546398566 0.08033920014460441 0.9918178546398566 0.08033920014460441 0.00818214536014313 -0.08033920014460441
3.16475E9 0.007655762924176809 -0.07702201375202665 0.9923442370758231 0.07702201375202665 0.9923442370758231 0.07702201375202665 0.007655762924176809 -0.07702201375202665
3.2395E9 0.007169356111447133 -0.0738192041156451 0.9928306438885529 0.0738192041156451 0.9928306438885529 0.0738192041156451 0.007169356111447133 -0.0738192041156451
3.31425E9 0.0067195250797955205 -0.07072338811061905 0.9932804749202044 0.07072338811061905 0.9932804749202044 0.07072338811061905 0.0067195250797955205 -0.07072338811061905
3.389E9 0.006303232858905488 -0.06772779665902182 0.9936967671410948 0.06772779665902182 0.9936967671410948 0.06772779665902182 0.006303232858905488 -0.06772779665902182
3.46375E9 0.005917760029917338 -0.06482621300966654 0.9940822399700827 0.06482621300966654 0.9940822399700827 0.06482621300966654 0.005917760029917338 -0.06482621300966654
3.5385E9 0.005560665853215246 -0.06201291820926398 0.9944393341467849 0.06201291820926398 0.9944393341467849 0.06201291820926398 0.005560665853215246 -0.06201291820926398
3.61325E9 0.0052297548201458224 -0.05928264282170407 0.9947702451798542 0.05928264282170407 0.9947702451798542 0.05928264282170407 0.0052297548201458224 -0.05928264282170407
3.688E9 0.00492304778330312 -0.056630524088383156 0.995076952216697 0.056630524088383156 0.995076952216697 0.056630524088383156 0.00492304778330312 -0.056630524088383156
3.76275E9 0.004638756964954854 -0.054052067837419594 0.9953612430350451 0.054052067837419594 0.9953612430350451 0.054052067837419594 0.004638756964954854 -0.054052067837419594
3.8375E9 0.004375264261114775 -0.05154311454681222 0.9956247357388852 0.05154311454681222 0.9956247357388852 0.05154311454681222 0.004375264261114775 -0.05154311454681222
3.91225E9 0.004131102355104826 -0.049099809049003365 0.9958688976448951 0.049099809049003365 0.9958688976448951 0.049099809049003365 0.004131102355104826 -0.049099809049003365
3.987E9 0.0039049382334554635 -0.046718573434319566 0.9960950617665444 0.046718573434319566 0.9960950617665444 0.046718573434319566 0.0039049382334554635 -0.046718573434319566
4.06175E9 0.0036955587620232043 -0.044396082770368016 0.9963044412379767 0.044396082770368016 0.9963044412379767 0.044396082770368016 0.0036955587620232043 -0.044396082770368016
4.1365E9 0.0035018580339255864 -0.04212924330532721 0.9964981419660744 0.04212924330532721 0.9964981419660744 0.04212924330532721 0.0035018580339255864 -0.04212924330532721
4.21125E9 0.0033228262454260003 -0.03991517286656023 0.9966771737545739 0.03991517286656023 0.9966771737545739 0.03991517286656023 0.0033228262454260003 -0.03991517286656023
4.286E9 0.0031575398929398753 -0.037751183203249807 0.9968424601070601 0.037751183203249807 0.9968424601070601 0.037751183203249807 0.0031575398929398753 -0.037751183203249807
4.36075E9 0.003005153115240022 -0.03563476405376023 0.99699484688476 0.03563476405376023 0.99699484688476 0.03563476405376023 0.003005153115240022 -0.03563476405376023
4.4355E9 0.002864890030808984 -0.03356356874597956 0.997135109969191 0.03356356874597956 0.997135109969191 0.03356356874597956 0.002864890030808984 -0.03356356874597956
4.51025E9 0.0027360379420058325 -0.0315354011626481 0.9972639620579942 0.0315354011626481 0.9972639620579942 0.0315354011626481 0.0027360379420058325 -0.0315354011626481
4.585E9 0.002617941296003973 -0.02954820392421201 0.9973820587039961 0.02954820392421201 0.9973820587039961 0.02954820392421201 0.002617941296003973 -0.02954820392421201
4.65975E9 0.002509996307900011 -0.02760004765951498 0.9974900036921001 0.02760004765951498 0.9974900036921001 0.02760004765951498 0.002509996307900011 -0.02760004765951498
4.7345E9 0.002411646164470797 -0.02568912125006657 0.9975883538355292 0.02568912125006657 0.9975883538355292 0.02568912125006657 0.002411646164470797 -0.02568912125006657
4.80925E9 0.0023223767381580474 -0.023813722947033378 0.9976776232618422 0.023813722947033378 0.9976776232618422 0.023813722947033378 0.0023223767381580474 -0.023813722947033378
4.884E9 0.002241712750310359 -0.021972252271778053 0.9977582872496896 0.021972252271778053 0.9977582872496896 0.021972252271778053 0.002241712750310359 -0.021972252271778053
4.95875E9 0.002169214330776669 -0.020163202620962325 0.9978307856692232 0.020163202620962325 0.9978307856692232 0.020163202620962325 0.002169214330776669 -0.020163202620962325
5.0335E9 0.002104473927843416 -0.0183851545061386 0.9978955260721566 0.0183851545061386 0.9978955260721566 0.0183851545061386 0.002104473927843416 -0.0183851545061386
5.10825E9 0.002047113528422367 -0.016636769365557576 0.9979528864715776 0.016636769365557576 0.9979528864715776 0.016636769365557576 0.002047113528422367 -0.016636769365557576
5.183E9 0.001996782153479076 -0.014916783892763928 0.9980032178465209 0.014916783892763928 0.9980032178465209 0.014916783892763928 0.001996782153479076 -0.014916783892763928
5.25775E9 0.0019531535980699508 -0.013224004832568328 0.9980468464019302 0.013224004832568328 0.9980468464019302 0.013224004832568328 0.0019531535980699508 -0.013224004832568328
5.3325E9 0.0019159243891348151 -0.011557304200278529 0.9980840756108649 0.011557304200278529 0.9980840756108649 0.011557304200278529 0.0019159243891348151 -0.011557304200278529
5.40725E9 0.0018848119374605986 -0.009915614884743022 0.9981151880625393 0.009915614884743022 0.9981151880625393 0.009915614884743022 0.0018848119374605986 -0.009915614884743022
5.482E9 0.0018595528630648585 -0.00829792659988302 0.9981404471369352 0.00829792659988302 0.9981404471369352 0.00829792659988302 0.0018595528630648585 -0.00829792659988302
5.55675E9 0.001839901475708442 -0.006703282153037273 0.9981600985242914 0.006703282153037273 0.9981600985242914 0.006703282153037273 0.001839901475708442 -0.006703282153037273
5.6315E9 0.0018256283943875412 -0.005130774001675461 0.9981743716056122 0.005130774001675461 0.9981743716056122 0.005130774001675461 0.0018256283943875412 -0.005130774001675461
5.70625E9 0.0018165192915219892 -0.0035795410729024552 0.998183480708478 0.0035795410729024552 0.998183480708478 0.0035795410729024552 0.0018165192915219892 -0.0035795410729024552
5.781E9 0.0018123737491868984 -0.0020487658227247045 0.9981876262508131 0.0020487658227247045 0.9981876262508131 0.0020487658227247045 0.0018123737491868984 -0.0020487658227247045
5.85575E9 0.0018130042161611114 -5.37671514315452E-4 0.998186995783839 5.37671514315452E-4 0.998186995783839 5.37671514315452E-4 0.0018130042161611114 -5.37671514315452E-4
5.9305E9 0.0018182350558162141 9.544803034633995E-4 0.998181764944184 -9.544803034633995E-4 0.998181764944184 -9.544803034633995E-4 0.0018182350558162141 9.544803034633995E-4
6.00525E9 0.001827901675967529 0.0024283921342225286 0.9981720983240326 -0.0024283921342225286 0.9981720983240326 -0.0024283921342225286 0.001827901675967529 0.0024283921342225286
6.08E9 0.0018418497327738605 0.0038847327042196766 0.9981581502672263 -0.0038847327042196766 0.9981581502672263 -0.0038847327042196766 0.0018418497327738605 0.0038847327042196766
6.15475E9 0.001859934401623139 0.005324138978434647 0.9981400655983769 -0.005324138978434647 0.9981400655983769 -0.005324138978434647 0.001859934401623139 0.005324138978434647
6.2295E9 0.0018820197086913358 0.0067472180351434985 0.9981179802913087 -0.0067472180351434985 0.9981179802913087 -0.0067472180351434985 0.0018820197086913358 0.0067472180351434985
6.30425E9 0.0019079779175249592 0.008154548810430304 0.998092022082475 -0.008154548810430304 0.998092022082475 -0.008154548810430304 0.0019079779175249592 0.008154548810430304
6.379E9 0.0019376889655841243 0.009546683723037203 0.9980623110344161 -0.009546683723037203 0.9980623110344161 -0.009546683723037203 0.0019376889655841243 0.009546683723037203
6.45375E9 0.0019710399462031392 0.01092415018901616 0.998028960053797 -0.01092415018901616 0.998028960053797 -0.01092415018901616 0.0019710399462031392 0.01092415018901616
6.5285E9 0.0020079246318870664 0.012287452034806096 0.9979920753681132 -0.012287452034806096 0.9979920753681132 -0.012287452034806096 0.0020079246318870664 0.012287452034806096
6.60325E9 0.002048243035272876 0.01363707081659886 0.9979517569647272 -0.01363707081659886 0.9979517569647272 -0.01363707081659886 0.002048243035272876 0.01363707081659886
6.678E9 0.0020919010044489236 0.014973467053173562 0.997908098995551 -0.014973467053173562 0.997908098995551 -0.014973467053173562 0.0020919010044489236 0.014973467053173562
6.75275E9 0.0021388098496518833 0.016297081378760746 0.9978611901503481 -0.016297081378760746 0.9978611901503481 -0.016297081378760746 0.0021388098496518833 0.016297081378760746
6.8275E9 0.0021888859986506377 0.0176083356219374 0.9978111140013495 -0.0176083356219374 0.9978111140013495 -0.0176083356219374 0.0021888859986506377 0.0176083356219374
6.90225E9 0.002242050678386209 0.018907633816049558 0.9977579493216138 -0.018907633816049558 0.9977579493216138 -0.018907633816049558 0.002242050678386209 0.018907633816049558
6.977E9 0.002298229620668975 0.020195363146198582 0.9977017703793309 -0.020195363146198582 0.9977017703793309 -0.020195363146198582 0.002298229620668975 0.020195363146198582
7.05175E9 0.002357352789942507 0.02147189483741242 0.9976426472100576 -0.02147189483741242 0.9976426472100576 -0.02147189483741242 0.002357352789942507 0.02147189483741242
7.1265E9 0.002419354131310013 0.022737584988244644 0.9975806458686897 -0.022737584988244644 0.9975806458686897 -0.022737584988244644 0.002419354131310013 0.022737584988244644
7.20125E9 0.002484171337187028 0.02399277535370136 0.997515828662813 -0.02399277535370136 0.997515828662813 -0.02399277535370136 0.002484171337187028 0.02399277535370136
7.276E9 0.002551745631094722 0.02523779408108243 0.9974482543689053 -0.02523779408108243 0.9974482543689053 -0.02523779408108243 0.002551745631094722 0.02523779408108243
7.35075E9 0.0026220215672440547 0.02647295640204094 0.9973779784327562 -0.02647295640204094 0.9973779784327562 -0.02647295640204094 0.0026220215672440547 0.02647295640204094
7.4255E9 0.002694946844683306 0.027698565283903274 0.9973050531553166 -0.027698565283903274 0.9973050531553166 -0.027698565283903274 0.002694946844683306 0.027698565283903274
7.50025E9 0.0027704721348920927 0.028914912043058037 0.997229527865108 -0.028914912043058037 0.997229527865108 -0.028914912043058037 0.0027704721348920927 0.028914912043058037
7.575E9 0.0028485509218048 0.030122276923004135 0.9971514490781952 -0.030122276923004135 0.9971514490781952 -0.030122276923004135 0.0028485509218048 0.030122276923004135
7.64975E9 0.002929139353336745 0.03132092963945234 0.9970708606466632 -0.03132092963945234 0.9970708606466632 -0.03132092963945234 0.002929139353336745 0.03132092963945234
7.7245E9 0.0030121961035683414 0.032511129894694124 0.9969878038964318 -0.032511129894694124 0.9969878038964318 -0.032511129894694124 0.0030121961035683414 0.032511129894694124
7.79925E9 0.0030976822448167303 0.03369312786328549 0.996902317755183 -0.03369312786328549 0.996902317755183 -0.03369312786328549 0.0030976822448167303 0.03369312786328549
7.874E9 0.0031855611288920524 0.03486716465094422 0.996814438871108 -0.03486716465094422 0.996814438871108 -0.03486716465094422 0.0031855611288920524 0.03486716465094422
7.94875E9 0.003275798276896759 0.036033472728418295 0.9967242017231033 -0.036033472728418295 0.9967242017231033 -0.036033472728418295 0.003275798276896759 0.036033472728418295
8.0235E9 0.0033683612769825617 0.037192276341957875 0.9966316387230175 -0.037192276341957875 0.9966316387230175 -0.037192276341957875 0.0033683612769825617 0.037192276341957875
8.09825E9 0.003463219689530566 0.038343791901905705 0.9965367803104693 -0.038343791901905705 0.9965367803104693 -0.038343791901905705 0.003463219689530566 0.038343791901905705
8.173E9 0.0035603449592669927 0.03948822835081456 0.9964396550407331 -0.03948822835081456 0.9964396550407331 -0.03948822835081456 0.0035603449592669927 0.03948822835081456
8.24775E9 0.0036597103338695453 0.04062578751240048 0.9963402896661304 -0.04062578751240048 0.9963402896661304 -0.04062578751240048 0.0036597103338695453 0.04062578751240048
8.3225E9 0.003761290788658967 0.04175666442255286 0.996238709211341 -0.04175666442255286 0.996238709211341 -0.04175666442255286 0.003761290788658967 0.04175666442255286
8.39725E9 0.0038650629570062514 0.042881047643536466 0.9961349370429939 -0.042881047643536466 0.9961349370429939 -0.042881047643536466 0.0038650629570062514 0.042881047643536466
8.472E9 0.003971005066119383 0.04399911956244555 0.9960289949338806 -0.04399911956244555 0.9960289949338806 -0.04399911956244555 0.003971005066119383 0.04399911956244555
8.54675E9 0.004079096877904373 0.04511105667490093 0.9959209031220956 -0.04511105667490093 0.9959209031220956 -0.04511105667490093 0.004079096877904373 0.04511105667490093
