!Murata Part Number: GJM0225C1E6R9BB01
!These Parameters are Measured in Series Mode Connection
!       o--ll--o
!Port1            Port2
!       o------o
!Operation Temp=25[degC], DC Bias Voltage=0[V]
!Freq. Start=100[MHz] Stop=30[GHz], 401[Steps]
!Data Generated on Feb 1, 2023
# Hz S RI R 50
!Freq.(Hz) S11(Real) S11(Imag) S21(Real) S21(Imag) S12(Real) S12(Imag) S22(Real) S22(Imag)
1.0E8 0.8415425158359899 -0.36494130151296994 0.15845748416401004 0.36494130151296994 0.15845748416401004 0.36494130151296994 0.8415425158359899 -0.36494130151296994
1.7475E8 0.6345654865311328 -0.4811511489928509 0.36543451346886724 0.4811511489928509 0.36543451346886724 0.4811511489928509 0.6345654865311328 -0.4811511489928509
2.495E8 0.4594149723139654 -0.4977737441884832 0.5405850276860346 0.4977737441884832 0.5405850276860346 0.4977737441884832 0.4594149723139654 -0.4977737441884832
3.2425E8 0.3340399905701572 -0.47089715259825327 0.6659600094298427 0.47089715259825327 0.6659600094298427 0.47089715259825327 0.3340399905701572 -0.47089715259825327
3.99E8 0.2480905856914703 -0.43096221615507374 0.7519094143085298 0.43096221615507374 0.7519094143085298 0.43096221615507374 0.2480905856914703 -0.43096221615507374
4.7375E8 0.18892577972624516 -0.3903147269632074 0.8110742202737548 0.3903147269632074 0.8110742202737548 0.3903147269632074 0.18892577972624516 -0.3903147269632074
5.485E8 0.1473499651069107 -0.35311957026354446 0.8526500348930891 0.35311957026354446 0.8526500348930891 0.35311957026354446 0.1473499651069107 -0.35311957026354446
6.2325E8 0.11739501041608379 -0.32034736844789896 0.8826049895839162 0.32034736844789896 0.8826049895839162 0.32034736844789896 0.11739501041608379 -0.32034736844789896
6.98E8 0.09527283792758523 -0.29183148538179265 0.9047271620724149 0.29183148538179265 0.9047271620724149 0.29183148538179265 0.09527283792758523 -0.29183148538179265
7.7275E8 0.0785584483700217 -0.2670622725696599 0.9214415516299782 0.2670622725696599 0.9214415516299782 0.2670622725696599 0.0785584483700217 -0.2670622725696599
8.475E8 0.06566875639861659 -0.24548037421648553 0.9343312436013834 0.24548037421648553 0.9343312436013834 0.24548037421648553 0.06566875639861659 -0.24548037421648553
9.2225E8 0.05554629690239803 -0.2265760844410883 0.9444537030976021 0.2265760844410883 0.9444537030976021 0.2265760844410883 0.05554629690239803 -0.2265760844410883
9.97E8 0.04746813994229072 -0.2099150022221442 0.9525318600577093 0.2099150022221442 0.9525318600577093 0.2099150022221442 0.04746813994229072 -0.2099150022221442
1.07175E9 0.040929009040809164 -0.19513695996771607 0.9590709909591907 0.19513695996771607 0.9590709909591907 0.19513695996771607 0.040929009040809164 -0.19513695996771607
1.1465E9 0.03556841949002294 -0.18194650422035055 0.9644315805099769 0.18194650422035055 0.9644315805099769 0.18194650422035055 0.03556841949002294 -0.18194650422035055
1.22125E9 0.03112428818627349 -0.17010186681174477 0.9688757118137264 0.17010186681174477 0.9688757118137264 0.17010186681174477 0.03112428818627349 -0.17010186681174477
1.296E9 0.02740276149079234 -0.159404863070855 0.9725972385092078 0.159404863070855 0.9725972385092078 0.159404863070855 0.02740276149079234 -0.159404863070855
1.37075E9 0.02425818318566206 -0.14969238708635804 0.9757418168143379 0.14969238708635804 0.9757418168143379 0.14969238708635804 0.02425818318566206 -0.14969238708635804
1.4455E9 0.02157953329617999 -0.14082951198517263 0.9784204667038201 0.14082951198517263 0.9784204667038201 0.14082951198517263 0.02157953329617999 -0.14082951198517263
1.52025E9 0.019281078879555758 -0.13270398582276102 0.9807189211204442 0.13270398582276102 0.9807189211204442 0.13270398582276102 0.019281078879555758 -0.13270398582276102
1.595E9 0.017295818555771527 -0.12522187049446853 0.9827041814442283 0.12522187049446853 0.9827041814442283 0.12522187049446853 0.017295818555771527 -0.12522187049446853
1.66975E9 0.015570813227691783 -0.11830409093762237 0.9844291867723082 0.11830409093762237 0.9844291867723082 0.11830409093762237 0.015570813227691783 -0.11830409093762237
1.7445E9 0.014063811559778809 -0.11188369984869151 0.9859361884402214 0.11188369984869151 0.9859361884402214 0.11188369984869151 0.014063811559778809 -0.11188369984869151
1.81925E9 0.012740778101223446 -0.10590370188246208 0.9872592218987766 0.10590370188246208 0.9872592218987766 0.10590370188246208 0.012740778101223446 -0.10590370188246208
1.894E9 0.011574059838993636 -0.10031531498475267 0.9884259401610065 0.10031531498475267 0.9884259401610065 0.10031531498475267 0.011574059838993636 -0.10031531498475267
1.96875E9 0.010541010420850047 -0.09507657389353281 0.9894589895791497 0.09507657389353281 0.9894589895791497 0.09507657389353281 0.010541010420850047 -0.09507657389353281
2.0435E9 0.009622946608896028 -0.09015120238761928 0.990377053391104 0.09015120238761928 0.990377053391104 0.09015120238761928 0.009622946608896028 -0.09015120238761928
2.11825E9 0.008804348744907048 -0.08550769753466568 0.9911956512550931 0.08550769753466568 0.9911956512550931 0.08550769753466568 0.008804348744907048 -0.08550769753466568
2.193E9 0.008072242404642719 -0.08111858199136236 0.9919277575953572 0.08111858199136236 0.9919277575953572 0.08111858199136236 0.008072242404642719 -0.08111858199136236
2.26775E9 0.0074157159760235725 -0.07695979020929265 0.9925842840239762 0.07695979020929265 0.9925842840239762 0.07695979020929265 0.0074157159760235725 -0.07695979020929265
2.3425E9 0.006825541186095346 -0.0730101619042835 0.9931744588139048 0.0730101619042835 0.9931744588139048 0.0730101619042835 0.006825541186095346 -0.0730101619042835
2.41725E9 0.006293872305462881 -0.06925102190508003 0.9937061276945369 0.06925102190508003 0.9937061276945369 0.06925102190508003 0.006293872305462881 -0.06925102190508003
2.492E9 0.005814005990955616 -0.06566582992955211 0.9941859940090444 0.06566582992955211 0.9941859940090444 0.06566582992955211 0.005814005990955616 -0.06566582992955211
2.56675E9 0.005380188236053934 -0.06223988726227515 0.994619811763946 0.06223988726227515 0.994619811763946 0.06223988726227515 0.005380188236053934 -0.06223988726227515
2.6415E9 0.004987458192631065 -0.05896008996675144 0.9950125418073688 0.05896008996675144 0.9950125418073688 0.05896008996675144 0.004987458192631065 -0.05896008996675144
2.71625E9 0.004631521056434926 -0.05581472033993663 0.9953684789435653 0.05581472033993663 0.9953684789435653 0.05581472033993663 0.004631521056434926 -0.05581472033993663
2.791E9 0.004308644015370727 -0.05279326994273316 0.9956913559846292 0.05279326994273316 0.9956913559846292 0.05279326994273316 0.004308644015370727 -0.05279326994273316
2.86575E9 0.004015570614594677 -0.04988628882092979 0.9959844293854054 0.04988628882092979 0.9959844293854054 0.04988628882092979 0.004015570614594677 -0.04988628882092979
2.9405E9 0.0037494499166004828 -0.04708525654496156 0.9962505500833994 0.04708525654496156 0.9962505500833994 0.04708525654496156 0.0037494499166004828 -0.04708525654496156
3.01525E9 0.003507777614389804 -0.044382471503375105 0.9964922223856101 0.044382471503375105 0.9964922223856101 0.044382471503375105 0.003507777614389804 -0.044382471503375105
3.09E9 0.003288346853918368 -0.04177095552950028 0.9967116531460817 0.04177095552950028 0.9967116531460817 0.04177095552950028 0.003288346853918368 -0.04177095552950028
3.16475E9 0.003089206983765149 -0.03924437145846224 0.9969107930162349 0.03924437145846224 0.9969107930162349 0.03924437145846224 0.003089206983765149 -0.03924437145846224
3.2395E9 0.002908628808741867 -0.03679695162922862 0.9970913711912583 0.03679695162922862 0.9970913711912583 0.03679695162922862 0.002908628808741867 -0.03679695162922862
3.31425E9 0.0027450752046096678 -0.034423435684714274 0.9972549247953905 0.034423435684714274 0.9972549247953905 0.034423435684714274 0.0027450752046096678 -0.034423435684714274
3.389E9 0.002597176171568582 -0.03211901629827828 0.9974028238284314 0.03211901629827828 0.9974028238284314 0.03211901629827828 0.002597176171568582 -0.03211901629827828
3.46375E9 0.0024637075785082898 -0.029879291679912424 0.9975362924214918 0.029879291679912424 0.9975362924214918 0.029879291679912424 0.0024637075785082898 -0.029879291679912424
3.5385E9 0.002343572988555014 -0.027700223899991334 0.997656427011445 0.027700223899991334 0.997656427011445 0.027700223899991334 0.002343572988555014 -0.027700223899991334
3.61325E9 0.002235788067118103 -0.025578102220472437 0.997764211932882 0.025578102220472437 0.997764211932882 0.025578102220472437 0.002235788067118103 -0.025578102220472437
3.688E9 0.0021394671624685203 -0.023509510749117054 0.9978605328375314 0.023509510749117054 0.9978605328375314 0.023509510749117054 0.0021394671624685203 -0.023509510749117054
3.76275E9 0.0020538117205106923 -0.02149129983659292 0.9979461882794893 0.02149129983659292 0.9979461882794893 0.02149129983659292 0.0020538117205106923 -0.02149129983659292
3.8375E9 0.0019781002534259894 -0.019520560723159514 0.9980218997465741 0.019520560723159514 0.9980218997465741 0.019520560723159514 0.0019781002534259894 -0.019520560723159514
3.91225E9 0.0019116796290580792 -0.017594603014200683 0.9980883203709422 0.017594603014200683 0.9980883203709422 0.017594603014200683 0.0019116796290580792 -0.017594603014200683
3.987E9 0.0018539574864544894 -0.01571093462469779 0.9981460425135456 0.01571093462469779 0.9981460425135456 0.01571093462469779 0.0018539574864544894 -0.01571093462469779
4.06175E9 0.0018043956145837633 -0.013867243883895618 0.9981956043854162 0.013867243883895618 0.9981956043854162 0.013867243883895618 0.0018043956145837633 -0.013867243883895618
4.1365E9 0.0017625041572609957 -0.012061383534569306 0.998237495842739 0.012061383534569306 0.998237495842739 0.012061383534569306 0.0017625041572609957 -0.012061383534569306
4.21125E9 0.0017278365288038685 -0.010291356397817334 0.9982721634711962 0.010291356397817334 0.9982721634711962 0.010291356397817334 0.0017278365288038685 -0.010291356397817334
4.286E9 0.0016999849427556419 -0.008555302505292146 0.9983000150572446 0.008555302505292146 0.9983000150572446 0.008555302505292146 0.0016999849427556419 -0.008555302505292146
4.36075E9 0.001678576470829564 -0.006851487527148364 0.9983214235291706 0.006851487527148364 0.9983214235291706 0.006851487527148364 0.001678576470829564 -0.006851487527148364
4.4355E9 0.0016632695615951187 -0.0051782923464880415 0.998336730438405 0.0051782923464880415 0.998336730438405 0.0051782923464880415 0.0016632695615951187 -0.0051782923464880415
4.51025E9 0.0016537509587787576 -0.0035342036503305213 0.9983462490412214 0.0035342036503305213 0.9983462490412214 0.0035342036503305213 0.0016537509587787576 -0.0035342036503305213
4.585E9 0.0016497329677446979 -0.00191780542364397 0.9983502670322554 0.00191780542364397 0.9983502670322554 0.00191780542364397 0.0016497329677446979 -0.00191780542364397
4.65975E9 0.0016509510260424838 -3.277712471706917E-4 0.9983490489739576 3.277712471706917E-4 0.9983490489739576 3.277712471706917E-4 0.0016509510260424838 -3.277712471706917E-4
4.7345E9 0.001657161540091338 0.0012371426879878565 0.9983428384599087 -0.0012371426879878565 0.9983428384599087 -0.0012371426879878565 0.001657161540091338 0.0012371426879878565
4.80925E9 0.0016681399553082619 0.0027781039254910125 0.9983318600446919 -0.0027781039254910125 0.9983318600446919 -0.0027781039254910125 0.0016681399553082619 0.0027781039254910125
4.884E9 0.0016836790314339258 0.004296209515897944 0.9983163209685659 -0.004296209515897944 0.9983163209685659 -0.004296209515897944 0.0016836790314339258 0.004296209515897944
4.95875E9 0.0017035872985967072 0.005792491275199188 0.9982964127014032 -0.005792491275199188 0.9982964127014032 -0.005792491275199188 0.0017035872985967072 0.005792491275199188
5.0335E9 0.00172768767288698 0.007267920582209403 0.9982723123271129 -0.007267920582209403 0.9982723123271129 -0.007267920582209403 0.00172768767288698 0.007267920582209403
5.10825E9 0.0017558162129789018 0.008723412761273346 0.9982441837870211 -0.008723412761273346 0.9982441837870211 -0.008723412761273346 0.0017558162129789018 0.008723412761273346
5.183E9 0.0017878210017085255 0.01015983109148402 0.9982121789982914 -0.01015983109148402 0.9982121789982914 -0.01015983109148402 0.0017878210017085255 0.01015983109148402
5.25775E9 0.0018235611385557051 0.011577990479015785 0.9981764388614444 -0.011577990479015785 0.9981764388614444 -0.011577990479015785 0.0018235611385557051 0.011577990479015785
5.3325E9 0.0018629058307336828 0.012978660825148173 0.9981370941692663 -0.012978660825148173 0.9981370941692663 -0.012978660825148173 0.0018629058307336828 0.012978660825148173
5.40725E9 0.0019057335721068107 0.014362570119017948 0.998094266427893 -0.014362570119017948 0.998094266427893 -0.014362570119017948 0.0019057335721068107 0.014362570119017948
5.482E9 0.0019519314004690853 0.01573040728102685 0.9980480685995309 -0.01573040728102685 0.9980480685995309 -0.01573040728102685 0.0019519314004690853 0.01573040728102685
5.55675E9 0.002001394224853967 0.017082824780089677 0.9979986057751463 -0.017082824780089677 0.9979986057751463 -0.017082824780089677 0.002001394224853967 0.017082824780089677
5.6315E9 0.002054024215534531 0.018420441045488112 0.9979459757844655 -0.018420441045488112 0.9979459757844655 -0.018420441045488112 0.002054024215534531 0.018420441045488112
5.70625E9 0.00210973025023352 0.019743842691955414 0.9978902697497665 -0.019743842691955414 0.9978902697497665 -0.019743842691955414 0.00210973025023352 0.019743842691955414
5.781E9 0.002168427410813546 0.021053586574722425 0.9978315725891863 -0.021053586574722425 0.9978315725891863 -0.021053586574722425 0.002168427410813546 0.021053586574722425
5.85575E9 0.0022300365253736386 0.022350201689574502 0.9977699634746263 -0.022350201689574502 0.9977699634746263 -0.022350201689574502 0.0022300365253736386 0.022350201689574502
5.9305E9 0.0022944837512526733 0.02363419093147682 0.9977055162487474 -0.02363419093147682 0.9977055162487474 -0.02363419093147682 0.0022944837512526733 0.02363419093147682
6.00525E9 0.002361700194944036 0.02490603272399609 0.997638299805056 -0.02490603272399609 0.997638299805056 -0.02490603272399609 0.002361700194944036 0.02490603272399609
6.08E9 0.0024316215653685694 0.026166182530565244 0.9975683784346313 -0.026166182530565244 0.9975683784346313 -0.026166182530565244 0.0024316215653685694 0.026166182530565244
6.15475E9 0.002504187857342661 0.027415074257580958 0.9974958121426575 -0.027415074257580958 0.9974958121426575 -0.027415074257580958 0.002504187857342661 0.027415074257580958
6.2295E9 0.002579343062422107 0.02865312155838145 0.9974206569375781 -0.02865312155838145 0.9974206569375781 -0.02865312155838145 0.002579343062422107 0.02865312155838145
6.30425E9 0.0026570349046061764 0.029880719046309217 0.9973429650953939 -0.029880719046309217 0.9973429650953939 -0.029880719046309217 0.0026570349046061764 0.029880719046309217
6.379E9 0.0027372145986552933 0.03109824342430756 0.9972627854013446 -0.03109824342430756 0.9972627854013446 -0.03109824342430756 0.0027372145986552933 0.03109824342430756
6.45375E9 0.0028198366290142474 0.032306054537822856 0.9971801633709858 -0.032306054537822856 0.9971801633709858 -0.032306054537822856 0.0028198366290142474 0.032306054537822856
6.5285E9 0.0029048585475449514 0.03350449635717693 0.997095141452455 -0.03350449635717693 0.997095141452455 -0.03350449635717693 0.0029048585475449514 0.03350449635717693
6.60325E9 0.002992240788461578 0.03469389789502752 0.9970077592115385 -0.03469389789502752 0.9970077592115385 -0.03469389789502752 0.002992240788461578 0.03469389789502752
6.678E9 0.0030819464990294266 0.035874574064043346 0.9969180535009704 -0.035874574064043346 0.9969180535009704 -0.035874574064043346 0.0030819464990294266 0.035874574064043346
6.75275E9 0.0031739413847397947 0.037046826479478885 0.9968260586152604 -0.037046826479478885 0.9968260586152604 -0.037046826479478885 0.0031739413847397947 0.037046826479478885
6.8275E9 0.003268193567808197 0.03821094421093322 0.996731806432192 -0.03821094421093322 0.996731806432192 -0.03821094421093322 0.003268193567808197 0.03821094421093322
6.90225E9 0.003364673457965198 0.03936720448722079 0.9966353265420348 -0.03936720448722079 0.9966353265420348 -0.03936720448722079 0.003364673457965198 0.03936720448722079
6.977E9 0.003463353634618608 0.040515873357953994 0.9965366463653815 -0.040515873357953994 0.9965366463653815 -0.040515873357953994 0.003463353634618608 0.040515873357953994
7.05175E9 0.003564208739565399 0.041657206315147376 0.9964357912604347 -0.041657206315147376 0.9964357912604347 -0.041657206315147376 0.003564208739565399 0.041657206315147376
7.1265E9 0.003667215379521862 0.04279144887788623 0.9963327846204781 -0.04279144887788623 0.9963327846204781 -0.04279144887788623 0.003667215379521862 0.04279144887788623
7.20125E9 0.0037723520378230156 0.04391883714286444 0.9962276479621768 -0.04391883714286444 0.9962276479621768 -0.04391883714286444 0.0037723520378230156 0.04391883714286444
7.276E9 0.003879598994717874 0.04503959830337873 0.9961204010052822 -0.04503959830337873 0.9961204010052822 -0.04503959830337873 0.003879598994717874 0.04503959830337873
7.35075E9 0.003988938255756992 0.046153951139172276 0.9960110617442431 -0.046153951139172276 0.9960110617442431 -0.046153951139172276 0.003988938255756992 0.046153951139172276
7.4255E9 0.004100353487833449 0.04726210647934254 0.9958996465121663 -0.04726210647934254 0.9958996465121663 -0.04726210647934254 0.004100353487833449 0.04726210647934254
7.50025E9 0.004213829962499047 0.048364267640369156 0.9957861700375008 -0.048364267640369156 0.9957861700375008 -0.048364267640369156 0.004213829962499047 0.048364267640369156
7.575E9 0.004329354506234695 0.04946063084117341 0.9956706454937653 -0.04946063084117341 0.9956706454937653 -0.04946063084117341 0.004329354506234695 0.04946063084117341
7.64975E9 0.0044469154574083404 0.050551385596991114 0.9955530845425917 -0.050551385596991114 0.9955530845425917 -0.050551385596991114 0.0044469154574083404 0.050551385596991114
7.7245E9 0.004566502629706203 0.05163671509372389 0.9954334973702936 -0.05163671509372389 0.9954334973702936 -0.05163671509372389 0.004566502629706203 0.05163671509372389
7.79925E9 0.00468810728187392 0.052716796544328426 0.9953118927181263 -0.052716796544328426 0.9953118927181263 -0.052716796544328426 0.00468810728187392 0.052716796544328426
7.874E9 0.0048117220936544775 0.0537918015287114 0.9951882779063453 -0.0537918015287114 0.9951882779063453 -0.0537918015287114 0.0048117220936544775 0.0537918015287114
7.94875E9 0.004937341147859538 0.05486189631851195 0.9950626588521405 -0.05486189631851195 0.9950626588521405 -0.05486189631851195 0.004937341147859538 0.05486189631851195
8.0235E9 0.005064959918561554 0.055927242188082475 0.9949350400814384 -0.055927242188082475 0.9949350400814384 -0.055927242188082475 0.005064959918561554 0.055927242188082475
8.09825E9 0.0051945752654454 0.05698799571291219 0.9948054247345546 -0.05698799571291219 0.9948054247345546 -0.05698799571291219 0.0051945752654454 0.05698799571291219
8.173E9 0.005326185434412062 0.058044309056683355 0.9946738145655877 -0.058044309056683355 0.9946738145655877 -0.058044309056683355 0.005326185434412062 0.058044309056683355
8.24775E9 0.005459790064582887 0.05909633024810077 0.9945402099354173 -0.05909633024810077 0.9945402099354173 -0.05909633024810077 0.005459790064582887 0.05909633024810077
8.3225E9 0.0055953902019128705 0.060144203448597194 0.9944046097980869 -0.060144203448597194 0.9944046097980869 -0.060144203448597194 0.0055953902019128705 0.060144203448597194
8.39725E9 0.0057329883196855615 0.061188069211984414 0.9942670116803145 -0.061188069211984414 0.9942670116803145 -0.061188069211984414 0.0057329883196855615 0.061188069211984414
8.472E9 0.005872588346231755 0.06222806473709416 0.994127411653768 -0.06222806473709416 0.994127411653768 -0.06222806473709416 0.005872588346231755 0.06222806473709416
