!Murata Part Number: GJM0225C1ER80WB01
!These Parameters are Measured in Series Mode Connection
!       o--ll--o
!Port1            Port2
!       o------o
!Operation Temp=25[degC], DC Bias Voltage=0[V]
!Freq. Start=100[MHz] Stop=30[GHz], 401[Steps]
!Data Generated on Feb 1, 2023
# Hz S RI R 50
!Freq.(Hz) S11(Real) S11(Imag) S21(Real) S21(Imag) S12(Real) S12(Imag) S22(Real) S22(Imag)
1.0E8 0.9974735380700379 -0.05014059468866315 0.0025264619299620963 0.05014059468866315 0.0025264619299620963 0.05014059468866315 0.9974735380700379 -0.05014059468866315
1.7475E8 0.9923232378359353 -0.08717579544151297 0.007676762164064746 0.08717579544151297 0.007676762164064746 0.08717579544151297 0.9923232378359353 -0.08717579544151297
2.495E8 0.9844704767350879 -0.12349708036511757 0.015529523264912077 0.12349708036511757 0.015529523264912077 0.12349708036511757 0.9844704767350879 -0.12349708036511757
3.2425E8 0.9740391798036304 -0.15882473049117105 0.025960820196369482 0.15882473049117105 0.025960820196369482 0.15882473049117105 0.9740391798036304 -0.15882473049117105
3.99E8 0.9611895780725127 -0.19290449405157173 0.03881042192748724 0.19290449405157173 0.03881042192748724 0.19290449405157173 0.9611895780725127 -0.19290449405157173
4.7375E8 0.9461122615730334 -0.22551289933169288 0.05388773842696659 0.22551289933169288 0.05388773842696659 0.22551289933169288 0.9461122615730334 -0.22551289933169288
5.485E8 0.9290214682574832 -0.25646104248259105 0.0709785317425168 0.25646104248259105 0.0709785317425168 0.25646104248259105 0.9290214682574832 -0.25646104248259105
6.2325E8 0.9101480245509012 -0.28559678076219847 0.08985197544909869 0.28559678076219847 0.08985197544909869 0.28559678076219847 0.9101480245509012 -0.28559678076219847
6.98E8 0.8897323337477281 -0.31280537778853124 0.11026766625227194 0.31280537778853124 0.11026766625227194 0.31280537778853124 0.8897323337477281 -0.31280537778853124
7.7275E8 0.8680177574381502 -0.33800874497981737 0.1319822425618498 0.33800874497981737 0.1319822425618498 0.33800874497981737 0.8680177574381502 -0.33800874497981737
8.475E8 0.8452446625623634 -0.3611634949572796 0.15475533743763661 0.3611634949572796 0.15475533743763661 0.3611634949572796 0.8452446625623634 -0.3611634949572796
9.2225E8 0.8216453235006912 -0.38225806532535356 0.1783546764993089 0.38225806532535356 0.1783546764993089 0.38225806532535356 0.8216453235006912 -0.38225806532535356
9.97E8 0.797439784974298 -0.4013091860104763 0.20256021502570207 0.4013091860104763 0.20256021502570207 0.4013091860104763 0.797439784974298 -0.4013091860104763
1.07175E9 0.7728327155629601 -0.41835795436339124 0.22716728443703985 0.41835795436339124 0.22716728443703985 0.41835795436339124 0.7728327155629601 -0.41835795436339124
1.1465E9 0.7480112187676605 -0.4334657554154834 0.2519887812323395 0.4334657554154834 0.2519887812323395 0.4334657554154834 0.7480112187676605 -0.4334657554154834
1.22125E9 0.7231435214478467 -0.44671022648576647 0.27685647855215334 0.44671022648576647 0.27685647855215334 0.44671022648576647 0.7231435214478467 -0.44671022648576647
1.296E9 0.6983784284796335 -0.45818142180421206 0.30162157152036656 0.45818142180421206 0.30162157152036656 0.45818142180421206 0.6983784284796335 -0.45818142180421206
1.37075E9 0.673845416199782 -0.4679782889446118 0.32615458380021806 0.4679782889446118 0.32615458380021806 0.4679782889446118 0.673845416199782 -0.4679782889446118
1.4455E9 0.6496552331361046 -0.47620552830163226 0.35034476686389543 0.47620552830163226 0.35034476686389543 0.47620552830163226 0.6496552331361046 -0.47620552830163226
1.52025E9 0.6259008817285129 -0.4829708718990776 0.3740991182714871 0.4829708718990776 0.3740991182714871 0.4829708718990776 0.6259008817285129 -0.4829708718990776
1.595E9 0.6026588662737183 -0.4883827895836487 0.39734113372628166 0.4883827895836487 0.39734113372628166 0.4883827895836487 0.6026588662737183 -0.4883827895836487
1.66975E9 0.5799906075580339 -0.49254860931316 0.4200093924419662 0.49254860931316 0.4200093924419662 0.49254860931316 0.5799906075580339 -0.49254860931316
1.7445E9 0.557943941441016 -0.49557302331679753 0.44205605855898406 0.49557302331679753 0.44205605855898406 0.49557302331679753 0.557943941441016 -0.49557302331679753
1.81925E9 0.5365546354198649 -0.4975569425298011 0.46344536458013524 0.4975569425298011 0.46344536458013524 0.4975569425298011 0.5365546354198649 -0.4975569425298011
1.894E9 0.5158478728522378 -0.49859665685594456 0.4841521271477621 0.49859665685594456 0.4841521271477621 0.49859665685594456 0.5158478728522378 -0.49859665685594456
1.96875E9 0.49583966839120575 -0.49878325744034907 0.5041603316087943 0.49878325744034907 0.5041603316087943 0.49878325744034907 0.49583966839120575 -0.49878325744034907
2.0435E9 0.47653818998151914 -0.49820227827615693 0.5234618100184809 0.49820227827615693 0.5234618100184809 0.49820227827615693 0.47653818998151914 -0.49820227827615693
2.11825E9 0.4579449724222806 -0.49693351729129653 0.5420550275777193 0.49693351729129653 0.5420550275777193 0.49693351729129653 0.4579449724222806 -0.49693351729129653
2.193E9 0.4400560151257089 -0.49505100089291787 0.5599439848742911 0.49505100089291787 0.5599439848742911 0.49505100089291787 0.4400560151257089 -0.49505100089291787
2.26775E9 0.42286276250249816 -0.4926230602693891 0.5771372374975017 0.4926230602693891 0.5771372374975017 0.4926230602693891 0.42286276250249816 -0.4926230602693891
2.3425E9 0.40635296963704337 -0.4897124921853992 0.5936470303629566 0.4897124921853992 0.5936470303629566 0.4897124921853992 0.40635296963704337 -0.4897124921853992
2.41725E9 0.3905114588483797 -0.4863767812954162 0.6094885411516202 0.4863767812954162 0.6094885411516202 0.4863767812954162 0.3905114588483797 -0.4863767812954162
2.492E9 0.3753207746214689 -0.4826683649800689 0.6246792253785312 0.4826683649800689 0.6246792253785312 0.4826683649800689 0.3753207746214689 -0.4826683649800689
2.56675E9 0.3607617454698784 -0.4786349252868484 0.6392382545301215 0.4786349252868484 0.6392382545301215 0.4786349252868484 0.3607617454698784 -0.4786349252868484
2.6415E9 0.3468139617547855 -0.47431969569170174 0.6531860382452144 0.47431969569170174 0.6531860382452144 0.47431969569170174 0.3468139617547855 -0.47431969569170174
2.71625E9 0.33345617850320175 -0.4697617730889694 0.6665438214967982 0.4697617730889694 0.6665438214967982 0.4697617730889694 0.33345617850320175 -0.4697617730889694
2.791E9 0.32066665197520755 -0.4649964276849592 0.6793333480247925 0.4649964276849592 0.6793333480247925 0.4649964276849592 0.32066665197520755 -0.4649964276849592
2.86575E9 0.30842341823192176 -0.4600554053506329 0.6915765817680782 0.4600554053506329 0.6915765817680782 0.4600554053506329 0.30842341823192176 -0.4600554053506329
2.9405E9 0.2967045213342986 -0.45496721852394606 0.7032954786657014 0.45496721852394606 0.7032954786657014 0.45496721852394606 0.2967045213342986 -0.45496721852394606
3.01525E9 0.2854881981183477 -0.44975742298714894 0.7145118018816524 0.44975742298714894 0.7145118018816524 0.44975742298714894 0.2854881981183477 -0.44975742298714894
3.09E9 0.2747530257889556 -0.44444887882267414 0.7252469742110444 0.44444887882267414 0.7252469742110444 0.44444887882267414 0.2747530257889556 -0.44444887882267414
3.16475E9 0.26447803788280744 -0.4390619946140952 0.7355219621171927 0.4390619946140952 0.7355219621171927 0.4390619946140952 0.26447803788280744 -0.4390619946140952
3.2395E9 0.2546428134913571 -0.433614954542983 0.745357186508643 0.433614954542983 0.745357186508643 0.433614954542983 0.2546428134913571 -0.433614954542983
3.31425E9 0.24522754402001393 -0.4281239284709041 0.7547724559799862 0.4281239284709041 0.7547724559799862 0.4281239284709041 0.24522754402001393 -0.4281239284709041
3.389E9 0.2362130811965728 -0.4226032654163295 0.7637869188034274 0.4226032654163295 0.7637869188034274 0.4226032654163295 0.2362130811965728 -0.4226032654163295
3.46375E9 0.22758096953320894 -0.4170656710627082 0.7724190304667911 0.4170656710627082 0.7724190304667911 0.4170656710627082 0.22758096953320894 -0.4170656710627082
3.5385E9 0.21931346599196527 -0.41152237008630993 0.7806865340080348 0.41152237008630993 0.7806865340080348 0.41152237008630993 0.21931346599196527 -0.41152237008630993
3.61325E9 0.21139354920157857 -0.4059832541871286 0.7886064507984214 0.4059832541871286 0.7886064507984214 0.4059832541871286 0.21139354920157857 -0.4059832541871286
3.688E9 0.20380492022049407 -0.4004570167566263 0.7961950797795061 0.4004570167566263 0.7961950797795061 0.4004570167566263 0.20380492022049407 -0.4004570167566263
3.76275E9 0.19653199653310907 -0.39495127513323935 0.8034680034668908 0.39495127513323935 0.8034680034668908 0.39495127513323935 0.19653199653310907 -0.39495127513323935
3.8375E9 0.1895599006994549 -0.3894726813891098 0.8104400993005453 0.3894726813891098 0.8104400993005453 0.3894726813891098 0.1895599006994549 -0.3894726813891098
3.91225E9 0.18287444484842 -0.3840270225663218 0.8171255551515799 0.3840270225663218 0.8171255551515799 0.3840270225663218 0.18287444484842 -0.3840270225663218
3.987E9 0.17646211200709622 -0.37861931124345694 0.8235378879929038 0.37861931124345694 0.8235378879929038 0.37861931124345694 0.17646211200709622 -0.37861931124345694
4.06175E9 0.17031003508999337 -0.3732538672677152 0.8296899649100066 0.3732538672677152 0.8296899649100066 0.3732538672677152 0.17031003508999337 -0.3732538672677152
4.1365E9 0.16440597422811987 -0.3679343914374436 0.8355940257718802 0.3679343914374436 0.8355940257718802 0.3679343914374436 0.16440597422811987 -0.3679343914374436
4.21125E9 0.15873829299596662 -0.36266403186705937 0.8412617070040334 0.36266403186705937 0.8412617070040334 0.36266403186705937 0.15873829299596662 -0.36266403186705937
4.286E9 0.15329593399133973 -0.35744544371291426 0.8467040660086602 0.35744544371291426 0.8467040660086602 0.35744544371291426 0.15329593399133973 -0.35744544371291426
4.36075E9 0.14806839413612113 -0.35228084288590383 0.8519316058638788 0.35228084288590383 0.8519316058638788 0.35228084288590383 0.14806839413612113 -0.35228084288590383
4.4355E9 0.14304569999310054 -0.3471720543255344 0.8569543000068994 0.3471720543255344 0.8569543000068994 0.3471720543255344 0.14304569999310054 -0.3471720543255344
4.51025E9 0.13821838333298678 -0.3421205553613453 0.8617816166670133 0.3421205553613453 0.8617816166670133 0.3421205553613453 0.13821838333298678 -0.3421205553613453
4.585E9 0.13357745713481511 -0.33712751464146085 0.8664225428651848 0.33712751464146085 0.8664225428651848 0.33712751464146085 0.13357745713481511 -0.33712751464146085
4.65975E9 0.12911439216068524 -0.33219382706483364 0.8708856078393146 0.33219382706483364 0.8708856078393146 0.33219382706483364 0.12911439216068524 -0.33219382706483364
4.7345E9 0.12482109421078788 -0.3273201451135543 0.8751789057892122 0.3273201451135543 0.8751789057892122 0.3273201451135543 0.12482109421078788 -0.3273201451135543
4.80925E9 0.12068988213586296 -0.32250690694444184 0.879310117864137 0.32250690694444184 0.879310117864137 0.32250690694444184 0.12068988213586296 -0.32250690694444184
4.884E9 0.11671346666061798 -0.31775436156492987 0.8832865333393822 0.31775436156492987 0.8832865333393822 0.31775436156492987 0.11671346666061798 -0.31775436156492987
4.95875E9 0.11288493005238734 -0.3130625913869221 0.8871150699476126 0.3130625913869221 0.8871150699476126 0.3130625913869221 0.11288493005238734 -0.3130625913869221
5.0335E9 0.10919770665373503 -0.30843153242367216 0.8908022933462649 0.30843153242367216 0.8908022933462649 0.30843153242367216 0.10919770665373503 -0.30843153242367216
5.10825E9 0.10564556428518182 -0.3038609923686644 0.8943544357148181 0.3038609923686644 0.8943544357148181 0.3038609923686644 0.10564556428518182 -0.3038609923686644
5.183E9 0.10222258651427943 -0.29935066677179417 0.8977774134857205 0.29935066677179417 0.8977774134857205 0.29935066677179417 0.10222258651427943 -0.29935066677179417
5.25775E9 0.09892315577942128 -0.2949001535066781 0.9010768442205788 0.2949001535066781 0.9010768442205788 0.2949001535066781 0.09892315577942128 -0.2949001535066781
5.3325E9 0.09574193735070051 -0.290508965703481 0.9042580626492998 0.290508965703481 0.9042580626492998 0.290508965703481 0.09574193735070051 -0.290508965703481
5.40725E9 0.09267386410551784 -0.2861765433041011 0.9073261358944823 0.2861765433041011 0.9073261358944823 0.2861765433041011 0.09267386410551784 -0.2861765433041011
5.482E9 0.08971412209321943 -0.28190226338070057 0.9102858779067805 0.28190226338070057 0.9102858779067805 0.28190226338070057 0.08971412209321943 -0.28190226338070057
5.55675E9 0.08685813686061086 -0.27768544934428296 0.9131418631393892 0.27768544934428296 0.9131418631393892 0.27768544934428296 0.08685813686061086 -0.27768544934428296
5.6315E9 0.08410156050855955 -0.27352537915715364 0.9158984394914403 0.27352537915715364 0.9158984394914403 0.27352537915715364 0.08410156050855955 -0.27352537915715364
5.70625E9 0.0814402594489128 -0.2694212926515205 0.918559740551087 0.2694212926515205 0.918559740551087 0.2694212926515205 0.0814402594489128 -0.2694212926515205
5.781E9 0.07887030283049438 -0.2653723980460732 0.9211296971695055 0.2653723980460732 0.9211296971695055 0.2653723980460732 0.07887030283049438 -0.2653723980460732
5.85575E9 0.07638795160289796 -0.2613778777430179 0.923612048397102 0.2613778777430179 0.923612048397102 0.2613778777430179 0.07638795160289796 -0.2613778777430179
5.9305E9 0.07398964818707854 -0.25743689347963317 0.9260103518129215 0.25743689347963317 0.9260103518129215 0.25743689347963317 0.07398964818707854 -0.25743689347963317
6.00525E9 0.07167200672228326 -0.25354859090085186 0.9283279932777168 0.25354859090085186 0.9283279932777168 0.25354859090085186 0.07167200672228326 -0.25354859090085186
6.08E9 0.06943180385959843 -0.24971210361258878 0.9305681961404018 0.24971210361258878 0.9305681961404018 0.24971210361258878 0.06943180385959843 -0.24971210361258878
6.15475E9 0.0672659700732774 -0.2459265567694436 0.9327340299267226 0.2459265567694436 0.9327340299267226 0.2459265567694436 0.0672659700732774 -0.2459265567694436
6.2295E9 0.06517158146200024 -0.24219107024493233 0.9348284185379997 0.24219107024493233 0.9348284185379997 0.24219107024493233 0.06517158146200024 -0.24219107024493233
6.30425E9 0.06314585201328625 -0.23850476142749713 0.9368541479867137 0.23850476142749713 0.9368541479867137 0.23850476142749713 0.06314585201328625 -0.23850476142749713
6.379E9 0.06118612630538879 -0.23486674768113214 0.938813873694611 0.23486674768113214 0.938813873694611 0.23486674768113214 0.06118612630538879 -0.23486674768113214
6.45375E9 0.05928987262214372 -0.23127614850551279 0.9407101273778563 0.23127614850551279 0.9407101273778563 0.23127614850551279 0.05928987262214372 -0.23127614850551279
6.5285E9 0.05745467645738434 -0.22773208742695633 0.9425453235426158 0.22773208742695633 0.9425453235426158 0.22773208742695633 0.05745467645738434 -0.22773208742695633
6.60325E9 0.055678234386682166 -0.22423369364836623 0.9443217656133179 0.22423369364836623 0.9443217656133179 0.22423369364836623 0.055678234386682166 -0.22423369364836623
6.678E9 0.05395834828529247 -0.2207801034834405 0.9460416517147073 0.2207801034834405 0.9460416517147073 0.2207801034834405 0.05395834828529247 -0.2207801034834405
6.75275E9 0.052292919872287666 -0.21737046159786264 0.9477070801277124 0.21737046159786264 0.9477070801277124 0.21737046159786264 0.052292919872287666 -0.21737046159786264
6.8275E9 0.050679945561928536 -0.21400392207788227 0.9493200544380717 0.21400392207788227 0.9493200544380717 0.21400392207788227 0.050679945561928536 -0.21400392207788227
6.90225E9 0.049117511604359856 -0.21067964934462616 0.9508824883956403 0.21067964934462616 0.9508824883956403 0.21067964934462616 0.049117511604359856 -0.21067964934462616
6.977E9 0.047603789498710844 -0.2073968189306139 0.9523962105012891 0.2073968189306139 0.9523962105012891 0.2073968189306139 0.047603789498710844 -0.2073968189306139
7.05175E9 0.046137031662637135 -0.20415461813328603 0.953862968337363 0.20415461813328603 0.953862968337363 0.20415461813328603 0.046137031662637135 -0.20415461813328603
7.1265E9 0.044715567343253784 -0.20095224655884814 0.9552844326567461 0.20095224655884814 0.9552844326567461 0.20095224655884814 0.044715567343253784 -0.20095224655884814
7.20125E9 0.043337798755279024 -0.197788916568385 0.956662201244721 0.197788916568385 0.956662201244721 0.197788916568385 0.043337798755279024 -0.197788916568385
7.276E9 0.042002197433037285 -0.19466385363698824 0.9579978025669625 0.19466385363698824 0.9579978025669625 0.19466385363698824 0.042002197433037285 -0.19466385363698824
7.35075E9 0.04070730078375516 -0.19157629663554726 0.9592926992162448 0.19157629663554726 0.9592926992162448 0.19157629663554726 0.04070730078375516 -0.19157629663554726
7.4255E9 0.039451708830329515 -0.18852549804387558 0.9605482911696708 0.18852549804387558 0.9605482911696708 0.18852549804387558 0.039451708830329515 -0.18852549804387558
7.50025E9 0.03823408113245138 -0.18551072410296257 0.9617659188675485 0.18551072410296257 0.9617659188675485 0.18551072410296257 0.03823408113245138 -0.18551072410296257
7.575E9 0.03705313387563484 -0.18253125491334737 0.9629468661243653 0.18253125491334737 0.9629468661243653 0.18253125491334737 0.03705313387563484 -0.18253125491334737
7.64975E9 0.035907637118328485 -0.17958638448589806 0.9640923628816715 0.17958638448589806 0.9640923628816715 0.17958638448589806 0.035907637118328485 -0.17958638448589806
7.7245E9 0.03479641218787963 -0.17667542075063955 0.9652035878121206 0.17667542075063955 0.9652035878121206 0.17667542075063955 0.03479641218787963 -0.17667542075063955
7.79925E9 0.03371832921667889 -0.17379768552869385 0.9662816707833212 0.17379768552869385 0.9662816707833212 0.17379768552869385 0.03371832921667889 -0.17379768552869385
7.874E9 0.03267230481033798 -0.170952514471878 0.9673276951896621 0.170952514471878 0.9673276951896621 0.170952514471878 0.03267230481033798 -0.170952514471878
7.94875E9 0.03165729984024794 -0.1681392569740385 0.9683427001597522 0.1681392569740385 0.9683427001597522 0.1681392569740385 0.03165729984024794 -0.1681392569740385
8.0235E9 0.030672317353327823 -0.16535727605777584 0.9693276826466721 0.16535727605777584 0.9693276826466721 0.16535727605777584 0.030672317353327823 -0.16535727605777584
8.09825E9 0.029716400592212245 -0.16260594823984045 0.9702835994077877 0.16260594823984045 0.9702835994077877 0.16260594823984045 0.029716400592212245 -0.16260594823984045
8.173E9 0.028788631119533194 -0.15988466337813265 0.971211368880467 0.15988466337813265 0.971211368880467 0.15988466337813265 0.028788631119533194 -0.15988466337813265
8.24775E9 0.027888127040338318 -0.15719282450293784 0.9721118729596618 0.15719282450293784 0.9721118729596618 0.15719282450293784 0.027888127040338318 -0.15719282450293784
8.3225E9 0.02701404131704747 -0.1545298476347491 0.9729859586829526 0.1545298476347491 0.9729859586829526 0.1545298476347491 0.02701404131704747 -0.1545298476347491
8.39725E9 0.026165560171688015 -0.1518951615907792 0.9738344398283119 0.1518951615907792 0.9738344398283119 0.1518951615907792 0.026165560171688015 -0.1518951615907792
8.472E9 0.02534190157046795 -0.14928820778204285 0.9746580984295322 0.14928820778204285 0.9746580984295322 0.14928820778204285 0.02534190157046795 -0.14928820778204285
8.54675E9 0.024542313786042106 -0.146708440002683 0.9754576862139578 0.146708440002683 0.9754576862139578 0.146708440002683 0.024542313786042106 -0.146708440002683
8.6215E9 0.023766074033108413 -0.14415532421304075 0.9762339259668915 0.14415532421304075 0.9762339259668915 0.14415532421304075 0.023766074033108413 -0.14415532421304075
8.69625E9 0.023012487173230674 -0.141628338317795 0.9769875128267694 0.141628338317795 0.9769875128267694 0.141628338317795 0.023012487173230674 -0.141628338317795
8.771E9 0.022280884485032175 -0.1391269719403595 0.9777191155149678 0.1391269719403595 0.9777191155149678 0.1391269719403595 0.022280884485032175 -0.1391269719403595
