!Murata Part Number: GJM0225C1E3R9BB01
!These Parameters are Measured in Series Mode Connection
!       o--ll--o
!Port1            Port2
!       o------o
!Operation Temp=25[degC], DC Bias Voltage=0[V]
!Freq. Start=100[MHz] Stop=30[GHz], 401[Steps]
!Data Generated on Feb 1, 2023
# Hz S RI R 50
!Freq.(Hz) S11(Real) S11(Imag) S21(Real) S21(Imag) S12(Real) S12(Imag) S22(Real) S22(Imag)
1.0E8 0.9432377529506301 -0.23116723603215417 0.056762247049370045 0.23116723603215417 0.056762247049370045 0.23116723603215417 0.9432377529506301 -0.23116723603215417
1.7475E8 0.844654821288598 -0.36184787024392556 0.15534517871140197 0.36184787024392556 0.15534517871140197 0.36184787024392556 0.844654821288598 -0.36184787024392556
2.495E8 0.7270772273803848 -0.4449105347838772 0.27292277261961534 0.4449105347838772 0.27292277261961534 0.4449105347838772 0.7270772273803848 -0.4449105347838772
3.2425E8 0.6116062168172889 -0.4866680608879177 0.388393783182711 0.4866680608879177 0.388393783182711 0.4866680608879177 0.6116062168172889 -0.4866680608879177
3.99E8 0.5092686525415826 -0.49903066871702867 0.4907313474584174 0.49903066871702867 0.4907313474584174 0.49903066871702867 0.5092686525415826 -0.49903066871702867
4.7375E8 0.4233860144513507 -0.49304463583904834 0.5766139855486494 0.49304463583904834 0.5766139855486494 0.49304463583904834 0.4233860144513507 -0.49304463583904834
5.485E8 0.35323053493311013 -0.47675440849211637 0.6467694650668898 0.47675440849211637 0.6467694650668898 0.47675440849211637 0.35323053493311013 -0.47675440849211637
6.2325E8 0.2965481485230078 -0.45534689356705255 0.7034518514769923 0.45534689356705255 0.7034518514769923 0.45534689356705255 0.2965481485230078 -0.45534689356705255
6.98E8 0.2508342920210662 -0.43193389895098605 0.7491657079789339 0.43193389895098605 0.7491657079789339 0.43193389895098605 0.2508342920210662 -0.43193389895098605
7.7275E8 0.21384353258906014 -0.4082860144443423 0.78615646741094 0.4082860144443423 0.78615646741094 0.4082860144443423 0.21384353258906014 -0.4082860144443423
8.475E8 0.18372842284537133 -0.3853570742829639 0.8162715771546287 0.3853570742829639 0.8162715771546287 0.3853570742829639 0.18372842284537133 -0.3853570742829639
9.2225E8 0.15902740157554057 -0.3636205209463721 0.8409725984244593 0.3636205209463721 0.8409725984244593 0.3636205209463721 0.15902740157554057 -0.3636205209463721
9.97E8 0.13860421701836176 -0.3432743450578324 0.8613957829816381 0.3432743450578324 0.8613957829816381 0.3432743450578324 0.13860421701836176 -0.3432743450578324
1.07175E9 0.12158090641456705 -0.32436272250122233 0.8784190935854328 0.32436272250122233 0.8784190935854328 0.32436272250122233 0.12158090641456705 -0.32436272250122233
1.1465E9 0.10727897314209792 -0.30684714351715775 0.892721026857902 0.30684714351715775 0.892721026857902 0.30684714351715775 0.10727897314209792 -0.30684714351715775
1.22125E9 0.09517212055557715 -0.2906475490586039 0.904827879444423 0.2906475490586039 0.904827879444423 0.2906475490586039 0.09517212055557715 -0.2906475490586039
1.296E9 0.08484977503556267 -0.2756658259823528 0.9151502249644373 0.2756658259823528 0.9151502249644373 0.2756658259823528 0.08484977503556267 -0.2756658259823528
1.37075E9 0.07598946170336371 -0.2617989730418717 0.9240105382966364 0.2617989730418717 0.9240105382966364 0.2617989730418717 0.07598946170336371 -0.2617989730418717
1.4455E9 0.06833604547110217 -0.2489462390752555 0.9316639545288978 0.2489462390752555 0.9316639545288978 0.2489462390752555 0.06833604547110217 -0.2489462390752555
1.52025E9 0.06168615453215808 -0.23701276088838005 0.9383138454678419 0.23701276088838005 0.9383138454678419 0.23701276088838005 0.06168615453215808 -0.23701276088838005
1.595E9 0.05587646739006562 -0.22591118737083662 0.9441235326099343 0.22591118737083662 0.9441235326099343 0.22591118737083662 0.05587646739006562 -0.22591118737083662
1.66975E9 0.050774867092951904 -0.215562164976143 0.9492251329070481 0.215562164976143 0.9492251329070481 0.215562164976143 0.050774867092951904 -0.215562164976143
1.7445E9 0.04627372340147482 -0.20589419943485354 0.953726276598525 0.20589419943485354 0.953726276598525 0.20589419943485354 0.04627372340147482 -0.20589419943485354
1.81925E9 0.042284758706652735 -0.19684319546393106 0.9577152412933472 0.19684319546393106 0.9577152412933472 0.19684319546393106 0.042284758706652735 -0.19684319546393106
1.894E9 0.03873509801431094 -0.18835184975109115 0.961264901985689 0.18835184975109115 0.961264901985689 0.18835184975109115 0.03873509801431094 -0.18835184975109115
1.96875E9 0.03556420908726289 -0.18036899727589123 0.9644357909127371 0.18036899727589123 0.9644357909127371 0.18036899727589123 0.03556420908726289 -0.18036899727589123
2.0435E9 0.03272151589552152 -0.17284896632280378 0.9672784841044783 0.17284896632280378 0.9672784841044783 0.17284896632280378 0.03272151589552152 -0.17284896632280378
2.11825E9 0.03016452463334763 -0.1657509710793648 0.9698354753666523 0.1657509710793648 0.9698354753666523 0.1657509710793648 0.03016452463334763 -0.1657509710793648
2.193E9 0.027857342499926347 -0.159038555197821 0.9721426575000736 0.159038555197821 0.9721426575000736 0.159038555197821 0.027857342499926347 -0.159038555197821
2.26775E9 0.02576949942051417 -0.1526790907631673 0.9742305005794857 0.1526790907631673 0.9742305005794857 0.1526790907631673 0.02576949942051417 -0.1526790907631673
2.3425E9 0.023875004944507616 -0.14664333212421102 0.9761249950554924 0.14664333212421102 0.9761249950554924 0.14664333212421102 0.023875004944507616 -0.14664333212421102
2.41725E9 0.022151588876246138 -0.1409050214171538 0.9778484111237539 0.1409050214171538 0.9778484111237539 0.1409050214171538 0.022151588876246138 -0.1409050214171538
2.492E9 0.020580086337034714 -0.1354405413788428 0.9794199136629654 0.1354405413788428 0.9794199136629654 0.1354405413788428 0.020580086337034714 -0.1354405413788428
2.56675E9 0.019143937045955104 -0.13022861062413763 0.9808560629540449 0.13022861062413763 0.9808560629540449 0.13022861062413763 0.019143937045955104 -0.13022861062413763
2.6415E9 0.017828775451756824 -0.12525001659433888 0.9821712245482432 0.12525001659433888 0.9821712245482432 0.12525001659433888 0.017828775451756824 -0.12525001659433888
2.71625E9 0.016622093533975833 -0.1204873816578856 0.9833779064660241 0.1204873816578856 0.9833779064660241 0.1204873816578856 0.016622093533975833 -0.1204873816578856
2.791E9 0.015512962044074896 -0.11592495823342389 0.984487037955925 0.11592495823342389 0.984487037955925 0.11592495823342389 0.015512962044074896 -0.11592495823342389
2.86575E9 0.014491798987896752 -0.11154844923457088 0.9855082010121032 0.11154844923457088 0.9855082010121032 0.11154844923457088 0.014491798987896752 -0.11154844923457088
2.9405E9 0.013550176487640309 -0.1073448505632027 0.9864498235123597 0.1073448505632027 0.9864498235123597 0.1073448505632027 0.013550176487640309 -0.1073448505632027
3.01525E9 0.012680658973802569 -0.1033023127813989 0.9873193410261973 0.1033023127813989 0.9873193410261973 0.1033023127813989 0.012680658973802569 -0.1033023127813989
3.09E9 0.011876667070575853 -0.09941001946051065 0.9881233329294241 0.09941001946051065 0.9881233329294241 0.09941001946051065 0.011876667070575853 -0.09941001946051065
3.16475E9 0.01113236264584008 -0.09565808003533552 0.9888676373541598 0.09565808003533552 0.9888676373541598 0.09565808003533552 0.01113236264584008 -0.09565808003533552
3.2395E9 0.010442551369617404 -0.09203743528212659 0.9895574486303825 0.09203743528212659 0.9895574486303825 0.09203743528212659 0.010442551369617404 -0.09203743528212659
3.31425E9 0.009802599815915237 -0.08853977379331267 0.9901974001840848 0.08853977379331267 0.9901974001840848 0.08853977379331267 0.009802599815915237 -0.08853977379331267
3.389E9 0.009208364692728618 -0.08515745804255305 0.9907916353072712 0.08515745804255305 0.9907916353072712 0.08515745804255305 0.009208364692728618 -0.08515745804255305
3.46375E9 0.0086561322244985 -0.08188345882464546 0.9913438677755018 0.08188345882464546 0.9913438677755018 0.08188345882464546 0.0086561322244985 -0.08188345882464546
3.5385E9 0.008142566064246248 -0.07871129701942293 0.9918574339357538 0.07871129701942293 0.9918574339357538 0.07871129701942293 0.008142566064246248 -0.07871129701942293
3.61325E9 0.007664662397223082 -0.0756349917704746 0.9923353376027768 0.0756349917704746 0.9923353376027768 0.0756349917704746 0.007664662397223082 -0.0756349917704746
3.688E9 0.007219711128411164 -0.07264901429137606 0.9927802888715888 0.07264901429137606 0.9927802888715888 0.07264901429137606 0.007219711128411164 -0.07264901429137606
3.76275E9 0.006805262233640832 -0.06974824661686901 0.9931947377663594 0.06974824661686901 0.9931947377663594 0.06974824661686901 0.006805262233640832 -0.06974824661686901
3.8375E9 0.006419096507091265 -0.06692794470648131 0.9935809034929087 0.06692794470648131 0.9935809034929087 0.06692794470648131 0.006419096507091265 -0.06692794470648131
3.91225E9 0.006059200063317618 -0.06418370538553939 0.9939407999366826 0.06418370538553939 0.9939407999366826 0.06418370538553939 0.006059200063317618 -0.06418370538553939
3.987E9 0.00572374205506094 -0.061511436675197026 0.994276257944939 0.061511436675197026 0.994276257944939 0.061511436675197026 0.00572374205506094 -0.061511436675197026
4.06175E9 0.005411055153202217 -0.05890733112054737 0.9945889448467979 0.05890733112054737 0.9945889448467979 0.05890733112054737 0.005411055153202217 -0.05890733112054737
4.1365E9 0.00511961840570461 -0.056367841775432456 0.9948803815942955 0.056367841775432456 0.9948803815942955 0.056367841775432456 0.00511961840570461 -0.056367841775432456
4.21125E9 0.0048480421509544055 -0.05388966054535335 0.9951519578490456 0.05388966054535335 0.9951519578490456 0.05388966054535335 0.0048480421509544055 -0.05388966054535335
4.286E9 0.004595054709732512 -0.05146969862688759 0.9954049452902675 0.05146969862688759 0.9954049452902675 0.05146969862688759 0.004595054709732512 -0.05146969862688759
4.36075E9 0.004359490620872365 -0.04910506881406457 0.9956405093791276 0.04910506881406457 0.9956405093791276 0.04910506881406457 0.004359490620872365 -0.04910506881406457
4.4355E9 0.0041402802198999555 -0.04679306946994147 0.9958597197801001 0.04679306946994147 0.9958597197801001 0.04679306946994147 0.0041402802198999555 -0.04679306946994147
4.51025E9 0.003936440388752827 -0.0445311699857611 0.9960635596112472 0.0445311699857611 0.9960635596112472 0.0445311699857611 0.003936440388752827 -0.0445311699857611
4.585E9 0.0037470663289700407 -0.042316997571073885 0.9962529336710298 0.042316997571073885 0.9962529336710298 0.042316997571073885 0.0037470663289700407 -0.042316997571073885
4.65975E9 0.0035713242312948616 -0.04014832523650013 0.9964286757687053 0.04014832523650013 0.9964286757687053 0.04014832523650013 0.0035713242312948616 -0.04014832523650013
4.7345E9 0.003408444732060732 -0.038023060846777874 0.9965915552679394 0.038023060846777874 0.9965915552679394 0.038023060846777874 0.003408444732060732 -0.038023060846777874
4.80925E9 0.0032577170615501437 -0.035939237135693414 0.9967422829384499 0.035939237135693414 0.9967422829384499 0.035939237135693414 0.0032577170615501437 -0.035939237135693414
4.884E9 0.0031184838021485347 -0.033895002586709695 0.9968815161978515 0.033895002586709695 0.9968815161978515 0.033895002586709695 0.0031184838021485347 -0.033895002586709695
4.95875E9 0.002990136184909318 -0.03188861309381543 0.9970098638150909 0.03188861309381543 0.9970098638150909 0.03188861309381543 0.002990136184909318 -0.03188861309381543
5.0335E9 0.0028721098623916384 -0.02991842432652378 0.9971278901376084 0.02991842432652378 0.9971278901376084 0.02991842432652378 0.0028721098623916384 -0.02991842432652378
5.10825E9 0.0027638811035692497 -0.02798288473121899 0.9972361188964308 0.02798288473121899 0.9972361188964308 0.02798288473121899 0.0027638811035692497 -0.02798288473121899
5.183E9 0.002664963363437704 -0.026080529108333545 0.9973350366365622 0.026080529108333545 0.9973350366365622 0.026080529108333545 0.002664963363437704 -0.026080529108333545
5.25775E9 0.0025749041858352984 -0.024209972711264908 0.9974250958141644 0.024209972711264908 0.9974250958141644 0.024209972711264908 0.0025749041858352984 -0.024209972711264908
5.3325E9 0.0024932824030809236 -0.02236990581861551 0.997506717596919 0.02236990581861551 0.997506717596919 0.02236990581861551 0.0024932824030809236 -0.02236990581861551
5.40725E9 0.002419705600437301 -0.02055908873636242 0.9975802943995625 0.02055908873636242 0.9975802943995625 0.02055908873636242 0.002419705600437301 -0.02055908873636242
5.482E9 0.0023538078172299524 -0.018776347191011157 0.9976461921827702 0.018776347191011157 0.9976461921827702 0.018776347191011157 0.0023538078172299524 -0.018776347191011157
5.55675E9 0.0022952474597744566 -0.01702056807873499 0.9977047525402257 0.01702056807873499 0.9977047525402257 0.01702056807873499 0.0022952474597744566 -0.01702056807873499
5.6315E9 0.0022437054041579254 -0.01529069553900784 0.9977562945958419 0.01529069553900784 0.9977562945958419 0.01529069553900784 0.0022437054041579254 -0.01529069553900784
5.70625E9 0.002198883269445103 -0.01358572732435794 0.9978011167305547 0.01358572732435794 0.9978011167305547 0.01358572732435794 0.002198883269445103 -0.01358572732435794
5.781E9 0.002160501844086095 -0.011904711440648011 0.9978394981559139 0.011904711440648011 0.9978394981559139 0.011904711440648011 0.002160501844086095 -0.011904711440648011
5.85575E9 0.002128299650234944 -0.010246743034767712 0.9978717003497651 0.010246743034767712 0.9978717003497651 0.010246743034767712 0.002128299650234944 -0.010246743034767712
5.9305E9 0.0021020316323828994 -0.008610961508835833 0.9978979683676171 0.008610961508835833 0.9978979683676171 0.008610961508835833 0.0021020316323828994 -0.008610961508835833
6.00525E9 0.00208146795819924 -0.006996547841991476 0.9979185320418007 0.006996547841991476 0.9979185320418007 0.006996547841991476 0.00208146795819924 -0.006996547841991476
6.08E9 0.0020663929207827463 -0.005402722102624838 0.9979336070792175 0.005402722102624838 0.9979336070792175 0.005402722102624838 0.0020663929207827463 -0.005402722102624838
6.15475E9 0.002056603932681827 -0.0038287411354882925 0.9979433960673182 0.0038287411354882925 0.9979433960673182 0.0038287411354882925 0.002056603932681827 -0.0038287411354882925
6.2295E9 0.00205191060306081 -0.0022738964095538354 0.9979480893969391 0.0022738964095538354 0.9979480893969391 0.0022738964095538354 0.00205191060306081 -0.0022738964095538354
6.30425E9 0.002052133890291269 -7.375120137661711E-4 0.9979478661097088 7.375120137661711E-4 0.9979478661097088 7.375120137661711E-4 0.002052133890291269 -7.375120137661711E-4
6.379E9 0.0020571053230453652 7.810572110079374E-4 0.9979428946769545 -7.810572110079374E-4 0.9979428946769545 -7.810572110079374E-4 0.0020571053230453652 7.810572110079374E-4
6.45375E9 0.0020666662836758415 0.002282427414492502 0.9979333337163241 -0.002282427414492502 0.9979333337163241 -0.002282427414492502 0.0020666662836758415 0.002282427414492502
6.5285E9 0.0020806673482957356 0.0037671873637018932 0.9979193326517043 -0.0037671873637018932 0.9979193326517043 -0.0037671873637018932 0.0020806673482957356 0.0037671873637018932
6.60325E9 0.0020989676785296246 0.0052358999627037505 0.9979010323214703 -0.0052358999627037505 0.9979010323214703 -0.0052358999627037505 0.0020989676785296246 0.0052358999627037505
6.678E9 0.002121434460405796 0.006689103673560007 0.9978785655395942 -0.006689103673560007 0.9978785655395942 -0.006689103673560007 0.002121434460405796 0.006689103673560007
6.75275E9 0.002147942386302309 0.008127313845868369 0.9978520576136978 -0.008127313845868369 0.9978520576136978 -0.008127313845868369 0.002147942386302309 0.008127313845868369
6.8275E9 0.002178373176256003 0.009551023961701797 0.9978216268237441 -0.009551023961701797 0.9978216268237441 -0.009551023961701797 0.002178373176256003 0.009551023961701797
6.90225E9 0.0022126151352975043 0.010960706802175865 0.9977873848647024 -0.010960706802175865 0.9977873848647024 -0.010960706802175865 0.0022126151352975043 0.010960706802175865
6.977E9 0.002250562743792187 0.012356815541359213 0.9977494372562077 -0.012356815541359213 0.9977494372562077 -0.012356815541359213 0.002250562743792187 0.012356815541359213
7.05175E9 0.002292116278051 0.013739784772775899 0.9977078837219489 -0.013739784772775899 0.9977078837219489 -0.013739784772775899 0.002292116278051 0.013739784772775899
7.1265E9 0.002337181458729877 0.01511003147332194 0.99766281854127 -0.01511003147332194 0.99766281854127 -0.01511003147332194 0.002337181458729877 0.01511003147332194
7.20125E9 0.0023856691247653356 0.016467955909033563 0.9976143308752345 -0.016467955909033563 0.9976143308752345 -0.016467955909033563 0.0023856691247653356 0.016467955909033563
7.276E9 0.0024374949307997495 0.017813942486791544 0.9975625050692004 -0.017813942486791544 0.9975625050692004 -0.017813942486791544 0.0024374949307997495 0.017813942486791544
7.35075E9 0.002492579066235148 0.019148360555725438 0.9975074209337648 -0.019148360555725438 0.9975074209337648 -0.019148360555725438 0.002492579066235148 0.019148360555725438
7.4255E9 0.0025508459942215084 0.020471565161788545 0.9974491540057784 -0.020471565161788545 0.9974491540057784 -0.020471565161788545 0.0025508459942215084 0.020471565161788545
7.50025E9 0.0026122242090364065 0.021783897758708093 0.9973877757909637 -0.021783897758708093 0.9973877757909637 -0.021783897758708093 0.0026122242090364065 0.021783897758708093
7.575E9 0.002676646010449095 0.023085686878269233 0.9973233539895512 -0.023085686878269233 0.9973233539895512 -0.023085686878269233 0.002676646010449095 0.023085686878269233
7.64975E9 0.002744047293785496 0.02437724876266976 0.9972559527062146 -0.02437724876266976 0.9972559527062146 -0.02437724876266976 0.002744047293785496 0.02437724876266976
7.7245E9 0.0028143673545222084 0.02565888796147689 0.9971856326454779 -0.02565888796147689 0.9971856326454779 -0.02565888796147689 0.0028143673545222084 0.02565888796147689
7.79925E9 0.0028875487063389073 0.026930897895530395 0.9971124512936612 -0.026930897895530395 0.9971124512936612 -0.026930897895530395 0.0028875487063389073 0.026930897895530395
7.874E9 0.0029635369116505286 0.028193561389965666 0.9970364630883495 -0.028193561389965666 0.9970364630883495 -0.028193561389965666 0.0029635369116505286 0.028193561389965666
7.94875E9 0.003042280423724096 0.029447151178370976 0.996957719576276 -0.029447151178370976 0.996957719576276 -0.029447151178370976 0.003042280423724096 0.029447151178370976
8.0235E9 0.003123730439561216 0.030691930379951052 0.9968762695604388 -0.030691930379951052 0.9968762695604388 -0.030691930379951052 0.003123730439561216 0.030691930379951052
8.09825E9 0.0032078407627965013 0.031928152951434044 0.9967921592372038 -0.031928152951434044 0.9967921592372038 -0.031928152951434044 0.0032078407627965013 0.031928152951434044
8.173E9 0.0032945676759255135 0.03315606411533932 0.9967054323240744 -0.03315606411533932 0.9967054323240744 -0.03315606411533932 0.0032945676759255135 0.03315606411533932
8.24775E9 0.0033838698212335008 0.03437590076610906 0.9966161301787666 -0.03437590076610906 0.9966161301787666 -0.03437590076610906 0.0033838698212335008 0.03437590076610906
8.3225E9 0.0034757080898492323 0.035587891855505704 0.9965242919101509 -0.035587891855505704 0.9965242919101509 -0.035587891855505704 0.0034757080898492323 0.035587891855505704
8.39725E9 0.00357004551839661 0.03679225875858083 0.9964299544816034 -0.03679225875858083 0.9964299544816034 -0.03679225875858083 0.00357004551839661 0.03679225875858083
8.472E9 0.0036668471927612813 0.03798921562143414 0.9963331528072386 -0.03798921562143414 0.9963331528072386 -0.03798921562143414 0.0036668471927612813 0.03798921562143414
8.54675E9 0.0037660801585304386 0.03917896969190113 0.9962339198414696 -0.03917896969190113 0.9962339198414696 -0.03917896969190113 0.0037660801585304386 0.03917896969190113
