!Murata Part Number: GJM0225C1E9R3BB01
!These Parameters are Measured in Series Mode Connection
!       o--ll--o
!Port1            Port2
!       o------o
!Operation Temp=25[degC], DC Bias Voltage=0[V]
!Freq. Start=100[MHz] Stop=30[GHz], 401[Steps]
!Data Generated on Feb 1, 2023
# Hz S RI R 50
!Freq.(Hz) S11(Real) S11(Imag) S21(Real) S21(Imag) S12(Real) S12(Imag) S22(Real) S22(Imag)
1.0E8 0.7451158928761219 -0.4355467159115671 0.25488410712387805 0.4355467159115671 0.25488410712387805 0.4355467159115671 0.7451158928761219 -0.4355467159115671
1.7475E8 0.48859190579592243 -0.4994304553443403 0.5114080942040776 0.4994304553443403 0.5114080942040776 0.4994304553443403 0.48859190579592243 -0.4994304553443403
2.495E8 0.3184483356258454 -0.465239169151141 0.6815516643741546 0.465239169151141 0.6815516643741546 0.465239169151141 0.3184483356258454 -0.465239169151141
3.2425E8 0.2159994481194385 -0.4106747382990509 0.7840005518805614 0.4106747382990509 0.7840005518805614 0.4106747382990509 0.2159994481194385 -0.4106747382990509
3.99E8 0.1532738287005391 -0.3591983506404507 0.846726171299461 0.3591983506404507 0.846726171299461 0.3591983506404507 0.1532738287005391 -0.3591983506404507
4.7375E8 0.11317701684410492 -0.31553105795907 0.8868229831558949 0.31553105795907 0.8868229831558949 0.31553105795907 0.11317701684410492 -0.31553105795907
5.485E8 0.08637235701541653 -0.27939747562543965 0.9136276429845833 0.27939747562543965 0.9136276429845833 0.27939747562543965 0.08637235701541653 -0.27939747562543965
6.2325E8 0.06772129886357801 -0.24950040960926073 0.9322787011364219 0.24950040960926073 0.9322787011364219 0.24950040960926073 0.06772129886357801 -0.24950040960926073
6.98E8 0.05428986418871283 -0.22455721699801026 0.9457101358112873 0.22455721699801026 0.9457101358112873 0.22455721699801026 0.05428986418871283 -0.22455721699801026
7.7275E8 0.04433086169357813 -0.20351836958931413 0.955669138306422 0.20351836958931413 0.955669138306422 0.20351836958931413 0.04433086169357813 -0.20351836958931413
8.475E8 0.036761116299430116 -0.18557030398541485 0.9632388837005698 0.18557030398541485 0.9632388837005698 0.18557030398541485 0.036761116299430116 -0.18557030398541485
9.2225E8 0.030884199924319372 -0.17009129190375935 0.9691158000756805 0.17009129190375935 0.9691158000756805 0.17009129190375935 0.030884199924319372 -0.17009129190375935
9.97E8 0.026237626477878497 -0.15660578231876754 0.9737623735221215 0.15660578231876754 0.9737623735221215 0.15660578231876754 0.026237626477878497 -0.15660578231876754
1.07175E9 0.02250537412602269 -0.14474741234112484 0.9774946258739771 0.14474741234112484 0.9774946258739771 0.14474741234112484 0.02250537412602269 -0.14474741234112484
1.1465E9 0.019465992589077198 -0.1342311731621652 0.9805340074109226 0.1342311731621652 0.9805340074109226 0.1342311731621652 0.019465992589077198 -0.1342311731621652
1.22125E9 0.016960803489428605 -0.1248329805546227 0.9830391965105716 0.1248329805546227 0.9830391965105716 0.1248329805546227 0.016960803489428605 -0.1248329805546227
1.296E9 0.014873832491189634 -0.11637476483465271 0.9851261675088105 0.11637476483465271 0.9851261675088105 0.11637476483465271 0.014873832491189634 -0.11637476483465271
1.37075E9 0.013118804855145482 -0.10871355628968654 0.9868811951448545 0.10871355628968654 0.9868811951448545 0.10871355628968654 0.013118804855145482 -0.10871355628968654
1.4455E9 0.011630514299433382 -0.10173343828580343 0.9883694857005667 0.10173343828580343 0.9883694857005667 0.10173343828580343 0.011630514299433382 -0.10173343828580343
1.52025E9 0.010358969310589284 -0.09533956071987093 0.9896410306894108 0.09533956071987093 0.9896410306894108 0.09533956071987093 0.010358969310589284 -0.09533956071987093
1.595E9 0.009265344649668179 -0.08945364228429847 0.9907346553503317 0.08945364228429847 0.9907346553503317 0.08945364228429847 0.009265344649668179 -0.08945364228429847
1.66975E9 0.008319131108630367 -0.08401055727825398 0.9916808688913695 0.08401055727825398 0.9916808688913695 0.08401055727825398 0.008319131108630367 -0.08401055727825398
1.7445E9 0.007496096074905708 -0.07895571975642642 0.992503903925094 0.07895571975642642 0.992503903925094 0.07895571975642642 0.007496096074905708 -0.07895571975642642
1.81925E9 0.006776802470453276 -0.07424305951715707 0.9932231975295467 0.07424305951715707 0.9932231975295467 0.07424305951715707 0.006776802470453276 -0.07424305951715707
1.894E9 0.006145518475764269 -0.06983344164583104 0.9938544815242356 0.06983344164583104 0.9938544815242356 0.06983344164583104 0.006145518475764269 -0.06983344164583104
1.96875E9 0.005589404836192009 -0.06569342163661415 0.9944105951638079 0.06569342163661415 0.9944105951638079 0.06569342163661415 0.005589404836192009 -0.06569342163661415
2.0435E9 0.0050979020555526715 -0.06179425673233435 0.9949020979444471 0.06179425673233435 0.9949020979444471 0.06179425673233435 0.0050979020555526715 -0.06179425673233435
2.11825E9 0.004662263359889332 -0.05811111461359956 0.9953377366401107 0.05811111461359956 0.9953377366401107 0.05811111461359956 0.004662263359889332 -0.05811111461359956
2.193E9 0.0042751952185388934 -0.0546224353723309 0.9957248047814611 0.0546224353723309 0.9957248047814611 0.0546224353723309 0.0042751952185388934 -0.0546224353723309
2.26775E9 0.0039305780953446485 -0.051309413496455014 0.9960694219046554 0.051309413496455014 0.9960694219046554 0.051309413496455014 0.0039305780953446485 -0.051309413496455014
2.3425E9 0.0036232476554558116 -0.04815557452902245 0.9963767523445441 0.04815557452902245 0.9963767523445441 0.04815557452902245 0.0036232476554558116 -0.04815557452902245
2.41725E9 0.0033488219599726045 -0.04514642695247719 0.9966511780400271 0.04514642695247719 0.9966511780400271 0.04514642695247719 0.0033488219599726045 -0.04514642695247719
2.492E9 0.0031035639538752103 -0.04226917425291401 0.9968964360461248 0.04226917425291401 0.9968964360461248 0.04226917425291401 0.0031035639538752103 -0.04226917425291401
2.56675E9 0.0028842712652826664 -0.039512475440315685 0.9971157287347172 0.039512475440315685 0.9971157287347172 0.039512475440315685 0.0028842712652826664 -0.039512475440315685
2.6415E9 0.0026881873045701697 -0.0368662448247186 0.9973118126954299 0.0368662448247186 0.9973118126954299 0.0368662448247186 0.0026881873045701697 -0.0368662448247186
2.71625E9 0.002512929097279914 -0.03432148378064133 0.99748707090272 0.03432148378064133 0.99748707090272 0.03432148378064133 0.002512929097279914 -0.03432148378064133
2.791E9 0.0023564283547741365 -0.03187013872211797 0.997643571645226 0.03187013872211797 0.997643571645226 0.03187013872211797 0.0023564283547741365 -0.03187013872211797
2.86575E9 0.0022168830855676665 -0.029504980667392374 0.9977831169144323 0.029504980667392374 0.9977831169144323 0.029504980667392374 0.0022168830855676665 -0.029504980667392374
2.9405E9 0.0020927176517750988 -0.02721950267614622 0.9979072823482249 0.02721950267614622 0.9979072823482249 0.02721950267614622 0.0020927176517750988 -0.02721950267614622
3.01525E9 0.001982549631434611 -0.025007832152728393 0.9980174503685653 0.025007832152728393 0.9980174503685653 0.025007832152728393 0.001982549631434611 -0.025007832152728393
3.09E9 0.0018851621962000804 -0.022864655570850084 0.9981148378038 0.022864655570850084 0.9981148378038 0.022864655570850084 0.0018851621962000804 -0.022864655570850084
3.16475E9 0.0017994809822474693 -0.020785153622204344 0.9982005190177524 0.020785153622204344 0.9982005190177524 0.020785153622204344 0.0017994809822474693 -0.020785153622204344
3.2395E9 0.0017245546401073884 -0.01876494514892172 0.9982754453598925 0.01876494514892172 0.9982754453598925 0.01876494514892172 0.0017245546401073884 -0.01876494514892172
3.31425E9 0.0016595384111575129 -0.01680003850710505 0.9983404615888426 0.01680003850710505 0.9983404615888426 0.01680003850710505 0.0016595384111575129 -0.01680003850710505
3.389E9 0.0016036802055508568 -0.014886789240799175 0.9983963197944492 0.014886789240799175 0.9983963197944492 0.014886789240799175 0.0016036802055508568 -0.014886789240799175
3.46375E9 0.0015563087565375476 -0.01302186313414873 0.9984436912434625 0.01302186313414873 0.9984436912434625 0.01302186313414873 0.0015563087565375476 -0.01302186313414873
3.5385E9 0.0015168235055668588 -0.011202203863109465 0.9984831764944333 0.011202203863109465 0.9984831764944333 0.011202203863109465 0.0015168235055668588 -0.011202203863109465
3.61325E9 0.001484685935858717 -0.009425004593876877 0.9985153140641414 0.009425004593876877 0.9985153140641414 0.009425004593876877 0.001484685935858717 -0.009425004593876877
3.688E9 0.001459412122834075 -0.007687682978646382 0.9985405878771659 0.007687682978646382 0.9985405878771659 0.007687682978646382 0.001459412122834075 -0.007687682978646382
3.76275E9 0.001440566310593632 -0.005987859084738036 0.9985594336894065 0.005987859084738036 0.9985594336894065 0.005987859084738036 0.001440566310593632 -0.005987859084738036
3.8375E9 0.0014277553566169603 -0.004323335863917695 0.998572244643383 0.004323335863917695 0.998572244643383 0.004323335863917695 0.0014277553566169603 -0.004323335863917695
3.91225E9 0.0014206239136337602 -0.0026920818276500494 0.9985793760863663 0.0026920818276500494 0.9985793760863663 0.0026920818276500494 0.0014206239136337602 -0.0026920818276500494
3.987E9 0.0014188502394536057 -0.0010922156431987717 0.9985811497605465 0.0010922156431987717 0.9985811497605465 0.0010922156431987717 0.0014188502394536057 -0.0010922156431987717
4.06175E9 0.0014221425434152452 4.7800759330769894E-4 0.9985778574565848 -4.7800759330769894E-4 0.9985778574565848 -4.7800759330769894E-4 0.0014221425434152452 4.7800759330769894E-4
4.1365E9 0.0014302357928063854 0.0020202086160908176 0.9985697642071937 -0.0020202086160908176 0.9985697642071937 -0.0020202086160908176 0.0014302357928063854 0.0020202086160908176
4.21125E9 0.001442888914722725 0.0035358949612559463 0.9985571110852773 -0.0035358949612559463 0.9985571110852773 -0.0035358949612559463 0.001442888914722725 0.0035358949612559463
4.286E9 0.0014598823388673097 0.005026470805978937 0.9985401176611328 -0.005026470805978937 0.9985401176611328 -0.005026470805978937 0.0014598823388673097 0.005026470805978937
4.36075E9 0.0014810158351261286 0.006493245809719119 0.998518984164874 -0.006493245809719119 0.998518984164874 -0.006493245809719119 0.0014810158351261286 0.006493245809719119
4.4355E9 0.0015061066067039548 0.00793744307399923 0.998493893393296 -0.00793744307399923 0.998493893393296 -0.00793744307399923 0.0015061066067039548 0.00793744307399923
4.51025E9 0.001534987605415602 0.009360206322078934 0.9984650123945844 -0.009360206322078934 0.9984650123945844 -0.009360206322078934 0.001534987605415602 0.009360206322078934
4.585E9 0.001567506040603649 0.010762606386833707 0.9984324939593965 -0.010762606386833707 0.9984324939593965 -0.010762606386833707 0.001567506040603649 0.010762606386833707
4.65975E9 0.0016035220572576442 0.012145647083989677 0.9983964779427424 -0.012145647083989677 0.9983964779427424 -0.012145647083989677 0.0016035220572576442 0.012145647083989677
4.7345E9 0.001642907562374738 0.013510270538268802 0.9983570924376255 -0.013510270538268802 0.9983570924376255 -0.013510270538268802 0.001642907562374738 0.013510270538268802
4.80925E9 0.0016855451815358795 0.014857362021729928 0.998314454818464 -0.014857362021729928 0.998314454818464 -0.014857362021729928 0.0016855451815358795 0.014857362021729928
4.884E9 0.0017313273301641295 0.016187754356448394 0.9982686726698358 -0.016187754356448394 0.9982686726698358 -0.016187754356448394 0.0017313273301641295 0.016187754356448394
4.95875E9 0.0017801553860550513 0.0175022319274952 0.9982198446139449 -0.0175022319274952 0.9982198446139449 -0.0175022319274952 0.0017801553860550513 0.0175022319274952
5.0335E9 0.001831938951583818 0.018801534346813704 0.9981680610484162 -0.018801534346813704 0.9981680610484162 -0.018801534346813704 0.001831938951583818 0.018801534346813704
5.10825E9 0.0018865951955493656 0.02008635980393211 0.9981134048044508 -0.02008635980393211 0.9981134048044508 -0.02008635980393211 0.0018865951955493656 0.02008635980393211
5.183E9 0.0019440482659539215 0.02135736813539177 0.998055951734046 -0.02135736813539177 0.998055951734046 -0.02135736813539177 0.0019440482659539215 0.02135736813539177
5.25775E9 0.0020042287661710683 0.022615183641232918 0.9979957712338289 -0.022615183641232918 0.9979957712338289 -0.022615183641232918 0.0020042287661710683 0.022615183641232918
5.3325E9 0.002067073287955881 0.023860397673787778 0.9979329267120441 -0.023860397673787778 0.9979329267120441 -0.023860397673787778 0.002067073287955881 0.023860397673787778
5.40725E9 0.0021325239956208665 0.02509357102132672 0.9978674760043791 -0.02509357102132672 0.9978674760043791 -0.02509357102132672 0.0021325239956208665 0.02509357102132672
5.482E9 0.002200528256461883 0.026315236106735293 0.9977994717435383 -0.026315236106735293 0.9977994717435383 -0.026315236106735293 0.002200528256461883 0.026315236106735293
5.55675E9 0.0022710383131861545 0.02752589901932314 0.9977289616868139 -0.02752589901932314 0.9977289616868139 -0.02752589901932314 0.0022710383131861545 0.02752589901932314
5.6315E9 0.0023440109946848064 0.028726041396044937 0.997655989005315 -0.028726041396044937 0.997655989005315 -0.028726041396044937 0.0023440109946848064 0.028726041396044937
5.70625E9 0.002419407462017719 0.029916122166814746 0.9975805925379823 -0.029916122166814746 0.9975805925379823 -0.029916122166814746 0.002419407462017719 0.029916122166814746
5.781E9 0.0024971929869499433 0.031096579177193384 0.9975028070130504 -0.031096579177193384 0.9975028070130504 -0.031096579177193384 0.0024971929869499433 0.031096579177193384
5.85575E9 0.002577336760806074 0.03226783070049748 0.9974226632391937 -0.03226783070049748 0.9974226632391937 -0.03226783070049748 0.002577336760806074 0.03226783070049748
5.9305E9 0.0026598117318006216 0.03343027685030336 0.9973401882681993 -0.03343027685030336 0.9973401882681993 -0.03343027685030336 0.0026598117318006216 0.03343027685030336
6.00525E9 0.0027445944693660373 0.03458430090337677 0.997255405530634 -0.03458430090337677 0.997255405530634 -0.03458430090337677 0.0027445944693660373 0.03458430090337677
6.08E9 0.002831665054343089 0.03573027054224138 0.997168334945657 -0.03573027054224138 0.997168334945657 -0.03573027054224138 0.002831665054343089 0.03573027054224138
6.15475E9 0.002921006994227287 0.036868539025888776 0.9970789930057726 -0.036868539025888776 0.9970789930057726 -0.036868539025888776 0.002921006994227287 0.036868539025888776
6.2295E9 0.003012607162986718 0.037999446296524034 0.9969873928370131 -0.037999446296524034 0.9969873928370131 -0.037999446296524034 0.003012607162986718 0.037999446296524034
6.30425E9 0.003106455765287314 0.03912332002972161 0.9968935442347125 -0.03912332002972161 0.9968935442347125 -0.03912332002972161 0.003106455765287314 0.03912332002972161
6.379E9 0.0032025463252880826 0.04024047663493385 0.9967974536747121 -0.04024047663493385 0.9967974536747121 -0.04024047663493385 0.0032025463252880826 0.04024047663493385
6.45375E9 0.0033008757005080747 0.04135122221293987 0.9966991242994919 -0.04135122221293987 0.9966991242994919 -0.04135122221293987 0.0033008757005080747 0.04135122221293987
6.5285E9 0.003401444121626547 0.04245585347654488 0.9965985558783735 -0.04245585347654488 0.9965985558783735 -0.04245585347654488 0.003401444121626547 0.04245585347654488
6.60325E9 0.0035042552594662514 0.04355465864063431 0.9964957447405338 -0.04355465864063431 0.9964957447405338 -0.04355465864063431 0.0035042552594662514 0.04355465864063431
6.678E9 0.0036093163208369156 0.04464791828755569 0.9963906836791628 -0.04464791828755569 0.9963906836791628 -0.04464791828755569 0.0036093163208369156 0.04464791828755569
6.75275E9 0.0037166381753923994 0.045735906213738825 0.9962833618246079 -0.045735906213738825 0.9962833618246079 -0.045735906213738825 0.0037166381753923994 0.045735906213738825
6.8275E9 0.003826235516194262 0.04681889026347855 0.9961737644838058 -0.04681889026347855 0.9961737644838058 -0.04681889026347855 0.003826235516194262 0.04681889026347855
6.90225E9 0.003938127057291726 0.04789713315589456 0.9960618729427083 -0.04789713315589456 0.9960618729427083 -0.04789713315589456 0.003938127057291726 0.04789713315589456
6.977E9 0.004052335772341612 0.0489708933112501 0.9959476642276583 -0.0489708933112501 0.9959476642276583 -0.0489708933112501 0.004052335772341612 0.0489708933112501
7.05175E9 0.004168889179124941 0.050040425683070655 0.995831110820875 -0.050040425683070655 0.995831110820875 -0.050040425683070655 0.004168889179124941 0.050040425683070655
7.1265E9 0.00428781967579598 0.0511059826028521 0.9957121803242039 -0.0511059826028521 0.9957121803242039 -0.0511059826028521 0.00428781967579598 0.0511059826028521
7.20125E9 0.0044091649358591984 0.05216781464460353 0.9955908350641408 -0.05216781464460353 0.9955908350641408 -0.05216781464460353 0.0044091649358591984 0.05216781464460353
7.276E9 0.004532968370250503 0.053226171517037804 0.9954670316297494 -0.053226171517037804 0.9954670316297494 -0.053226171517037804 0.004532968370250503 0.053226171517037804
7.35075E9 0.004659279666553679 0.05428130299192336 0.9953407203334466 -0.05428130299192336 0.9953407203334466 -0.05428130299192336 0.004659279666553679 0.05428130299192336
7.4255E9 0.004788155417374918 0.05533345987795431 0.9952118445826252 -0.05533345987795431 0.9952118445826252 -0.05533345987795431 0.004788155417374918 0.05533345987795431
7.50025E9 0.004919659852308642 0.056382895050505796 0.9950803401476913 -0.056382895050505796 0.9950803401476913 -0.056382895050505796 0.004919659852308642 0.056382895050505796
7.575E9 0.005053865690858272 0.05742986454884018 0.9949461343091418 -0.05742986454884018 0.9949461343091418 -0.05742986454884018 0.005053865690858272 0.05742986454884018
7.64975E9 0.005190855137254465 0.058474628753737844 0.9948091448627457 -0.058474628753737844 0.9948091448627457 -0.058474628753737844 0.005190855137254465 0.058474628753737844
7.7245E9 0.0053307210425048756 0.059517453660180866 0.9946692789574952 -0.059517453660180866 0.9946692789574952 -0.059517453660180866 0.0053307210425048756 0.059517453660180866
7.79925E9 0.0054735682644220665 0.060558612261638445 0.9945264317355778 -0.060558612261638445 0.9945264317355778 -0.060558612261638445 0.0054735682644220665 0.060558612261638445
7.874E9 0.005619515263079042 0.06159838606473148 0.9943804847369209 -0.06159838606473148 0.9943804847369209 -0.06159838606473148 0.005619515263079042 0.06159838606473148
7.94875E9 0.005768695977480664 0.06263706675561205 0.9942313040225192 -0.06263706675561205 0.9942313040225192 -0.06263706675561205 0.005768695977480664 0.06263706675561205
8.0235E9 0.005921262039664378 0.06367495804231597 0.9940787379603357 -0.06367495804231597 0.9940787379603357 -0.06367495804231597 0.005921262039664378 0.06367495804231597
8.09825E9 0.006077385395539719 0.06471237770063679 0.9939226146044602 -0.06471237770063679 0.9939226146044602 -0.06471237770063679 0.006077385395539719 0.06471237770063679
8.173E9 0.00623726141831266 0.06574965985473138 0.9937627385816875 -0.06574965985473138 0.9937627385816875 -0.06574965985473138 0.00623726141831266 0.06574965985473138
8.24775E9 0.006401112621328324 0.06678715752764096 0.9935988873786717 -0.06678715752764096 0.9935988873786717 -0.06678715752764096 0.006401112621328324 0.06678715752764096
8.3225E9 0.0065691931039472806 0.06782524550109356 0.9934308068960526 -0.06782524550109356 0.9934308068960526 -0.06782524550109356 0.0065691931039472806 0.06782524550109356
8.39725E9 0.00674179389843265 0.06886432352810752 0.9932582061015673 -0.06886432352810752 0.9932582061015673 -0.06886432352810752 0.00674179389843265 0.06886432352810752
8.472E9 0.00691924943016587 0.06990481994563749 0.9930807505698342 -0.06990481994563749 0.9930807505698342 -0.06990481994563749 0.00691924943016587 0.06990481994563749
