!Murata Part Number: GJM0225C1E5R9BB01
!These Parameters are Measured in Series Mode Connection
!       o--ll--o
!Port1            Port2
!       o------o
!Operation Temp=25[degC], DC Bias Voltage=0[V]
!Freq. Start=100[MHz] Stop=30[GHz], 401[Steps]
!Data Generated on Feb 1, 2023
# Hz S RI R 50
!Freq.(Hz) S11(Real) S11(Imag) S21(Real) S21(Imag) S12(Real) S12(Imag) S22(Real) S22(Imag)
1.0E8 0.8789745928009057 -0.32591566638349645 0.12102540719909423 0.32591566638349645 0.12102540719909423 0.32591566638349645 0.8789745928009057 -0.32591566638349645
1.7475E8 0.7037243460925563 -0.4561918330638378 0.29627565390744376 0.4561918330638378 0.29627565390744376 0.4561918330638378 0.7037243460925563 -0.4561918330638378
2.495E8 0.5376551225210638 -0.4979753858961914 0.46234487747893604 0.4979753858961914 0.46234487747893604 0.4979753858961914 0.5376551225210638 -0.4979753858961914
3.2425E8 0.40711926159175194 -0.4905083053602403 0.5928807384082482 0.4905083053602403 0.5928807384082482 0.4905083053602403 0.40711926159175194 -0.4905083053602403
3.99E8 0.3112771445332492 -0.46203975739390013 0.6887228554667507 0.46203975739390013 0.6887228554667507 0.46203975739390013 0.3112771445332492 -0.46203975739390013
4.7375E8 0.24201625956479683 -0.42713793151823026 0.7579837404352031 0.42713793151823026 0.7579837404352031 0.42713793151823026 0.24201625956479683 -0.42713793151823026
5.485E8 0.19163470372362176 -0.3922273248403907 0.8083652962763782 0.3922273248403907 0.8083652962763782 0.3922273248403907 0.19163470372362176 -0.3922273248403907
6.2325E8 0.15441612352716177 -0.359789555769801 0.8455838764728383 0.359789555769801 0.8455838764728383 0.359789555769801 0.15441612352716177 -0.359789555769801
6.98E8 0.12641584820333696 -0.3305573953634277 0.8735841517966629 0.3305573953634277 0.8735841517966629 0.3305573953634277 0.12641584820333696 -0.3305573953634277
7.7275E8 0.10496088007544957 -0.3045354462563002 0.8950391199245508 0.3045354462563002 0.8950391199245508 0.3045354462563002 0.10496088007544957 -0.3045354462563002
8.475E8 0.08823375917671535 -0.2814539342249503 0.9117662408232845 0.2814539342249503 0.9117662408232845 0.2814539342249503 0.08823375917671535 -0.2814539342249503
9.2225E8 0.07498325799396573 -0.26096465802534957 0.9250167420060342 0.26096465802534957 0.9250167420060342 0.26096465802534957 0.07498325799396573 -0.26096465802534957
9.97E8 0.06433406143118871 -0.2427219654945304 0.9356659385688113 0.2427219654945304 0.9356659385688113 0.2427219654945304 0.06433406143118871 -0.2427219654945304
1.07175E9 0.0556632991613968 -0.22641298943676 0.9443367008386033 0.22641298943676 0.9443367008386033 0.22641298943676 0.0556632991613968 -0.22641298943676
1.1465E9 0.048520195386690966 -0.21176589426618117 0.9514798046133092 0.21176589426618117 0.9514798046133092 0.21176589426618117 0.048520195386690966 -0.21176589426618117
1.22125E9 0.04257321137594437 -0.19854901171040112 0.9574267886240555 0.19854901171040112 0.9574267886240555 0.19854901171040112 0.04257321137594437 -0.19854901171040112
1.296E9 0.03757477806712737 -0.18656660862474925 0.9624252219328724 0.18656660862474925 0.9624252219328724 0.18656660862474925 0.03757477806712737 -0.18656660862474925
1.37075E9 0.03333739918283457 -0.1756537984959325 0.9666626008171654 0.1756537984959325 0.9666626008171654 0.1756537984959325 0.03333739918283457 -0.1756537984959325
1.4455E9 0.029717203796617984 -0.16567163953069391 0.970282796203382 0.16567163953069391 0.970282796203382 0.16567163953069391 0.029717203796617984 -0.16567163953069391
1.52025E9 0.026602451759669278 -0.15650279881519572 0.9733975482403309 0.15650279881519572 0.9733975482403309 0.15650279881519572 0.026602451759669278 -0.15650279881519572
1.595E9 0.0239053818869423 -0.14804786957601565 0.9760946181130576 0.14804786957601565 0.9760946181130576 0.14804786957601565 0.0239053818869423 -0.14804786957601565
1.66975E9 0.021556349815597876 -0.1402223072672212 0.978443650184402 0.1402223072672212 0.978443650184402 0.1402223072672212 0.021556349815597876 -0.1402223072672212
1.7445E9 0.019499556763422625 -0.13295390707859994 0.9805004432365774 0.13295390707859994 0.9805004432365774 0.13295390707859994 0.019499556763422625 -0.13295390707859994
1.81925E9 0.017689898850810553 -0.12618073697645135 0.9823101011491895 0.12618073697645135 0.9823101011491895 0.12618073697645135 0.017689898850810553 -0.12618073697645135
1.894E9 0.016090615984464783 -0.11984944620336224 0.9839093840155353 0.11984944620336224 0.9839093840155353 0.11984944620336224 0.016090615984464783 -0.11984944620336224
1.96875E9 0.014671518280962111 -0.11391387990262368 0.9853284817190379 0.11391387990262368 0.9853284817190379 0.11391387990262368 0.014671518280962111 -0.11391387990262368
2.0435E9 0.01340763450254928 -0.10833394203232408 0.9865923654974508 0.10833394203232408 0.9865923654974508 0.10833394203232408 0.01340763450254928 -0.10833394203232408
2.11825E9 0.012278172232573043 -0.10307465929068847 0.9877218277674269 0.10307465929068847 0.9877218277674269 0.10307465929068847 0.012278172232573043 -0.10307465929068847
2.193E9 0.0112657107041131 -0.09810540782576672 0.9887342892958868 0.09810540782576672 0.9887342892958868 0.09810540782576672 0.0112657107041131 -0.09810540782576672
2.26775E9 0.01035556894351197 -0.0933992719933351 0.9896444310564878 0.0933992719933351 0.9896444310564878 0.0933992719933351 0.01035556894351197 -0.0933992719933351
2.3425E9 0.009535307229502158 -0.08893251050550158 0.9904646927704978 0.08893251050550158 0.9904646927704978 0.08893251050550158 0.009535307229502158 -0.08893251050550158
2.41725E9 0.00879433080425411 -0.08468411019143683 0.9912056691957459 0.08468411019143683 0.9912056691957459 0.08468411019143683 0.00879433080425411 -0.08468411019143683
2.492E9 0.008123572649019176 -0.08063541148500314 0.9918764273509808 0.08063541148500314 0.9918764273509808 0.08063541148500314 0.008123572649019176 -0.08063541148500314
2.56675E9 0.007515237865218974 -0.07676979285293074 0.9924847621347813 0.07676979285293074 0.9924847621347813 0.07676979285293074 0.007515237865218974 -0.07676979285293074
2.6415E9 0.006962596406238097 -0.07307240384255068 0.9930374035937618 0.07307240384255068 0.9930374035937618 0.07307240384255068 0.006962596406238097 -0.07307240384255068
2.71625E9 0.006459814018242276 -0.06952993839127129 0.9935401859817575 0.06952993839127129 0.9935401859817575 0.06952993839127129 0.006459814018242276 -0.06952993839127129
2.791E9 0.0060018135725692845 -0.06613044160620285 0.9939981864274305 0.06613044160620285 0.9939981864274305 0.06613044160620285 0.0060018135725692845 -0.06613044160620285
2.86575E9 0.005584160721268793 -0.0628631444750059 0.9944158392787313 0.0628631444750059 0.9944158392787313 0.0628631444750059 0.005584160721268793 -0.0628631444750059
2.9405E9 0.005202969133473334 -0.05971832197388932 0.9947970308665266 0.05971832197388932 0.9947970308665266 0.05971832197388932 0.005202969133473334 -0.05971832197388932
3.01525E9 0.004854821582947565 -0.056687170847353835 0.9951451784170524 0.056687170847353835 0.9951451784170524 0.056687170847353835 0.004854821582947565 -0.056687170847353835
3.09E9 0.00453670393576169 -0.053761703987292256 0.9954632960642384 0.053761703987292256 0.9954632960642384 0.053761703987292256 0.00453670393576169 -0.053761703987292256
3.16475E9 0.004245949689573409 -0.05093465886824443 0.9957540503104265 0.05093465886824443 0.9957540503104265 0.05093465886824443 0.004245949689573409 -0.05093465886824443
3.2395E9 0.00398019318519471 -0.04819941792598035 0.9960198068148053 0.04819941792598035 0.9960198068148053 0.04819941792598035 0.00398019318519471 -0.04819941792598035
3.31425E9 0.003737329978647643 -0.045549939117859706 0.9962626700213524 0.045549939117859706 0.9962626700213524 0.045549939117859706 0.003737329978647643 -0.045549939117859706
3.389E9 0.0035154831514415037 -0.042980695191158234 0.9964845168485584 0.042980695191158234 0.9964845168485584 0.042980695191158234 0.0035154831514415037 -0.042980695191158234
3.46375E9 0.003312974566125641 -0.04048662042208754 0.9966870254338744 0.04048662042208754 0.9966870254338744 0.04048662042208754 0.003312974566125641 -0.04048662042208754
3.5385E9 0.003128300256752389 -0.03806306378335842 0.9968716997432475 0.03806306378335842 0.9968716997432475 0.03806306378335842 0.003128300256752389 -0.03806306378335842
3.61325E9 0.0029601092899750494 -0.03570574765965407 0.997039890710025 0.03570574765965407 0.997039890710025 0.03570574765965407 0.0029601092899750494 -0.03570574765965407
3.688E9 0.002807185549957573 -0.033410731364524646 0.9971928144500425 0.033410731364524646 0.9971928144500425 0.033410731364524646 0.002807185549957573 -0.033410731364524646
3.76275E9 0.002668431995132884 -0.0311743788239983 0.9973315680048672 0.0311743788239983 0.9973315680048672 0.0311743788239983 0.002668431995132884 -0.0311743788239983
3.8375E9 0.0025428570117977853 -0.02899332988564849 0.9974571429882021 0.02899332988564849 0.9974571429882021 0.02899332988564849 0.0025428570117977853 -0.02899332988564849
3.91225E9 0.0024295625522195645 -0.026864474790220923 0.9975704374477804 0.026864474790220923 0.9975704374477804 0.026864474790220923 0.0024295625522195645 -0.026864474790220923
3.987E9 0.0023277337962038062 -0.024784931408837554 0.9976722662037961 0.024784931408837554 0.9976722662037961 0.024784931408837554 0.0023277337962038062 -0.024784931408837554
4.06175E9 0.0022366301171766164 -0.022752024904404703 0.9977633698828235 0.022752024904404703 0.9977633698828235 0.022752024904404703 0.0022366301171766164 -0.022752024904404703
4.1365E9 0.00215557716853727 -0.02076326952290231 0.9978444228314628 0.02076326952290231 0.9978444228314628 0.02076326952290231 0.00215557716853727 -0.02076326952290231
4.21125E9 0.0020839599347440905 -0.018816352260152606 0.9979160400652559 0.018816352260152606 0.9979160400652559 0.018816352260152606 0.0020839599347440905 -0.018816352260152606
4.286E9 0.0020212166154256832 -0.016909118183631226 0.9979787833845746 0.016909118183631226 0.9979787833845746 0.016909118183631226 0.0020212166154256832 -0.016909118183631226
4.36075E9 0.001966833230656929 -0.015039557217857274 0.998033166769343 0.015039557217857274 0.998033166769343 0.015039557217857274 0.001966833230656929 -0.015039557217857274
4.4355E9 0.0019203388521233636 -0.01320579222667929 0.9980796611478766 0.01320579222667929 0.9980796611478766 0.01320579222667929 0.0019203388521233636 -0.01320579222667929
4.51025E9 0.0018813013787985493 -0.011406068247020486 0.9981186986212014 0.011406068247020486 0.9981186986212014 0.011406068247020486 0.0018813013787985493 -0.011406068247020486
4.585E9 0.0018493237874463262 -0.009638742746908962 0.9981506762125538 0.009638742746908962 0.9981506762125538 0.009638742746908962 0.0018493237874463262 -0.009638742746908962
4.65975E9 0.0018240407981143531 -0.007902276796350735 0.9981759592018857 0.007902276796350735 0.9981759592018857 0.007902276796350735 0.0018240407981143531 -0.007902276796350735
4.7345E9 0.0018051159031183368 -0.006195227053190356 0.9981948840968816 0.006195227053190356 0.9981948840968816 0.006195227053190356 0.0018051159031183368 -0.006195227053190356
4.80925E9 0.0017922387150816404 -0.0045162384778617455 0.9982077612849183 0.0045162384778617455 0.9982077612849183 0.0045162384778617455 0.0017922387150816404 -0.0045162384778617455
4.884E9 0.0017851225956015235 -0.002864037701129988 0.9982148774043985 0.002864037701129988 0.9982148774043985 0.002864037701129988 0.0017851225956015235 -0.002864037701129988
4.95875E9 0.0017835025312326182 -0.0012374269777899669 0.9982164974687673 0.0012374269777899669 0.9982164974687673 0.0012374269777899669 0.0017835025312326182 -0.0012374269777899669
5.0335E9 0.0017871332278523702 3.647213329925957E-4 0.9982128667721476 -3.647213329925957E-4 0.9982128667721476 -3.647213329925957E-4 0.0017871332278523702 3.647213329925957E-4
5.10825E9 0.0017957873982195048 0.0019434698132731515 0.9982042126017806 -0.0019434698132731515 0.9982042126017806 -0.0019434698132731515 0.0017957873982195048 0.0019434698132731515
5.183E9 0.0018092542207526735 0.0034998206045379946 0.9981907457792474 -0.0034998206045379946 0.9981907457792474 -0.0034998206045379946 0.0018092542207526735 0.0034998206045379946
5.25775E9 0.0018273379503236163 0.005034719640053574 0.9981726620496766 -0.005034719640053574 0.9981726620496766 -0.005034719640053574 0.0018273379503236163 0.005034719640053574
5.3325E9 0.0018498566642453373 0.006549060528347608 0.9981501433357548 -0.006549060528347608 0.9981501433357548 -0.006549060528347608 0.0018498566642453373 0.006549060528347608
5.40725E9 0.0018766411286977181 0.008043688120830306 0.9981233588713024 -0.008043688120830306 0.9981233588713024 -0.008043688120830306 0.0018766411286977181 0.008043688120830306
5.482E9 0.0019075337726185374 0.009519401793055033 0.9980924662273815 -0.009519401793055033 0.9980924662273815 -0.009519401793055033 0.0019075337726185374 0.009519401793055033
5.55675E9 0.0019423877576371196 0.010976958466022866 0.9980576122423629 -0.010976958466022866 0.9980576122423629 -0.010976958466022866 0.0019423877576371196 0.010976958466022866
5.6315E9 0.0019810661339746457 0.012417075391197515 0.9980189338660254 -0.012417075391197515 0.9980189338660254 -0.012417075391197515 0.0019810661339746457 0.012417075391197515
5.70625E9 0.002023441073408439 0.013840432720477611 0.9979765589265914 -0.013840432720477611 0.9979765589265914 -0.013840432720477611 0.002023441073408439 0.013840432720477611
5.781E9 0.0020693931714212107 0.015247675880223525 0.9979306068285788 -0.015247675880223525 0.9979306068285788 -0.015247675880223525 0.0020693931714212107 0.015247675880223525
5.85575E9 0.0021188108115513127 0.016639417766530502 0.9978811891884486 -0.016639417766530502 0.9978811891884486 -0.016639417766530502 0.0021188108115513127 0.016639417766530502
5.9305E9 0.002171589585743893 0.018016240777244015 0.997828410414256 -0.018016240777244015 0.997828410414256 -0.018016240777244015 0.002171589585743893 0.018016240777244015
6.00525E9 0.0022276317651904365 0.019378698694702268 0.9977723682348094 -0.019378698694702268 0.9977723682348094 -0.019378698694702268 0.0022276317651904365 0.019378698694702268
6.08E9 0.0022868458167485044 0.02072731843184465 0.9977131541832516 -0.02072731843184465 0.9977131541832516 -0.02072731843184465 0.0022868458167485044 0.02072731843184465
6.15475E9 0.002349145960565333 0.022062601653121298 0.9976508540394345 -0.022062601653121298 0.9976508540394345 -0.022062601653121298 0.002349145960565333 0.022062601653121298
6.2295E9 0.002414451764997927 0.02338502628056385 0.9975855482350021 -0.02338502628056385 0.9975855482350021 -0.02338502628056385 0.002414451764997927 0.02338502628056385
6.30425E9 0.00248268777533626 0.024695047894412674 0.9975173122246639 -0.024695047894412674 0.9975173122246639 -0.024695047894412674 0.00248268777533626 0.024695047894412674
6.379E9 0.002553783173202547 0.025993101036834065 0.9974462168267975 -0.025993101036834065 0.9974462168267975 -0.025993101036834065 0.002553783173202547 0.025993101036834065
6.45375E9 0.0026276714638237197 0.027279600426482812 0.9973723285361764 -0.027279600426482812 0.9973723285361764 -0.027279600426482812 0.0026276714638237197 0.027279600426482812
6.5285E9 0.002704290188662125 0.028554942090970557 0.997295709811338 -0.028554942090970557 0.997295709811338 -0.028554942090970557 0.002704290188662125 0.028554942090970557
6.60325E9 0.0027835806611449816 0.029819504423671858 0.9972164193388552 -0.029819504423671858 0.9972164193388552 -0.029819504423671858 0.0027835806611449816 0.029819504423671858
6.678E9 0.002865487723460539 0.031073649170734293 0.9971345122765394 -0.031073649170734293 0.9971345122765394 -0.031073649170734293 0.002865487723460539 0.031073649170734293
6.75275E9 0.0029499595225915645 0.0323177223536504 0.9970500404774085 -0.0323177223536504 0.9970500404774085 -0.0323177223536504 0.0029499595225915645 0.0323177223536504
6.8275E9 0.003036947303937465 0.033552055132286665 0.9969630526960627 -0.033552055132286665 0.9969630526960627 -0.033552055132286665 0.003036947303937465 0.033552055132286665
6.90225E9 0.0031264052210380174 0.034776964612851104 0.9968735947789618 -0.034776964612851104 0.9968735947789618 -0.034776964612851104 0.0031264052210380174 0.034776964612851104
6.977E9 0.003218290160056121 0.03599275460490147 0.9967817098399439 -0.03599275460490147 0.9967817098399439 -0.03599275460490147 0.003218290160056121 0.03599275460490147
7.05175E9 0.003312561577806635 0.03719971633115749 0.9966874384221935 -0.03719971633115749 0.9966874384221935 -0.03719971633115749 0.003312561577806635 0.03719971633115749
7.1265E9 0.0034091813522345886 0.0383981290935694 0.9965908186477652 -0.0383981290935694 0.9965908186477652 -0.0383981290935694 0.0034091813522345886 0.0383981290935694
7.20125E9 0.003508113644350636 0.03958826089881529 0.9964918863556494 -0.03958826089881529 0.9964918863556494 -0.03958826089881529 0.003508113644350636 0.03958826089881529
7.276E9 0.0036093247707256423 0.040770369046143666 0.9963906752292744 -0.040770369046143666 0.9963906752292744 -0.040770369046143666 0.0036093247707256423 0.040770369046143666
7.35075E9 0.003712783085731317 0.041944700680247235 0.9962872169142687 -0.041944700680247235 0.9962872169142687 -0.041944700680247235 0.003712783085731317 0.041944700680247235
7.4255E9 0.0038184588727903875 0.04311149331164178 0.9961815411272096 -0.04311149331164178 0.9961815411272096 -0.04311149331164178 0.0038184588727903875 0.04311149331164178
7.50025E9 0.003926324243969232 0.044270975306831765 0.996073675756031 -0.044270975306831765 0.996073675756031 -0.044270975306831765 0.003926324243969232 0.044270975306831765
7.575E9 0.004036353047308963 0.04542336635037067 0.9959636469526914 -0.04542336635037067 0.9959636469526914 -0.04542336635037067 0.004036353047308963 0.04542336635037067
7.64975E9 0.00414852078134801 0.04656887788076244 0.9958514792186519 -0.04656887788076244 0.9958514792186519 -0.04656887788076244 0.00414852078134801 0.04656887788076244
7.7245E9 0.004262804516341626 0.0477077135020068 0.9957371954836585 -0.0477077135020068 0.9957371954836585 -0.0477077135020068 0.004262804516341626 0.0477077135020068
7.79925E9 0.004379182821731156 0.048840069372456336 0.9956208171782689 -0.048840069372456336 0.9956208171782689 -0.048840069372456336 0.004379182821731156 0.048840069372456336
7.874E9 0.0044976356994598085 0.049966134572533565 0.9955023643005402 -0.049966134572533565 0.9955023643005402 -0.049966134572533565 0.0044976356994598085 0.049966134572533565
7.94875E9 0.004618144522771647 0.05108609145274405 0.9953818554772281 -0.05108609145274405 0.9953818554772281 -0.05108609145274405 0.004618144522771647 0.05108609145274405
8.0235E9 0.004740691980167709 0.052200115963321025 0.9952593080198321 -0.052200115963321025 0.9952593080198321 -0.052200115963321025 0.004740691980167709 0.052200115963321025
8.09825E9 0.004865262024227387 0.05330837796674388 0.9951347379757727 -0.05330837796674388 0.9951347379757727 -0.05330837796674388 0.004865262024227387 0.05330837796674388
8.173E9 0.004991839825035394 0.054411041534288745 0.9950081601749646 -0.054411041534288745 0.9950081601749646 -0.054411041534288745 0.004991839825035394 0.054411041534288745
8.24775E9 0.005120411727984355 0.05550826522769161 0.9948795882720155 -0.05550826522769161 0.9948795882720155 -0.05550826522769161 0.005120411727984355 0.05550826522769161
8.3225E9 0.0052509652157515805 0.056600202366934374 0.9947490347842486 -0.056600202366934374 0.9947490347842486 -0.056600202366934374 0.0052509652157515805 0.056600202366934374
8.39725E9 0.005383488874275155 0.05768700128509952 0.9946165111257248 -0.05768700128509952 0.9946165111257248 -0.05768700128509952 0.005383488874275155 0.05768700128509952
8.472E9 0.005517972362580213 0.05876880557118 0.9944820276374197 -0.05876880557118 0.9944820276374197 -0.05876880557118 0.005517972362580213 0.05876880557118
