!Murata Part Number: GJM0225C1E7R7BB01
!These Parameters are Measured in Series Mode Connection
!       o--ll--o
!Port1            Port2
!       o------o
!Operation Temp=25[degC], DC Bias Voltage=0[V]
!Freq. Start=100[MHz] Stop=30[GHz], 401[Steps]
!Data Generated on Feb 1, 2023
# Hz S RI R 50
!Freq.(Hz) S11(Real) S11(Imag) S21(Real) S21(Imag) S12(Real) S12(Imag) S22(Real) S22(Imag)
1.0E8 0.8100621290605426 -0.3920338340542911 0.1899378709394575 0.3920338340542911 0.1899378709394575 0.3920338340542911 0.8100621290605426 -0.3920338340542911
1.7475E8 0.5823270707686127 -0.49279374002217696 0.41767292923138716 0.49279374002217696 0.41767292923138716 0.49279374002217696 0.5823270707686127 -0.49279374002217696
2.495E8 0.40552248763104304 -0.4904452307393528 0.594477512368957 0.4904452307393528 0.594477512368957 0.4904452307393528 0.40552248763104304 -0.4904452307393528
3.2425E8 0.286963455771885 -0.4516285763699052 0.7130365442281151 0.4516285763699052 0.7130365442281151 0.4516285763699052 0.286963455771885 -0.4516285763699052
3.99E8 0.2092336662324671 -0.40587438759851163 0.7907663337675329 0.40587438759851163 0.7907663337675329 0.40587438759851163 0.2092336662324671 -0.40587438759851163
4.7375E8 0.157309704304663 -0.3630301188712125 0.8426902956953369 0.3630301188712125 0.8426902956953369 0.3630301188712125 0.157309704304663 -0.3630301188712125
5.485E8 0.12156389973939832 -0.32553915103696923 0.8784361002606018 0.32553915103696923 0.8784361002606018 0.32553915103696923 0.12156389973939832 -0.32553915103696923
6.2325E8 0.09617801568001512 -0.2934076441231824 0.9038219843199847 0.2934076441231824 0.9038219843199847 0.2934076441231824 0.09617801568001512 -0.2934076441231824
6.98E8 0.0776239982804179 -0.2659600531469442 0.9223760017195822 0.2659600531469442 0.9223760017195822 0.2659600531469442 0.0776239982804179 -0.2659600531469442
7.7275E8 0.06371284055162023 -0.24242359003424027 0.9362871594483799 0.24242359003424027 0.9362871594483799 0.24242359003424027 0.06371284055162023 -0.24242359003424027
8.475E8 0.05304717755633258 -0.22210478964668334 0.9469528224436674 0.22210478964668334 0.9469528224436674 0.22210478964668334 0.05304717755633258 -0.22210478964668334
9.2225E8 0.04470898015069724 -0.2044274491920061 0.955291019849303 0.2044274491920061 0.955291019849303 0.2044274491920061 0.04470898015069724 -0.2044274491920061
9.97E8 0.038078538815096125 -0.18892624563922114 0.9619214611849038 0.18892624563922114 0.9619214611849038 0.18892624563922114 0.038078538815096125 -0.18892624563922114
1.07175E9 0.032726972147259385 -0.17522882540808632 0.9672730278527406 0.17522882540808632 0.9672730278527406 0.17522882540808632 0.032726972147259385 -0.17522882540808632
1.1465E9 0.02835068298318417 -0.16303732789161443 0.9716493170168159 0.16303732789161443 0.9716493170168159 0.16303732789161443 0.02835068298318417 -0.16303732789161443
1.22125E9 0.024730331242918784 -0.15211253949951015 0.9752696687570812 0.15211253949951015 0.9752696687570812 0.15211253949951015 0.024730331242918784 -0.15211253949951015
1.296E9 0.021704505831971702 -0.14226118406291693 0.9782954941680281 0.14226118406291693 0.9782954941680281 0.14226118406291693 0.021704505831971702 -0.14226118406291693
1.37075E9 0.01915243291295078 -0.13332600739727601 0.9808475670870493 0.13332600739727601 0.9808475670870493 0.13332600739727601 0.01915243291295078 -0.13332600739727601
1.4455E9 0.016982373301306603 -0.12517812385530383 0.9830176266986934 0.12517812385530383 0.9830176266986934 0.12517812385530383 0.016982373301306603 -0.12517812385530383
1.52025E9 0.01512368241929894 -0.11771112223063973 0.984876317580701 0.11771112223063973 0.984876317580701 0.11771112223063973 0.01512368241929894 -0.11771112223063973
1.595E9 0.013521277512347144 -0.11083651673925034 0.9864787224876528 0.11083651673925034 0.9864787224876528 0.11083651673925034 0.013521277512347144 -0.11083651673925034
1.66975E9 0.012131717709886336 -0.10448022004313687 0.9878682822901137 0.10448022004313687 0.9878682822901137 0.10448022004313687 0.012131717709886336 -0.10448022004313687
1.7445E9 0.010920384008418453 -0.09857979261592005 0.9890796159915816 0.09857979261592005 0.9890796159915816 0.09857979261592005 0.010920384008418453 -0.09857979261592005
1.81925E9 0.009859421772648256 -0.09308228354372142 0.9901405782273518 0.09308228354372142 0.9901405782273518 0.09308228354372142 0.009859421772648256 -0.09308228354372142
1.894E9 0.00892621992859429 -0.08794252404199843 0.9910737800714056 0.08794252404199843 0.9910737800714056 0.08794252404199843 0.00892621992859429 -0.08794252404199843
1.96875E9 0.00810227324857516 -0.08312176951059354 0.9918977267514248 0.08312176951059354 0.9918977267514248 0.08312176951059354 0.00810227324857516 -0.08312176951059354
2.0435E9 0.0073723216775828946 -0.07858661161874696 0.9926276783224172 0.07858661161874696 0.9926276783224172 0.07858661161874696 0.0073723216775828946 -0.07858661161874696
2.11825E9 0.006723692452347469 -0.07430810096762806 0.9932763075476526 0.07430810096762806 0.9932763075476526 0.07430810096762806 0.006723692452347469 -0.07430810096762806
2.193E9 0.006145792349590356 -0.07026103505234639 0.9938542076504095 0.07026103505234639 0.9938542076504095 0.07026103505234639 0.006145792349590356 -0.07026103505234639
2.26775E9 0.005629712253969462 -0.06642337682930949 0.9943702877460308 0.06642337682930949 0.9943702877460308 0.06642337682930949 0.005629712253969462 -0.06642337682930949
2.3425E9 0.005167916590770475 -0.06277577713673096 0.9948320834092297 0.06277577713673096 0.9948320834092297 0.06277577713673096 0.005167916590770475 -0.06277577713673096
2.41725E9 0.004753997474197564 -0.059301180208830115 0.9952460025258023 0.059301180208830115 0.9952460025258023 0.059301180208830115 0.004753997474197564 -0.059301180208830115
2.492E9 0.0043824786356171895 -0.05598449607302124 0.9956175213643825 0.05598449607302124 0.9956175213643825 0.05598449607302124 0.0043824786356171895 -0.05598449607302124
2.56675E9 0.004048657956390111 -0.05281232709314676 0.9959513420436098 0.05281232709314676 0.9959513420436098 0.05281232709314676 0.004048657956390111 -0.05281232709314676
2.6415E9 0.0037484801694043154 -0.049772738590870926 0.9962515198305957 0.049772738590870926 0.9962515198305957 0.049772738590870926 0.0037484801694043154 -0.049772738590870926
2.71625E9 0.003478433308171787 -0.04685506554059894 0.9965215666918283 0.04685506554059894 0.9965215666918283 0.04685506554059894 0.003478433308171787 -0.04685506554059894
2.791E9 0.0032354639773820334 -0.044049748937755796 0.9967645360226178 0.044049748937755796 0.9967645360226178 0.044049748937755796 0.0032354639773820334 -0.044049748937755796
2.86575E9 0.003016907637576724 -0.041348196695252144 0.9969830923624231 0.041348196695252144 0.9969830923624231 0.041348196695252144 0.003016907637576724 -0.041348196695252144
2.9405E9 0.0028204309405251977 -0.03874266491017032 0.9971795690594748 0.03874266491017032 0.9971795690594748 0.03874266491017032 0.0028204309405251977 -0.03874266491017032
3.01525E9 0.002643983793299886 -0.03622615612354436 0.9973560162067002 0.03622615612354436 0.9973560162067002 0.03622615612354436 0.002643983793299886 -0.03622615612354436
3.09E9 0.0024857593200737684 -0.03379233181700383 0.9975142406799261 0.03379233181700383 0.9975142406799261 0.03379233181700383 0.0024857593200737684 -0.03379233181700383
3.16475E9 0.002344160269125479 -0.03143543688630871 0.9976558397308747 0.03143543688630871 0.9976558397308747 0.03143543688630871 0.002344160269125479 -0.03143543688630871
3.2395E9 0.002217770706143058 -0.029150234230407468 0.9977822292938568 0.029150234230407468 0.9977822292938568 0.029150234230407468 0.002217770706143058 -0.029150234230407468
3.31425E9 0.0021053320641031673 -0.026931947916349865 0.9978946679358968 0.026931947916349865 0.9978946679358968 0.026931947916349865 0.0021053320641031673 -0.026931947916349865
3.389E9 0.0020057227999607905 -0.02477621364121654 0.9979942772000391 0.02477621364121654 0.9979942772000391 0.02477621364121654 0.0020057227999607905 -0.02477621364121654
3.46375E9 0.0019179410504860188 -0.022679035424642523 0.998082058949514 0.022679035424642523 0.998082058949514 0.022679035424642523 0.0019179410504860188 -0.022679035424642523
3.5385E9 0.001841089792398477 -0.0206367476392415 0.9981589102076015 0.0206367476392415 0.9981589102076015 0.0206367476392415 0.001841089792398477 -0.0206367476392415
3.61325E9 0.0017743641019746402 -0.018645981628911606 0.9982256358980255 0.018645981628911606 0.9982256358980255 0.018645981628911606 0.0017743641019746402 -0.018645981628911606
3.688E9 0.0017170401814973282 -0.016703636282638587 0.9982829598185026 0.016703636282638587 0.9982829598185026 0.016703636282638587 0.0017170401814973282 -0.016703636282638587
3.76275E9 0.0016684658780862828 -0.01480685202877683 0.9983315341219139 0.01480685202877683 0.9983315341219139 0.01480685202877683 0.0016684658780862828 -0.01480685202877683
3.8375E9 0.0016280524675309897 -0.012952987795669432 0.9983719475324689 0.012952987795669432 0.9983719475324689 0.012952987795669432 0.0016280524675309897 -0.012952987795669432
3.91225E9 0.001595267514022149 -0.011139600551899994 0.9984047324859777 0.011139600551899994 0.9984047324859777 0.011139600551899994 0.001595267514022149 -0.011139600551899994
3.987E9 0.0015696286479239736 -0.009364427095877703 0.9984303713520761 0.009364427095877703 0.9984303713520761 0.009364427095877703 0.0015696286479239736 -0.009364427095877703
4.06175E9 0.0015506981293402944 -0.007625367811803711 0.9984493018706596 0.007625367811803711 0.9984493018706596 0.007625367811803711 0.0015506981293402944 -0.007625367811803711
4.1365E9 0.001538078086300954 -0.005920472148933696 0.9984619219136991 0.005920472148933696 0.9984619219136991 0.005920472148933696 0.001538078086300954 -0.005920472148933696
4.21125E9 0.001531406333800156 -0.004247925614725268 0.9984685936661999 0.004247925614725268 0.9984685936661999 0.004247925614725268 0.001531406333800156 -0.004247925614725268
4.286E9 0.0015303526943458332 -0.0026060381009854147 0.998469647305654 0.0026060381009854147 0.998469647305654 0.0026060381009854147 0.0015303526943458332 -0.0026060381009854147
4.36075E9 0.001534615752679903 -9.932333863718452E-4 0.9984653842473202 9.932333863718452E-4 0.9984653842473202 9.932333863718452E-4 0.001534615752679903 -9.932333863718452E-4
4.4355E9 0.0015439199873452276 5.919603207482283E-4 0.9984560800126547 -5.919603207482283E-4 0.9984560800126547 -5.919603207482283E-4 0.0015439199873452276 5.919603207482283E-4
4.51025E9 0.0015580132301618022 0.0021509189174341355 0.9984419867698382 -0.0021509189174341355 0.9984419867698382 -0.0021509189174341355 0.0015580132301618022 0.0021509189174341355
4.585E9 0.0015766644117191535 0.0036849301225433872 0.998423335588281 -0.0036849301225433872 0.998423335588281 -0.0036849301225433872 0.0015766644117191535 0.0036849301225433872
4.65975E9 0.0015996615569270917 0.005195200464601056 0.998400338443073 -0.005195200464601056 0.998400338443073 -0.005195200464601056 0.0015996615569270917 0.005195200464601056
4.7345E9 0.0016268099996822253 0.006682861620256086 0.9983731900003179 -0.006682861620256086 0.9983731900003179 -0.006682861620256086 0.0016268099996822253 0.006682861620256086
4.80925E9 0.0016579307899576405 0.00814897617277271 0.9983420692100424 -0.00814897617277271 0.9983420692100424 -0.00814897617277271 0.0016579307899576405 0.00814897617277271
4.884E9 0.0016928592702347403 0.009594542851665116 0.9983071407297651 -0.009594542851665116 0.9983071407297651 -0.009594542851665116 0.0016928592702347403 0.009594542851665116
4.95875E9 0.0017314438012734424 0.011020501307354148 0.9982685561987267 -0.011020501307354148 0.9982685561987267 -0.011020501307354148 0.0017314438012734424 0.011020501307354148
5.0335E9 0.0017735446198457764 0.012427736468443947 0.9982264553801542 -0.012427736468443947 0.9982264553801542 -0.012427736468443947 0.0017735446198457764 0.012427736468443947
5.10825E9 0.0018190328133093755 0.013817082523747744 0.9981809671866905 -0.013817082523747744 0.9981809671866905 -0.013817082523747744 0.0018190328133093755 0.013817082523747744
5.183E9 0.001867789397830395 0.015189326566421642 0.9981322106021697 -0.015189326566421642 0.9981322106021697 -0.015189326566421642 0.001867789397830395 0.015189326566421642
5.25775E9 0.0019197044887290424 0.016545211933394185 0.9980802955112711 -0.016545211933394185 0.9980802955112711 -0.016545211933394185 0.0019197044887290424 0.016545211933394185
5.3325E9 0.0019746765528561327 0.01788544126962801 0.9980253234471438 -0.01788544126962801 0.9980253234471438 -0.01788544126962801 0.0019746765528561327 0.01788544126962801
5.40725E9 0.0020326117341500794 0.01921067934354367 0.9979673882658499 -0.01921067934354367 0.9979673882658499 -0.01921067934354367 0.0020326117341500794 0.01921067934354367
5.482E9 0.002093423244599223 0.020521555637119274 0.9979065767554011 -0.020521555637119274 0.9979065767554011 -0.020521555637119274 0.002093423244599223 0.020521555637119274
5.55675E9 0.0021570308137686847 0.02181866673169825 0.9978429691862312 -0.02181866673169825 0.9978429691862312 -0.02181866673169825 0.0021570308137686847 0.02181866673169825
5.6315E9 0.0022233601908641988 0.02310257850834981 0.9977766398091357 -0.02310257850834981 0.9977766398091357 -0.02310257850834981 0.0022233601908641988 0.02310257850834981
5.70625E9 0.002292342694015016 0.024373828179692362 0.9977076573059851 -0.024373828179692362 0.9977076573059851 -0.024373828179692362 0.002292342694015016 0.024373828179692362
5.781E9 0.0023639148020786105 0.02563292616838121 0.9976360851979212 -0.02563292616838121 0.9976360851979212 -0.02563292616838121 0.0023639148020786105 0.02563292616838121
5.85575E9 0.002438017784813855 0.026880357845943944 0.9975619822151862 -0.026880357845943944 0.9975619822151862 -0.026880357845943944 0.002438017784813855 0.026880357845943944
5.9305E9 0.002514597367747372 0.028116585144304193 0.9974854026322527 -0.028116585144304193 0.9974854026322527 -0.028116585144304193 0.002514597367747372 0.028116585144304193
6.00525E9 0.0025936034284787034 0.029342048051136906 0.9974063965715215 -0.029342048051136906 0.9974063965715215 -0.029342048051136906 0.0025936034284787034 0.029342048051136906
6.08E9 0.0026749897215418888 0.030557165999137385 0.9973250102784579 -0.030557165999137385 0.9973250102784579 -0.030557165999137385 0.0026749897215418888 0.030557165999137385
6.15475E9 0.0027587136292702595 0.0317623391583374 0.9972412863707296 -0.0317623391583374 0.9972412863707296 -0.0317623391583374 0.0027587136292702595 0.0317623391583374
6.2295E9 0.0028447359364039554 0.032957949639759294 0.997155264063596 -0.032957949639759294 0.997155264063596 -0.032957949639759294 0.0028447359364039554 0.032957949639759294
6.30425E9 0.0029330206264404266 0.03414436261794458 0.9970669793735594 -0.03414436261794458 0.9970669793735594 -0.03414436261794458 0.0029330206264404266 0.03414436261794458
6.379E9 0.0030235346979616646 0.03532192737922188 0.9969764653020382 -0.03532192737922188 0.9969764653020382 -0.03532192737922188 0.0030235346979616646 0.03532192737922188
6.45375E9 0.0031162479993816863 0.036490978301977985 0.9968837520006185 -0.036490978301977985 0.9968837520006185 -0.036490978301977985 0.0031162479993816863 0.036490978301977985
6.5285E9 0.0032111330807473495 0.03765183577465931 0.9967888669192527 -0.03765183577465931 0.9967888669192527 -0.03765183577465931 0.0032111330807473495 0.03765183577465931
6.60325E9 0.0033081650613977103 0.038804807056751135 0.9966918349386023 -0.038804807056751135 0.9966918349386023 -0.038804807056751135 0.0033081650613977103 0.038804807056751135
6.678E9 0.0034073215124446566 0.03995018708755395 0.9965926784875553 -0.03995018708755395 0.9965926784875553 -0.03995018708755395 0.0034073215124446566 0.03995018708755395
6.75275E9 0.003508582353182667 0.041088259247194156 0.9964914176468174 -0.041088259247194156 0.9964914176468174 -0.041088259247194156 0.003508582353182667 0.041088259247194156
6.8275E9 0.0036119297606704024 0.042219296073964505 0.9963880702393297 -0.042219296073964505 0.9963880702393297 -0.042219296073964505 0.0036119297606704024 0.042219296073964505
6.90225E9 0.0037173480918537235 0.04334355994178852 0.9962826519081465 -0.04334355994178852 0.9962826519081465 -0.04334355994178852 0.0037173480918537235 0.04334355994178852
6.977E9 0.0038248238177199427 0.04446130370133236 0.99617517618228 -0.04446130370133236 0.99617517618228 -0.04446130370133236 0.0038248238177199427 0.04446130370133236
7.05175E9 0.003934345469089049 0.045572771288051615 0.9960656545309109 -0.045572771288051615 0.9960656545309109 -0.045572771288051615 0.003934345469089049 0.045572771288051615
7.1265E9 0.004045903593760624 0.0466781983002513 0.9959540964062394 -0.0466781983002513 0.9959540964062394 -0.0466781983002513 0.004045903593760624 0.0466781983002513
7.20125E9 0.004159490724847009 0.04777781255005615 0.9958405092751529 -0.04777781255005615 0.9958405092751529 -0.04777781255005615 0.004159490724847009 0.04777781255005615
7.276E9 0.0042751013602358575 0.04887183459003129 0.9957248986397641 -0.04887183459003129 0.9957248986397641 -0.04887183459003129 0.0042751013602358575 0.04887183459003129
7.35075E9 0.00439273195324017 0.04996047821806107 0.9956072680467597 -0.04996047821806107 0.9956072680467597 -0.04996047821806107 0.00439273195324017 0.04996047821806107
7.4255E9 0.004512380914613268 0.051043950962982886 0.9954876190853867 -0.051043950962982886 0.9954876190853867 -0.051043950962982886 0.004512380914613268 0.051043950962982886
7.50025E9 0.004634048626232127 0.052122454553385565 0.9953659513737677 -0.052122454553385565 0.9953659513737677 -0.052122454553385565 0.004634048626232127 0.052122454553385565
7.575E9 0.004757737466887081 0.05319618537191347 0.9952422625331129 -0.05319618537191347 0.9952422625331129 -0.05319618537191347 0.004757737466887081 0.05319618537191347
7.64975E9 0.004883451850762065 0.05426533489737276 0.9951165481492379 -0.05426533489737276 0.9951165481492379 -0.05426533489737276 0.004883451850762065 0.05426533489737276
7.7245E9 0.005011198279350114 0.05533009013691124 0.9949888017206499 -0.05533009013691124 0.9949888017206499 -0.05533009013691124 0.005011198279350114 0.05533009013691124
7.79925E9 0.005140985407726917 0.05639063405054004 0.994859014592273 -0.05639063405054004 0.994859014592273 -0.05639063405054004 0.005140985407726917 0.05639063405054004
7.874E9 0.005272824126305502 0.05744714597028558 0.9947271758736945 -0.05744714597028558 0.9947271758736945 -0.05744714597028558 0.005272824126305502 0.05744714597028558
7.94875E9 0.005406727659421289 0.05849980201630261 0.9945932723405786 -0.05849980201630261 0.9945932723405786 -0.05849980201630261 0.005406727659421289 0.05849980201630261
8.0235E9 0.005542711682355345 0.059548775512347836 0.9944572883176447 -0.059548775512347836 0.9944572883176447 -0.059548775512347836 0.005542711682355345 0.059548775512347836
8.09825E9 0.005680794458700228 0.06059423740310733 0.9943192055412999 -0.06059423740310733 0.9943192055412999 -0.06059423740310733 0.005680794458700228 0.06059423740310733
8.173E9 0.005820997000316237 0.06163635667599652 0.9941790029996838 -0.06163635667599652 0.9941790029996838 -0.06163635667599652 0.005820997000316237 0.06163635667599652
8.24775E9 0.005963343252524475 0.0626753007902056 0.9940366567474755 -0.0626753007902056 0.9940366567474755 -0.0626753007902056 0.005963343252524475 0.0626753007902056
8.3225E9 0.006107860307649361 0.0637112361159554 0.9938921396923506 -0.0637112361159554 0.9938921396923506 -0.0637112361159554 0.006107860307649361 0.0637112361159554
8.39725E9 0.006254578650570147 0.06474432838715835 0.9937454213494298 -0.06474432838715835 0.9937454213494298 -0.06474432838715835 0.006254578650570147 0.06474432838715835
8.472E9 0.006403532440585843 0.0657747431709534 0.9935964675594141 -0.0657747431709534 0.9935964675594141 -0.0657747431709534 0.006403532440585843 0.0657747431709534
