!Murata Part Number: GJM0225C1E1R6BB01
!These Parameters are Measured in Series Mode Connection
!       o--ll--o
!Port1            Port2
!       o------o
!Operation Temp=25[degC], DC Bias Voltage=0[V]
!Freq. Start=100[MHz] Stop=30[GHz], 401[Steps]
!Data Generated on Feb 1, 2023
# Hz S RI R 50
!Freq.(Hz) S11(Real) S11(Imag) S21(Real) S21(Imag) S12(Real) S12(Imag) S22(Real) S22(Imag)
1.0E8 0.9899697121169246 -0.09953084957607362 0.010030287883075308 0.09953084957607362 0.010030287883075308 0.09953084957607362 0.9899697121169246 -0.09953084957607362
1.7475E8 0.9699768857803313 -0.17044655228727995 0.030023114219668787 0.17044655228727995 0.030023114219668787 0.17044655228727995 0.9699768857803313 -0.17044655228727995
2.495E8 0.9406154092016602 -0.23605126061644244 0.05938459079833988 0.23605126061644244 0.05938459079833988 0.23605126061644244 0.9406154092016602 -0.23605126061644244
3.2425E8 0.9035734578513247 -0.2947958455491186 0.09642654214867528 0.2947958455491186 0.09642654214867528 0.2947958455491186 0.9035734578513247 -0.2947958455491186
3.99E8 0.8607650711609588 -0.34572426300915865 0.13923492883904112 0.34572426300915865 0.13923492883904112 0.34572426300915865 0.8607650711609588 -0.34572426300915865
4.7375E8 0.8141169651946923 -0.3884570231741183 0.18588303480530766 0.3884570231741183 0.18588303480530766 0.3884570231741183 0.8141169651946923 -0.3884570231741183
5.485E8 0.76540116347009 -0.42310438971057956 0.23459883652991 0.42310438971057956 0.23459883652991 0.42310438971057956 0.76540116347009 -0.42310438971057956
6.2325E8 0.7161291777921855 -0.4501429859922652 0.2838708222078145 0.4501429859922652 0.2838708222078145 0.4501429859922652 0.7161291777921855 -0.4501429859922652
6.98E8 0.6675055463216073 -0.470286391005252 0.3324944536783927 0.470286391005252 0.3324944536783927 0.470286391005252 0.6675055463216073 -0.470286391005252
7.7275E8 0.6204277261935622 -0.4843706722406538 0.37957227380643765 0.4843706722406538 0.37957227380643765 0.4843706722406538 0.6204277261935622 -0.4843706722406538
8.475E8 0.5755158730918396 -0.49326512315674653 0.42448412690816034 0.49326512315674653 0.42448412690816034 0.49326512315674653 0.5755158730918396 -0.49326512315674653
9.2225E8 0.5331576147237053 -0.4978101026840891 0.4668423852762947 0.4978101026840891 0.4668423852762947 0.4978101026840891 0.5331576147237053 -0.4978101026840891
9.97E8 0.49355679557403387 -0.49877884228772756 0.5064432044259662 0.49877884228772756 0.5064432044259662 0.49877884228772756 0.49355679557403387 -0.49877884228772756
1.07175E9 0.45677932146390177 -0.49685795004473515 0.543220678536098 0.49685795004473515 0.543220678536098 0.49685795004473515 0.45677932146390177 -0.49685795004473515
1.1465E9 0.42279262495976566 -0.4926411222428865 0.5772073750402344 0.4926411222428865 0.5772073750402344 0.4926411222428865 0.42279262495976566 -0.4926411222428865
1.22125E9 0.3914976083416264 -0.4866313426844006 0.6085023916583736 0.4866313426844006 0.6085023916583736 0.4866313426844006 0.3914976083416264 -0.4866313426844006
1.296E9 0.362753304866167 -0.479247956532741 0.637246695133833 0.479247956532741 0.637246695133833 0.479247956532741 0.362753304866167 -0.479247956532741
1.37075E9 0.3363951818582236 -0.47083608217883327 0.6636048181417763 0.47083608217883327 0.6636048181417763 0.47083608217883327 0.3363951818582236 -0.47083608217883327
1.4455E9 0.31224824276800156 -0.46167671185896336 0.6877517572319984 0.46167671185896336 0.6877517572319984 0.46167671185896336 0.31224824276800156 -0.46167671185896336
1.52025E9 0.29013606642703343 -0.45199651297935606 0.7098639335729666 0.45199651297935606 0.7098639335729666 0.45199651297935606 0.29013606642703343 -0.45199651297935606
1.595E9 0.26988678286249174 -0.4419767998739706 0.7301132171375083 0.4419767998739706 0.7301132171375083 0.4419767998739706 0.26988678286249174 -0.4419767998739706
1.66975E9 0.2513368058570665 -0.43176144326330146 0.7486631941429334 0.43176144326330146 0.7486631941429334 0.43176144326330146 0.2513368058570665 -0.43176144326330146
1.7445E9 0.23433296561545053 -0.42146366613022 0.7656670343845494 0.42146366613022 0.7656670343845494 0.42146366613022 0.23433296561545053 -0.42146366613022
1.81925E9 0.21873352984792147 -0.4111717770725809 0.7812664701520785 0.4111717770725809 0.7812664701520785 0.4111717770725809 0.21873352984792147 -0.4111717770725809
1.894E9 0.20440847450706068 -0.4009539433677392 0.7955915254929392 0.4009539433677392 0.7955915254929392 0.4009539433677392 0.20440847450706068 -0.4009539433677392
1.96875E9 0.1912392657404634 -0.39086212571184126 0.8087607342595365 0.39086212571184126 0.8087607342595365 0.39086212571184126 0.1912392657404634 -0.39086212571184126
2.0435E9 0.17911833882325767 -0.3809352981114121 0.8208816611767424 0.3809352981114121 0.8208816611767424 0.3809352981114121 0.17911833882325767 -0.3809352981114121
2.11825E9 0.16794840351352372 -0.3712020682149967 0.8320515964864764 0.3712020682149967 0.8320515964864764 0.3712020682149967 0.16794840351352372 -0.3712020682149967
2.193E9 0.15764166419179 -0.36168280072531017 0.8423583358082101 0.36168280072531017 0.8423583358082101 0.36168280072531017 0.15764166419179 -0.36168280072531017
2.26775E9 0.14811901364505836 -0.35239133251459404 0.8518809863549417 0.35239133251459404 0.8518809863549417 0.35239133251459404 0.14811901364505836 -0.35239133251459404
2.3425E9 0.1393092384715096 -0.34333635438446275 0.8606907615284903 0.34333635438446275 0.8606907615284903 0.34333635438446275 0.1393092384715096 -0.34333635438446275
2.41725E9 0.13114825950423162 -0.3345225219209422 0.8688517404957684 0.3345225219209422 0.8688517404957684 0.3345225219209422 0.13114825950423162 -0.3345225219209422
2.492E9 0.12357842062930675 -0.3259513469435143 0.8764215793706932 0.3259513469435143 0.8764215793706932 0.3259513469435143 0.12357842062930675 -0.3259513469435143
2.56675E9 0.1165478326027487 -0.3176219116947278 0.8834521673972513 0.3176219116947278 0.8834521673972513 0.3176219116947278 0.1165478326027487 -0.3176219116947278
2.6415E9 0.11000977399751882 -0.30953144007410816 0.8899902260024813 0.30953144007410816 0.8899902260024813 0.30953144007410816 0.11000977399751882 -0.30953144007410816
2.71625E9 0.10392214854480128 -0.301675753726637 0.8960778514551986 0.301675753726637 0.8960778514551986 0.301675753726637 0.10392214854480128 -0.301675753726637
2.791E9 0.09824699637685323 -0.29404963546882157 0.9017530036231469 0.29404963546882157 0.9017530036231469 0.29404963546882157 0.09824699637685323 -0.29404963546882157
2.86575E9 0.09295005567926069 -0.28664711819363314 0.9070499443207394 0.28664711819363314 0.9070499443207394 0.28664711819363314 0.09295005567926069 -0.28664711819363314
2.9405E9 0.08800037076930041 -0.27946171387380286 0.9119996292306994 0.27946171387380286 0.9119996292306994 0.27946171387380286 0.08800037076930041 -0.27946171387380286
3.01525E9 0.08336994245997971 -0.2724865944358019 0.9166300575400204 0.2724865944358019 0.9166300575400204 0.2724865944358019 0.08336994245997971 -0.2724865944358019
3.09E9 0.07903341662519056 -0.265714733980446 0.9209665833748093 0.265714733980446 0.9209665833748093 0.265714733980446 0.07903341662519056 -0.265714733980446
3.16475E9 0.07496780706707358 -0.2591390199766703 0.9250321929329264 0.2591390199766703 0.9250321929329264 0.2591390199766703 0.07496780706707358 -0.2591390199766703
3.2395E9 0.0711522490456796 -0.25275233956700166 0.9288477509543205 0.25275233956700166 0.9288477509543205 0.25275233956700166 0.0711522490456796 -0.25275233956700166
3.31425E9 0.0675677801255936 -0.24654764592650957 0.9324322198744062 0.24654764592650957 0.9324322198744062 0.24654764592650957 0.0675677801255936 -0.24654764592650957
3.389E9 0.06419714529963905 -0.24051800865462045 0.935802854700361 0.24051800865462045 0.935802854700361 0.24051800865462045 0.06419714529963905 -0.24051800865462045
3.46375E9 0.06102462365044258 -0.23465665140508749 0.9389753763495573 0.23465665140508749 0.9389753763495573 0.23465665140508749 0.06102462365044258 -0.23465665140508749
3.5385E9 0.05803587409700498 -0.22895697933655387 0.9419641259029949 0.22895697933655387 0.9419641259029949 0.22895697933655387 0.05803587409700498 -0.22895697933655387
3.61325E9 0.055217798040172135 -0.22341259846469053 0.944782201959828 0.22341259846469053 0.944782201959828 0.22341259846469053 0.055217798040172135 -0.22341259846469053
3.688E9 0.052558416965509704 -0.21801732859294104 0.9474415830344903 0.21801732859294104 0.9474415830344903 0.21801732859294104 0.052558416965509704 -0.21801732859294104
3.76275E9 0.05004676328383505 -0.2127652111732717 0.9499532367161649 0.2127652111732717 0.9499532367161649 0.2127652111732717 0.05004676328383505 -0.2127652111732717
3.8375E9 0.047672782888986694 -0.20765051318562908 0.9523272171110131 0.20765051318562908 0.9523272171110131 0.20765051318562908 0.047672782888986694 -0.20765051318562908
3.91225E9 0.04542724809044694 -0.20266772791275778 0.9545727519095532 0.20266772791275778 0.9545727519095532 0.20266772791275778 0.04542724809044694 -0.20266772791275778
3.987E9 0.043301679736678526 -0.19781157331572888 0.9566983202633212 0.19781157331572888 0.9566983202633212 0.19781157331572888 0.043301679736678526 -0.19781157331572888
4.06175E9 0.04128827748518242 -0.19307698857707456 0.9587117225148174 0.19307698857707456 0.9587117225148174 0.19307698857707456 0.04128827748518242 -0.19307698857707456
4.1365E9 0.039379857299060995 -0.18845912926645783 0.960620142700939 0.18845912926645783 0.960620142700939 0.18845912926645783 0.039379857299060995 -0.18845912926645783
4.21125E9 0.03756979535896547 -0.18395336149321936 0.9624302046410347 0.18395336149321936 0.9624302046410347 0.18395336149321936 0.03756979535896547 -0.18395336149321936
4.286E9 0.03585197767532357 -0.1795552553368415 0.9641480223246764 0.1795552553368415 0.9641480223246764 0.1795552553368415 0.03585197767532357 -0.1795552553368415
4.36075E9 0.034220754770159185 -0.17526057778703727 0.9657792452298409 0.17526057778703727 0.9657792452298409 0.17526057778703727 0.034220754770159185 -0.17526057778703727
4.4355E9 0.03267090087199085 -0.17106528537716365 0.9673290991280094 0.17106528537716365 0.9673290991280094 0.17106528537716365 0.03267090087199085 -0.17106528537716365
4.51025E9 0.031197577132441538 -0.16696551665581083 0.9688024228675584 0.16696551665581083 0.9688024228675584 0.16696551665581083 0.031197577132441538 -0.16696551665581083
4.585E9 0.02979629843040938 -0.162957584610012 0.9702037015695906 0.162957584610012 0.9702037015695906 0.162957584610012 0.02979629843040938 -0.162957584610012
4.65975E9 0.028462903379901802 -0.15903796912814047 0.9715370966200981 0.15903796912814047 0.9715370966200981 0.15903796912814047 0.028462903379901802 -0.15903796912814047
4.7345E9 0.027193527201786725 -0.1552033095700853 0.9728064727982131 0.1552033095700853 0.9728064727982131 0.1552033095700853 0.027193527201786725 -0.1552033095700853
4.80925E9 0.02598457715851858 -0.1514503974957978 0.9740154228414816 0.1514503974957978 0.9740154228414816 0.1514503974957978 0.02598457715851858 -0.1514503974957978
4.884E9 0.024832710285020834 -0.14777616959003662 0.975167289714979 0.14777616959003662 0.975167289714979 0.14777616959003662 0.024832710285020834 -0.14777616959003662
4.95875E9 0.02373481317893279 -0.14417770081050715 0.9762651868210673 0.14417770081050715 0.9762651868210673 0.14417770081050715 0.02373481317893279 -0.14417770081050715
5.0335E9 0.02268798363986554 -0.14065219777808555 0.9773120163601345 0.14065219777808555 0.9773120163601345 0.14065219777808555 0.02268798363986554 -0.14065219777808555
5.10825E9 0.021689513970611033 -0.1371969924210619 0.9783104860293889 0.1371969924210619 0.9783104860293889 0.1371969924210619 0.021689513970611033 -0.1371969924210619
5.183E9 0.02073687577379308 -0.13380953587997843 0.9792631242262069 0.13380953587997843 0.9792631242262069 0.13380953587997843 0.02073687577379308 -0.13380953587997843
5.25775E9 0.0198277060955855 -0.1304873926754337 0.9801722939044145 0.1304873926754337 0.9801722939044145 0.1304873926754337 0.0198277060955855 -0.1304873926754337
5.3325E9 0.018959794784144984 -0.12722823513794274 0.9810402052158548 0.12722823513794274 0.9810402052158548 0.12722823513794274 0.018959794784144984 -0.12722823513794274
5.40725E9 0.018131072944574465 -0.12402983809641754 0.9818689270554256 0.12402983809641754 0.9818689270554256 0.12402983809641754 0.018131072944574465 -0.12402983809641754
5.482E9 0.01733960238477326 -0.12089007381990764 0.9826603976152268 0.12089007381990764 0.9826603976152268 0.12089007381990764 0.01733960238477326 -0.12089007381990764
5.55675E9 0.0165835659576426 -0.11780690720581895 0.9834164340423575 0.11780690720581895 0.9834164340423575 0.11780690720581895 0.0165835659576426 -0.11780690720581895
5.6315E9 0.015861258714967644 -0.11477839120678704 0.9841387412850321 0.11477839120678704 0.9841387412850321 0.11477839120678704 0.015861258714967644 -0.11477839120678704
5.70625E9 0.01517107979704624 -0.11180266248766785 0.9848289202029535 0.11180266248766785 0.9848289202029535 0.11180266248766785 0.01517107979704624 -0.11180266248766785
5.781E9 0.014511524989907414 -0.10887793730363973 0.9854884750100926 0.10887793730363973 0.9854884750100926 0.10887793730363973 0.014511524989907414 -0.10887793730363973
5.85575E9 0.013881179888878641 -0.10600250759015045 0.9861188201111213 0.10600250759015045 0.9861188201111213 0.10600250759015045 0.013881179888878641 -0.10600250759015045
5.9305E9 0.013278713613417056 -0.1031747372553301 0.9867212863865827 0.1031747372553301 0.9867212863865827 0.1031747372553301 0.013278713613417056 -0.1031747372553301
6.00525E9 0.012702873023608853 -0.10039305866551315 0.987297126976391 0.10039305866551315 0.987297126976391 0.10039305866551315 0.012702873023608853 -0.10039305866551315
6.08E9 0.012152477393637296 -0.09765596931462163 0.9878475226063628 0.09765596931462163 0.9878475226063628 0.09765596931462163 0.012152477393637296 -0.09765596931462163
6.15475E9 0.011626413501893551 -0.0949620286683506 0.9883735864981065 0.0949620286683506 0.9883735864981065 0.0949620286683506 0.011626413501893551 -0.0949620286683506
6.2295E9 0.011123631101313739 -0.09230985517433313 0.9888763688986862 0.09230985517433313 0.9888763688986862 0.09230985517433313 0.011123631101313739 -0.09230985517433313
6.30425E9 0.01064313873702548 -0.08969812342974702 0.9893568612629746 0.08969812342974702 0.9893568612629746 0.08969812342974702 0.01064313873702548 -0.08969812342974702
6.379E9 0.010183999881520413 -0.08712556149812777 0.9898160001184794 0.08712556149812777 0.9898160001184794 0.08712556149812777 0.010183999881520413 -0.08712556149812777
6.45375E9 0.00974532936038058 -0.08459094836748357 0.9902546706396195 0.08459094836748357 0.9902546706396195 0.08459094836748357 0.00974532936038058 -0.08459094836748357
6.5285E9 0.009326290044108274 -0.0820931115421409 0.9906737099558917 0.0820931115421409 0.9906737099558917 0.0820931115421409 0.009326290044108274 -0.0820931115421409
6.60325E9 0.008926089783875445 -0.0796309247610924 0.9910739102161248 0.0796309247610924 0.9910739102161248 0.0796309247610924 0.008926089783875445 -0.0796309247610924
6.678E9 0.00854397857104661 -0.07720330583596033 0.9914560214289534 0.07720330583596033 0.9914560214289534 0.07720330583596033 0.00854397857104661 -0.07720330583596033
6.75275E9 0.008179245902163158 -0.0748092146020244 0.991820754097837 0.0748092146020244 0.991820754097837 0.0748092146020244 0.008179245902163158 -0.0748092146020244
6.8275E9 0.007831218332729992 -0.07244765097609651 0.9921687816672701 0.07244765097609651 0.9921687816672701 0.07244765097609651 0.007831218332729992 -0.07244765097609651
6.90225E9 0.007499257204635062 -0.07011765311534408 0.9925007427953648 0.07011765311534408 0.9925007427953648 0.07011765311534408 0.007499257204635062 -0.07011765311534408
6.977E9 0.007182756533378043 -0.06781829567147862 0.9928172434666218 0.06781829567147862 0.9928172434666218 0.06781829567147862 0.007182756533378043 -0.06781829567147862
7.05175E9 0.006881141042498917 -0.06554868813502443 0.9931188589575012 0.06554868813502443 0.9931188589575012 0.06554868813502443 0.006881141042498917 -0.06554868813502443
7.1265E9 0.006593864333696561 -0.06330797326467354 0.9934061356663033 0.06330797326467354 0.9934061356663033 0.06330797326467354 0.006593864333696561 -0.06330797326467354
7.20125E9 0.006320407182121146 -0.06109532559700628 0.9936795928178788 0.06109532559700628 0.9936795928178788 0.06109532559700628 0.006320407182121146 -0.06109532559700628
7.276E9 0.006060275947225505 -0.05890995003212454 0.9939397240527743 0.05890995003212454 0.9939397240527743 0.05890995003212454 0.006060275947225505 -0.05890995003212454
7.35075E9 0.005813001090376471 -0.056751080490990924 0.9941869989096236 0.056751080490990924 0.9941869989096236 0.056751080490990924 0.005813001090376471 -0.056751080490990924
7.4255E9 0.0055781357911686 -0.054617978640510476 0.9944218642088313 0.054617978640510476 0.9944218642088313 0.054617978640510476 0.0055781357911686 -0.054617978640510476
7.50025E9 0.0053552546550550625 -0.05250993268261435 0.9946447453449452 0.05250993268261435 0.9946447453449452 0.05250993268261435 0.0053552546550550625 -0.05250993268261435
7.575E9 0.005143952505522018 -0.050426256203819915 0.9948560474944781 0.050426256203819915 0.9948560474944781 0.050426256203819915 0.005143952505522018 -0.050426256203819915
7.64975E9 0.004943843254589018 -0.048366287081946124 0.9950561567454108 0.048366287081946124 0.9950561567454108 0.048366287081946124 0.004943843254589018 -0.048366287081946124
7.7245E9 0.0047545588459240295 -0.046329386446851514 0.9952454411540761 0.046329386446851514 0.9952454411540761 0.046329386446851514 0.0047545588459240295 -0.046329386446851514
7.79925E9 0.004575748265323009 -0.044314937692245926 0.9954242517346769 0.044314937692245926 0.9954242517346769 0.044314937692245926 0.004575748265323009 -0.044314937692245926
7.874E9 0.0044070766137243355 -0.04232234553579489 0.9955929233862757 0.04232234553579489 0.9955929233862757 0.04232234553579489 0.0044070766137243355 -0.04232234553579489
7.94875E9 0.004248224238312189 -0.04035103512489896 0.9957517757616876 0.04035103512489896 0.9957517757616876 0.04035103512489896 0.004248224238312189 -0.04035103512489896
8.0235E9 0.004098885917613105 -0.038400451185678953 0.9959011140823869 0.038400451185678953 0.9959011140823869 0.038400451185678953 0.004098885917613105 -0.038400451185678953
8.09825E9 0.003958770096810267 -0.03647005721284312 0.9960412299031898 0.03647005721284312 0.9960412299031898 0.03647005721284312 0.003958770096810267 -0.03647005721284312
8.173E9 0.0038275981697926745 -0.03455933469824476 0.9961724018302073 0.03455933469824476 0.9961724018302073 0.03455933469824476 0.0038275981697926745 -0.03455933469824476
8.24775E9 0.003705103804724347 -0.03266778239606575 0.9962948961952757 0.03266778239606575 0.9962948961952757 0.03266778239606575 0.003705103804724347 -0.03266778239606575
8.3225E9 0.003591032310163982 -0.030794915622680184 0.9964089676898359 0.030794915622680184 0.9964089676898359 0.030794915622680184 0.003591032310163982 -0.030794915622680184
8.39725E9 0.0034851400389903967 -0.028940265589363807 0.9965148599610095 0.028940265589363807 0.9965148599610095 0.028940265589363807 0.0034851400389903967 -0.028940265589363807
8.472E9 0.003387193827595283 -0.02710337876612066 0.9966128061724049 0.02710337876612066 0.9966128061724049 0.02710337876612066 0.003387193827595283 -0.02710337876612066
8.54675E9 0.0032969704679939567 -0.02528381627499561 0.9967030295320063 0.02528381627499561 0.9967030295320063 0.02528381627499561 0.0032969704679939567 -0.02528381627499561
8.6215E9 0.003214256210678698 -0.023481153311336486 0.9967857437893212 0.023481153311336486 0.9967857437893212 0.023481153311336486 0.003214256210678698 -0.023481153311336486
8.69625E9 0.0031388462961988517 -0.02169497859155443 0.996861153703801 0.02169497859155443 0.996861153703801 0.02169497859155443 0.0031388462961988517 -0.02169497859155443
