!Murata Part Number: GJM0225C1E9R8BB01
!These Parameters are Measured in Series Mode Connection
!       o--ll--o
!Port1            Port2
!       o------o
!Operation Temp=25[degC], DC Bias Voltage=0[V]
!Freq. Start=100[MHz] Stop=30[GHz], 401[Steps]
!Data Generated on Feb 1, 2023
# Hz S RI R 50
!Freq.(Hz) S11(Real) S11(Imag) S21(Real) S21(Imag) S12(Real) S12(Imag) S22(Real) S22(Imag)
1.0E8 0.7247168126983853 -0.44639415884696587 0.27528318730161455 0.44639415884696587 0.27528318730161455 0.44639415884696587 0.7247168126983853 -0.44639415884696587
1.7475E8 0.46246596272001855 -0.49812638712403723 0.5375340372799815 0.49812638712403723 0.5375340372799815 0.49812638712403723 0.46246596272001855 -0.49812638712403723
2.495E8 0.29614284094405174 -0.4558858801722227 0.7038571590559484 0.4558858801722227 0.7038571590559484 0.4558858801722227 0.29614284094405174 -0.4558858801722227
3.2425E8 0.19876818543590558 -0.39819003746847104 0.8012318145640945 0.39819003746847104 0.8012318145640945 0.39819003746847104 0.19876818543590558 -0.39819003746847104
3.99E8 0.14014400964833912 -0.34602893852120714 0.8598559903516608 0.34602893852120714 0.8598559903516608 0.34602893852120714 0.14014400964833912 -0.34602893852120714
4.7375E8 0.1030570879609455 -0.3026900482553652 0.8969429120390545 0.3026900482553652 0.8969429120390545 0.3026900482553652 0.1030570879609455 -0.3026900482553652
5.485E8 0.07843153656266114 -0.26725730349390586 0.9215684634373388 0.26725730349390586 0.9215684634373388 0.26725730349390586 0.07843153656266114 -0.26725730349390586
6.2325E8 0.06137536705855068 -0.23816290852347943 0.9386246329414493 0.23816290852347943 0.9386246329414493 0.23816290852347943 0.06137536705855068 -0.23816290852347943
6.98E8 0.049132531721320184 -0.21401319001765695 0.9508674682786797 0.21401319001765695 0.9508674682786797 0.21401319001765695 0.049132531721320184 -0.21401319001765695
7.7275E8 0.04007668124115154 -0.19371601697728782 0.9599233187588482 0.19371601697728782 0.9599233187588482 0.19371601697728782 0.04007668124115154 -0.19371601697728782
8.475E8 0.03320606506996065 -0.17644468175827807 0.9667939349300393 0.17644468175827807 0.9667939349300393 0.17644468175827807 0.03320606506996065 -0.17644468175827807
9.2225E8 0.027879669486899246 -0.1615768354819251 0.9721203305131007 0.1615768354819251 0.9721203305131007 0.1615768354819251 0.027879669486899246 -0.1615768354819251
9.97E8 0.023673341520098645 -0.1486413369076454 0.9763266584799012 0.1486413369076454 0.9763266584799012 0.1486413369076454 0.023673341520098645 -0.1486413369076454
1.07175E9 0.020298062560380376 -0.13727792149248347 0.9797019374396195 0.13727792149248347 0.9797019374396195 0.13727792149248347 0.020298062560380376 -0.13727792149248347
1.1465E9 0.01755175253138773 -0.12720789586874862 0.9824482474686121 0.12720789586874862 0.9824482474686121 0.12720789586874862 0.01755175253138773 -0.12720789586874862
1.22125E9 0.015289870560519015 -0.11821309391685188 0.984710129439481 0.11821309391685188 0.984710129439481 0.11821309391685188 0.015289870560519015 -0.11821309391685188
1.296E9 0.013406929084556275 -0.11012074686069415 0.9865930709154436 0.11012074686069415 0.9865930709154436 0.11012074686069415 0.013406929084556275 -0.11012074686069415
1.37075E9 0.011824549554399393 -0.10279252780197706 0.9881754504456007 0.10279252780197706 0.9881754504456007 0.10279252780197706 0.011824549554399393 -0.10279252780197706
1.4455E9 0.010483553886395118 -0.09611654111346796 0.989516446113605 0.09611654111346796 0.989516446113605 0.09611654111346796 0.010483553886395118 -0.09611654111346796
1.52025E9 0.009338611476908227 -0.09000140123583368 0.9906613885230916 0.09000140123583368 0.9906613885230916 0.09000140123583368 0.009338611476908227 -0.09000140123583368
1.595E9 0.008354543160008329 -0.08437180697101093 0.9916454568399914 0.08437180697101093 0.9916454568399914 0.08437180697101093 0.008354543160008329 -0.08437180697101093
1.66975E9 0.007503722765324043 -0.07916519709227021 0.9924962772346759 0.07916519709227021 0.9924962772346759 0.07916519709227021 0.007503722765324043 -0.07916519709227021
1.7445E9 0.006764220094071687 -0.07432919616993533 0.9932357799059283 0.07432919616993533 0.9932357799059283 0.07432919616993533 0.006764220094071687 -0.07432919616993533
1.81925E9 0.006118453728369468 -0.06981964408134718 0.9938815462716304 0.06981964408134718 0.9938815462716304 0.06981964408134718 0.006118453728369468 -0.06981964408134718
1.894E9 0.005552200198742189 -0.06559906118407824 0.9944477998012577 0.06559906118407824 0.9944477998012577 0.06559906118407824 0.005552200198742189 -0.06559906118407824
1.96875E9 0.0050538559999332554 -0.06163544196582241 0.9949461440000666 0.06163544196582241 0.9949461440000666 0.06163544196582241 0.0050538559999332554 -0.06163544196582241
2.0435E9 0.004613881506925508 -0.05790129875659689 0.9953861184930745 0.05790129875659689 0.9953861184930745 0.05790129875659689 0.004613881506925508 -0.05790129875659689
2.11825E9 0.004224377430980263 -0.054372897563700784 0.9957756225690195 0.054372897563700784 0.9957756225690195 0.054372897563700784 0.004224377430980263 -0.054372897563700784
2.193E9 0.003878758997383949 -0.05102964280538464 0.9961212410026161 0.05102964280538464 0.9961212410026161 0.05102964280538464 0.003878758997383949 -0.05102964280538464
2.26775E9 0.003571502967791775 -0.04785357839910054 0.9964284970322081 0.04785357839910054 0.9964284970322081 0.04785357839910054 0.003571502967791775 -0.04785357839910054
2.3425E9 0.0032979495199824335 -0.04482898048509588 0.9967020504800177 0.04482898048509588 0.9967020504800177 0.04482898048509588 0.0032979495199824335 -0.04482898048509588
2.41725E9 0.0030541458344329024 -0.04194202285189586 0.9969458541655671 0.04194202285189586 0.9969458541655671 0.04194202285189586 0.0030541458344329024 -0.04194202285189586
2.492E9 0.002836721673056953 -0.039180500446007 0.9971632783269431 0.039180500446007 0.9971632783269431 0.039180500446007 0.002836721673056953 -0.039180500446007
2.56675E9 0.002642789703729989 -0.03653359959461945 0.99735721029627 0.03653359959461945 0.99735721029627 0.03653359959461945 0.002642789703729989 -0.03653359959461945
2.6415E9 0.0024698651159936577 -0.03399170603183229 0.9975301348840064 0.03399170603183229 0.9975301348840064 0.03399170603183229 0.0024698651159936577 -0.03399170603183229
2.71625E9 0.002315800386836928 -0.03154624369999404 0.9976841996131632 0.03154624369999404 0.9976841996131632 0.03154624369999404 0.002315800386836928 -0.03154624369999404
2.791E9 0.0021787320272710284 -0.02918953874564651 0.9978212679727289 0.02918953874564651 0.9978212679727289 0.02918953874564651 0.0021787320272710284 -0.02918953874564651
2.86575E9 0.002057036865711247 -0.026914704251816447 0.9979429631342887 0.026914704251816447 0.9979429631342887 0.026914704251816447 0.002057036865711247 -0.026914704251816447
2.9405E9 0.0019492959699424924 -0.02471554212404771 0.9980507040300574 0.02471554212404771 0.9980507040300574 0.02471554212404771 0.0019492959699424924 -0.02471554212404771
3.01525E9 0.0018542647233116393 -0.02258645923513006 0.9981457352766883 0.02258645923513006 0.9981457352766883 0.02258645923513006 0.0018542647233116393 -0.02258645923513006
3.09E9 0.0017708478869448846 -0.020522395476627084 0.998229152113055 0.020522395476627084 0.998229152113055 0.020522395476627084 0.0017708478869448846 -0.020522395476627084
3.16475E9 0.0016980787229868284 -0.018518761796848367 0.9983019212770131 0.018518761796848367 0.9983019212770131 0.018518761796848367 0.0016980787229868284 -0.018518761796848367
3.2395E9 0.001635101442174285 -0.01657138664967002 0.9983648985578257 0.01657138664967002 0.9983648985578257 0.01657138664967002 0.001635101442174285 -0.01657138664967002
3.31425E9 0.0015811563857951805 -0.01467646955548796 0.9984188436142049 0.01467646955548796 0.9984188436142049 0.01467646955548796 0.0015811563857951805 -0.01467646955548796
3.389E9 0.0015355674671067997 -0.012830540699075164 0.9984644325328934 0.012830540699075164 0.9984644325328934 0.012830540699075164 0.0015355674671067997 -0.012830540699075164
3.46375E9 0.0014977314879669264 -0.01103042567037118 0.998502268512033 0.01103042567037118 0.998502268512033 0.01103042567037118 0.0014977314879669264 -0.01103042567037118
3.5385E9 0.0014671090183083135 -0.009273214601920666 0.9985328909816917 0.009273214601920666 0.9985328909816917 0.009273214601920666 0.0014671090183083135 -0.009273214601920666
3.61325E9 0.0014432165833565744 -0.0075562350775439545 0.9985567834166436 0.0075562350775439545 0.9985567834166436 0.0075562350775439545 0.0014432165833565744 -0.0075562350775439545
3.688E9 0.0014256199493499506 -0.005877028286159175 0.99857438005065 0.005877028286159175 0.99857438005065 0.005877028286159175 0.0014256199493499506 -0.005877028286159175
3.76275E9 0.0014139283354153288 -0.004233327976648827 0.9985860716645847 0.004233327976648827 0.9985860716645847 0.004233327976648827 0.0014139283354153288 -0.004233327976648827
3.8375E9 0.001407789409075736 -0.002623041837573402 0.9985922105909244 0.002623041837573402 0.9985922105909244 0.002623041837573402 0.001407789409075736 -0.002623041837573402
3.91225E9 0.0014068849470727984 -0.00104423498200419 0.9985931150529269 0.00104423498200419 0.9985931150529269 0.00104423498200419 0.0014068849470727984 -0.00104423498200419
3.987E9 0.0014109270629226731 5.048847351258939E-4 0.9985890729370771 -5.048847351258939E-4 0.9985890729370771 -5.048847351258939E-4 0.0014109270629226731 5.048847351258939E-4
4.06175E9 0.001419654918777522 0.0020259798002890206 0.9985803450812224 -0.0020259798002890206 0.9985803450812224 -0.0020259798002890206 0.001419654918777522 0.0020259798002890206
4.1365E9 0.0014328318524385905 0.003520594725221998 0.9985671681475612 -0.003520594725221998 0.9985671681475612 -0.003520594725221998 0.0014328318524385905 0.003520594725221998
4.21125E9 0.0014502428613157666 0.004990166503401729 0.9985497571386842 -0.004990166503401729 0.9985497571386842 -0.004990166503401729 0.0014502428613157666 0.004990166503401729
4.286E9 0.0014716923941925177 0.006436033987525217 0.9985283076058075 -0.006436033987525217 0.9985283076058075 -0.006436033987525217 0.0014716923941925177 0.006436033987525217
4.36075E9 0.0014970024091854669 0.00785944631633942 0.9985029975908145 -0.00785944631633942 0.9985029975908145 -0.00785944631633942 0.0014970024091854669 0.00785944631633942
4.4355E9 0.0015260106625654985 0.009261570502119383 0.9984739893374346 -0.009261570502119383 0.9984739893374346 -0.009261570502119383 0.0015260106625654985 0.009261570502119383
4.51025E9 0.0015585691983583739 0.010643498275555802 0.9984414308016417 -0.010643498275555802 0.9984414308016417 -0.010643498275555802 0.0015585691983583739 0.010643498275555802
4.585E9 0.0015945430130496205 0.012006252272381524 0.9984054569869504 -0.012006252272381524 0.9984054569869504 -0.012006252272381524 0.0015945430130496205 0.012006252272381524
4.65975E9 0.0016338088734287818 0.013350791635410612 0.9983661911265712 -0.013350791635410612 0.9983661911265712 -0.013350791635410612 0.0016338088734287818 0.013350791635410612
4.7345E9 0.0016762542687422056 0.01467801709650615 0.998323745731258 -0.01467801709650615 0.998323745731258 -0.01467801709650615 0.0016762542687422056 0.01467801709650615
4.80925E9 0.0017217764809793789 0.01598877559510502 0.9982782235190207 -0.01598877559510502 0.9982782235190207 -0.01598877559510502 0.0017217764809793789 0.01598877559510502
4.884E9 0.001770281759375865 0.017283864483119724 0.998229718240624 -0.017283864483119724 0.998229718240624 -0.017283864483119724 0.001770281759375865 0.017283864483119724
4.95875E9 0.0018216845871422143 0.018564035360147547 0.9981783154128577 -0.018564035360147547 0.9981783154128577 -0.018564035360147547 0.0018216845871422143 0.018564035360147547
5.0335E9 0.001875907030077303 0.019829997577812918 0.9981240929699227 -0.019829997577812918 0.9981240929699227 -0.019829997577812918 0.001875907030077303 0.019829997577812918
5.10825E9 0.0019328781581416728 0.021082421447636883 0.9980671218418583 -0.021082421447636883 0.9980671218418583 -0.021082421447636883 0.0019328781581416728 0.021082421447636883
5.183E9 0.0019925335322891246 0.02232194118297329 0.998007466467711 -0.02232194118297329 0.998007466467711 -0.02232194118297329 0.0019925335322891246 0.02232194118297329
5.25775E9 0.0020548147499145466 0.023549157602194382 0.9979451852500855 -0.023549157602194382 0.9979451852500855 -0.023549157602194382 0.0020548147499145466 0.023549157602194382
5.3325E9 0.0021196690431990865 0.024764640617381962 0.9978803309568011 -0.024764640617381962 0.9978803309568011 -0.024764640617381962 0.0021196690431990865 0.024764640617381962
5.40725E9 0.002187048925442635 0.025968931530225208 0.9978129510745574 -0.025968931530225208 0.9978129510745574 -0.025968931530225208 0.002187048925442635 0.025968931530225208
5.482E9 0.0022569118811870906 0.027162545154595756 0.9977430881188131 -0.027162545154595756 0.9977430881188131 -0.027162545154595756 0.0022569118811870906 0.027162545154595756
5.55675E9 0.0023292200965684146 0.028345971783322446 0.9976707799034314 -0.028345971783322446 0.9976707799034314 -0.028345971783322446 0.0023292200965684146 0.028345971783322446
5.6315E9 0.002403940226904972 0.029519679014986998 0.9975960597730951 -0.029519679014986998 0.9975960597730951 -0.029519679014986998 0.002403940226904972 0.029519679014986998
5.70625E9 0.002481043199046592 0.030684113455078207 0.9975189568009535 -0.030684113455078207 0.9975189568009535 -0.030684113455078207 0.002481043199046592 0.030684113455078207
5.781E9 0.0025605040464842426 0.03183970230455234 0.9974394959535157 -0.03183970230455234 0.9974394959535157 -0.03183970230455234 0.0025605040464842426 0.03183970230455234
5.85575E9 0.002642301775663867 0.03298685484772568 0.9973576982243361 -0.03298685484772568 0.9973576982243361 -0.03298685484772568 0.002642301775663867 0.03298685484772568
5.9305E9 0.0027264192623696146 0.034125963850460524 0.9972735807376304 -0.034125963850460524 0.9972735807376304 -0.034125963850460524 0.0027264192623696146 0.034125963850460524
6.00525E9 0.0028128431774496385 0.03525740687877546 0.9971871568225503 -0.03525740687877546 0.9971871568225503 -0.03525740687877546 0.0028128431774496385 0.03525740687877546
6.08E9 0.0029015639415610577 0.03638154754731031 0.9970984360584391 -0.03638154754731031 0.9970984360584391 -0.03638154754731031 0.0029015639415610577 0.03638154754731031
6.15475E9 0.00299257570901788 0.03749873670648764 0.9970074242909822 -0.03749873670648764 0.9970074242909822 -0.03749873670648764 0.00299257570901788 0.03749873670648764
6.2295E9 0.0030858763812462776 0.038609313576737476 0.9969141236187539 -0.038609313576737476 0.9969141236187539 -0.038609313576737476 0.0030858763812462776 0.038609313576737476
6.30425E9 0.003181467650794841 0.03971360683777403 0.9968185323492055 -0.03971360683777403 0.9968185323492055 -0.03971360683777403 0.003181467650794841 0.03971360683777403
6.379E9 0.0032793550773247736 0.0408119356806395 0.9967206449226753 -0.0408119356806395 0.9967206449226753 -0.0408119356806395 0.0032793550773247736 0.0408119356806395
6.45375E9 0.003379548197528062 0.04190461083004958 0.9966204518024719 -0.04190461083004958 0.9966204518024719 -0.04190461083004958 0.003379548197528062 0.04190461083004958
6.5285E9 0.003482060671505008 0.04299193554449385 0.9965179393284951 -0.04299193554449385 0.9965179393284951 -0.04299193554449385 0.003482060671505008 0.04299193554449385
6.60325E9 0.0035869104687923934 0.04407420660156148 0.9964130895312077 -0.04407420660156148 0.9964130895312077 -0.04407420660156148 0.0035869104687923934 0.04407420660156148
6.678E9 0.003694120097989813 0.04515171527608249 0.9963058799020104 -0.04515171527608249 0.9963058799020104 -0.04515171527608249 0.003694120097989813 0.04515171527608249
6.75275E9 0.003803716884807855 0.046224748318903705 0.9961962831151921 -0.046224748318903705 0.9961962831151921 -0.046224748318903705 0.003803716884807855 0.046224748318903705
6.8275E9 0.003915733304386664 0.04729358894446538 0.9960842666956136 -0.04729358894446538 0.9960842666956136 -0.04729358894446538 0.003915733304386664 0.04729358894446538
6.90225E9 0.0040302073749420705 0.04835851783581892 0.9959697926250579 -0.04835851783581892 0.9959697926250579 -0.04835851783581892 0.0040302073749420705 0.04835851783581892
6.977E9 0.004147183121232303 0.04941981417634381 0.9958528168787676 -0.04941981417634381 0.9958528168787676 -0.04941981417634381 0.004147183121232303 0.04941981417634381
7.05175E9 0.004266711118055029 0.05047775671819876 0.995733288881945 -0.05047775671819876 0.995733288881945 -0.05047775671819876 0.004266711118055029 0.05047775671819876
7.1265E9 0.004388849126049163 0.05153262489849978 0.9956111508739509 -0.05153262489849978 0.9956111508739509 -0.05153262489849978 0.004388849126049163 0.05153262489849978
7.20125E9 0.004513662834572748 0.052584700015382145 0.9954863371654272 -0.052584700015382145 0.9954863371654272 -0.052584700015382145 0.004513662834572748 0.052584700015382145
7.276E9 0.00464122672946291 0.05363426647750177 0.9953587732705368 -0.05363426647750177 0.9953587732705368 -0.05363426647750177 0.00464122672946291 0.05363426647750177
7.35075E9 0.004771625107191421 0.05468161314220367 0.9952283748928086 -0.05468161314220367 0.9952283748928086 -0.05468161314220367 0.004771625107191421 0.05468161314220367
7.4255E9 0.004904953261479773 0.05572703475956656 0.9950950467385202 -0.05572703475956656 0.9950950467385202 -0.05572703475956656 0.004904953261479773 0.05572703475956656
7.50025E9 0.005041318874050808 0.05677083354187576 0.9949586811259491 -0.05677083354187576 0.9949586811259491 -0.05677083354187576 0.005041318874050808 0.05677083354187576
7.575E9 0.005180843648150248 0.05781332088082923 0.9948191563518497 -0.05781332088082923 0.9948191563518497 -0.05781332088082923 0.005180843648150248 0.05781332088082923
7.64975E9 0.005323665232135488 0.05885481923800528 0.9946763347678644 -0.05885481923800528 0.9946763347678644 -0.05885481923800528 0.005323665232135488 0.05885481923800528
7.7245E9 0.005469939491273384 0.05989566423787617 0.9945300605087265 -0.05989566423787617 0.9945300605087265 -0.05989566423787617 0.005469939491273384 0.05989566423787617
7.79925E9 0.005619843199530914 0.06093620699699627 0.9943801568004691 -0.06093620699699627 0.9943801568004691 -0.06093620699699627 0.005619843199530914 0.06093620699699627
7.874E9 0.005773577240395517 0.06197681672798736 0.9942264227596045 -0.06197681672798736 0.9942264227596045 -0.06197681672798736 0.005773577240395517 0.06197681672798736
7.94875E9 0.005931370427697397 0.06301788366261088 0.9940686295723027 -0.06301788366261088 0.9940686295723027 -0.06301788366261088 0.005931370427697397 0.06301788366261088
8.0235E9 0.006093484085451746 0.06405982234455572 0.9939065159145481 -0.06405982234455572 0.9939065159145481 -0.06405982234455572 0.006093484085451746 0.06405982234455572
8.09825E9 0.006260217561801957 0.06510307534949188 0.9937397824381982 -0.06510307534949188 0.9937397824381982 -0.06510307534949188 0.006260217561801957 0.06510307534949188
8.173E9 0.006431914898793501 0.06614811749722578 0.9935680851012066 -0.06614811749722578 0.9935680851012066 -0.06614811749722578 0.006431914898793501 0.06614811749722578
8.24775E9 0.006608972940418993 0.06719546062799071 0.9933910270595812 -0.06719546062799071 0.9933910270595812 -0.06719546062799071 0.006608972940418993 0.06719546062799071
8.3225E9 0.006791851240887649 0.0682456590211827 0.9932081487591126 -0.0682456590211827 0.9932081487591126 -0.0682456590211827 0.006791851240887649 0.0682456590211827
8.39725E9 0.006981084239887178 0.06929931553872563 0.9930189157601126 -0.06929931553872563 0.9930189157601126 -0.06929931553872563 0.006981084239887178 0.06929931553872563
8.472E9 0.007177296310698982 0.07035708857419508 0.9928227036893011 -0.07035708857419508 0.9928227036893011 -0.07035708857419508 0.007177296310698982 0.07035708857419508
