!Murata Part Number: GJM0225C1E2R2BB01
!These Parameters are Measured in Series Mode Connection
!       o--ll--o
!Port1            Port2
!       o------o
!Operation Temp=25[degC], DC Bias Voltage=0[V]
!Freq. Start=100[MHz] Stop=30[GHz], 401[Steps]
!Data Generated on Feb 1, 2023
# Hz S RI R 50
!Freq.(Hz) S11(Real) S11(Imag) S21(Real) S21(Imag) S12(Real) S12(Imag) S22(Real) S22(Imag)
1.0E8 0.9812120902255533 -0.1356465330036746 0.018787909774446648 0.1356465330036746 0.018787909774446648 0.1356465330036746 0.9812120902255533 -0.1356465330036746
1.7475E8 0.9447326788919624 -0.22827627159650346 0.055267321108037434 0.22827627159650346 0.055267321108037434 0.22827627159650346 0.9447326788919624 -0.22827627159650346
2.495E8 0.8933827338551132 -0.3083045323012163 0.10661726614488687 0.3083045323012163 0.10661726614488687 0.3083045323012163 0.8933827338551132 -0.3083045323012163
3.2425E8 0.8321091139413297 -0.3733511619362193 0.16789088605867045 0.3733511619362193 0.16789088605867045 0.3733511619362193 0.8321091139413297 -0.3733511619362193
3.99E8 0.7657531760499124 -0.4230119378808319 0.2342468239500877 0.4230119378808319 0.2342468239500877 0.4230119378808319 0.7657531760499124 -0.4230119378808319
4.7375E8 0.6983626401351174 -0.4583560864009465 0.3016373598648827 0.4583560864009465 0.3016373598648827 0.4583560864009465 0.6983626401351174 -0.4583560864009465
5.485E8 0.6329049923920249 -0.48130226975297874 0.36709500760797514 0.48130226975297874 0.36709500760797514 0.48130226975297874 0.6329049923920249 -0.48130226975297874
6.2325E8 0.5712900947980926 -0.49408281426310857 0.4287099052019075 0.49408281426310857 0.4287099052019075 0.49408281426310857 0.5712900947980926 -0.49408281426310857
6.98E8 0.5145578140233178 -0.4988802616391238 0.4854421859766822 0.4988802616391238 0.4854421859766822 0.4988802616391238 0.5145578140233178 -0.4988802616391238
7.7275E8 0.4631131795108055 -0.49763013268195794 0.5368868204891943 0.49763013268195794 0.5368868204891943 0.49763013268195794 0.4631131795108055 -0.49763013268195794
8.475E8 0.4169414554663576 -0.49194530549062543 0.5830585445336423 0.49194530549062543 0.5830585445336423 0.49194530549062543 0.4169414554663576 -0.49194530549062543
9.2225E8 0.3757766045234923 -0.4831139233591409 0.6242233954765078 0.4831139233591409 0.6242233954765078 0.4831139233591409 0.3757766045234923 -0.4831139233591409
9.97E8 0.3392207356799849 -0.47213399826364005 0.6607792643200151 0.47213399826364005 0.6607792643200151 0.47213399826364005 0.3392207356799849 -0.47213399826364005
1.07175E9 0.3068225979854617 -0.4597613241115 0.6931774020145384 0.4597613241115 0.6931774020145384 0.4597613241115 0.3068225979854617 -0.4597613241115
1.1465E9 0.2781257005042059 -0.4465579137703473 0.7218742994957942 0.4465579137703473 0.7218742994957942 0.4465579137703473 0.2781257005042059 -0.4465579137703473
1.22125E9 0.25269556679789146 -0.4329350732551609 0.7473044332021084 0.4329350732551609 0.7473044332021084 0.4329350732551609 0.25269556679789146 -0.4329350732551609
1.296E9 0.2301334547621937 -0.41918916452627947 0.7698665452378062 0.41918916452627947 0.7698665452378062 0.41918916452627947 0.2301334547621937 -0.41918916452627947
1.37075E9 0.21008172895797797 -0.40553009577013477 0.7899182710420222 0.40553009577013477 0.7899182710420222 0.40553009577013477 0.21008172895797797 -0.40553009577013477
1.4455E9 0.19222435368283353 -0.3921034267643763 0.8077756463171665 0.3921034267643763 0.8077756463171665 0.3921034267643763 0.19222435368283353 -0.3921034267643763
1.52025E9 0.17628472891940902 -0.3790072239017104 0.823715271080591 0.3790072239017104 0.823715271080591 0.3790072239017104 0.17628472891940902 -0.3790072239017104
1.595E9 0.1620222409937815 -0.366304761776797 0.8379777590062185 0.366304761776797 0.8379777590062185 0.366304761776797 0.1620222409937815 -0.366304761776797
1.66975E9 0.14922834299355947 -0.3540340179053003 0.8507716570064405 0.3540340179053003 0.8507716570064405 0.3540340179053003 0.14922834299355947 -0.3540340179053003
1.7445E9 0.13772262672911786 -0.3422147299405021 0.862277373270882 0.3422147299405021 0.862277373270882 0.3422147299405021 0.13772262672911786 -0.3422147299405021
1.81925E9 0.12734912997757986 -0.3308536190219106 0.87265087002242 0.3308536190219106 0.87265087002242 0.3308536190219106 0.12734912997757986 -0.3308536190219106
1.894E9 0.11797299190234141 -0.3199482425450931 0.8820270080976584 0.3199482425450931 0.8820270080976584 0.3199482425450931 0.11797299190234141 -0.3199482425450931
1.96875E9 0.10947749362620608 -0.3094898269626669 0.890522506373794 0.3094898269626669 0.890522506373794 0.3094898269626669 0.10947749362620608 -0.3094898269626669
2.0435E9 0.10176147892193325 -0.2994653435779429 0.8982385210780668 0.2994653435779429 0.8982385210780668 0.2994653435779429 0.10176147892193325 -0.2994653435779429
2.11825E9 0.09473712845580319 -0.2898590234476638 0.9052628715441968 0.2898590234476638 0.9052628715441968 0.2898590234476638 0.09473712845580319 -0.2898590234476638
2.193E9 0.08832805156812862 -0.2806534571664817 0.9116719484318714 0.2806534571664817 0.9116719484318714 0.2806534571664817 0.08832805156812862 -0.2806534571664817
2.26775E9 0.08246765700836774 -0.27183038768886997 0.9175323429916321 0.27183038768886997 0.9175323429916321 0.27183038768886997 0.08246765700836774 -0.27183038768886997
2.3425E9 0.07709776520762299 -0.26337127637208896 0.922902234792377 0.26337127637208896 0.922902234792377 0.26337127637208896 0.07709776520762299 -0.26337127637208896
2.41725E9 0.07216742768688336 -0.2552577016799954 0.9278325723131166 0.2552577016799954 0.9278325723131166 0.2552577016799954 0.07216742768688336 -0.2552577016799954
2.492E9 0.06763192297079097 -0.2474716346231561 0.932368077029209 0.2474716346231561 0.932368077029209 0.2474716346231561 0.06763192297079097 -0.2474716346231561
2.56675E9 0.06345190228932354 -0.23999562363342083 0.9365480977106767 0.23999562363342083 0.9365480977106767 0.23999562363342083 0.06345190228932354 -0.23999562363342083
2.6415E9 0.05959266207769227 -0.23281291314229158 0.9404073379223077 0.23281291314229158 0.9404073379223077 0.23281291314229158 0.05959266207769227 -0.23281291314229158
2.71625E9 0.056023523672671195 -0.2259075138822512 0.943976476327329 0.2259075138822512 0.943976476327329 0.2259075138822512 0.056023523672671195 -0.2259075138822512
2.791E9 0.05271730359439301 -0.2192642382900864 0.9472826964056071 0.2192642382900864 0.9472826964056071 0.2192642382900864 0.05271730359439301 -0.2192642382900864
2.86575E9 0.04964986039354771 -0.2128687109418943 0.9503501396064523 0.2128687109418943 0.9503501396064523 0.2128687109418943 0.04964986039354771 -0.2128687109418943
2.9405E9 0.046799706260154596 -0.20670736138195087 0.9532002937398454 0.20670736138195087 0.9532002937398454 0.20670736138195087 0.046799706260154596 -0.20670736138195087
3.01525E9 0.044147673469595944 -0.2007674047941888 0.9558523265304042 0.2007674047941888 0.9558523265304042 0.2007674047941888 0.044147673469595944 -0.2007674047941888
3.09E9 0.041676627326285645 -0.19503681453756858 0.9583233726737144 0.19503681453756858 0.9583233726737144 0.19503681453756858 0.041676627326285645 -0.19503681453756858
3.16475E9 0.03937121859630255 -0.18950428950093445 0.9606287814036975 0.18950428950093445 0.9606287814036975 0.18950428950093445 0.03937121859630255 -0.18950428950093445
3.2395E9 0.03721766953542873 -0.18415921843701394 0.9627823304645711 0.18415921843701394 0.9627823304645711 0.18415921843701394 0.03721766953542873 -0.18415921843701394
3.31425E9 0.035203588552015566 -0.17899164284082497 0.9647964114479842 0.17899164284082497 0.9647964114479842 0.17899164284082497 0.035203588552015566 -0.17899164284082497
3.389E9 0.03331780932423333 -0.17399221949415286 0.9666821906757667 0.17399221949415286 0.9666821906757667 0.17399221949415286 0.03331780932423333 -0.17399221949415286
3.46375E9 0.031550250843593745 -0.16915218346715027 0.9684497491564064 0.16915218346715027 0.9684497491564064 0.16915218346715027 0.031550250843593745 -0.16915218346715027
3.5385E9 0.029891795402365973 -0.16446331212227439 0.9701082045976339 0.16446331212227439 0.9701082045976339 0.16446331212227439 0.029891795402365973 -0.16446331212227439
3.61325E9 0.028334181999435964 -0.1599178904835783 0.971665818000564 0.1599178904835783 0.971665818000564 0.1599178904835783 0.028334181999435964 -0.1599178904835783
3.688E9 0.026869913022165674 -0.15550867819999553 0.9731300869778343 0.15550867819999553 0.9731300869778343 0.15550867819999553 0.026869913022165674 -0.15550867819999553
3.76275E9 0.02549217238327715 -0.15122887823279524 0.9745078276167229 0.15122887823279524 0.9745078276167229 0.15122887823279524 0.02549217238327715 -0.15122887823279524
3.8375E9 0.024194753562008457 -0.1470721073258962 0.9758052464379916 0.1470721073258962 0.9758052464379916 0.1470721073258962 0.024194753562008457 -0.1470721073258962
3.91225E9 0.02297199622630486 -0.14303236826647633 0.977028003773695 0.14303236826647633 0.977028003773695 0.14303236826647633 0.02297199622630486 -0.14303236826647633
3.987E9 0.0218187303046938 -0.13910402390720114 0.9781812696953062 0.13910402390720114 0.9781812696953062 0.13910402390720114 0.0218187303046938 -0.13910402390720114
4.06175E9 0.02073022653862229 -0.13528177289659934 0.9792697734613779 0.13528177289659934 0.9792697734613779 0.13528177289659934 0.02073022653862229 -0.13528177289659934
4.1365E9 0.019702152683272196 -0.1315606270477209 0.9802978473167279 0.1315606270477209 0.9802978473167279 0.1315606270477209 0.019702152683272196 -0.1315606270477209
4.21125E9 0.018730534641256666 -0.1279358902650431 0.9812694653587436 0.1279358902650431 0.9812694653587436 0.1279358902650431 0.018730534641256666 -0.1279358902650431
4.286E9 0.017811721912493136 -0.12440313894398121 0.9821882780875067 0.12440313894398121 0.9821882780875067 0.12440313894398121 0.017811721912493136 -0.12440313894398121
4.36075E9 0.016942356827737086 -0.12095820375507291 0.983057643172263 0.12095820375507291 0.983057643172263 0.12095820375507291 0.016942356827737086 -0.12095820375507291
4.4355E9 0.01611934710506929 -0.11759715272499077 0.9838806528949308 0.11759715272499077 0.9838806528949308 0.11759715272499077 0.01611934710506929 -0.11759715272499077
4.51025E9 0.015339841329995538 -0.11431627552829508 0.9846601586700047 0.11431627552829508 0.9846601586700047 0.11431627552829508 0.015339841329995538 -0.11431627552829508
4.585E9 0.014601207012361098 -0.11111206890673705 0.985398792987639 0.11111206890673705 0.985398792987639 0.11111206890673705 0.014601207012361098 -0.11111206890673705
4.65975E9 0.013901010918355602 -0.10798122313656991 0.9860989890816445 0.10798122313656991 0.9860989890816445 0.10798122313656991 0.013901010918355602 -0.10798122313656991
4.7345E9 0.013237001414621908 -0.10492060946842224 0.9867629985853781 0.10492060946842224 0.9867629985853781 0.10492060946842224 0.013237001414621908 -0.10492060946842224
4.80925E9 0.012607092594838828 -0.10192726846863258 0.9873929074051611 0.10192726846863258 0.9873929074051611 0.10192726846863258 0.012607092594838828 -0.10192726846863258
4.884E9 0.012009349987919834 -0.09899839919536359 0.9879906500120802 0.09899839919536359 0.9879906500120802 0.09899839919536359 0.012009349987919834 -0.09899839919536359
4.95875E9 0.01144197767183655 -0.09613134914721658 0.9885580223281635 0.09613134914721658 0.9885580223281635 0.09613134914721658 0.01144197767183655 -0.09613134914721658
5.0335E9 0.010903306638601697 -0.093323604926354 0.9890966933613983 0.093323604926354 0.9890966933613983 0.093323604926354 0.010903306638601697 -0.093323604926354
5.10825E9 0.010391784274615849 -0.09057278356227236 0.9896082157253843 0.09057278356227236 0.9896082157253843 0.09057278356227236 0.010391784274615849 -0.09057278356227236
5.183E9 0.009905964836801154 -0.0878766244463083 0.9900940351631989 0.0878766244463083 0.9900940351631989 0.0878766244463083 0.009905964836801154 -0.0878766244463083
5.25775E9 0.009444500819059159 -0.08523298183068623 0.9905554991809409 0.08523298183068623 0.9905554991809409 0.08523298183068623 0.009444500819059159 -0.08523298183068623
5.3325E9 0.00900613511589283 -0.08263981784941926 0.9909938648841072 0.08263981784941926 0.9909938648841072 0.08263981784941926 0.00900613511589283 -0.08263981784941926
5.40725E9 0.008589693900775117 -0.08009519602165342 0.9914103060992249 0.08009519602165342 0.9914103060992249 0.08009519602165342 0.008589693900775117 -0.08009519602165342
5.482E9 0.008194080146240167 -0.07759727520109792 0.9918059198537598 0.07759727520109792 0.9918059198537598 0.07759727520109792 0.008194080146240167 -0.07759727520109792
5.55675E9 0.00781826772090177 -0.07514430393802037 0.9921817322790983 0.07514430393802037 0.9921817322790983 0.07514430393802037 0.00781826772090177 -0.07514430393802037
5.6315E9 0.007461296005822337 -0.07273461522291506 0.9925387039941777 0.07273461522291506 0.9925387039941777 0.07273461522291506 0.007461296005822337 -0.07273461522291506
5.70625E9 0.007122264978997628 -0.0703666215833805 0.9928777350210025 0.0703666215833805 0.9928777350210025 0.0703666215833805 0.007122264978997628 -0.0703666215833805
5.781E9 0.006800330722303424 -0.06803881050798503 0.9931996692776964 0.06803881050798503 0.9931996692776964 0.06803881050798503 0.006800330722303424 -0.06803881050798503
5.85575E9 0.006494701310168271 -0.06574974017296849 0.9935052986898318 0.06574974017296849 0.9935052986898318 0.06574974017296849 0.006494701310168271 -0.06574974017296849
5.9305E9 0.0062046330435760536 -0.06349803544952767 0.9937953669564238 0.06349803544952767 0.9937953669564238 0.06349803544952767 0.0062046330435760536 -0.06349803544952767
6.00525E9 0.005929426996838066 -0.061282384171188954 0.994070573003162 0.061282384171188954 0.994070573003162 0.061282384171188954 0.005929426996838066 -0.061282384171188954
6.08E9 0.0056684258479679185 -0.059101533642376615 0.994331574152032 0.059101533642376615 0.994331574152032 0.059101533642376615 0.0056684258479679185 -0.059101533642376615
6.15475E9 0.005421010966501038 -0.05695428737077066 0.9945789890334991 0.05695428737077066 0.9945789890334991 0.05695428737077066 0.005421010966501038 -0.05695428737077066
6.2295E9 0.0051865997352691035 -0.05483950200740215 0.9948134002647311 0.05483950200740215 0.9948134002647311 0.05483950200740215 0.0051865997352691035 -0.05483950200740215
6.30425E9 0.0049646430850115615 -0.052756084479686445 0.9950353569149885 0.052756084479686445 0.9950353569149885 0.052756084479686445 0.0049646430850115615 -0.052756084479686445
6.379E9 0.00475462322281604 -0.05070298930373978 0.995245376777184 0.05070298930373978 0.995245376777184 0.05070298930373978 0.00475462322281604 -0.05070298930373978
6.45375E9 0.00455605153725904 -0.048679216063378626 0.995443948462741 0.048679216063378626 0.995443948462741 0.048679216063378626 0.00455605153725904 -0.048679216063378626
6.5285E9 0.004368466664794255 -0.046683807044167094 0.9956315333352057 0.046683807044167094 0.9956315333352057 0.046683807044167094 0.004368466664794255 -0.046683807044167094
6.60325E9 0.004191432703432992 -0.04471584501176861 0.9958085672965669 0.04471584501176861 0.9958085672965669 0.04471584501176861 0.004191432703432992 -0.04471584501176861
6.678E9 0.004024537561099096 -0.042774451124671674 0.995975462438901 0.042774451124671674 0.995975462438901 0.042774451124671674 0.004024537561099096 -0.042774451124671674
6.75275E9 0.0038673914272386663 -0.04085878297211073 0.9961326085727612 0.04085878297211073 0.9961326085727612 0.04085878297211073 0.0038673914272386663 -0.04085878297211073
6.8275E9 0.003719625357338314 -0.038968032728693786 0.9962803746426616 0.038968032728693786 0.9962803746426616 0.038968032728693786 0.003719625357338314 -0.038968032728693786
6.90225E9 0.003580889960968318 -0.03710142541787882 0.9964191100390318 0.03710142541787882 0.9964191100390318 0.03710142541787882 0.003580889960968318 -0.03710142541787882
6.977E9 0.00345085418483216 -0.03525821727702779 0.9965491458151677 0.03525821727702779 0.9965491458151677 0.03525821727702779 0.00345085418483216 -0.03525821727702779
7.05175E9 0.0033292041830811966 -0.03343769421730047 0.9966707958169188 0.03343769421730047 0.9966707958169188 0.03343769421730047 0.0033292041830811966 -0.03343769421730047
7.1265E9 0.003215642267853105 -0.03163917037214564 0.9967843577321468 0.03163917037214564 0.9967843577321468 0.03163917037214564 0.003215642267853105 -0.03163917037214564
7.20125E9 0.0031098859336232015 -0.02986198672860037 0.9968901140663771 0.02986198672860037 0.9968901140663771 0.02986198672860037 0.0031098859336232015 -0.02986198672860037
7.276E9 0.0030116669495263816 -0.028105509836028063 0.9969883330504737 0.028105509836028063 0.9969883330504737 0.028105509836028063 0.0030116669495263816 -0.028105509836028063
7.35075E9 0.002920730514320789 -0.026369130587310476 0.9970792694856792 0.026369130587310476 0.9970792694856792 0.026369130587310476 0.002920730514320789 -0.026369130587310476
7.4255E9 0.0028368344691282327 -0.024652263067865714 0.9971631655308717 0.024652263067865714 0.9971631655308717 0.024652263067865714 0.0028368344691282327 -0.024652263067865714
7.50025E9 0.0027597485635060507 -0.02295434346819104 0.9972402514364941 0.02295434346819104 0.9972402514364941 0.02295434346819104 0.0027597485635060507 -0.02295434346819104
7.575E9 0.0026892537707850937 -0.021274829055933527 0.9973107462292151 0.021274829055933527 0.9973107462292151 0.021274829055933527 0.0026892537707850937 -0.021274829055933527
7.64975E9 0.0026251416489528655 -0.019613197203769916 0.9973748583510473 0.019613197203769916 0.9973748583510473 0.019613197203769916 0.0026251416489528655 -0.019613197203769916
7.7245E9 0.0025672137436732216 -0.017968944469635574 0.9974327862563266 0.017968944469635574 0.9974327862563266 0.017968944469635574 0.0025672137436732216 -0.017968944469635574
7.79925E9 0.0025152810303177182 -0.016341585726081624 0.9974847189696824 0.016341585726081624 0.9974847189696824 0.016341585726081624 0.0025152810303177182 -0.016341585726081624
7.874E9 0.002469163392141342 -0.014730653335758397 0.9975308366078586 0.014730653335758397 0.9975308366078586 0.014730653335758397 0.002469163392141342 -0.014730653335758397
7.94875E9 0.0024286891319699327 -0.013135696370229634 0.9975713108680303 0.013135696370229634 0.9975713108680303 0.013135696370229634 0.0024286891319699327 -0.013135696370229634
8.0235E9 0.0023936945149798817 -0.011556279869508392 0.9976063054850202 0.011556279869508392 0.9976063054850202 0.011556279869508392 0.0023936945149798817 -0.011556279869508392
8.09825E9 0.002364023340345238 -0.009991984139882452 0.9976359766596548 0.009991984139882452 0.9976359766596548 0.009991984139882452 0.002364023340345238 -0.009991984139882452
8.173E9 0.002339526539704588 -0.008442404087757118 0.9976604734602953 0.008442404087757118 0.9976604734602953 0.008442404087757118 0.002339526539704588 -0.008442404087757118
8.24775E9 0.002320061800561933 -0.006907148587395833 0.997679938199438 0.006907148587395833 0.997679938199438 0.006907148587395833 0.002320061800561933 -0.006907148587395833
8.3225E9 0.002305493212883546 -0.005385839880575474 0.9976945067871166 0.005385839880575474 0.9976945067871166 0.005385839880575474 0.002305493212883546 -0.005385839880575474
8.39725E9 0.0022956909372878836 -0.003878113006304655 0.9977043090627121 0.003878113006304655 0.9977043090627121 0.003878113006304655 0.0022956909372878836 -0.003878113006304655
8.472E9 0.0022905308933492277 -0.002383615258872473 0.9977094691066508 0.002383615258872473 0.9977094691066508 0.002383615258872473 0.0022905308933492277 -0.002383615258872473
8.54675E9 0.002289894466648821 -9.020056726057121E-4 0.9977101055333514 9.020056726057121E-4 0.9977101055333514 9.020056726057121E-4 0.002289894466648821 -9.020056726057121E-4
8.6215E9 0.002293668233310959 5.670454681825402E-4 0.9977063317666891 -5.670454681825402E-4 0.9977063317666891 -5.670454681825402E-4 0.002293668233310959 5.670454681825402E-4
