!Murata Part Number: GJM0225C1ER90WB01
!These Parameters are Measured in Series Mode Connection
!       o--ll--o
!Port1            Port2
!       o------o
!Operation Temp=25[degC], DC Bias Voltage=0[V]
!Freq. Start=100[MHz] Stop=30[GHz], 401[Steps]
!Data Generated on Feb 1, 2023
# Hz S RI R 50
!Freq.(Hz) S11(Real) S11(Imag) S21(Real) S21(Imag) S12(Real) S12(Imag) S22(Real) S22(Imag)
1.0E8 0.996804886764256 -0.05637070885211728 0.0031951132357439602 0.05637070885211728 0.0031951132357439602 0.05637070885211728 0.996804886764256 -0.05637070885211728
1.7475E8 0.9903044842259098 -0.09787512393166121 0.009695515774090155 0.09787512393166121 0.009695515774090155 0.09787512393166121 0.9903044842259098 -0.09787512393166121
2.495E8 0.980426576920337 -0.1383689074706402 0.019573423079662908 0.1383689074706402 0.019573423079662908 0.1383689074706402 0.980426576920337 -0.1383689074706402
3.2425E8 0.9673671292444894 -0.1774655788873772 0.03263287075551064 0.1774655788873772 0.03263287075551064 0.1774655788873772 0.9673671292444894 -0.1774655788873772
3.99E8 0.9513765143906174 -0.21482336947988273 0.04862348560938253 0.21482336947988273 0.04862348560938253 0.21482336947988273 0.9513765143906174 -0.21482336947988273
4.7375E8 0.9327480226588628 -0.2501535136918896 0.06725197734113733 0.2501535136918896 0.06725197734113733 0.2501535136918896 0.9327480226588628 -0.2501535136918896
5.485E8 0.9118052775484892 -0.2832253370880811 0.0881947224515109 0.2832253370880811 0.0881947224515109 0.2832253370880811 0.9118052775484892 -0.2832253370880811
6.2325E8 0.8888894911317134 -0.3138681460802853 0.11111050886828648 0.3138681460802853 0.11111050886828648 0.3138681460802853 0.8888894911317134 -0.3138681460802853
6.98E8 0.8643473840336147 -0.34197019333606227 0.13565261596638523 0.34197019333606227 0.13565261596638523 0.34197019333606227 0.8643473840336147 -0.34197019333606227
7.7275E8 0.8385204186129517 -0.3674751915631873 0.16147958138704835 0.3674751915631873 0.16147958138704835 0.3674751915631873 0.8385204186129517 -0.3674751915631873
8.475E8 0.8117357818658058 -0.39037696424777585 0.18826421813419428 0.39037696424777585 0.18826421813419428 0.39037696424777585 0.8117357818658058 -0.39037696424777585
9.2225E8 0.7842993404307832 -0.41071285730609697 0.21570065956921697 0.41071285730609697 0.21570065956921697 0.41071285730609697 0.7842993404307832 -0.41071285730609697
9.97E8 0.756490599839095 -0.4285565040498333 0.243509400160905 0.4285565040498333 0.243509400160905 0.4285565040498333 0.756490599839095 -0.4285565040498333
1.07175E9 0.7285595499919829 -0.44401045695958463 0.27144045000801714 0.44401045695958463 0.27144045000801714 0.44401045695958463 0.7285595499919829 -0.44401045695958463
1.1465E9 0.7007251751968809 -0.45719909429893013 0.29927482480311907 0.45719909429893013 0.29927482480311907 0.45719909429893013 0.7007251751968809 -0.45719909429893013
1.22125E9 0.6731753485099203 -0.4682620959580255 0.3268246514900796 0.4682620959580255 0.3268246514900796 0.4682620959580255 0.6731753485099203 -0.4682620959580255
1.296E9 0.646067809954323 -0.4773486750416031 0.353932190045677 0.4773486750416031 0.353932190045677 0.4773486750416031 0.646067809954323 -0.4773486750416031
1.37075E9 0.6195319371853959 -0.48461265855411784 0.3804680628146042 0.48461265855411784 0.3804680628146042 0.48461265855411784 0.6195319371853959 -0.48461265855411784
1.4455E9 0.5936710457053632 -0.4902084364640164 0.4063289542946368 0.4902084364640164 0.4063289542946368 0.4902084364640164 0.5936710457053632 -0.4902084364640164
1.52025E9 0.5685649951573093 -0.4942877442671363 0.4314350048426907 0.4942877442671363 0.4314350048426907 0.4942877442671363 0.5685649951573093 -0.4942877442671363
1.595E9 0.544272921663528 -0.4969972083367749 0.45572707833647197 0.4969972083367749 0.45572707833647197 0.4969972083367749 0.544272921663528 -0.4969972083367749
1.66975E9 0.5208359586953555 -0.4984765629359279 0.4791640413046446 0.4984765629359279 0.4791640413046446 0.4984765629359279 0.5208359586953555 -0.4984765629359279
1.7445E9 0.49827984745695425 -0.49885743937212396 0.5017201525430457 0.49885743937212396 0.5017201525430457 0.49885743937212396 0.49827984745695425 -0.49885743937212396
1.81925E9 0.47661737060373677 -0.4982626280695279 0.5233826293962632 0.4982626280695279 0.5233826293962632 0.4982626280695279 0.47661737060373677 -0.4982626280695279
1.894E9 0.4558505697605165 -0.49680572039605114 0.5441494302394835 0.49680572039605114 0.5441494302394835 0.49680572039605114 0.4558505697605165 -0.49680572039605114
1.96875E9 0.4359727279480158 -0.4945910465487439 0.5640272720519843 0.4945910465487439 0.5640272720519843 0.4945910465487439 0.4359727279480158 -0.4945910465487439
2.0435E9 0.4169701132903278 -0.4917138368780914 0.5830298867096723 0.4917138368780914 0.5830298867096723 0.4917138368780914 0.4169701132903278 -0.4917138368780914
2.11825E9 0.39882349108422216 -0.488260545453689 0.6011765089157779 0.488260545453689 0.6011765089157779 0.488260545453689 0.39882349108422216 -0.488260545453689
2.193E9 0.38150941833563756 -0.4843092856086452 0.6184905816643624 0.4843092856086452 0.6184905816643624 0.4843092856086452 0.38150941833563756 -0.4843092856086452
2.26775E9 0.3650013390337138 -0.479930337155633 0.6349986609662862 0.479930337155633 0.6349986609662862 0.479930337155633 0.3650013390337138 -0.479930337155633
2.3425E9 0.3492705004638042 -0.47518669369996974 0.6507294995361957 0.47518669369996974 0.6507294995361957 0.47518669369996974 0.3492705004638042 -0.47518669369996974
2.41725E9 0.33428671136431554 -0.47013462591227434 0.6657132886356846 0.47013462591227434 0.6657132886356846 0.47013462591227434 0.33428671136431554 -0.47013462591227434
2.492E9 0.3200189621938583 -0.46482424280347484 0.6799810378061417 0.46482424280347484 0.6799810378061417 0.46482424280347484 0.3200189621938583 -0.46482424280347484
2.56675E9 0.30643592657064156 -0.45930003807144365 0.6935640734293583 0.45930003807144365 0.6935640734293583 0.45930003807144365 0.30643592657064156 -0.45930003807144365
2.6415E9 0.293506361356057 -0.45360141259693426 0.7064936386439428 0.45360141259693426 0.7064936386439428 0.45360141259693426 0.293506361356057 -0.45360141259693426
2.71625E9 0.28119942108167073 -0.4477631673029448 0.7188005789183293 0.4477631673029448 0.7188005789183293 0.4477631673029448 0.28119942108167073 -0.4477631673029448
2.791E9 0.26948490060425295 -0.44181596299898906 0.7305150993957471 0.44181596299898906 0.7305150993957471 0.44181596299898906 0.26948490060425295 -0.44181596299898906
2.86575E9 0.2583334181104443 -0.4357867456416758 0.7416665818895558 0.4357867456416758 0.7416665818895558 0.4357867456416758 0.2583334181104443 -0.4357867456416758
2.9405E9 0.24771654893919373 -0.4296991367718922 0.7522834510608064 0.4296991367718922 0.7522834510608064 0.4296991367718922 0.24771654893919373 -0.4296991367718922
3.01525E9 0.2376069191785873 -0.4235737898367502 0.7623930808214127 0.4235737898367502 0.7623930808214127 0.4235737898367502 0.2376069191785873 -0.4235737898367502
3.09E9 0.22797826663850146 -0.4174287137550781 0.7720217333614985 0.4174287137550781 0.7720217333614985 0.4174287137550781 0.22797826663850146 -0.4174287137550781
3.16475E9 0.21880547560385374 -0.41127956550759076 0.7811945243961463 0.41127956550759076 0.7811945243961463 0.41127956550759076 0.21880547560385374 -0.41127956550759076
3.2395E9 0.21006459072946512 -0.4051399137827533 0.7899354092705347 0.4051399137827533 0.7899354092705347 0.4051399137827533 0.21006459072946512 -0.4051399137827533
3.31425E9 0.20173281453631153 -0.39902147583127123 0.7982671854636882 0.39902147583127123 0.7982671854636882 0.39902147583127123 0.20173281453631153 -0.39902147583127123
3.389E9 0.19378849219736666 -0.3929343297111392 0.8062115078026334 0.3929343297111392 0.8062115078026334 0.3929343297111392 0.19378849219736666 -0.3929343297111392
3.46375E9 0.18621108664547376 -0.3868871040685081 0.8137889133545262 0.3868871040685081 0.8137889133545262 0.3868871040685081 0.18621108664547376 -0.3868871040685081
3.5385E9 0.178981146481868 -0.3808871475181818 0.821018853518132 0.3808871475181818 0.821018853518132 0.3808871475181818 0.178981146481868 -0.3808871475181818
3.61325E9 0.1720802686988785 -0.37494067957715643 0.8279197313011215 0.37494067957715643 0.8279197313011215 0.37494067957715643 0.1720802686988785 -0.37494067957715643
3.688E9 0.1654910578417628 -0.3690529249771199 0.8345089421582372 0.3690529249771199 0.8345089421582372 0.3690529249771199 0.1654910578417628 -0.3690529249771199
3.76275E9 0.1591970829114852 -0.36322823304587093 0.8408029170885148 0.36322823304587093 0.8408029170885148 0.36322823304587093 0.1591970829114852 -0.36322823304587093
3.8375E9 0.1531828330427347 -0.35747018370947453 0.846817166957265 0.35747018370947453 0.846817166957265 0.35747018370947453 0.1531828330427347 -0.35747018370947453
3.91225E9 0.14743367277096459 -0.3517816815310023 0.8525663272290356 0.3517816815310023 0.8525663272290356 0.3517816815310023 0.14743367277096459 -0.3517816815310023
3.987E9 0.14193579752124258 -0.3461650390708719 0.8580642024787575 0.3461650390708719 0.8580642024787575 0.3461650390708719 0.14193579752124258 -0.3461650390708719
4.06175E9 0.13667618980380294 -0.34062205073001867 0.8633238101961972 0.34062205073001867 0.8633238101961972 0.34062205073001867 0.13667618980380294 -0.34062205073001867
4.1365E9 0.1316425764808802 -0.33515405812147986 0.8683574235191198 0.33515405812147986 0.8683574235191198 0.33515405812147986 0.1316425764808802 -0.33515405812147986
4.21125E9 0.1268233873720271 -0.32976200790903926 0.8731766126279729 0.32976200790903926 0.8731766126279729 0.32976200790903926 0.1268233873720271 -0.32976200790903926
4.286E9 0.12220771538672491 -0.3244465029534607 0.8777922846132751 0.3244465029534607 0.8777922846132751 0.3244465029534607 0.12220771538672491 -0.3244465029534607
4.36075E9 0.11778527831036928 -0.31920784751741155 0.8822147216896307 0.31920784751741155 0.8822147216896307 0.31920784751741155 0.11778527831036928 -0.31920784751741155
4.4355E9 0.11354638231988265 -0.3140460871990865 0.8864536176801172 0.3140460871990865 0.8864536176801172 0.3140460871990865 0.11354638231988265 -0.3140460871990865
4.51025E9 0.10948188726594696 -0.30896104419134723 0.8905181127340528 0.30896104419134723 0.8905181127340528 0.30896104419134723 0.10948188726594696 -0.30896104419134723
4.585E9 0.10558317372823015 -0.3039523483973386 0.8944168262717701 0.3039523483973386 0.8944168262717701 0.3039523483973386 0.10558317372823015 -0.3039523483973386
4.65975E9 0.10184211182640401 -0.2990194648744964 0.8981578881735959 0.2990194648744964 0.8981578881735959 0.2990194648744964 0.10184211182640401 -0.2990194648744964
4.7345E9 0.09825103175188267 -0.2941617180260333 0.9017489682481175 0.2941617180260333 0.9017489682481175 0.2941617180260333 0.09825103175188267 -0.2941617180260333
4.80925E9 0.09480269597195835 -0.28937831291181987 0.9051973040280415 0.28937831291181987 0.9051973040280415 0.28937831291181987 0.09480269597195835 -0.28937831291181987
4.884E9 0.09149027304847404 -0.28466835400855933 0.908509726951526 0.28466835400855933 0.908509726951526 0.28466835400855933 0.09149027304847404 -0.28466835400855933
4.95875E9 0.0883073130066018 -0.28003086171174013 0.9116926869933983 0.28003086171174013 0.9116926869933983 0.28003086171174013 0.0883073130066018 -0.28003086171174013
5.0335E9 0.08524772418508683 -0.27546478683860925 0.9147522758149133 0.27546478683860925 0.9147522758149133 0.27546478683860925 0.08524772418508683 -0.27546478683860925
5.10825E9 0.08230575149697432 -0.2709690233618836 0.9176942485030257 0.2709690233618836 0.9176942485030257 0.2709690233618836 0.08230575149697432 -0.2709690233618836
5.183E9 0.07947595602894551 -0.2665424195777182 0.9205240439710547 0.2665424195777182 0.9205240439710547 0.2665424195777182 0.07947595602894551 -0.2665424195777182
5.25775E9 0.076753195907633 -0.2621837878882257 0.9232468040923668 0.2621837878882257 0.9232468040923668 0.2621837878882257 0.076753195907633 -0.2621837878882257
5.3325E9 0.07413260836237934 -0.2578919133582468 0.925867391637621 0.2578919133582468 0.925867391637621 0.2578919133582468 0.07413260836237934 -0.2578919133582468
5.40725E9 0.07160959291564932 -0.253665561187835 0.9283904070843505 0.253665561187835 0.9283904070843505 0.253665561187835 0.07160959291564932 -0.253665561187835
5.482E9 0.06917979563451464 -0.24950348322576402 0.9308202043654855 0.24950348322576402 0.9308202043654855 0.24950348322576402 0.06917979563451464 -0.24950348322576402
5.55675E9 0.06683909437917163 -0.24540442363505371 0.9331609056208283 0.24540442363505371 0.9331609056208283 0.24540442363505371 0.06683909437917163 -0.24540442363505371
5.6315E9 0.06458358498721428 -0.24136712380885286 0.9354164150127856 0.24136712380885286 0.9354164150127856 0.24136712380885286 0.06458358498721428 -0.24136712380885286
5.70625E9 0.06240956833527398 -0.2373903266237906 0.9375904316647261 0.2373903266237906 0.9375904316647261 0.2373903266237906 0.06240956833527398 -0.2373903266237906
5.781E9 0.06031353822259569 -0.23347278010798928 0.9396864617774043 0.23347278010798928 0.9396864617774043 0.23347278010798928 0.06031353822259569 -0.23347278010798928
5.85575E9 0.05829217002408196 -0.22961324059213292 0.9417078299759181 0.22961324059213292 0.9417078299759181 0.22961324059213292 0.05829217002408196 -0.22961324059213292
5.9305E9 0.05634231006326964 -0.22581047540420157 0.9436576899367304 0.22581047540420157 0.9436576899367304 0.22581047540420157 0.05634231006326964 -0.22581047540420157
6.00525E9 0.05446096565857653 -0.22206326516159114 0.9455390343414236 0.22206326516159114 0.9455390343414236 0.22206326516159114 0.05446096565857653 -0.22206326516159114
6.08E9 0.05264529579893845 -0.21837040570822622 0.9473547042010617 0.21837040570822622 0.9473547042010617 0.21837040570822622 0.05264529579893845 -0.21837040570822622
6.15475E9 0.050892602407645 -0.2147307097388719 0.9491073975923551 0.2147307097388719 0.9491073975923551 0.2147307097388719 0.050892602407645 -0.2147307097388719
6.2295E9 0.04920032215575131 -0.21114300814804746 0.9507996778442486 0.21114300814804746 0.9507996778442486 0.21114300814804746 0.04920032215575131 -0.21114300814804746
6.30425E9 0.047566018788900634 -0.20760615113670897 0.9524339812110992 0.20760615113670897 0.9524339812110992 0.20760615113670897 0.047566018788900634 -0.20760615113670897
6.379E9 0.045987375933718586 -0.20411900910609196 0.9540126240662815 0.20411900910609196 0.9540126240662815 0.20411900910609196 0.045987375933718586 -0.20411900910609196
6.45375E9 0.04446219035215092 -0.20068047336477762 0.9555378096478491 0.20068047336477762 0.9555378096478491 0.20068047336477762 0.04446219035215092 -0.20068047336477762
6.5285E9 0.04298836561419553 -0.19728945667207654 0.9570116343858045 0.19728945667207654 0.9570116343858045 0.19728945667207654 0.04298836561419553 -0.19728945667207654
6.60325E9 0.04156390616144409 -0.19394489363820647 0.9584360938385558 0.19394489363820647 0.9584360938385558 0.19394489363820647 0.04156390616144409 -0.19394489363820647
6.678E9 0.04018691173569136 -0.19064574099940643 0.9598130882643087 0.19064574099940643 0.9598130882643087 0.19064574099940643 0.04018691173569136 -0.19064574099940643
6.75275E9 0.038855572148599665 -0.18739097778406413 0.9611444278514003 0.18739097778406413 0.9611444278514003 0.18739097778406413 0.038855572148599665 -0.18739097778406413
6.8275E9 0.037568162370028156 -0.18417960538410072 0.9624318376299718 0.18417960538410072 0.9624318376299718 0.18417960538410072 0.037568162370028156 -0.18417960538410072
6.90225E9 0.03632303791415072 -0.1810106475442252 0.9636769620858491 0.1810106475442252 0.9636769620858491 0.1810106475442252 0.03632303791415072 -0.1810106475442252
6.977E9 0.03511863050390511 -0.17788315028022808 0.9648813694960949 0.17788315028022808 0.9648813694960949 0.17788315028022808 0.03511863050390511 -0.17788315028022808
7.05175E9 0.0339534439956379 -0.17479618173619813 0.9660465560043621 0.17479618173619813 0.9660465560043621 0.17479618173619813 0.0339534439956379 -0.17479618173619813
7.1265E9 0.0328260505470446 -0.17174883198940546 0.9671739494529557 0.17174883198940546 0.9671739494529557 0.17174883198940546 0.0328260505470446 -0.17174883198940546
7.20125E9 0.03173508701265472 -0.1687402128105815 0.9682649129873453 0.1687402128105815 0.9682649129873453 0.1687402128105815 0.03173508701265472 -0.1687402128105815
7.276E9 0.030679251552184764 -0.16576945738642795 0.9693207484478154 0.16576945738642795 0.9693207484478154 0.16576945738642795 0.030679251552184764 -0.16576945738642795
7.35075E9 0.02965730043807946 -0.1628357200103832 0.9703426995619204 0.1628357200103832 0.9703426995619204 0.1628357200103832 0.02965730043807946 -0.1628357200103832
7.4255E9 0.02866804504949238 -0.1599381757469687 0.9713319549505074 0.1599381757469687 0.9713319549505074 0.1599381757469687 0.02866804504949238 -0.1599381757469687
7.50025E9 0.027710349040821893 -0.1570760200744022 0.9722896509591782 0.1570760200744022 0.9722896509591782 0.1570760200744022 0.027710349040821893 -0.1570760200744022
7.575E9 0.026783125673723658 -0.15424846850960736 0.9732168743262763 0.15424846850960736 0.9732168743262763 0.15424846850960736 0.026783125673723658 -0.15424846850960736
7.64975E9 0.025885335302270163 -0.15145475621924862 0.9741146646977298 0.15145475621924862 0.9741146646977298 0.15145475621924862 0.025885335302270163 -0.15145475621924862
7.7245E9 0.025015983001623814 -0.14869413761997705 0.9749840169983761 0.14869413761997705 0.9749840169983761 0.14869413761997705 0.025015983001623814 -0.14869413761997705
7.79925E9 0.024174116331238706 -0.14596588597068022 0.975825883668761 0.14596588597068022 0.975825883668761 0.14596588597068022 0.024174116331238706 -0.14596588597068022
7.874E9 0.023358823224208722 -0.14326929295918026 0.9766411767757913 0.14326929295918026 0.9766411767757913 0.14326929295918026 0.023358823224208722 -0.14326929295918026
7.94875E9 0.022569229994939856 -0.1406036682855114 0.9774307700050602 0.1406036682855114 0.9774307700050602 0.1406036682855114 0.022569229994939856 -0.1406036682855114
8.0235E9 0.02180449945784619 -0.13796833924363563 0.9781955005421539 0.13796833924363563 0.9781955005421539 0.13796833924363563 0.02180449945784619 -0.13796833924363563
8.09825E9 0.021063829150253708 -0.135362650303208 0.9789361708497464 0.135362650303208 0.9789361708497464 0.135362650303208 0.021063829150253708 -0.135362650303208
8.173E9 0.020346449653146956 -0.1327859626927872 0.979653550346853 0.1327859626927872 0.979653550346853 0.1327859626927872 0.020346449653146956 -0.1327859626927872
8.24775E9 0.01965162300381351 -0.1302376539856946 0.9803483769961868 0.1302376539856946 0.9803483769961868 0.1302376539856946 0.01965162300381351 -0.1302376539856946
8.3225E9 0.01897864119483119 -0.12771711768955352 0.9810213588051689 0.12771711768955352 0.9810213588051689 0.12771711768955352 0.01897864119483119 -0.12771711768955352
8.39725E9 0.0183268247542064 -0.12522376284039008 0.9816731752457935 0.12522376284039008 0.9816731752457935 0.12522376284039008 0.0183268247542064 -0.12522376284039008
8.472E9 0.017695521401809966 -0.12275701360204275 0.9823044785981901 0.12275701360204275 0.9823044785981901 0.12275701360204275 0.017695521401809966 -0.12275701360204275
8.54675E9 0.017084104777571555 -0.12031630887150815 0.9829158952224283 0.12031630887150815 0.9829158952224283 0.12031630887150815 0.017084104777571555 -0.12031630887150815
8.6215E9 0.016491973237187263 -0.11790110189075054 0.9835080267628128 0.11790110189075054 0.9835080267628128 0.11790110189075054 0.016491973237187263 -0.11790110189075054
8.69625E9 0.015918548711366495 -0.11551085986540144 0.9840814512886334 0.11551085986540144 0.9840814512886334 0.11551085986540144 0.015918548711366495 -0.11551085986540144
8.771E9 0.01536327562490053 -0.11314506359070506 0.9846367243750993 0.11314506359070506 0.9846367243750993 0.11314506359070506 0.01536327562490053 -0.11314506359070506
