!Murata Part Number: GJM0225C1E7R2BB01
!These Parameters are Measured in Series Mode Connection
!       o--ll--o
!Port1            Port2
!       o------o
!Operation Temp=25[degC], DC Bias Voltage=0[V]
!Freq. Start=100[MHz] Stop=30[GHz], 401[Steps]
!Data Generated on Feb 1, 2023
# Hz S RI R 50
!Freq.(Hz) S11(Real) S11(Imag) S21(Real) S21(Imag) S12(Real) S12(Imag) S22(Real) S22(Imag)
1.0E8 0.8298724562933099 -0.37552974667589223 0.17012754370669006 0.37552974667589223 0.17012754370669006 0.37552974667589223 0.8298724562933099 -0.37552974667589223
1.7475E8 0.6146282877809386 -0.48630641698353533 0.3853717122190614 0.48630641698353533 0.3853717122190614 0.48630641698353533 0.6146282877809386 -0.48630641698353533
2.495E8 0.43837108294698846 -0.4956479244981963 0.5616289170530118 0.4956479244981963 0.5616289170530118 0.4956479244981963 0.43837108294698846 -0.4956479244981963
3.2425E8 0.31537611822594813 -0.46396142394140005 0.684623881774052 0.46396142394140005 0.684623881774052 0.46396142394140005 0.31537611822594813 -0.46396142394140005
3.99E8 0.23253581342162588 -0.42157758883338625 0.767464186578374 0.42157758883338625 0.767464186578374 0.42157758883338625 0.23253581342162588 -0.42157758883338625
4.7375E8 0.1761914695500561 -0.3799418748910936 0.8238085304499441 0.3799418748910936 0.8238085304499441 0.3799418748910936 0.1761914695500561 -0.3799418748910936
5.485E8 0.13692205939756114 -0.3425504320893982 0.8630779406024388 0.3425504320893982 0.8630779406024388 0.3425504320893982 0.13692205939756114 -0.3425504320893982
6.2325E8 0.10879102644599331 -0.30998464011490307 0.8912089735540069 0.30998464011490307 0.8912089735540069 0.30998464011490307 0.10879102644599331 -0.30998464011490307
6.98E8 0.08810070127204615 -0.28186684726730116 0.9118992987279538 0.28186684726730116 0.9118992987279538 0.28186684726730116 0.08810070127204615 -0.28186684726730116
7.7275E8 0.07251434003821983 -0.257575705160073 0.9274856599617801 0.257575705160073 0.9274856599617801 0.257575705160073 0.07251434003821983 -0.257575705160073
8.475E8 0.06052055499402521 -0.23649351951484976 0.939479445005975 0.23649351951484976 0.939479445005975 0.23649351951484976 0.06052055499402521 -0.23649351951484976
9.2225E8 0.0511167135398275 -0.218080756599103 0.9488832864601726 0.218080756599103 0.9488832864601726 0.218080756599103 0.0511167135398275 -0.218080756599103
9.97E8 0.043620977979436676 -0.20188847256155945 0.9563790220205632 0.20188847256155945 0.9563790220205632 0.20188847256155945 0.043620977979436676 -0.20188847256155945
1.07175E9 0.037558753710379006 -0.18755017366258475 0.9624412462896211 0.18755017366258475 0.9624412462896211 0.18755017366258475 0.037558753710379006 -0.18755017366258475
1.1465E9 0.03259255427471435 -0.17476847835235804 0.9674074457252856 0.17476847835235804 0.9674074457252856 0.17476847835235804 0.03259255427471435 -0.17476847835235804
1.22125E9 0.028477663625724795 -0.16330200192137956 0.9715223363742753 0.16330200192137956 0.9715223363742753 0.16330200192137956 0.028477663625724795 -0.16330200192137956
1.296E9 0.02503346048793103 -0.15295410489727104 0.974966539512069 0.15295410489727104 0.974966539512069 0.15295410489727104 0.02503346048793103 -0.15295410489727104
1.37075E9 0.0221244661658035 -0.14356375273384697 0.9778755338341963 0.14356375273384697 0.9778755338341963 0.14356375273384697 0.0221244661658035 -0.14356375273384697
1.4455E9 0.019647562347094236 -0.13499826668267653 0.9803524376529059 0.13499826668267653 0.9803524376529059 0.13499826668267653 0.019647562347094236 -0.13499826668267653
1.52025E9 0.017523206547413312 -0.12714763122833284 0.9824767934525866 0.12714763122833284 0.9824767934525866 0.12714763122833284 0.017523206547413312 -0.12714763122833284
1.595E9 0.015689288996547618 -0.11992003565998105 0.9843107110034525 0.11992003565998105 0.9843107110034525 0.11992003565998105 0.015689288996547618 -0.11992003565998105
1.66975E9 0.014096767127790986 -0.11323837755507633 0.9859032328722088 0.11323837755507633 0.9859032328722088 0.11323837755507633 0.014096767127790986 -0.11323837755507633
1.7445E9 0.01270651690895559 -0.1070375108108925 0.9872934830910444 0.1070375108108925 0.9872934830910444 0.1070375108108925 0.01270651690895559 -0.1070375108108925
1.81925E9 0.011487030457230991 -0.10126206916611263 0.9885129695427689 0.10126206916611263 0.9885129695427689 0.10126206916611263 0.011487030457230991 -0.10126206916611263
1.894E9 0.010412710955243881 -0.09586473532327416 0.9895872890447561 0.09586473532327416 0.9895872890447561 0.09586473532327416 0.010412710955243881 -0.09586473532327416
1.96875E9 0.009462594949460487 -0.09080485634661088 0.9905374050505394 0.09080485634661088 0.9905374050505394 0.09080485634661088 0.009462594949460487 -0.09080485634661088
2.0435E9 0.00861938437152844 -0.08604732941499048 0.9913806156284716 0.08604732941499048 0.9913806156284716 0.08604732941499048 0.00861938437152844 -0.08604732941499048
2.11825E9 0.00786870569609183 -0.08156169977734153 0.9921312943039081 0.08156169977734153 0.9921312943039081 0.08156169977734153 0.00786870569609183 -0.08156169977734153
2.193E9 0.007198537526096471 -0.07732142620506434 0.9928014624739036 0.07732142620506434 0.9928014624739036 0.07732142620506434 0.007198537526096471 -0.07732142620506434
2.26775E9 0.006598764371767126 -0.07330327941634895 0.993401235628233 0.07330327941634895 0.993401235628233 0.07330327941634895 0.006598764371767126 -0.07330327941634895
2.3425E9 0.006060825901111498 -0.06948684667303641 0.9939391740988884 0.06948684667303641 0.9939391740988884 0.06948684667303641 0.006060825901111498 -0.06948684667303641
2.41725E9 0.005577439079042391 -0.0658541216350482 0.9944225609209576 0.0658541216350482 0.9944225609209576 0.0658541216350482 0.005577439079042391 -0.0658541216350482
2.492E9 0.005142376431359176 -0.062389163059322364 0.9948576235686408 0.062389163059322364 0.9948576235686408 0.062389163059322364 0.005142376431359176 -0.062389163059322364
2.56675E9 0.004750287874031913 -0.0590778093914355 0.9952497121259682 0.0590778093914355 0.9952497121259682 0.0590778093914355 0.004750287874031913 -0.0590778093914355
2.6415E9 0.004396556615805486 -0.05590743897306722 0.9956034433841946 0.05590743897306722 0.9956034433841946 0.05590743897306722 0.004396556615805486 -0.05590743897306722
2.71625E9 0.0040771819013328044 -0.05286676766680444 0.9959228180986672 0.05286676766680444 0.9959228180986672 0.05286676766680444 0.0040771819013328044 -0.05286676766680444
2.791E9 0.0037886830405992234 -0.04994567732321991 0.9962113169594008 0.04994567732321991 0.9962113169594008 0.04994567732321991 0.0037886830405992234 -0.04994567732321991
2.86575E9 0.0035280204279789723 -0.04713506979001439 0.9964719795720212 0.04713506979001439 0.9964719795720212 0.04713506979001439 0.0035280204279789723 -0.04713506979001439
2.9405E9 0.0032925302039121277 -0.044426742169386996 0.9967074697960879 0.044426742169386996 0.9967074697960879 0.044426742169386996 0.0032925302039121277 -0.044426742169386996
3.01525E9 0.003079869934695341 -0.04181327982832253 0.9969201300653046 0.04181327982832253 0.9969201300653046 0.04181327982832253 0.003079869934695341 -0.04181327982832253
3.09E9 0.0028879732394907418 -0.039287964303259794 0.9971120267605091 0.039287964303259794 0.9971120267605091 0.039287964303259794 0.0028879732394907418 -0.039287964303259794
3.16475E9 0.0027150117207316833 -0.03684469375087882 0.9972849882792686 0.03684469375087882 0.9972849882792686 0.03684469375087882 0.0027150117207316833 -0.03684469375087882
3.2395E9 0.0025593628856875727 -0.034477914007577645 0.9974406371143123 0.034477914007577645 0.9974406371143123 0.034477914007577645 0.0025593628856875727 -0.034477914007577645
3.31425E9 0.002419583005975821 -0.03218255865250267 0.9975804169940244 0.03218255865250267 0.9975804169940244 0.03218255865250267 0.002419583005975821 -0.03218255865250267
3.389E9 0.0022943840653386425 -0.02995399673895366 0.9977056159346613 0.02995399673895366 0.9977056159346613 0.02995399673895366 0.0022943840653386425 -0.02995399673895366
3.46375E9 0.0021826141068201953 -0.027787987079242946 0.9978173858931799 0.027787987079242946 0.9978173858931799 0.027787987079242946 0.0021826141068201953 -0.027787987079242946
3.5385E9 0.0020832404182270087 -0.02568063814854129 0.9979167595817731 0.02568063814854129 0.9979167595817731 0.02568063814854129 0.0020832404182270087 -0.02568063814854129
3.61325E9 0.001995335096750411 -0.02362837282167751 0.9980046649032497 0.02362837282167751 0.9980046649032497 0.02362837282167751 0.001995335096750411 -0.02362837282167751
3.688E9 0.0019180626154627262 -0.02162789727942735 0.9980819373845372 0.02162789727942735 0.9980819373845372 0.02162789727942735 0.0019180626154627262 -0.02162789727942735
3.76275E9 0.0018506690803624275 -0.01967617352241628 0.9981493309196378 0.01967617352241628 0.9981493309196378 0.01967617352241628 0.0018506690803624275 -0.01967617352241628
3.8375E9 0.001792472920053404 -0.017770395015263823 0.9982075270799465 0.017770395015263823 0.9982075270799465 0.017770395015263823 0.001792472920053404 -0.017770395015263823
3.91225E9 0.0017428567935752002 -0.015907965054134363 0.9982571432064246 0.015907965054134363 0.9982571432064246 0.015907965054134363 0.0017428567935752002 -0.015907965054134363
3.987E9 0.0017012605373647792 -0.014086477509935176 0.9982987394626354 0.014086477509935176 0.9982987394626354 0.014086477509935176 0.0017012605373647792 -0.014086477509935176
4.06175E9 0.0016671750014029933 -0.0123036996490418 0.9983328249985969 0.0123036996490418 0.9983328249985969 0.0123036996490418 0.0016671750014029933 -0.0123036996490418
4.1365E9 0.0016401366485233443 -0.010557556775271437 0.9983598633514768 0.010557556775271437 0.9983598633514768 0.010557556775271437 0.0016401366485233443 -0.010557556775271437
4.21125E9 0.0016197228106209398 -0.008846118472198294 0.9983802771893789 0.008846118472198294 0.9983802771893789 0.008846118472198294 0.0016197228106209398 -0.008846118472198294
4.286E9 0.0016055475118785093 -0.00716758625490097 0.9983944524881215 0.00716758625490097 0.9983944524881215 0.00716758625490097 0.0016055475118785093 -0.00716758625490097
4.36075E9 0.001597257782748888 -0.005520282465736867 0.9984027422172511 0.005520282465736867 0.9984027422172511 0.005520282465736867 0.001597257782748888 -0.005520282465736867
4.4355E9 0.0015945303998008901 -0.00390264027048813 0.9984054696001992 0.00390264027048813 0.9984054696001992 0.00390264027048813 0.0015945303998008901 -0.00390264027048813
4.51025E9 0.0015970689960514187 -0.002313194629817261 0.9984029310039487 0.002313194629817261 0.9984029310039487 0.002313194629817261 0.0015970689960514187 -0.002313194629817261
4.585E9 0.0016046014943972464 -7.505741369085233E-4 0.9983953985056028 7.505741369085233E-4 0.9983953985056028 7.505741369085233E-4 0.0016046014943972464 -7.505741369085233E-4
4.65975E9 0.0016168778234895373 7.865063741323978E-4 0.9983831221765103 -7.865063741323978E-4 0.9983831221765103 -7.865063741323978E-4 0.0016168778234895373 7.865063741323978E-4
4.7345E9 0.001633667881078336 0.0022992525327523296 0.9983663321189218 -0.0022992525327523296 0.9983663321189218 -0.0022992525327523296 0.001633667881078336 0.0022992525327523296
4.80925E9 0.0016547597146686467 0.0037887965227431037 0.9983452402853312 -0.0037887965227431037 0.9983452402853312 -0.0037887965227431037 0.0016547597146686467 0.0037887965227431037
4.884E9 0.0016799578934186786 0.005256202623984346 0.9983200421065814 -0.005256202623984346 0.9983200421065814 -0.005256202623984346 0.0016799578934186786 0.005256202623984346
4.95875E9 0.001709082048692564 0.006702472262123531 0.9982909179513075 -0.006702472262123531 0.9982909179513075 -0.006702472262123531 0.001709082048692564 0.006702472262123531
5.0335E9 0.0017419655636524095 0.008128548616536712 0.9982580344363475 -0.008128548616536712 0.9982580344363475 -0.008128548616536712 0.0017419655636524095 0.008128548616536712
5.10825E9 0.0017784543948183914 0.00953532083112675 0.9982215456051817 -0.00953532083112675 0.9982215456051817 -0.00953532083112675 0.0017784543948183914 0.00953532083112675
5.183E9 0.0018184060107081545 0.010923627867466503 0.9981815939892918 -0.010923627867466503 0.9981815939892918 -0.010923627867466503 0.0018184060107081545 0.010923627867466503
5.25775E9 0.0018616884345434384 0.012294262035378348 0.9981383115654565 -0.012294262035378348 0.9981383115654565 -0.012294262035378348 0.0018616884345434384 0.012294262035378348
5.3325E9 0.0019081793796295557 0.013647972232174208 0.9980918206203704 -0.013647972232174208 0.9980918206203704 -0.013647972232174208 0.0019081793796295557 0.013647972232174208
5.40725E9 0.0019577654674106013 0.01498546691838386 0.9980422345325894 -0.01498546691838386 0.9980422345325894 -0.01498546691838386 0.0019577654674106013 0.01498546691838386
5.482E9 0.0020103415194131415 0.016307416854815526 0.9979896584805867 -0.016307416854815526 0.9979896584805867 -0.016307416854815526 0.0020103415194131415 0.016307416854815526
5.55675E9 0.0020658099153406445 0.01761445762316227 0.9979341900846591 -0.01761445762316227 0.9979341900846591 -0.01761445762316227 0.0020658099153406445 0.01761445762316227
5.6315E9 0.0021240800104935587 0.018907191950048665 0.9978759199895061 -0.018907191950048665 0.9978759199895061 -0.018907191950048665 0.0021240800104935587 0.018907191950048665
5.70625E9 0.0021850676064850538 0.02018619185236213 0.9978149323935149 -0.02018619185236213 0.9978149323935149 -0.02018619185236213 0.0021850676064850538 0.02018619185236213
5.781E9 0.0022486944699166025 0.021452000619898454 0.9977513055300832 -0.021452000619898454 0.9977513055300832 -0.021452000619898454 0.0022486944699166025 0.021452000619898454
5.85575E9 0.002314887894284905 0.022705134649742616 0.997685112105715 -0.022705134649742616 0.997685112105715 -0.022705134649742616 0.002314887894284905 0.022705134649742616
5.9305E9 0.0023835803009240736 0.023946085145378205 0.9976164196990758 -0.023946085145378205 0.9976164196990758 -0.023946085145378205 0.0023835803009240736 0.023946085145378205
6.00525E9 0.0024547088752546356 0.025175319692248368 0.9975452911247454 -0.025175319692248368 0.9975452911247454 -0.025175319692248368 0.0024547088752546356 0.025175319692248368
6.08E9 0.0025282152350226193 0.02639328372036178 0.9974717847649774 -0.02639328372036178 0.9974717847649774 -0.02639328372036178 0.0025282152350226193 0.02639328372036178
6.15475E9 0.002604045127575083 0.02760040186352831 0.9973959548724248 -0.02760040186352831 0.9973959548724248 -0.02760040186352831 0.002604045127575083 0.02760040186352831
6.2295E9 0.002682148153539471 0.02879707922391051 0.9973178518464605 -0.02879707922391051 0.9973178518464605 -0.02879707922391051 0.002682148153539471 0.02879707922391051
6.30425E9 0.00276247751455857 0.02998370254977242 0.9972375224854417 -0.02998370254977242 0.9972375224854417 -0.02998370254977242 0.00276247751455857 0.02998370254977242
6.379E9 0.002844989782985398 0.031160641333588986 0.9971550102170146 -0.031160641333588986 0.9971550102170146 -0.031160641333588986 0.002844989782985398 0.031160641333588986
6.45375E9 0.0029296446916671466 0.032328248837033856 0.9970703553083329 -0.032328248837033856 0.9970703553083329 -0.032328248837033856 0.0029296446916671466 0.032328248837033856
6.5285E9 0.0030164049421480483 0.03348686304878797 0.9969835950578521 -0.03348686304878797 0.9969835950578521 -0.03348686304878797 0.0030164049421480483 0.03348686304878797
6.60325E9 0.0031052360298005808 0.03463680758059089 0.9968947639701996 -0.03463680758059089 0.9968947639701996 -0.03463680758059089 0.0031052360298005808 0.03463680758059089
6.678E9 0.0031961060845558443 0.035778392506494394 0.9968038939154441 -0.035778392506494394 0.9968038939154441 -0.035778392506494394 0.0031961060845558443 0.035778392506494394
6.75275E9 0.0032889857260492614 0.036911915149858 0.9967110142739506 -0.036911915149858 0.9967110142739506 -0.036911915149858 0.0032889857260492614 0.036911915149858
6.8275E9 0.003383847932129311 0.03803766082225156 0.9966161520678707 -0.03803766082225156 0.9966161520678707 -0.03803766082225156 0.003383847932129311 0.03803766082225156
6.90225E9 0.0034806679197965824 0.03915590351809294 0.9965193320802033 -0.03915590351809294 0.9965193320802033 -0.03915590351809294 0.0034806679197965824 0.03915590351809294
6.977E9 0.0035794230377496597 0.04026690656854443 0.9964205769622503 -0.04026690656854443 0.9964205769622503 -0.04026690656854443 0.0035794230377496597 0.04026690656854443
7.05175E9 0.0036800926698146936 0.04137092325792016 0.9963199073301853 -0.04137092325792016 0.9963199073301853 -0.04137092325792016 0.0036800926698146936 0.04137092325792016
7.1265E9 0.0037826581486284684 0.04246819740561146 0.9962173418513715 -0.04246819740561146 0.9962173418513715 -0.04246819740561146 0.0037826581486284684 0.04246819740561146
7.20125E9 0.0038871026790312756 0.04355896391631802 0.9961128973209687 -0.04355896391631802 0.9961128973209687 -0.04355896391631802 0.0038871026790312756 0.04355896391631802
7.276E9 0.003993411270707413 0.0446434493011759 0.9960065887292927 -0.0446434493011759 0.9960065887292927 -0.0446434493011759 0.003993411270707413 0.0446434493011759
7.35075E9 0.004101570679688511 0.04572187217219943 0.9958984293203116 -0.04572187217219943 0.9958984293203116 -0.04572187217219943 0.004101570679688511 0.04572187217219943
7.4255E9 0.004211569358409056 0.04679444371229582 0.9957884306415907 -0.04679444371229582 0.9957884306415907 -0.04679444371229582 0.004211569358409056 0.04679444371229582
7.50025E9 0.004323397414075873 0.047861368122975874 0.995676602585924 -0.047861368122975874 0.995676602585924 -0.047861368122975874 0.004323397414075873 0.047861368122975874
7.575E9 0.004437046575184248 0.04892284305176084 0.9955629534248158 -0.04892284305176084 0.9955629534248158 -0.04892284305176084 0.004437046575184248 0.04892284305176084
7.64975E9 0.00455251016608434 0.04997906000117995 0.9954474898339154 -0.04997906000117995 0.9954474898339154 -0.04997906000117995 0.00455251016608434 0.04997906000117995
7.7245E9 0.004669783089573482 0.05103020472116355 0.9953302169104267 -0.05103020472116355 0.9953302169104267 -0.05103020472116355 0.004669783089573482 0.05103020472116355
7.79925E9 0.004788861817563412 0.052076457586556796 0.9952111381824368 -0.052076457586556796 0.9952111381824368 -0.052076457586556796 0.004788861817563412 0.052076457586556796
7.874E9 0.004909744389948552 0.05311799396141902 0.9950902556100513 -0.05311799396141902 0.9950902556100513 -0.05311799396141902 0.004909744389948552 0.05311799396141902
7.94875E9 0.005032430421882211 0.054154984551719826 0.9949675695781176 -0.054154984551719826 0.9949675695781176 -0.054154984551719826 0.005032430421882211 0.054154984551719826
8.0235E9 0.005156921119754426 0.05518759574800841 0.9948430788802457 -0.05518759574800841 0.9948430788802457 -0.05518759574800841 0.005156921119754426 0.05518759574800841
8.09825E9 0.005283219306258932 0.05621598995960713 0.9947167806937413 -0.05621598995960713 0.9947167806937413 -0.05621598995960713 0.005283219306258932 0.05621598995960713
8.173E9 0.005411329455039337 0.05724032594186894 0.9945886705449608 -0.05724032594186894 0.9945886705449608 -0.05724032594186894 0.005411329455039337 0.05724032594186894
8.24775E9 0.005541257735518256 0.05826075911804131 0.9944587422644818 -0.05826075911804131 0.9944587422644818 -0.05826075911804131 0.005541257735518256 0.05826075911804131
8.3225E9 0.005673012068639673 0.05927744189729473 0.9943269879313603 -0.05927744189729473 0.9943269879313603 -0.05927744189729473 0.005673012068639673 0.05927744189729473
8.39725E9 0.005806602194397421 0.06029052399050579 0.9941933978056026 -0.06029052399050579 0.9941933978056026 -0.06029052399050579 0.005806602194397421 0.06029052399050579
8.472E9 0.005942039752183925 0.061300152725430455 0.9940579602478161 -0.061300152725430455 0.9940579602478161 -0.061300152725430455 0.005942039752183925 0.061300152725430455
