!Murata Part Number: GJM0225C1E3R5BB01
!These Parameters are Measured in Series Mode Connection
!       o--ll--o
!Port1            Port2
!       o------o
!Operation Temp=25[degC], DC Bias Voltage=0[V]
!Freq. Start=100[MHz] Stop=30[GHz], 401[Steps]
!Data Generated on Feb 1, 2023
# Hz S RI R 50
!Freq.(Hz) S11(Real) S11(Imag) S21(Real) S21(Imag) S12(Real) S12(Imag) S22(Real) S22(Imag)
1.0E8 0.9537698660594419 -0.2097742258647245 0.046230133940558096 0.2097742258647245 0.046230133940558096 0.2097742258647245 0.9537698660594419 -0.2097742258647245
1.7475E8 0.8709804536258835 -0.3348563867936038 0.12901954637411664 0.3348563867936038 0.12901954637411664 0.3348563867936038 0.8709804536258835 -0.3348563867936038
2.495E8 0.7678610469154952 -0.4216753995439872 0.23213895308450486 0.4216753995439872 0.23213895308450486 0.4216753995439872 0.7678610469154952 -0.4216753995439872
3.2425E8 0.6616302073170476 -0.4724762269470077 0.3383697926829525 0.4724762269470077 0.3383697926829525 0.4724762269470077 0.6616302073170476 -0.4724762269470077
3.99E8 0.5630783745948363 -0.49516880303505373 0.43692162540516377 0.49516880303505373 0.43692162540516377 0.49516880303505373 0.5630783745948363 -0.49516880303505373
4.7375E8 0.4769670012633503 -0.4984746091101912 0.5230329987366498 0.4984746091101912 0.5230329987366498 0.4984746091101912 0.4769670012633503 -0.4984746091101912
5.485E8 0.4041856786541033 -0.48958012771556864 0.5958143213458967 0.48958012771556864 0.5958143213458967 0.48958012771556864 0.4041856786541033 -0.48958012771556864
6.2325E8 0.34370301097160144 -0.4736298278124167 0.6562969890283986 0.4736298278124167 0.6562969890283986 0.4736298278124167 0.34370301097160144 -0.4736298278124167
6.98E8 0.2937881590534163 -0.45402145613534944 0.7062118409465836 0.45402145613534944 0.7062118409465836 0.45402145613534944 0.2937881590534163 -0.45402145613534944
7.7275E8 0.2526315356091709 -0.4328845454230416 0.7473684643908292 0.4328845454230416 0.7473684643908292 0.4328845454230416 0.2526315356091709 -0.4328845454230416
8.475E8 0.21860511622599219 -0.4114996229607841 0.7813948837740079 0.4114996229607841 0.7813948837740079 0.4114996229607841 0.21860511622599219 -0.4114996229607841
9.2225E8 0.19034002796667915 -0.3906039099263976 0.8096599720333209 0.3906039099263976 0.8096599720333209 0.3906039099263976 0.19034002796667915 -0.3906039099263976
9.97E8 0.166723254167267 -0.3705965003496763 0.833276745832733 0.3705965003496763 0.833276745832733 0.3705965003496763 0.166723254167267 -0.3705965003496763
1.07175E9 0.14686457188956642 -0.35167034458264185 0.8531354281104335 0.35167034458264185 0.8531354281104335 0.35167034458264185 0.14686457188956642 -0.35167034458264185
1.1465E9 0.1300569243137385 -0.33389521352024615 0.8699430756862615 0.33389521352024615 0.8699430756862615 0.33389521352024615 0.1300569243137385 -0.33389521352024615
1.22125E9 0.11573957979518472 -0.317269153857529 0.8842604202048152 0.317269153857529 0.8842604202048152 0.317269153857529 0.11573957979518472 -0.317269153857529
1.296E9 0.1034670598139902 -0.30175010645886313 0.8965329401860098 0.30175010645886313 0.8965329401860098 0.30175010645886313 0.1034670598139902 -0.30175010645886313
1.37075E9 0.09288412138647398 -0.287275165072048 0.907115878613526 0.287275165072048 0.907115878613526 0.287275165072048 0.09288412138647398 -0.287275165072048
1.4455E9 0.08370608447720206 -0.27377217323723446 0.9162939155227979 0.27377217323723446 0.9162939155227979 0.27377217323723446 0.08370608447720206 -0.27377217323723446
1.52025E9 0.07570354239622358 -0.2611665850739901 0.9242964576037762 0.2611665850739901 0.9242964576037762 0.2611665850739901 0.07570354239622358 -0.2611665850739901
1.595E9 0.06869053665725743 -0.24938540629262634 0.9313094633427424 0.24938540629262634 0.9313094633427424 0.24938540629262634 0.06869053665725743 -0.24938540629262634
1.66975E9 0.06251541855870081 -0.2383593428218735 0.9374845814412991 0.2383593428218735 0.9374845814412991 0.2383593428218735 0.06251541855870081 -0.2383593428218735
1.7445E9 0.05705377472982464 -0.2280238574688642 0.9429462252701756 0.2280238574688642 0.9429462252701756 0.2280238574688642 0.05705377472982464 -0.2280238574688642
1.81925E9 0.0522029321833955 -0.2183195701267766 0.9477970678166043 0.2183195701267766 0.9477970678166043 0.2183195701267766 0.0522029321833955 -0.2183195701267766
1.894E9 0.047877671697929294 -0.20919227226153184 0.9521223283020707 0.20919227226153184 0.9521223283020707 0.20919227226153184 0.047877671697929294 -0.20919227226153184
1.96875E9 0.044006867275565464 -0.20059272357672145 0.9559931327244345 0.20059272357672145 0.9559931327244345 0.20059272357672145 0.044006867275565464 -0.20059272357672145
2.0435E9 0.04053083765535443 -0.19247633439480993 0.9594691623446456 0.19247633439480993 0.9594691623446456 0.19247633439480993 0.04053083765535443 -0.19247633439480993
2.11825E9 0.037399247590620424 -0.18480279692589374 0.9626007524093796 0.18480279692589374 0.9626007524093796 0.18480279692589374 0.037399247590620424 -0.18480279692589374
2.193E9 0.03456943558529591 -0.1775357032618532 0.965430564414704 0.1775357032618532 0.965430564414704 0.1775357032618532 0.03456943558529591 -0.1775357032618532
2.26775E9 0.03200507410691093 -0.1706421720590602 0.9679949258930891 0.1706421720590602 0.9679949258930891 0.1706421720590602 0.03200507410691093 -0.1706421720590602
2.3425E9 0.029675090358119667 -0.16409249597037381 0.9703249096418805 0.16409249597037381 0.9703249096418805 0.16409249597037381 0.029675090358119667 -0.16409249597037381
2.41725E9 0.02755279232526511 -0.1578598157646976 0.9724472076747349 0.1578598157646976 0.9724472076747349 0.1578598157646976 0.02755279232526511 -0.1578598157646976
2.492E9 0.025615157406040045 -0.15191982334449214 0.9743848425939599 0.15191982334449214 0.9743848425939599 0.15191982334449214 0.025615157406040045 -0.15191982334449214
2.56675E9 0.023842250472914273 -0.1462504936590187 0.9761577495270859 0.1462504936590187 0.9761577495270859 0.1462504936590187 0.023842250472914273 -0.1462504936590187
2.6415E9 0.022216745515105083 -0.14083184425364523 0.9777832544848948 0.14083184425364523 0.9777832544848948 0.14083184425364523 0.022216745515105083 -0.14083184425364523
2.71625E9 0.020723530583715725 -0.13564572053568655 0.9792764694162841 0.13564572053568655 0.9792764694162841 0.13564572053568655 0.020723530583715725 -0.13564572053568655
2.791E9 0.019349380061352717 -0.1306756045464392 0.9806506199386473 0.1306756045464392 0.9806506199386473 0.1306756045464392 0.019349380061352717 -0.1306756045464392
2.86575E9 0.01808268160106167 -0.1259064449613995 0.9819173183989381 0.1259064449613995 0.9819173183989381 0.1259064449613995 0.01808268160106167 -0.1259064449613995
2.9405E9 0.016913207662771643 -0.12132450610326147 0.9830867923372284 0.12132450610326147 0.9830867923372284 0.12132450610326147 0.016913207662771643 -0.12132450610326147
3.01525E9 0.015831923593228554 -0.11691723388646952 0.9841680764067717 0.11691723388646952 0.9841680764067717 0.11691723388646952 0.015831923593228554 -0.11691723388646952
3.09E9 0.014830825779024028 -0.11267313678114697 0.9851691742209759 0.11267313678114697 0.9851691742209759 0.11267313678114697 0.014830825779024028 -0.11267313678114697
3.16475E9 0.013902804651086266 -0.10858168006558575 0.9860971953489134 0.10858168006558575 0.9860971953489134 0.10858168006558575 0.013902804651086266 -0.10858168006558575
3.2395E9 0.013041528308269582 -0.10463319181671583 0.9869584716917305 0.10463319181671583 0.9869584716917305 0.10463319181671583 0.013041528308269582 -0.10463319181671583
3.31425E9 0.012241343314930568 -0.10081877925941868 0.9877586566850695 0.10081877925941868 0.9877586566850695 0.10081877925941868 0.012241343314930568 -0.10081877925941868
3.389E9 0.011497189856635063 -0.09713025425422367 0.9885028101433649 0.09713025425422367 0.9885028101433649 0.09713025425422367 0.011497189856635063 -0.09713025425422367
3.46375E9 0.010804528943271687 -0.09356006684712387 0.9891954710567281 0.09356006684712387 0.9891954710567281 0.09356006684712387 0.010804528943271687 -0.09356006684712387
3.5385E9 0.010159279756036125 -0.09010124593465427 0.9898407202439639 0.09010124593465427 0.9898407202439639 0.09010124593465427 0.010159279756036125 -0.09010124593465427
3.61325E9 0.00955776556431991 -0.08674734621248496 0.99044223443568 0.08674734621248496 0.99044223443568 0.08674734621248496 0.00955776556431991 -0.08674734621248496
3.688E9 0.008996666906335984 -0.08349240067753168 0.9910033330936641 0.08349240067753168 0.9910033330936641 0.08349240067753168 0.008996666906335984 -0.08349240067753168
3.76275E9 0.008472980945751921 -0.08033087804312672 0.991527019054248 0.08033087804312672 0.991527019054248 0.08033087804312672 0.008472980945751921 -0.08033087804312672
3.8375E9 0.00798398609543952 -0.07725764450534331 0.9920160139045606 0.07725764450534331 0.9920160139045606 0.07725764450534331 0.00798398609543952 -0.07725764450534331
3.91225E9 0.0075272111463931405 -0.07426792936732565 0.9924727888536069 0.07426792936732565 0.9924727888536069 0.07426792936732565 0.0075272111463931405 -0.07426792936732565
3.987E9 0.007100408261028571 -0.07135729408858629 0.9928995917389716 0.07135729408858629 0.9928995917389716 0.07135729408858629 0.007100408261028571 -0.07135729408858629
4.06175E9 0.006701529290311221 -0.06852160437873096 0.9932984707096887 0.06852160437873096 0.9932984707096887 0.06852160437873096 0.006701529290311221 -0.06852160437873096
4.1365E9 0.006328704957363436 -0.06575700500091389 0.9936712950426367 0.06575700500091389 0.9936712950426367 0.06575700500091389 0.006328704957363436 -0.06575700500091389
4.21125E9 0.0059802265194798575 -0.06305989699035 0.9940197734805203 0.06305989699035 0.9940197734805203 0.06305989699035 0.0059802265194798575 -0.06305989699035
4.286E9 0.005654529578345602 -0.060426917028169456 0.9943454704216546 0.060426917028169456 0.9943454704216546 0.060426917028169456 0.005654529578345602 -0.060426917028169456
4.36075E9 0.005350179756728989 -0.05785491874144427 0.9946498202432708 0.05785491874144427 0.9946498202432708 0.05785491874144427 0.005350179756728989 -0.05785491874144427
4.4355E9 0.0050658600006505 -0.055340955726927814 0.9949341399993494 0.055340955726927814 0.9949341399993494 0.055340955726927814 0.0050658600006505 -0.055340955726927814
4.51025E9 0.004800359300346759 -0.05288226611942105 0.9951996406996532 0.05288226611942105 0.9951996406996532 0.05288226611942105 0.004800359300346759 -0.05288226611942105
4.585E9 0.004552562652341858 -0.05047625854615419 0.9954474373476581 0.05047625854615419 0.9954474373476581 0.05047625854615419 0.004552562652341858 -0.05047625854615419
4.65975E9 0.0043214421094987686 -0.048120499326523486 0.9956785578905011 0.048120499326523486 0.9956785578905011 0.048120499326523486 0.0043214421094987686 -0.048120499326523486
4.7345E9 0.00410604878678291 -0.04581270079228075 0.9958939512132173 0.04581270079228075 0.9958939512132173 0.04581270079228075 0.00410604878678291 -0.04581270079228075
4.80925E9 0.0039055057082299674 -0.04355071061712068 0.9960944942917702 0.04355071061712068 0.9960944942917702 0.04355071061712068 0.0039055057082299674 -0.04355071061712068
4.884E9 0.003719001395768281 -0.04133250205679276 0.9962809986042318 0.04133250205679276 0.9962809986042318 0.04133250205679276 0.003719001395768281 -0.04133250205679276
4.95875E9 0.0035457841135143747 -0.03915616501159698 0.9964542158864854 0.03915616501159698 0.9964542158864854 0.03915616501159698 0.0035457841135143747 -0.03915616501159698
5.0335E9 0.0033851566922802868 -0.03701989783258589 0.9966148433077197 0.03701989783258589 0.9966148433077197 0.03701989783258589 0.0033851566922802868 -0.03701989783258589
5.10825E9 0.0032364718685881336 -0.0349219998011537 0.9967635281314117 0.0349219998011537 0.9967635281314117 0.0349219998011537 0.0032364718685881336 -0.0349219998011537
5.183E9 0.003099128080718495 -0.03286086421908246 0.9969008719192817 0.03286086421908246 0.9969008719192817 0.03286086421908246 0.003099128080718495 -0.03286086421908246
5.25775E9 0.0029725656714234255 -0.030834972052656152 0.9970274343285767 0.030834972052656152 0.9970274343285767 0.030834972052656152 0.0029725656714234255 -0.030834972052656152
5.3325E9 0.002856263453079498 -0.028842886080252844 0.9971437365469203 0.028842886080252844 0.9971437365469203 0.028842886080252844 0.002856263453079498 -0.028842886080252844
5.40725E9 0.0027497355963811473 -0.026883245497970363 0.9972502644036189 0.026883245497970363 0.9972502644036189 0.026883245497970363 0.0027497355963811473 -0.026883245497970363
5.482E9 0.002652528808298425 -0.024954760942413924 0.9973474711917018 0.024954760942413924 0.9973474711917018 0.024954760942413924 0.002652528808298425 -0.024954760942413924
5.55675E9 0.002564219769045861 -0.0230562098938428 0.9974357802309541 0.0230562098938428 0.9974357802309541 0.0230562098938428 0.002564219769045861 -0.0230562098938428
5.6315E9 0.0024844128013151714 -0.021186432426497197 0.9975155871986848 0.021186432426497197 0.9975155871986848 0.021186432426497197 0.0024844128013151714 -0.021186432426497197
5.70625E9 0.002412737748085983 -0.019344327276158948 0.997587262251914 0.019344327276158948 0.997587262251914 0.019344327276158948 0.002412737748085983 -0.019344327276158948
5.781E9 0.0023488480380065343 -0.017528848197886256 0.9976511519619935 0.017528848197886256 0.9976511519619935 0.017528848197886256 0.0023488480380065343 -0.017528848197886256
5.85575E9 0.00229241891968277 -0.01573900058944392 0.9977075810803172 0.01573900058944392 0.9977075810803172 0.01573900058944392 0.00229241891968277 -0.01573900058944392
5.9305E9 0.0022431458482735094 -0.013973838358259001 0.9977568541517267 0.013973838358259001 0.9977568541517267 0.013973838358259001 0.0022431458482735094 -0.013973838358259001
6.00525E9 0.002200743009599977 -0.012232461011804432 0.9977992569904 0.012232461011804432 0.9977992569904 0.012232461011804432 0.002200743009599977 -0.012232461011804432
6.08E9 0.002164941968572026 -0.010514010953167152 0.997835058031428 0.010514010953167152 0.997835058031428 0.010514010953167152 0.002164941968572026 -0.010514010953167152
6.15475E9 0.0021354904301394213 -0.008817670965229235 0.9978645095698608 0.008817670965229235 0.9978645095698608 0.008817670965229235 0.0021354904301394213 -0.008817670965229235
6.2295E9 0.002112151102218235 -0.007142661868386592 0.9978878488977817 0.007142661868386592 0.9978878488977817 0.007142661868386592 0.002112151102218235 -0.007142661868386592
6.30425E9 0.0020947006511409356 -0.005488240338083667 0.997905299348859 0.005488240338083667 0.997905299348859 0.005488240338083667 0.0020947006511409356 -0.005488240338083667
6.379E9 0.002082928741151767 -0.003853696869656616 0.9979170712588482 0.003853696869656616 0.9979170712588482 0.003853696869656616 0.002082928741151767 -0.003853696869656616
6.45375E9 0.0020766371503322715 -0.002238353879077224 0.997923362849668 0.002238353879077224 0.997923362849668 0.002238353879077224 0.0020766371503322715 -0.002238353879077224
6.5285E9 0.0020756389561086535 -6.415639291793935E-4 0.9979243610438916 6.415639291793935E-4 0.9979243610438916 6.415639291793935E-4 0.0020756389561086535 -6.415639291793935E-4
6.60325E9 0.0020797577841748555 9.372919281519475E-4 0.9979202422158252 -9.372919281519475E-4 0.9979202422158252 -9.372919281519475E-4 0.0020797577841748555 9.372919281519475E-4
6.678E9 0.002088827115272833 0.002498805702540561 0.9979111728847274 -0.002498805702540561 0.9979111728847274 -0.002498805702540561 0.002088827115272833 0.002498805702540561
6.75275E9 0.0021026896448135 0.0040435439164023795 0.9978973103551865 -0.0040435439164023795 0.9978973103551865 -0.0040435439164023795 0.0021026896448135 0.0040435439164023795
6.8275E9 0.002121196690805785 0.005572048964262078 0.9978788033091944 -0.005572048964262078 0.9978788033091944 -0.005572048964262078 0.002121196690805785 0.005572048964262078
6.90225E9 0.0021442076459940096 0.007084840386808698 0.997855792354006 -0.007084840386808698 0.997855792354006 -0.007084840386808698 0.0021442076459940096 0.007084840386808698
6.977E9 0.0021715894704912343 0.008582416065844712 0.9978284105295088 -0.008582416065844712 0.9978284105295088 -0.008582416065844712 0.0021715894704912343 0.008582416065844712
7.05175E9 0.0022032162215435036 0.010065253345786614 0.9977967837784565 -0.010065253345786614 0.9977967837784565 -0.010065253345786614 0.0022032162215435036 0.010065253345786614
7.1265E9 0.0022389686173715 0.011533810086917758 0.9977610313826284 -0.011533810086917758 0.9977610313826284 -0.011533810086917758 0.0022389686173715 0.011533810086917758
7.20125E9 0.0022787336323161554 0.01298852565518245 0.9977212663676838 -0.01298852565518245 0.9977212663676838 -0.01298852565518245 0.0022787336323161554 0.01298852565518245
7.276E9 0.0023224041207665367 0.014429821852931011 0.9976775958792334 -0.014429821852931011 0.9976775958792334 -0.014429821852931011 0.0023224041207665367 0.014429821852931011
7.35075E9 0.002369878467575074 0.015858103794682697 0.997630121532425 -0.015858103794682697 0.997630121532425 -0.015858103794682697 0.002369878467575074 0.015858103794682697
7.4255E9 0.002421060262869577 0.01727376073165712 0.9975789397371305 -0.01727376073165712 0.9975789397371305 -0.01727376073165712 0.002421060262869577 0.01727376073165712
7.50025E9 0.0024758579993559415 0.01867716682853855 0.9975241420006443 -0.01867716682853855 0.9975241420006443 -0.01867716682853855 0.0024758579993559415 0.01867716682853855
7.575E9 0.0025341847903720045 0.020068681895673943 0.997465815209628 -0.020068681895673943 0.997465815209628 -0.020068681895673943 0.0025341847903720045 0.020068681895673943
7.64975E9 0.0025959581071036695 0.021448652079663975 0.9974040418928963 -0.021448652079663975 0.9974040418928963 -0.021448652079663975 0.0025959581071036695 0.021448652079663975
7.7245E9 0.0026610995335107977 0.02281741051508687 0.9973389004664891 -0.02281741051508687 0.9973389004664891 -0.02281741051508687 0.0026610995335107977 0.02281741051508687
7.79925E9 0.0027295345376338754 0.024175277939890973 0.9972704654623661 -0.024175277939890973 0.9972704654623661 -0.024175277939890973 0.0027295345376338754 0.024175277939890973
7.874E9 0.0028011922580645733 0.025522563276807856 0.9971988077419356 -0.025522563276807856 0.9971988077419356 -0.025522563276807856 0.0028011922580645733 0.025522563276807856
7.94875E9 0.002876005304464991 0.026859564182965413 0.9971239946955351 -0.026859564182965413 0.9971239946955351 -0.026859564182965413 0.002876005304464991 0.026859564182965413
8.0235E9 0.0029539095711128864 0.02818656756972498 0.9970460904288871 -0.02818656756972498 0.9970460904288871 -0.02818656756972498 0.0029539095711128864 0.02818656756972498
8.09825E9 0.003034844062534209 0.029503850094621146 0.9969651559374658 -0.029503850094621146 0.9969651559374658 -0.029503850094621146 0.003034844062534209 0.029503850094621146
8.173E9 0.003118750730360891 0.030811678627151257 0.9968812492696393 -0.030811678627151257 0.9968812492696393 -0.030811678627151257 0.003118750730360891 0.030811678627151257
8.24775E9 0.003205574320621588 0.03211031069003858 0.9967944256793786 -0.03211031069003858 0.9967944256793786 -0.03211031069003858 0.003205574320621588 0.03211031069003858
8.3225E9 0.0032952622307366643 0.03339999487748017 0.9967047377692633 -0.03339999487748017 0.9967047377692633 -0.03339999487748017 0.0032952622307366643 0.03339999487748017
8.39725E9 0.0033877643755469283 0.034680971251787894 0.996612235624453 -0.034680971251787894 0.996612235624453 -0.034680971251787894 0.0033877643755469283 0.034680971251787894
8.472E9 0.003483033061758604 0.035953471719732996 0.9965169669382417 -0.035953471719732996 0.9965169669382417 -0.035953471719732996 0.003483033061758604 0.035953471719732996
8.54675E9 0.0035810228702357265 0.037217720389818375 0.9964189771297642 -0.037217720389818375 0.9964189771297642 -0.037217720389818375 0.0035810228702357265 0.037217720389818375
