!Murata Part Number: GJM0225C1E6R4BB01
!These Parameters are Measured in Series Mode Connection
!       o--ll--o
!Port1            Port2
!       o------o
!Operation Temp=25[degC], DC Bias Voltage=0[V]
!Freq. Start=100[MHz] Stop=30[GHz], 401[Steps]
!Data Generated on Feb 1, 2023
# Hz S RI R 50
!Freq.(Hz) S11(Real) S11(Imag) S21(Real) S21(Imag) S12(Real) S12(Imag) S22(Real) S22(Imag)
1.0E8 0.8605784122200085 -0.34614431365969917 0.13942158777999145 0.34614431365969917 0.13942158777999145 0.34614431365969917 0.8605784122200085 -0.34614431365969917
1.7475E8 0.6687014137501629 -0.47025656558951245 0.3312985862498371 0.47025656558951245 0.3312985862498371 0.47025656558951245 0.6687014137501629 -0.47025656558951245
2.495E8 0.49698400317045166 -0.4993829957260825 0.5030159968295485 0.4993829957260825 0.5030159968295485 0.4993829957260825 0.49698400317045166 -0.4993829957260825
3.2425E8 0.3683942939718217 -0.48157368098161196 0.6316057060281784 0.48157368098161196 0.6316057060281784 0.48157368098161196 0.3683942939718217 -0.48157368098161196
3.99E8 0.2773405018084993 -0.4466990077939221 0.7226594981915008 0.4466990077939221 0.7226594981915008 0.4466990077939221 0.2773405018084993 -0.4466990077939221
4.7375E8 0.21323078698279802 -0.40840588665351496 0.7867692130172022 0.40840588665351496 0.7867692130172022 0.40840588665351496 0.21323078698279802 -0.40840588665351496
5.485E8 0.1674595399759488 -0.3720001331669744 0.8325404600240514 0.3720001331669744 0.8325404600240514 0.3720001331669744 0.1674595399759488 -0.3720001331669744
6.2325E8 0.13410392643520375 -0.33917007742926536 0.8658960735647961 0.33917007742926536 0.8658960735647961 0.33917007742926536 0.13410392643520375 -0.33917007742926536
6.98E8 0.1092627218494125 -0.31015948184922093 0.8907372781505875 0.31015948184922093 0.8907372781505875 0.31015948184922093 0.1092627218494125 -0.31015948184922093
7.7275E8 0.09037454752815559 -0.2846859491052042 0.9096254524718443 0.2846859491052042 0.9096254524718443 0.2846859491052042 0.09037454752815559 -0.2846859491052042
8.475E8 0.07573674019571884 -0.26231434452302227 0.924263259804281 0.26231434452302227 0.924263259804281 0.26231434452302227 0.07573674019571884 -0.26231434452302227
9.2225E8 0.06419658830405438 -0.2426020712777875 0.9358034116959457 0.2426020712777875 0.9358034116959457 0.2426020712777875 0.06419658830405438 -0.2426020712777875
9.97E8 0.054957941054425884 -0.22515017359883874 0.9450420589455739 0.22515017359883874 0.9450420589455739 0.22515017359883874 0.054957941054425884 -0.22515017359883874
1.07175E9 0.04745988559456248 -0.20961630816604257 0.9525401144054376 0.20961630816604257 0.9525401144054376 0.20961630816604257 0.04745988559456248 -0.20961630816604257
1.1465E9 0.04129969341041179 -0.19571302554847683 0.9587003065895882 0.19571302554847683 0.9587003065895882 0.19571302554847683 0.04129969341041179 -0.19571302554847683
1.22125E9 0.03618305805787096 -0.18320111801732641 0.9638169419421291 0.18320111801732641 0.9638169419421291 0.18320111801732641 0.03618305805787096 -0.18320111801732641
1.296E9 0.0318913669979833 -0.17188199671162924 0.9681086330020169 0.17188199671162924 0.9681086330020169 0.17188199671162924 0.0318913669979833 -0.17188199671162924
1.37075E9 0.02825977803844893 -0.1615906004102849 0.971740221961551 0.1615906004102849 0.971740221961551 0.1615906004102849 0.02825977803844893 -0.1615906004102849
1.4455E9 0.025162269757099346 -0.15218930335525122 0.9748377302429004 0.15218930335525122 0.9748377302429004 0.15218930335525122 0.025162269757099346 -0.15218930335525122
1.52025E9 0.022501273396384053 -0.14356287010235633 0.9774987266036159 0.14356287010235633 0.9774987266036159 0.14356287010235633 0.022501273396384053 -0.14356287010235633
1.595E9 0.020200366655609342 -0.13561435109268652 0.9797996333443906 0.13561435109268652 0.9797996333443906 0.13561435109268652 0.020200366655609342 -0.13561435109268652
1.66975E9 0.018199047753488833 -0.1282617704859464 0.9818009522465112 0.1282617704859464 0.9818009522465112 0.1282617704859464 0.018199047753488833 -0.1282617704859464
1.7445E9 0.016448945038449087 -0.12143546060406832 0.9835510549615509 0.12143546060406832 0.9835510549615509 0.12143546060406832 0.016448945038449087 -0.12143546060406832
1.81925E9 0.014911031891125682 -0.11507591586365058 0.9850889681088741 0.11507591586365058 0.9850889681088741 0.11507591586365058 0.014911031891125682 -0.11507591586365058
1.894E9 0.013553555392171542 -0.1091320609822263 0.9864464446078287 0.1091320609822263 0.9864464446078287 0.1091320609822263 0.013553555392171542 -0.1091320609822263
1.96875E9 0.012350478363672666 -0.10355984868316598 0.9876495216363275 0.10355984868316598 0.9876495216363275 0.10355984868316598 0.012350478363672666 -0.10355984868316598
2.0435E9 0.011280295153899134 -0.09832111953484658 0.9887197048461008 0.09832111953484658 0.9887197048461008 0.09832111953484658 0.011280295153899134 -0.09832111953484658
2.11825E9 0.010325122619670142 -0.09338267075279372 0.9896748773803302 0.09338267075279372 0.9896748773803302 0.09338267075279372 0.010325122619670142 -0.09338267075279372
2.193E9 0.009469995913321257 -0.0887154920997595 0.9905300040866786 0.0887154920997595 0.9905300040866786 0.0887154920997595 0.009469995913321257 -0.0887154920997595
2.26775E9 0.008702318217531734 -0.08429413591593639 0.9912976817824684 0.08429413591593639 0.9912976817824684 0.08429413591593639 0.008702318217531734 -0.08429413591593639
2.3425E9 0.008011427290945696 -0.08009619527098151 0.9919885727090543 0.08009619527098151 0.9919885727090543 0.08009619527098151 0.008011427290945696 -0.08009619527098151
2.41725E9 0.007388251431639884 -0.07610186966096703 0.99261174856836 0.07610186966096703 0.99261174856836 0.07610186966096703 0.007388251431639884 -0.07610186966096703
2.492E9 0.0068250344602014896 -0.07229360191274228 0.9931749655397984 0.07229360191274228 0.9931749655397984 0.07229360191274228 0.0068250344602014896 -0.07229360191274228
2.56675E9 0.006315114396118993 -0.06865577327259317 0.9936848856038808 0.06865577327259317 0.9936848856038808 0.06865577327259317 0.006315114396118993 -0.06865577327259317
2.6415E9 0.00585274421414382 -0.06517444625420818 0.9941472557858559 0.06517444625420818 0.9941472557858559 0.06517444625420818 0.00585274421414382 -0.06517444625420818
2.71625E9 0.005432945810035154 -0.06183714686437003 0.9945670541899649 0.06183714686437003 0.9945670541899649 0.06183714686437003 0.005432945810035154 -0.06183714686437003
2.791E9 0.005051390348578357 -0.05863267943793814 0.9949486096514218 0.05863267943793814 0.9949486096514218 0.05863267943793814 0.005051390348578357 -0.05863267943793814
2.86575E9 0.0047042997016583325 -0.05555096859227824 0.9952957002983416 0.05555096859227824 0.9952957002983416 0.05555096859227824 0.0047042997016583325 -0.05555096859227824
2.9405E9 0.0043883648459652974 -0.052582923828934744 0.9956116351540346 0.052582923828934744 0.9956116351540346 0.052582923828934744 0.0043883648459652974 -0.052582923828934744
3.01525E9 0.004100677975761296 -0.049720323123718456 0.9958993220242387 0.049720323123718456 0.9958993220242387 0.049720323123718456 0.004100677975761296 -0.049720323123718456
3.09E9 0.003838675766298759 -0.046955712499266375 0.9961613242337014 0.046955712499266375 0.9961613242337014 0.046955712499266375 0.003838675766298759 -0.046955712499266375
3.16475E9 0.00360009174918658 -0.04428231910040221 0.9963999082508135 0.04428231910040221 0.9963999082508135 0.04428231910040221 0.00360009174918658 -0.04428231910040221
3.2395E9 0.003382916169891697 -0.041693975718615904 0.9966170838301083 0.041693975718615904 0.9966170838301083 0.041693975718615904 0.003382916169891697 -0.041693975718615904
3.31425E9 0.0031853620175191803 -0.039185055058212695 0.9968146379824808 0.039185055058212695 0.9968146379824808 0.039185055058212695 0.0031853620175191803 -0.039185055058212695
3.389E9 0.003005836168816584 -0.036750412319219695 0.9969941638311834 0.036750412319219695 0.9969941638311834 0.036750412319219695 0.003005836168816584 -0.036750412319219695
3.46375E9 0.0028429147876048648 -0.034385334903606964 0.9971570852123952 0.034385334903606964 0.9971570852123952 0.034385334903606964 0.0028429147876048648 -0.034385334903606964
3.5385E9 0.002695322279341987 -0.03208549824173441 0.9973046777206581 0.03208549824173441 0.9973046777206581 0.03208549824173441 0.002695322279341987 -0.03208549824173441
3.61325E9 0.0025619132272446314 -0.02984692689306151 0.9974380867727554 0.02984692689306151 0.9974380867727554 0.02984692689306151 0.0025619132272446314 -0.02984692689306151
3.688E9 0.0024416568381895455 -0.02766596020532454 0.9975583431618102 0.02766596020532454 0.9975583431618102 0.02766596020532454 0.0024416568381895455 -0.02766596020532454
3.76275E9 0.0023336235087675168 -0.02553922192459917 0.9976663764912326 0.02553922192459917 0.9976663764912326 0.02553922192459917 0.0023336235087675168 -0.02553922192459917
3.8375E9 0.002236973188453851 -0.02346359323893245 0.9977630268115462 0.02346359323893245 0.9977630268115462 0.02346359323893245 0.002236973188453851 -0.02346359323893245
3.91225E9 0.00215094527106606 -0.02143618881377597 0.9978490547289343 0.02143618881377597 0.9978490547289343 0.02143618881377597 0.00215094527106606 -0.02143618881377597
3.987E9 0.002074849789984829 -0.019454335440880002 0.9979251502100152 0.019454335440880002 0.9979251502100152 0.019454335440880002 0.002074849789984829 -0.019454335440880002
4.06175E9 0.002008059728968916 -0.01751555297572981 0.9979919402710311 0.01751555297572981 0.9979919402710311 0.01751555297572981 0.002008059728968916 -0.01751555297572981
4.1365E9 0.0019500042903373902 -0.015617537283731001 0.9980499957096626 0.015617537283731001 0.9980499957096626 0.015617537283731001 0.0019500042903373902 -0.015617537283731001
4.21125E9 0.0019001629870439869 -0.013758144953582468 0.9980998370129562 0.013758144953582468 0.9980998370129562 0.013758144953582468 0.0019001629870439869 -0.013758144953582468
4.286E9 0.0018580604456997806 -0.011935379568756966 0.9981419395543001 0.011935379568756966 0.9981419395543001 0.011935379568756966 0.0018580604456997806 -0.011935379568756966
4.36075E9 0.0018232618246887004 -0.0101473793556802 0.9981767381753112 0.0101473793556802 0.9981767381753112 0.0101473793556802 0.0018232618246887004 -0.0101473793556802
4.4355E9 0.0017953687657892967 -0.008392406050837405 0.9982046312342105 0.008392406050837405 0.9982046312342105 0.008392406050837405 0.0017953687657892967 -0.008392406050837405
4.51025E9 0.0017740158096680736 -0.006668834849277399 0.998225984190332 0.006668834849277399 0.998225984190332 0.006668834849277399 0.0017740158096680736 -0.006668834849277399
4.585E9 0.0017588672156512574 -0.0049751453143642085 0.9982411327843487 0.0049751453143642085 0.9982411327843487 0.0049751453143642085 0.0017588672156512574 -0.0049751453143642085
4.65975E9 0.001749614134643076 -0.0033099131435816234 0.9982503858653569 0.0033099131435816234 0.9982503858653569 0.0033099131435816234 0.001749614134643076 -0.0033099131435816234
4.7345E9 0.0017459720912083832 -0.0016718026980985117 0.9982540279087918 0.0016718026980985117 0.9982540279087918 0.0016718026980985117 0.0017459720912083832 -0.0016718026980985117
4.80925E9 0.0017476787368956375 -5.956021495787622E-5 0.9982523212631043 5.956021495787622E-5 0.9982523212631043 5.956021495787622E-5 0.0017476787368956375 -5.956021495787622E-5
4.884E9 0.0017544918420230524 0.001527992369581433 0.9982455081579769 -0.001527992369581433 0.9982455081579769 -0.001527992369581433 0.0017544918420230524 0.001527992369581433
4.95875E9 0.001766187497534558 0.0030919630486267867 0.9982338125024653 -0.0030919630486267867 0.9982338125024653 -0.0030919630486267867 0.001766187497534558 0.0030919630486267867
5.0335E9 0.0017825585022754587 0.004633394880930067 0.9982174414977245 -0.004633394880930067 0.9982174414977245 -0.004633394880930067 0.0017825585022754587 0.004633394880930067
5.10825E9 0.0018034129142416456 0.006153270684264453 0.9981965870857583 -0.006153270684264453 0.9981965870857583 -0.006153270684264453 0.0018034129142416456 0.006153270684264453
5.183E9 0.001828572747105101 0.00765251732973691 0.9981714272528949 -0.00765251732973691 0.9981714272528949 -0.00765251732973691 0.001828572747105101 0.00765251732973691
5.25775E9 0.001857872795682115 0.009132009676002367 0.9981421272043178 -0.009132009676002367 0.9981421272043178 -0.009132009676002367 0.001857872795682115 0.009132009676002367
5.3325E9 0.001891159576047815 0.01059257417807219 0.9981088404239522 -0.01059257417807219 0.9981088404239522 -0.01059257417807219 0.001891159576047815 0.01059257417807219
5.40725E9 0.001928290367759865 0.0120349922016561 0.9980717096322402 -0.0120349922016561 0.9980717096322402 -0.0120349922016561 0.001928290367759865 0.0120349922016561
5.482E9 0.0019691323471769206 0.013460003070672175 0.9980308676528231 -0.013460003070672175 0.9980308676528231 -0.013460003070672175 0.0019691323471769206 0.013460003070672175
5.55675E9 0.002013561802177928 0.014868306872646328 0.9979864381978221 -0.014868306872646328 0.9979864381978221 -0.014868306872646328 0.002013561802177928 0.014868306872646328
5.6315E9 0.0020614634197358007 0.01626056704414935 0.9979385365802642 -0.01626056704414935 0.9979385365802642 -0.01626056704414935 0.0020614634197358007 0.01626056704414935
5.70625E9 0.0021127296387980815 0.017637412756143906 0.9978872703612017 -0.017637412756143906 0.9978872703612017 -0.017637412756143906 0.0021127296387980815 0.017637412756143906
5.781E9 0.0021672600617986303 0.018999441117096942 0.9978327399382013 -0.018999441117096942 0.9978327399382013 -0.018999441117096942 0.0021672600617986303 0.018999441117096942
5.85575E9 0.0022249609188859432 0.02034721920992256 0.9977750390811141 -0.02034721920992256 0.9977750390811141 -0.02034721920992256 0.0022249609188859432 0.02034721920992256
5.9305E9 0.002285744579620486 0.02168128597723142 0.9977142554203797 -0.02168128597723142 0.9977142554203797 -0.02168128597723142 0.002285744579620486 0.02168128597723142
6.00525E9 0.0023495291074781457 0.023002153967945194 0.9976504708925217 -0.023002153967945194 0.9976504708925217 -0.023002153967945194 0.0023495291074781457 0.023002153967945194
6.08E9 0.0024162378530107258 0.02431031095707445 0.9975837621469894 -0.02431031095707445 0.9975837621469894 -0.02431031095707445 0.0024162378530107258 0.02431031095707445
6.15475E9 0.0024857990819664665 0.025606221449330346 0.9975142009180333 -0.025606221449330346 0.9975142009180333 -0.025606221449330346 0.0024857990819664665 0.025606221449330346
6.2295E9 0.0025581456350723232 0.02689032807623598 0.9974418543649277 -0.02689032807623598 0.9974418543649277 -0.02689032807623598 0.0025581456350723232 0.02689032807623598
6.30425E9 0.002633214616531531 0.02816305289549973 0.9973667853834682 -0.02816305289549973 0.9973667853834682 -0.02816305289549973 0.002633214616531531 0.02816305289549973
6.379E9 0.0027109471086015436 0.029424798600608624 0.9972890528913985 -0.029424798600608624 0.9972890528913985 -0.029424798600608624 0.0027109471086015436 0.029424798600608624
6.45375E9 0.0027912879098930536 0.030675949647872347 0.9972087120901068 -0.030675949647872347 0.9972087120901068 -0.030675949647872347 0.0027912879098930536 0.030675949647872347
6.5285E9 0.0028741852952758377 0.031916873307500926 0.9971258147047241 -0.031916873307500926 0.9971258147047241 -0.031916873307500926 0.0028741852952758377 0.031916873307500926
6.60325E9 0.0029595907954945624 0.03314792064471111 0.9970404092045054 -0.03314792064471111 0.9970404092045054 -0.03314792064471111 0.0029595907954945624 0.03314792064471111
6.678E9 0.003047458994791685 0.034369427436332145 0.9969525410052085 -0.034369427436332145 0.9969525410052085 -0.034369427436332145 0.003047458994791685 0.034369427436332145
6.75275E9 0.0031377473450073024 0.035581715027905074 0.9968622526549926 -0.035581715027905074 0.9968622526549926 -0.035581715027905074 0.0031377473450073024 0.035581715027905074
6.8275E9 0.0032304159947803357 0.03678509113584174 0.9967695840052196 -0.03678509113584174 0.9967695840052196 -0.03678509113584174 0.0032304159947803357 0.03678509113584174
6.90225E9 0.0033254276326138052 0.03797985059882358 0.9966745723673861 -0.03797985059882358 0.9966745723673861 -0.03797985059882358 0.0033254276326138052 0.03797985059882358
6.977E9 0.00342274734269092 0.03916627608226891 0.9965772526573089 -0.03916627608226891 0.9965772526573089 -0.03916627608226891 0.00342274734269092 0.03916627608226891
7.05175E9 0.003522342472440384 0.04034463873938244 0.9964776575275595 -0.04034463873938244 0.9964776575275595 -0.04034463873938244 0.003522342472440384 0.04034463873938244
7.1265E9 0.003624182510949745 0.041515198832013184 0.9963758174890502 -0.041515198832013184 0.9963758174890502 -0.041515198832013184 0.003624182510949745 0.041515198832013184
7.20125E9 0.003728238977416476 0.0426782063142876 0.9962717610225834 -0.0426782063142876 0.9962717610225834 -0.0426782063142876 0.003728238977416476 0.0426782063142876
7.276E9 0.0038344853189086646 0.04383390138174921 0.9961655146810912 -0.04383390138174921 0.9961655146810912 -0.04383390138174921 0.0038344853189086646 0.04383390138174921
7.35075E9 0.003942896816781972 0.04498251498852219 0.996057103183218 -0.04498251498852219 0.996057103183218 -0.04498251498852219 0.003942896816781972 0.04498251498852219
7.4255E9 0.004053450501167569 0.046124269334822214 0.9959465494988323 -0.046124269334822214 0.9959465494988323 -0.046124269334822214 0.004053450501167569 0.046124269334822214
7.50025E9 0.004166125073008162 0.047259378326962136 0.9958338749269917 -0.047259378326962136 0.9958338749269917 -0.047259378326962136 0.004166125073008162 0.047259378326962136
7.575E9 0.004280900833176453 0.04838804801183941 0.9957190991668234 -0.04838804801183941 0.9957190991668234 -0.04838804801183941 0.004280900833176453 0.04838804801183941
7.64975E9 0.00439775961826332 0.0495104769877468 0.9956022403817367 -0.0495104769877468 0.9956022403817367 -0.0495104769877468 0.00439775961826332 0.0495104769877468
7.7245E9 0.004516684742672163 0.05062685679321657 0.9954833152573279 -0.05062685679321657 0.9954833152573279 -0.05062685679321657 0.004516684742672163 0.05062685679321657
7.79925E9 0.004637660946701751 0.05173737227548692 0.9953623390532982 -0.05173737227548692 0.9953623390532982 -0.05173737227548692 0.004637660946701751 0.05173737227548692
7.874E9 0.004760674350343238 0.05284220194007243 0.9952393256496571 -0.05284220194007243 0.9952393256496571 -0.05284220194007243 0.004760674350343238 0.05284220194007243
7.94875E9 0.0048857124125578355 0.05394151828281869 0.9951142875874421 -0.05394151828281869 0.9951142875874421 -0.05394151828281869 0.0048857124125578355 0.05394151828281869
8.0235E9 0.005012763895841313 0.055035488105736434 0.9949872361041587 -0.055035488105736434 0.9949872361041587 -0.055035488105736434 0.005012763895841313 0.055035488105736434
8.09825E9 0.005141818835918881 0.056124272817823374 0.9948581811640813 -0.056124272817823374 0.9948581811640813 -0.056124272817823374 0.005141818835918881 0.056124272817823374
8.173E9 0.00527286851645174 0.057208028722015754 0.9947271314835482 -0.057208028722015754 0.9947271314835482 -0.057208028722015754 0.00527286851645174 0.057208028722015754
8.24775E9 0.005405905448672645 0.05828690728934025 0.9945940945513273 -0.05828690728934025 0.9945940945513273 -0.05828690728934025 0.005405905448672645 0.05828690728934025
8.3225E9 0.005540923355904909 0.0593610554212826 0.9944590766440952 -0.0593610554212826 0.9944590766440952 -0.0593610554212826 0.005540923355904909 0.0593610554212826
8.39725E9 0.005677917162955948 0.06043061570133399 0.9943220828370439 -0.06043061570133399 0.9943220828370439 -0.06043061570133399 0.005677917162955948 0.06043061570133399
8.472E9 0.005816882990414655 0.06149572663663216 0.9941831170095853 -0.06149572663663216 0.9941831170095853 -0.06149572663663216 0.005816882990414655 0.06149572663663216
