!Murata Part Number: GJM0225C1E180GB01
!These Parameters are Measured in Series Mode Connection
!       o--ll--o
!Port1            Port2
!       o------o
!Operation Temp=25[degC], DC Bias Voltage=0[V]
!Freq. Start=100[MHz] Stop=30[GHz], 401[Steps]
!Data Generated on Feb 1, 2023
# Hz S RI R 50
!Freq.(Hz) S11(Real) S11(Imag) S21(Real) S21(Imag) S12(Real) S12(Imag) S22(Real) S22(Imag)
1.0E8 0.4382055586360797 -0.49581702629742724 0.5617944413639202 0.49581702629742724 0.5617944413639202 0.49581702629742724 0.4382055586360797 -0.49581702629742724
1.7475E8 0.20290341820885013 -0.4015457388781315 0.79709658179115 0.4015457388781315 0.79709658179115 0.4015457388781315 0.20290341820885013 -0.4015457388781315
2.495E8 0.11049402896882428 -0.31261634291213597 0.8895059710311757 0.31261634291213597 0.8895059710311757 0.31261634291213597 0.11049402896882428 -0.31261634291213597
3.2425E8 0.06806164188560795 -0.25068067044768405 0.9319383581143919 0.25068067044768405 0.9319383581143919 0.25068067044768405 0.06806164188560795 -0.25068067044768405
3.99E8 0.045629320750479985 -0.2072130709303745 0.95437067924952 0.2072130709303745 0.95437067924952 0.2072130709303745 0.045629320750479985 -0.2072130709303745
4.7375E8 0.03247307495481957 -0.17547422224293294 0.9675269250451805 0.17547422224293294 0.9675269250451805 0.17547422224293294 0.03247307495481957 -0.17547422224293294
5.485E8 0.024144014467839862 -0.15138669896322796 0.9758559855321601 0.15138669896322796 0.9758559855321601 0.15138669896322796 0.024144014467839862 -0.15138669896322796
6.2325E8 0.018557522860236722 -0.13249369734991087 0.9814424771397632 0.13249369734991087 0.9814424771397632 0.13249369734991087 0.018557522860236722 -0.13249369734991087
6.98E8 0.014639064195419958 -0.11726285588051662 0.9853609358045801 0.11726285588051662 0.9853609358045801 0.11726285588051662 0.014639064195419958 -0.11726285588051662
7.7275E8 0.011791444379852922 -0.10470010942091791 0.9882085556201473 0.10470010942091791 0.9882085556201473 0.10470010942091791 0.011791444379852922 -0.10470010942091791
8.475E8 0.009662060222137522 -0.09413658457061103 0.9903379397778626 0.09413658457061103 0.9903379397778626 0.09413658457061103 0.009662060222137522 -0.09413658457061103
9.2225E8 0.008032155642379721 -0.08510742884356273 0.9919678443576204 0.08510742884356273 0.9919678443576204 0.08510742884356273 0.008032155642379721 -0.08510742884356273
9.97E8 0.006760305618618993 -0.07728033781611447 0.9932396943813808 0.07728033781611447 0.9932396943813808 0.07728033781611447 0.006760305618618993 -0.07728033781611447
1.07175E9 0.005751842934812627 -0.07041185109995284 0.9942481570651873 0.07041185109995284 0.9942481570651873 0.07041185109995284 0.005751842934812627 -0.07041185109995284
1.1465E9 0.004941485758114503 -0.06431972683511267 0.9950585142418856 0.06431972683511267 0.9950585142418856 0.06431972683511267 0.004941485758114503 -0.06431972683511267
1.22125E9 0.004283043196832236 -0.05886494928416791 0.9957169568031675 0.05886494928416791 0.9957169568031675 0.05886494928416791 0.004283043196832236 -0.05886494928416791
1.296E9 0.0037430901267471 -0.05393969242519991 0.996256909873253 0.05393969242519991 0.996256909873253 0.05393969242519991 0.0037430901267471 -0.05393969242519991
1.37075E9 0.0032969562330963415 -0.04945907279036924 0.9967030437669034 0.04945907279036924 0.9967030437669034 0.04945907279036924 0.0032969562330963415 -0.04945907279036924
1.4455E9 0.002926111001743179 -0.045355376081955334 0.9970738889982567 0.045355376081955334 0.9970738889982567 0.045355376081955334 0.002926111001743179 -0.045355376081955334
1.52025E9 0.0026164163901176048 -0.04157393684569339 0.9973835836098826 0.04157393684569339 0.9973835836098826 0.04157393684569339 0.0026164163901176048 -0.04157393684569339
1.595E9 0.002356933378655665 -0.038070146286766374 0.9976430666213443 0.038070146286766374 0.9976430666213443 0.038070146286766374 0.002356933378655665 -0.038070146286766374
1.66975E9 0.002139090609331844 -0.034807244837777425 0.9978609093906684 0.034807244837777425 0.9978609093906684 0.034807244837777425 0.002139090609331844 -0.034807244837777425
1.7445E9 0.0019560948539036876 -0.031754670169548284 0.9980439051460964 0.031754670169548284 0.9980439051460964 0.031754670169548284 0.0019560948539036876 -0.031754670169548284
1.81925E9 0.0018025061527939677 -0.028886804614294496 0.9981974938472059 0.028886804614294496 0.9981974938472059 0.028886804614294496 0.0018025061527939677 -0.028886804614294496
1.894E9 0.0016739270753187846 -0.026182013991915075 0.9983260729246813 0.026182013991915075 0.9983260729246813 0.026182013991915075 0.0016739270753187846 -0.026182013991915075
1.96875E9 0.0015667723508533595 -0.023621901883423578 0.9984332276491465 0.023621901883423578 0.9984332276491465 0.023621901883423578 0.0015667723508533595 -0.023621901883423578
2.0435E9 0.0014780959428318215 -0.021190725155731498 0.9985219040571682 0.021190725155731498 0.9985219040571682 0.021190725155731498 0.0014780959428318215 -0.021190725155731498
2.11825E9 0.0014054597399564986 -0.018874931546948047 0.9985945402600437 0.018874931546948047 0.9985945402600437 0.018874931546948047 0.0014054597399564986 -0.018874931546948047
2.193E9 0.0013468327802410567 -0.016662790618701163 0.9986531672197588 0.016662790618701163 0.9986531672197588 0.016662790618701163 0.0013468327802410567 -0.016662790618701163
2.26775E9 0.00130051313855696 -0.014544096824826097 0.9986994868614429 0.014544096824826097 0.9986994868614429 0.014544096824826097 0.00130051313855696 -0.014544096824826097
2.3425E9 0.001265066820316746 -0.012509928788958473 0.9987349331796831 0.012509928788958473 0.9987349331796831 0.012509928788958473 0.001265066820316746 -0.012509928788958473
2.41725E9 0.0012392795463670582 -0.010552452764119707 0.9987607204536331 0.010552452764119707 0.9987607204536331 0.010552452764119707 0.0012392795463670582 -0.010552452764119707
2.492E9 0.0012221184032682997 -0.008664761096297673 0.9987778815967318 0.008664761096297673 0.9987778815967318 0.008664761096297673 0.0012221184032682997 -0.008664761096297673
2.56675E9 0.0012127011111699609 -0.006840738626808262 0.9987872988888299 0.006840738626808262 0.9987872988888299 0.006840738626808262 0.0012127011111699609 -0.006840738626808262
2.6415E9 0.0012102712234011426 -0.0050749515499850925 0.998789728776599 0.0050749515499850925 0.998789728776599 0.0050749515499850925 0.0012102712234011426 -0.0050749515499850925
2.71625E9 0.0012141779818984383 -0.0033625544375190833 0.9987858220181016 0.0033625544375190833 0.9987858220181016 0.0033625544375190833 0.0012141779818984383 -0.0033625544375190833
2.791E9 0.0012238598546547767 -0.001699212050805994 0.9987761401453452 0.001699212050805994 0.9987761401453452 0.001699212050805994 0.0012238598546547767 -0.001699212050805994
2.86575E9 0.0012388310059469375 -8.103326129084085E-5 0.9987611689940531 8.103326129084085E-5 0.9987611689940531 8.103326129084085E-5 0.0012388310059469375 -8.103326129084085E-5
2.9405E9 0.0012586701185111522 0.0014954850608707151 0.998741329881489 -0.0014954850608707151 0.998741329881489 -0.0014954850608707151 0.0012586701185111522 0.0014954850608707151
3.01525E9 0.0012830111141711893 0.003033505908676312 0.9987169888858288 -0.003033505908676312 0.9987169888858288 -0.003033505908676312 0.0012830111141711893 0.003033505908676312
3.09E9 0.0013115354164576593 0.004535893139558122 0.9986884645835425 -0.004535893139558122 0.9986884645835425 -0.004535893139558122 0.0013115354164576593 0.004535893139558122
3.16475E9 0.0013439654732589302 0.006005246744655652 0.998656034526741 -0.006005246744655652 0.998656034526741 -0.006005246744655652 0.0013439654732589302 0.006005246744655652
3.2395E9 0.00138005931516163 0.00744393330805107 0.9986199406848384 -0.00744393330805107 0.9986199406848384 -0.00744393330805107 0.00138005931516163 0.00744393330805107
3.31425E9 0.0014196059700141434 0.008854112413043146 0.9985803940299859 -0.008854112413043146 0.9985803940299859 -0.008854112413043146 0.0014196059700141434 0.008854112413043146
3.389E9 0.0014624215894409852 0.010237759620229816 0.9985375784105592 -0.010237759620229816 0.9985375784105592 -0.010237759620229816 0.0014624215894409852 0.010237759620229816
3.46375E9 0.0015083461708298585 0.011596686535480414 0.9984916538291704 -0.011596686535480414 0.9984916538291704 -0.011596686535480414 0.0015083461708298585 0.011596686535480414
3.5385E9 0.0015572407804182857 0.012932558399444863 0.9984427592195817 -0.012932558399444863 0.9984427592195817 -0.012932558399444863 0.0015572407804182857 0.012932558399444863
3.61325E9 0.0016089852008177078 0.014246909559918414 0.9983910147991824 -0.014246909559918414 0.9983910147991824 -0.014246909559918414 0.0016089852008177078 0.014246909559918414
3.688E9 0.0016634759406175057 0.015541157130931346 0.9983365240593824 -0.015541157130931346 0.9983365240593824 -0.015541157130931346 0.0016634759406175057 0.015541157130931346
3.76275E9 0.0017206245553690698 0.016816613095338783 0.9982793754446307 -0.016816613095338783 0.9982793754446307 -0.016816613095338783 0.0017206245553690698 0.016816613095338783
3.8375E9 0.0017803562388513886 0.018074495068968122 0.9982196437611487 -0.018074495068968122 0.9982196437611487 -0.018074495068968122 0.0017803562388513886 0.018074495068968122
3.91225E9 0.0018426086515292428 0.01931593591247708 0.9981573913484707 -0.01931593591247708 0.9981573913484707 -0.01931593591247708 0.0018426086515292428 0.01931593591247708
3.987E9 0.001907330959904391 0.020541992350753362 0.9980926690400954 -0.020541992350753362 0.9980926690400954 -0.020541992350753362 0.001907330959904391 0.020541992350753362
4.06175E9 0.0019744830663324547 0.021753652737967383 0.9980255169336675 -0.021753652737967383 0.9980255169336675 -0.021753652737967383 0.0019744830663324547 0.021753652737967383
4.1365E9 0.0020440350140885208 0.022951844088504113 0.9979559649859113 -0.022951844088504113 0.9979559649859113 -0.022951844088504113 0.0020440350140885208 0.022951844088504113
4.21125E9 0.00211596655723539 0.024137438479335558 0.9978840334427644 -0.024137438479335558 0.9978840334427644 -0.024137438479335558 0.00211596655723539 0.024137438479335558
4.286E9 0.0021902668893842006 0.025311258917477878 0.9978097331106156 -0.025311258917477878 0.9978097331106156 -0.025311258917477878 0.0021902668893842006 0.025311258917477878
4.36075E9 0.0022669345299366653 0.026474084756637845 0.9977330654700634 -0.026474084756637845 0.9977330654700634 -0.026474084756637845 0.0022669345299366653 0.026474084756637845
4.4355E9 0.0023459773710675716 0.0276266567397188 0.9976540226289323 -0.0276266567397188 0.9976540226289323 -0.0276266567397188 0.0023459773710675716 0.0276266567397188
4.51025E9 0.0024274128937735316 0.028769681738331998 0.9975725871062265 -0.028769681738331998 0.9975725871062265 -0.028769681738331998 0.0024274128937735316 0.028769681738331998
4.585E9 0.002511268567045574 0.02990383725672433 0.9974887314329547 -0.02990383725672433 0.9974887314329547 -0.02990383725672433 0.002511268567045574 0.02990383725672433
4.65975E9 0.0025975824509454717 0.031029775765538014 0.9974024175490546 -0.031029775765538014 0.9974024175490546 -0.031029775765538014 0.0025975824509454717 0.031029775765538014
4.7345E9 0.002686404032492626 0.03214812893057727 0.9973135959675073 -0.03214812893057727 0.9973135959675073 -0.03214812893057727 0.002686404032492626 0.03214812893057727
4.80925E9 0.0027777953333396476 0.03325951180336156 0.9972222046666601 -0.03325951180336156 0.9972222046666601 -0.03325951180336156 0.0027777953333396476 0.03325951180336156
4.884E9 0.002871832340949132 0.034364527043860824 0.9971281676590508 -0.034364527043860824 0.9971281676590508 -0.034364527043860824 0.002871832340949132 0.034364527043860824
4.95875E9 0.002968606831353336 0.035463769251689196 0.9970313931686466 -0.035463769251689196 0.9970313931686466 -0.035463769251689196 0.002968606831353336 0.035463769251689196
5.0335E9 0.00306822867291532 0.036557829490531775 0.9969317713270847 -0.036557829490531775 0.9969317713270847 -0.036557829490531775 0.00306822867291532 0.036557829490531775
5.10825E9 0.0031708287286633346 0.03764730010215509 0.9968291712713369 -0.03764730010215509 0.9968291712713369 -0.03764730010215509 0.0031708287286633346 0.03764730010215509
5.183E9 0.0032765625123330594 0.038732779921594976 0.9967234374876669 -0.038732779921594976 0.9967234374876669 -0.038732779921594976 0.0032765625123330594 0.038732779921594976
5.25775E9 0.003385614803900133 0.03981488002473023 0.9966143851960999 -0.03981488002473023 0.9966143851960999 -0.03981488002473023 0.003385614803900133 0.03981488002473023
5.3325E9 0.0034982054993824827 0.04089423016425411 0.9965017945006178 -0.04089423016425411 0.9965017945006178 -0.04089423016425411 0.0034982054993824827 0.04089423016425411
5.40725E9 0.0036145970646587204 0.04197148608090228 0.9963854029353413 -0.04197148608090228 0.9963854029353413 -0.04197148608090228 0.0036145970646587204 0.04197148608090228
5.482E9 0.003735104095136026 0.04304733791441164 0.996264895904864 -0.04304733791441164 0.996264895904864 -0.04304733791441164 0.003735104095136026 0.04304733791441164
5.55675E9 0.003860105668808966 0.04412251998330861 0.9961398943311912 -0.04412251998330861 0.9961398943311912 -0.04412251998330861 0.003860105668808966 0.04412251998330861
5.6315E9 0.003990061444278065 0.045197822253251814 0.9960099385557218 -0.045197822253251814 0.9960099385557218 -0.045197822253251814 0.003990061444278065 0.045197822253251814
5.70625E9 0.004125532835052307 0.04627410386650553 0.9958744671649477 -0.04627410386650553 0.9958744671649477 -0.04627410386650553 0.004125532835052307 0.04627410386650553
5.781E9 0.004267211144288182 0.04735230915060834 0.9957327888557118 -0.04735230915060834 0.9957327888557118 -0.04735230915060834 0.004267211144288182 0.04735230915060834
5.85575E9 0.004415955358997057 0.04843348654098042 0.995584044641003 -0.04843348654098042 0.995584044641003 -0.04843348654098042 0.004415955358997057 0.04843348654098042
5.9305E9 0.0045728435193962535 0.04951881079472835 0.995427156480604 -0.04951881079472835 0.995427156480604 -0.04951881079472835 0.0045728435193962535 0.04951881079472835
6.00525E9 0.004739243419359465 0.05060960864780322 0.9952607565806405 -0.05060960864780322 0.9952607565806405 -0.05060960864780322 0.004739243419359465 0.05060960864780322
6.08E9 0.004916911213689755 0.05170738748422685 0.9950830887863101 -0.05170738748422685 0.9950830887863101 -0.05170738748422685 0.004916911213689755 0.05170738748422685
6.15475E9 0.005108130882059645 0.05281386525506906 0.9948918691179405 -0.05281386525506906 0.9948918691179405 -0.05281386525506906 0.005108130882059645 0.05281386525506906
6.2295E9 0.005315914358604648 0.05393099700634394 0.9946840856413954 -0.05393099700634394 0.9946840856413954 -0.05393099700634394 0.005315914358604648 0.05393099700634394
6.30425E9 0.00554429297556519 0.05506098728628669 0.9944557070244348 -0.05506098728628669 0.9944557070244348 -0.05506098728628669 0.00554429297556519 0.05506098728628669
6.379E9 0.005798748025923758 0.05620626489672205 0.9942012519740763 -0.05620626489672205 0.9942012519740763 -0.05620626489672205 0.005798748025923758 0.05620626489672205
6.45375E9 0.006086855112987355 0.05736936941464151 0.9939131448870127 -0.05736936941464151 0.9939131448870127 -0.05736936941464151 0.006086855112987355 0.05736936941464151
6.5285E9 0.0064192574519649015 0.05855264128576202 0.9935807425480349 -0.05855264128576202 0.9935807425480349 -0.05855264128576202 0.0064192574519649015 0.05855264128576202
6.60325E9 0.00681113808157865 0.0597574831399092 0.9931888619184214 -0.0597574831399092 0.9931888619184214 -0.0597574831399092 0.00681113808157865 0.0597574831399092
6.678E9 0.0072844111237013775 0.06098269056631146 0.9927155888762987 -0.06098269056631146 0.9927155888762987 -0.06098269056631146 0.0072844111237013775 0.06098269056631146
6.75275E9 0.007870798907485883 0.062220769709069916 0.992129201092514 -0.062220769709069916 0.992129201092514 -0.062220769709069916 0.007870798907485883 0.062220769709069916
6.8275E9 0.008615419199332713 0.06344995965931838 0.9913845808006674 -0.06344995965931838 0.9913845808006674 -0.06344995965931838 0.008615419199332713 0.06344995965931838
6.90225E9 0.00957816132850029 0.06461755176880589 0.9904218386714998 -0.06461755176880589 0.9904218386714998 -0.06461755176880589 0.00957816132850029 0.06461755176880589
6.977E9 0.010822207456762038 0.06560829158387399 0.9891777925432379 -0.06560829158387399 0.9891777925432379 -0.06560829158387399 0.010822207456762038 0.06560829158387399
7.05175E9 0.012358902980788896 0.06620078771515733 0.9876410970192111 -0.06620078771515733 0.9876410970192111 -0.06620078771515733 0.012358902980788896 0.06620078771515733
7.1265E9 0.013998857690002467 0.06607424003903198 0.9860011423099976 -0.06607424003903198 0.9860011423099976 -0.06607424003903198 0.013998857690002467 0.06607424003903198
7.20125E9 0.015175847882052328 0.06505660015383477 0.9848241521179477 -0.06505660015383477 0.9848241521179477 -0.06505660015383477 0.015175847882052328 0.06505660015383477
7.276E9 0.01520819342019225 0.06361243608730663 0.9847918065798076 -0.06361243608730663 0.9847918065798076 -0.06361243608730663 0.01520819342019225 0.06361243608730663
7.35075E9 0.014111868352847681 0.06268341650399782 0.9858881316471522 -0.06268341650399782 0.9858881316471522 -0.06268341650399782 0.014111868352847681 0.06268341650399782
7.4255E9 0.012611995902717528 0.06272115277688117 0.9873880040972827 -0.06272115277688117 0.9873880040972827 -0.06272115277688117 0.012611995902717528 0.06272115277688117
7.50025E9 0.011298828578052318 0.06350665514418966 0.9887011714219476 -0.06350665514418966 0.9887011714219476 -0.06350665514418966 0.011298828578052318 0.06350665514418966
7.575E9 0.010346903403685307 0.06467756135208183 0.9896530965963147 -0.06467756135208183 0.9896530965963147 -0.06467756135208183 0.010346903403685307 0.06467756135208183
7.64975E9 0.00971835766308435 0.06599662261371356 0.9902816423369156 -0.06599662261371356 0.9902816423369156 -0.06599662261371356 0.00971835766308435 0.06599662261371356
7.7245E9 0.009329911609047118 0.0673488328280679 0.9906700883909527 -0.0673488328280679 0.9906700883909527 -0.0673488328280679 0.009329911609047118 0.0673488328280679
7.79925E9 0.009110077902785067 0.06868711940665907 0.9908899220972148 -0.06868711940665907 0.9908899220972148 -0.06868711940665907 0.009110077902785067 0.06868711940665907
7.874E9 0.009007946241973654 0.06999582048644762 0.9909920537580262 -0.06999582048644762 0.9909920537580262 -0.06999582048644762 0.009007946241973654 0.06999582048644762
7.94875E9 0.008989292135832102 0.07127252786256574 0.9910107078641677 -0.07127252786256574 0.9910107078641677 -0.07127252786256574 0.008989292135832102 0.07127252786256574
8.0235E9 0.009031435050879985 0.07251994665955507 0.9909685649491201 -0.07251994665955507 0.9909685649491201 -0.07251994665955507 0.009031435050879985 0.07251994665955507
8.09825E9 0.009119316049175534 0.07374241981280587 0.9908806839508244 -0.07374241981280587 0.9908806839508244 -0.07374241981280587 0.009119316049175534 0.07374241981280587
8.173E9 0.009242870981161366 0.07494451124226129 0.9907571290188386 -0.07494451124226129 0.9907571290188386 -0.07494451124226129 0.009242870981161366 0.07494451124226129
8.24775E9 0.009395341256911592 0.07613047723527877 0.9906046587430883 -0.07613047723527877 0.9906046587430883 -0.07613047723527877 0.009395341256911592 0.07613047723527877
8.3225E9 0.009572197170603453 0.07730411306503157 0.9904278028293964 -0.07730411306503157 0.9904278028293964 -0.07730411306503157 0.009572197170603453 0.07730411306503157
8.39725E9 0.009770449193332652 0.07846875159959037 0.9902295508066672 -0.07846875159959037 0.9902295508066672 -0.07846875159959037 0.009770449193332652 0.07846875159959037
8.472E9 0.009988204156329561 0.07962731740948947 0.9900117958436702 -0.07962731740948947 0.9900117958436702 -0.07962731740948947 0.009988204156329561 0.07962731740948947
