!Murata Part Number: GJM0225C1E9R0BB01
!These Parameters are Measured in Series Mode Connection
!       o--ll--o
!Port1            Port2
!       o------o
!Operation Temp=25[degC], DC Bias Voltage=0[V]
!Freq. Start=100[MHz] Stop=30[GHz], 401[Steps]
!Data Generated on Feb 1, 2023
# Hz S RI R 50
!Freq.(Hz) S11(Real) S11(Imag) S21(Real) S21(Imag) S12(Real) S12(Imag) S22(Real) S22(Imag)
1.0E8 0.7573721499270034 -0.4284305827302775 0.2426278500729966 0.4284305827302775 0.2426278500729966 0.4284305827302775 0.7573721499270034 -0.4284305827302775
1.7475E8 0.5049963837921531 -0.49954983321756596 0.495003616207847 0.49954983321756596 0.495003616207847 0.49954983321756596 0.5049963837921531 -0.49954983321756596
2.495E8 0.3328688280640582 -0.470625280139752 0.6671311719359418 0.470625280139752 0.6671311719359418 0.470625280139752 0.3328688280640582 -0.470625280139752
3.2425E8 0.22733885980692436 -0.41830119488143747 0.7726611401930755 0.41830119488143747 0.7726611401930755 0.41830119488143747 0.22733885980692436 -0.41830119488143747
3.99E8 0.16201072736344288 -0.3674418118773755 0.8379892726365572 0.3674418118773755 0.8379892726365572 0.3674418118773755 0.16201072736344288 -0.3674418118773755
4.7375E8 0.11996092840325302 -0.3236792281893867 0.8800390715967469 0.3236792281893867 0.8800390715967469 0.3236792281893867 0.11996092840325302 -0.3236792281893867
5.485E8 0.09172331669104329 -0.28716849580717885 0.9082766833089566 0.28716849580717885 0.9082766833089566 0.28716849580717885 0.09172331669104329 -0.28716849580717885
6.2325E8 0.07201424274639935 -0.2568022401523502 0.9279857572536004 0.2568022401523502 0.9279857572536004 0.2568022401523502 0.07201424274639935 -0.2568022401523502
6.98E8 0.057789455193694717 -0.2313794154169271 0.9422105448063054 0.2313794154169271 0.9422105448063054 0.2313794154169271 0.057789455193694717 -0.2313794154169271
7.7275E8 0.04722488389902164 -0.2098840771563993 0.9527751161009784 0.2098840771563993 0.9527751161009784 0.2098840771563993 0.04722488389902164 -0.2098840771563993
8.475E8 0.03918472125031724 -0.19151484757887835 0.9608152787496825 0.19151484757887835 0.9608152787496825 0.19151484757887835 0.03918472125031724 -0.19151484757887835
9.2225E8 0.0329363361044518 -0.1756526787779312 0.9670636638955483 0.1756526787779312 0.9670636638955483 0.1756526787779312 0.0329363361044518 -0.1756526787779312
9.97E8 0.027992008429693592 -0.1618206048875493 0.9720079915703063 0.1618206048875493 0.9720079915703063 0.1618206048875493 0.027992008429693592 -0.1618206048875493
1.07175E9 0.024017840475166224 -0.14964924472626998 0.975982159524834 0.14964924472626998 0.975982159524834 0.14964924472626998 0.024017840475166224 -0.14964924472626998
1.1465E9 0.0207795035283918 -0.13885011402536845 0.9792204964716081 0.13885011402536845 0.9792204964716081 0.13885011402536845 0.0207795035283918 -0.13885011402536845
1.22125E9 0.018108887617345974 -0.12919570968378266 0.981891112382654 0.12919570968378266 0.981891112382654 0.12919570968378266 0.018108887617345974 -0.12919570968378266
1.296E9 0.015883002925863202 -0.12050481286390591 0.9841169970741368 0.12050481286390591 0.9841169970741368 0.12050481286390591 0.015883002925863202 -0.12050481286390591
1.37075E9 0.014010280130921472 -0.11263164499357478 0.9859897198690786 0.11263164499357478 0.9859897198690786 0.11263164499357478 0.014010280130921472 -0.11263164499357478
1.4455E9 0.012421463012762589 -0.1054578254148125 0.9875785369872373 0.1054578254148125 0.9875785369872373 0.1054578254148125 0.012421463012762589 -0.1054578254148125
1.52025E9 0.011063423429642219 -0.09888636070274129 0.9889365765703578 0.09888636070274129 0.9889365765703578 0.09888636070274129 0.011063423429642219 -0.09888636070274129
1.595E9 0.009894878829852747 -0.09283711229797222 0.9901051211701472 0.09283711229797222 0.9901051211701472 0.09283711229797222 0.009894878829852747 -0.09283711229797222
1.66975E9 0.008883374385079973 -0.08724334684053939 0.99111662561492 0.08724334684053939 0.99111662561492 0.08724334684053939 0.008883374385079973 -0.08724334684053939
1.7445E9 0.008003121849883532 -0.08204908589675204 0.9919968781501166 0.08204908589675204 0.9919968781501166 0.08204908589675204 0.008003121849883532 -0.08204908589675204
1.81925E9 0.007233429010433197 -0.07720705111753878 0.9927665709895667 0.07720705111753878 0.9927665709895667 0.07720705111753878 0.007233429010433197 -0.07720705111753878
1.894E9 0.006557542821365783 -0.07267705692888582 0.993442457178634 0.07267705692888582 0.993442457178634 0.07267705692888582 0.006557542821365783 -0.07267705692888582
1.96875E9 0.005961786613816295 -0.06842474262667383 0.9940382133861836 0.06842474262667383 0.9940382133861836 0.06842474262667383 0.005961786613816295 -0.06842474262667383
2.0435E9 0.005434909203011555 -0.06442056414171511 0.9945650907969883 0.06442056414171511 0.9945650907969883 0.06442056414171511 0.005434909203011555 -0.06442056414171511
2.11825E9 0.004967588615154793 -0.060638986164164146 0.9950324113848452 0.060638986164164146 0.9950324113848452 0.060638986164164146 0.004967588615154793 -0.060638986164164146
2.193E9 0.0045520499592148125 -0.057057830126744515 0.9954479500407852 0.057057830126744515 0.9954479500407852 0.057057830126744515 0.0045520499592148125 -0.057057830126744515
2.26775E9 0.004181768481504066 -0.05365774437628539 0.9958182315184961 0.05365774437628539 0.9958182315184961 0.05365774437628539 0.004181768481504066 -0.05365774437628539
2.3425E9 0.0038512368340275164 -0.05042177084922562 0.9961487631659722 0.05042177084922562 0.9961487631659722 0.05042177084922562 0.0038512368340275164 -0.05042177084922562
2.41725E9 0.0035557812075212025 -0.04733498850467743 0.9964442187924788 0.04733498850467743 0.9964442187924788 0.04733498850467743 0.0035557812075212025 -0.04733498850467743
2.492E9 0.003291414978193293 -0.04438421821939185 0.9967085850218068 0.04438421821939185 0.9967085850218068 0.04438421821939185 0.003291414978193293 -0.04438421821939185
2.56675E9 0.0030547213929548295 -0.04155777721116749 0.9969452786070452 0.04155777721116749 0.9969452786070452 0.04155777721116749 0.0030547213929548295 -0.04155777721116749
2.6415E9 0.0028427589078984924 -0.03884527361632656 0.9971572410921016 0.03884527361632656 0.9971572410921016 0.03884527361632656 0.0028427589078984924 -0.03884527361632656
2.71625E9 0.002652984328477537 -0.03623743380883852 0.9973470156715225 0.03623743380883852 0.9973470156715225 0.03623743380883852 0.002652984328477537 -0.03623743380883852
2.791E9 0.0024831900356376492 -0.033725956563318775 0.9975168099643622 0.033725956563318775 0.9975168099643622 0.033725956563318775 0.0024831900356376492 -0.033725956563318775
2.86575E9 0.002331452430559886 -0.03130338934125504 0.99766854756944 0.03130338934125504 0.99766854756944 0.03130338934125504 0.002331452430559886 -0.03130338934125504
2.9405E9 0.002196089369575058 -0.028963022900480036 0.9978039106304251 0.028963022900480036 0.9978039106304251 0.028963022900480036 0.002196089369575058 -0.028963022900480036
3.01525E9 0.0020756248456550675 -0.02669880115239167 0.997924375154345 0.02669880115239167 0.997924375154345 0.02669880115239167 0.0020756248456550675 -0.02669880115239167
3.09E9 0.001968759543510413 -0.02450524376486388 0.9980312404564896 0.02450524376486388 0.9980312404564896 0.02450524376486388 0.001968759543510413 -0.02450524376486388
3.16475E9 0.001874346180596733 -0.02237737946522001 0.9981256538194032 0.02237737946522001 0.9981256538194032 0.02237737946522001 0.001874346180596733 -0.02237737946522001
3.2395E9 0.0017913687673566767 -0.020310688362883786 0.9982086312326435 0.020310688362883786 0.9982086312326435 0.020310688362883786 0.0017913687673566767 -0.020310688362883786
3.31425E9 0.0017189250923384416 -0.01830105190509403 0.9982810749076615 0.01830105190509403 0.9982810749076615 0.01830105190509403 0.0017189250923384416 -0.01830105190509403
3.389E9 0.001656211872973613 -0.016344709316518647 0.9983437881270264 0.016344709316518647 0.9983437881270264 0.016344709316518647 0.001656211872973613 -0.016344709316518647
3.46375E9 0.0016025121193856964 -0.01443821956643081 0.9983974878806144 0.01443821956643081 0.9983974878806144 0.01443821956643081 0.0016025121193856964 -0.01443821956643081
3.5385E9 0.0015571843431254583 -0.012578428064411213 0.9984428156568744 0.012578428064411213 0.9984428156568744 0.012578428064411213 0.0015571843431254583 -0.012578428064411213
3.61325E9 0.0015196533101041047 -0.010762437414414761 0.9984803466898958 0.010762437414414761 0.9984803466898958 0.010762437414414761 0.0015196533101041047 -0.010762437414414761
3.688E9 0.0014894020909663574 -0.008987581663064818 0.9985105979090335 0.008987581663064818 0.9985105979090335 0.008987581663064818 0.0014894020909663574 -0.008987581663064818
3.76275E9 0.0014659652055843521 -0.007251403565615317 0.9985340347944157 0.007251403565615317 0.9985340347944157 0.007251403565615317 0.0014659652055843521 -0.007251403565615317
3.8375E9 0.0014489226934743147 -0.0055516344656353555 0.9985510773065257 0.0055516344656353555 0.9985510773065257 0.0055516344656353555 0.0014489226934743147 -0.0055516344656353555
3.91225E9 0.0014378949704579244 -0.003886176444904245 0.9985621050295422 0.003886176444904245 0.9985621050295422 0.003886176444904245 0.0014378949704579244 -0.003886176444904245
3.987E9 0.0014325383551469127 -0.0022530864504782143 0.9985674616448532 0.0022530864504782143 0.9985674616448532 0.0022530864504782143 0.0014325383551469127 -0.0022530864504782143
4.06175E9 0.0014325411678706506 -6.50562148189344E-4 0.9985674588321295 6.50562148189344E-4 0.9985674588321295 6.50562148189344E-4 0.0014325411678706506 -6.50562148189344E-4
4.1365E9 0.0014376203203168415 9.230707125960381E-4 0.9985623796796833 -9.230707125960381E-4 0.9985623796796833 -9.230707125960381E-4 0.0014376203203168415 9.230707125960381E-4
4.21125E9 0.0014475183270669326 0.002469369608132501 0.9985524816729333 -0.002469369608132501 0.9985524816729333 -0.002469369608132501 0.0014475183270669326 0.002469369608132501
4.286E9 0.0014620006808983416 0.003989785383153981 0.9985379993191017 -0.003989785383153981 0.9985379993191017 -0.003989785383153981 0.0014620006808983416 0.003989785383153981
4.36075E9 0.0014808535426079177 0.005485671365686374 0.998519146457392 -0.005485671365686374 0.998519146457392 -0.005485671365686374 0.0014808535426079177 0.005485671365686374
4.4355E9 0.001503881703516125 0.0069582915737348905 0.9984961182964839 -0.0069582915737348905 0.9984961182964839 -0.0069582915737348905 0.001503881703516125 0.0069582915737348905
4.51025E9 0.001530906785005027 0.008408828118124547 0.9984690932149951 -0.008408828118124547 0.9984690932149951 -0.008408828118124547 0.001530906785005027 0.008408828118124547
4.585E9 0.0015617656446401357 0.009838387892389068 0.9984382343553598 -0.009838387892389068 0.9984382343553598 -0.009838387892389068 0.0015617656446401357 0.009838387892389068
4.65975E9 0.0015963089628003206 0.011248008629123035 0.9984036910371997 -0.011248008629123035 0.9984036910371997 -0.011248008629123035 0.0015963089628003206 0.011248008629123035
4.7345E9 0.0016343999874328524 0.012638664392340246 0.9983656000125671 -0.012638664392340246 0.9983656000125671 -0.012638664392340246 0.0016343999874328524 0.012638664392340246
4.80925E9 0.0016759134176776503 0.014011270566871946 0.9983240865823223 -0.014011270566871946 0.9983240865823223 -0.014011270566871946 0.0016759134176776503 0.014011270566871946
4.884E9 0.001720734409760401 0.015366688398487347 0.9982792655902397 -0.015366688398487347 0.9982792655902397 -0.015366688398487347 0.001720734409760401 0.015366688398487347
4.95875E9 0.0017687576908162158 0.0167057291320547 0.9982312423091839 -0.0167057291320547 0.9982312423091839 -0.0167057291320547 0.0017687576908162158 0.0167057291320547
5.0335E9 0.0018198867682377733 0.01802915778953804 0.9981801132317621 -0.01802915778953804 0.9981801132317621 -0.01802915778953804 0.0018198867682377733 0.01802915778953804
5.10825E9 0.0018740332237975553 0.01933769662482559 0.9981259667762026 -0.01933769662482559 0.9981259667762026 -0.01933769662482559 0.0018740332237975553 0.01933769662482559
5.183E9 0.0019311160832166992 0.020632028288203225 0.9980688839167833 -0.020632028288203225 0.9980688839167833 -0.020632028288203225 0.0019311160832166992 0.020632028288203225
5.25775E9 0.0019910612530798406 0.021912798729639492 0.9980089387469202 -0.021912798729639492 0.9980089387469202 -0.021912798729639492 0.0019910612530798406 0.021912798729639492
5.3325E9 0.0020538010180565936 0.023180619866859136 0.9979461989819436 -0.023180619866859136 0.9979461989819436 -0.023180619866859136 0.0020538010180565936 0.023180619866859136
5.40725E9 0.0021192735923118355 0.024436072041392767 0.9978807264076882 -0.024436072041392767 0.9978807264076882 -0.024436072041392767 0.0021192735923118355 0.024436072041392767
5.482E9 0.0021874227197901355 0.025679706283342985 0.9978125772802099 -0.025679706283342985 0.9978125772802099 -0.025679706283342985 0.0021874227197901355 0.025679706283342985
5.55675E9 0.002258197318762962 0.026912046403462498 0.997741802681237 -0.026912046403462498 0.997741802681237 -0.026912046403462498 0.002258197318762962 0.026912046403462498
5.6315E9 0.002331551166646089 0.02813359092925343 0.997668448833354 -0.02813359092925343 0.997668448833354 -0.02813359092925343 0.002331551166646089 0.02813359092925343
5.70625E9 0.002407442621642362 0.029344814900141982 0.9975925573783575 -0.029344814900141982 0.9975925573783575 -0.029344814900141982 0.002407442621642362 0.029344814900141982
5.781E9 0.0024858343782528745 0.030546171535324827 0.9975141656217471 -0.030546171535324827 0.9975141656217471 -0.030546171535324827 0.0024858343782528745 0.030546171535324827
5.85575E9 0.002566693254137781 0.03173809378660391 0.997433306745862 -0.03173809378660391 0.997433306745862 -0.03173809378660391 0.002566693254137781 0.03173809378660391
5.9305E9 0.002649990006205087 0.03292099578740201 0.9973500099937949 -0.03292099578740201 0.9973500099937949 -0.03292099578740201 0.002649990006205087 0.03292099578740201
6.00525E9 0.0027356991741693203 0.03409527420816322 0.9972643008258308 -0.03409527420816322 0.9972643008258308 -0.03409527420816322 0.0027356991741693203 0.03409527420816322
6.08E9 0.0028237989501593676 0.03526130952748005 0.9971762010498406 -0.03526130952748005 0.9971762010498406 -0.03526130952748005 0.0028237989501593676 0.03526130952748005
6.15475E9 0.0029142710732717927 0.036419467227532885 0.9970857289267282 -0.036419467227532885 0.9970857289267282 -0.036419467227532885 0.0029142710732717927 0.036419467227532885
6.2295E9 0.003007100748269194 0.03757009892177436 0.9969928992517308 -0.03757009892177436 0.9969928992517308 -0.03757009892177436 0.003007100748269194 0.03757009892177436
6.30425E9 0.0031022765879177394 0.038713543422224675 0.9968977234120824 -0.038713543422224675 0.9968977234120824 -0.038713543422224675 0.0031022765879177394 0.038713543422224675
6.379E9 0.0031997905787501343 0.039850127753262986 0.9968002094212497 -0.039850127753262986 0.9968002094212497 -0.039850127753262986 0.0031997905787501343 0.039850127753262986
6.45375E9 0.003299638070335074 0.04098016811839226 0.9967003619296647 -0.04098016811839226 0.9967003619296647 -0.04098016811839226 0.003299638070335074 0.04098016811839226
6.5285E9 0.003401817788438159 0.042103970826121925 0.9965981822115617 -0.042103970826121925 0.9965981822115617 -0.042103970826121925 0.003401817788438159 0.042103970826121925
6.60325E9 0.0035063318727781606 0.04322183318084469 0.9964936681272217 -0.04322183318084469 0.9964936681272217 -0.04322183318084469 0.0035063318727781606 0.04322183318084469
6.678E9 0.003613185940423671 0.04433404434438244 0.9963868140595763 -0.04433404434438244 0.9963868140595763 -0.04433404434438244 0.003613185940423671 0.04433404434438244
6.75275E9 0.0037223891762460915 0.04544088617373875 0.996277610823754 -0.04544088617373875 0.996277610823754 -0.04544088617373875 0.0037223891762460915 0.04544088617373875
6.8275E9 0.003833954452254446 0.046542634040519705 0.9961660455477457 -0.046542634040519705 0.9961660455477457 -0.046542634040519705 0.003833954452254446 0.046542634040519705
6.90225E9 0.003947898478096001 0.04763955763747626 0.9960521015219042 -0.04763955763747626 0.9960521015219042 -0.04763955763747626 0.003947898478096001 0.04763955763747626
6.977E9 0.004064241985525652 0.04873192177767434 0.9959357580144741 -0.04873192177767434 0.9959357580144741 -0.04873192177767434 0.004064241985525652 0.04873192177767434
7.05175E9 0.004183009950241338 0.04981998719192608 0.9958169900497585 -0.04981998719192608 0.9958169900497585 -0.04981998719192608 0.004183009950241338 0.04981998719192608
7.1265E9 0.004304231855168504 0.05090401133031106 0.9956957681448313 -0.05090401133031106 0.9956957681448313 -0.05090401133031106 0.004304231855168504 0.05090401133031106
7.20125E9 0.0044279420000750665 0.051984249173895665 0.9955720579999249 -0.051984249173895665 0.9955720579999249 -0.051984249173895665 0.0044279420000750665 0.051984249173895665
7.276E9 0.004554179863333504 0.05306095406312016 0.9954458201366664 -0.05306095406312016 0.9954458201366664 -0.05306095406312016 0.004554179863333504 0.05306095406312016
7.35075E9 0.0046829905227496315 0.05413437854978391 0.9953170094772504 -0.05413437854978391 0.9953170094772504 -0.05413437854978391 0.0046829905227496315 0.05413437854978391
7.4255E9 0.0048144251436845805 0.05520477528012233 0.9951855748563155 -0.05520477528012233 0.9951855748563155 -0.05520477528012233 0.0048144251436845805 0.05520477528012233
7.50025E9 0.004948541544254264 0.0562723979171554 0.9950514584557459 -0.0562723979171554 0.9950514584557459 -0.0562723979171554 0.004948541544254264 0.0562723979171554
7.575E9 0.005085404849255172 0.05733750211130545 0.9949145951507448 -0.05733750211130545 0.9949145951507448 -0.05733750211130545 0.005085404849255172 0.05733750211130545
7.64975E9 0.005225088246707739 0.05840034652925351 0.9947749117532922 -0.05840034652925351 0.9947749117532922 -0.05840034652925351 0.005225088246707739 0.05840034652925351
7.7245E9 0.0053676738636171985 0.0594611939521483 0.9946323261363827 -0.0594611939521483 0.9946323261363827 -0.0594611939521483 0.0053676738636171985 0.0594611939521483
7.79925E9 0.005513253780837489 0.06052031245562239 0.9944867462191626 -0.06052031245562239 0.9944867462191626 -0.06052031245562239 0.005513253780837489 0.06052031245562239
7.874E9 0.005661931210926505 0.061577976685633196 0.9943380687890734 -0.061577976685633196 0.9943380687890734 -0.061577976685633196 0.005661931210926505 0.061577976685633196
7.94875E9 0.005813821867778355 0.06263446924596199 0.9941861781322218 -0.06263446924596199 0.9941861781322218 -0.06263446924596199 0.005813821867778355 0.06263446924596199
8.0235E9 0.005969055562835572 0.06369008221529963 0.9940309444371646 -0.06369008221529963 0.9940309444371646 -0.06369008221529963 0.005969055562835572 0.06369008221529963
8.09825E9 0.006127778070110698 0.0647451188142593 0.9938722219298896 -0.0647451188142593 0.9938722219298896 -0.0647451188142593 0.006127778070110698 0.0647451188142593
8.173E9 0.006290153311452867 0.06579989524540625 0.9937098466885471 -0.06579989524540625 0.9937098466885471 -0.06579989524540625 0.006290153311452867 0.06579989524540625
8.24775E9 0.006456365924960001 0.06685474273251277 0.9935436340750399 -0.06685474273251277 0.9935436340750399 -0.06685474273251277 0.006456365924960001 0.06685474273251277
8.3225E9 0.006626624293783004 0.06791000978873565 0.9933733757062169 -0.06791000978873565 0.9933733757062169 -0.06791000978873565 0.006626624293783004 0.06791000978873565
8.39725E9 0.006801164130605051 0.06896606474726198 0.9931988358693948 -0.06896606474726198 0.9931988358693948 -0.06896606474726198 0.006801164130605051 0.06896606474726198
8.472E9 0.006980252735870547 0.07002329859211659 0.9930197472641293 -0.07002329859211659 0.9930197472641293 -0.07002329859211659 0.006980252735870547 0.07002329859211659
