!Murata Part Number: GJM0225C1E4R2BB01
!These Parameters are Measured in Series Mode Connection
!       o--ll--o
!Port1            Port2
!       o------o
!Operation Temp=25[degC], DC Bias Voltage=0[V]
!Freq. Start=100[MHz] Stop=30[GHz], 401[Steps]
!Data Generated on Feb 1, 2023
# Hz S RI R 50
!Freq.(Hz) S11(Real) S11(Imag) S21(Real) S21(Imag) S12(Real) S12(Imag) S22(Real) S22(Imag)
1.0E8 0.9347714068446609 -0.24671767006901366 0.06522859315533909 0.24671767006901366 0.06522859315533909 0.24671767006901366 0.9347714068446609 -0.24671767006901366
1.7475E8 0.8242166289142213 -0.3802666302749328 0.1757833710857788 0.3802666302749328 0.1757833710857788 0.3802666302749328 0.8242166289142213 -0.3802666302749328
2.495E8 0.696706249979303 -0.4591535210540023 0.3032937500206968 0.4591535210540023 0.3032937500206968 0.4591535210540023 0.696706249979303 -0.4591535210540023
3.2425E8 0.5758531836227276 -0.4935263736430151 0.42414681637727236 0.4935263736430151 0.42414681637727236 0.4935263736430151 0.5758531836227276 -0.4935263736430151
3.99E8 0.4721885294060709 -0.4983798847857801 0.527811470593929 0.4983798847857801 0.527811470593929 0.4983798847857801 0.4721885294060709 -0.4983798847857801
4.7375E8 0.38757856792805423 -0.4861910196338629 0.6124214320719458 0.4861910196338629 0.6124214320719458 0.4861910196338629 0.38757856792805423 -0.4861910196338629
5.485E8 0.3200186869733297 -0.4653153894864237 0.6799813130266703 0.4653153894864237 0.6799813130266703 0.4653153894864237 0.3200186869733297 -0.4653153894864237
6.2325E8 0.2664243725642046 -0.4407580845136664 0.7335756274357954 0.4407580845136664 0.7335756274357954 0.4407580845136664 0.2664243725642046 -0.4407580845136664
6.98E8 0.22383053840882344 -0.41531520377111975 0.7761694615911765 0.41531520377111975 0.7761694615911765 0.41531520377111975 0.22383053840882344 -0.41531520377111975
7.7275E8 0.18976792393816924 -0.3904572789364062 0.8102320760618306 0.3904572789364062 0.8102320760618306 0.3904572789364062 0.18976792393816924 -0.3904572789364062
8.475E8 0.1622991475760938 -0.36689769763424196 0.837700852423906 0.36689769763424196 0.837700852423906 0.36689769763424196 0.1622991475760938 -0.36689769763424196
9.2225E8 0.13994244221003477 -0.34493094736803415 0.8600575577899653 0.34493094736803415 0.8600575577899653 0.34493094736803415 0.13994244221003477 -0.34493094736803415
9.97E8 0.12157473588532969 -0.3246265682328965 0.8784252641146705 0.3246265682328965 0.8784252641146705 0.3246265682328965 0.12157473588532969 -0.3246265682328965
1.07175E9 0.10634521444250568 -0.30593822713886804 0.8936547855574946 0.30593822713886804 0.8936547855574946 0.30593822713886804 0.10634521444250568 -0.30593822713886804
1.1465E9 0.09360661810665719 -0.2887642489792634 0.9063933818933427 0.2887642489792634 0.9063933818933427 0.2887642489792634 0.09360661810665719 -0.2887642489792634
1.22125E9 0.08286324119015981 -0.2729807237912197 0.9171367588098402 0.2729807237912197 0.9171367588098402 0.2729807237912197 0.08286324119015981 -0.2729807237912197
1.296E9 0.07373241238877501 -0.25845920644344 0.9262675876112252 0.25845920644344 0.9262675876112252 0.25845920644344 0.07373241238877501 -0.25845920644344
1.37075E9 0.06591618992359298 -0.24507579505861235 0.934083810076407 0.24507579505861235 0.934083810076407 0.24507579505861235 0.06591618992359298 -0.24507579505861235
1.4455E9 0.05918057961835043 -0.23271541617788596 0.9408194203816496 0.23271541617788596 0.9408194203816496 0.23271541617788596 0.05918057961835043 -0.23271541617788596
1.52025E9 0.053340226626474564 -0.22127347837115866 0.9466597733735256 0.22127347837115866 0.9466597733735256 0.22127347837115866 0.053340226626474564 -0.22127347837115866
1.595E9 0.048247076003091076 -0.21065611588632538 0.951752923996909 0.21065611588632538 0.951752923996909 0.21065611588632538 0.048247076003091076 -0.21065611588632538
1.66975E9 0.04378191512596276 -0.20077971140540213 0.9562180848740375 0.20077971140540213 0.9562180848740375 0.20077971140540213 0.04378191512596276 -0.20077971140540213
1.7445E9 0.03984801762829053 -0.19157008401035971 0.9601519823717094 0.19157008401035971 0.9601519823717094 0.19157008401035971 0.03984801762829053 -0.19157008401035971
1.81925E9 0.036366328910384986 -0.18296155553725021 0.963633671089615 0.18296155553725021 0.963633671089615 0.18296155553725021 0.036366328910384986 -0.18296155553725021
1.894E9 0.03327179027952629 -0.1748960097125858 0.9667282097204737 0.1748960097125858 0.9667282097204737 0.1748960097125858 0.03327179027952629 -0.1748960097125858
1.96875E9 0.03051051030892436 -0.16732200220290788 0.9694894896910756 0.16732200220290788 0.9694894896910756 0.16732200220290788 0.03051051030892436 -0.16732200220290788
2.0435E9 0.028037571380462784 -0.16019394794621744 0.9719624286195374 0.16019394794621744 0.9719624286195374 0.16019394794621744 0.028037571380462784 -0.16019394794621744
2.11825E9 0.025815316078100958 -0.15347139452396535 0.9741846839218989 0.15347139452396535 0.9741846839218989 0.15347139452396535 0.025815316078100958 -0.15347139452396535
2.193E9 0.023811998821129676 -0.1471183808918478 0.9761880011788704 0.1471183808918478 0.9761880011788704 0.1471183808918478 0.023811998821129676 -0.1471183808918478
2.26775E9 0.022000717553898364 -0.14110287603932145 0.9779992824461017 0.14110287603932145 0.9779992824461017 0.14110287603932145 0.022000717553898364 -0.14110287603932145
2.3425E9 0.020358561716565853 -0.13539629006324477 0.979641438283434 0.13539629006324477 0.979641438283434 0.13539629006324477 0.020358561716565853 -0.13539629006324477
2.41725E9 0.018865928403744722 -0.12997304953623146 0.9811340715962552 0.12997304953623146 0.9811340715962552 0.12997304953623146 0.018865928403744722 -0.12997304953623146
2.492E9 0.017505970186981426 -0.12481022923560837 0.9824940298130186 0.12481022923560837 0.9824940298130186 0.12481022923560837 0.017505970186981426 -0.12481022923560837
2.56675E9 0.01626414667173766 -0.11988723287568706 0.9837358533282622 0.11988723287568706 0.9837358533282622 0.11988723287568706 0.01626414667173766 -0.11988723287568706
2.6415E9 0.015127858288953178 -0.11518551622728218 0.9848721417110469 0.11518551622728218 0.9848721417110469 0.11518551622728218 0.015127858288953178 -0.11518551622728218
2.71625E9 0.014086145663627932 -0.11068834678794037 0.9859138543363722 0.11068834678794037 0.9859138543363722 0.11068834678794037 0.014086145663627932 -0.11068834678794037
2.791E9 0.013129441574120769 -0.10638059491733576 0.9868705584258792 0.10638059491733576 0.9868705584258792 0.10638059491733576 0.013129441574120769 -0.10638059491733576
2.86575E9 0.012249365317185928 -0.10224855204225931 0.987750634682814 0.10224855204225931 0.987750634682814 0.10224855204225931 0.012249365317185928 -0.10224855204225931
2.9405E9 0.011438551444645928 -0.0982797721517577 0.988561448555354 0.0982797721517577 0.988561448555354 0.0982797721517577 0.011438551444645928 -0.0982797721517577
3.01525E9 0.010690506499031067 -0.09446293334328078 0.9893094935009689 0.09446293334328078 0.9893094935009689 0.09446293334328078 0.010690506499031067 -0.09446293334328078
3.09E9 0.00999948866636193 -0.09078771664891702 0.9900005113336381 0.09078771664891702 0.9900005113336381 0.09078771664891702 0.00999948866636193 -0.09078771664891702
3.16475E9 0.009360406272814191 -0.08724469977335593 0.9906395937271859 0.08724469977335593 0.9906395937271859 0.08724469977335593 0.009360406272814191 -0.08724469977335593
3.2395E9 0.00876873184428941 -0.08382526371953393 0.9912312681557106 0.08382526371953393 0.9912312681557106 0.08382526371953393 0.00876873184428941 -0.08382526371953393
3.31425E9 0.00822042907355443 -0.08052151057144041 0.9917795709264455 0.08052151057144041 0.9917795709264455 0.08052151057144041 0.00822042907355443 -0.08052151057144041
3.389E9 0.007711890536146106 -0.07732619095328216 0.992288109463854 0.07732619095328216 0.992288109463854 0.07732619095328216 0.007711890536146106 -0.07732619095328216
3.46375E9 0.00723988439222222 -0.07423263989644836 0.9927601156077777 0.07423263989644836 0.9927601156077777 0.07423263989644836 0.00723988439222222 -0.07423263989644836
3.5385E9 0.006801508628812614 -0.0712347200260579 0.9931984913711875 0.0712347200260579 0.9931984913711875 0.0712347200260579 0.006801508628812614 -0.0712347200260579
3.61325E9 0.006394151652278685 -0.06832677113213957 0.9936058483477214 0.06832677113213957 0.9936058483477214 0.06832677113213957 0.006394151652278685 -0.06832677113213957
3.688E9 0.006015458247201912 -0.06550356532084717 0.9939845417527979 0.06550356532084717 0.9939845417527979 0.06550356532084717 0.006015458247201912 -0.06550356532084717
3.76275E9 0.005663300085472705 -0.06276026705207846 0.9943366999145274 0.06276026705207846 0.9943366999145274 0.06276026705207846 0.005663300085472705 -0.06276026705207846
3.8375E9 0.005335750105905595 -0.06009239746444648 0.9946642498940942 0.06009239746444648 0.9946642498940942 0.06009239746444648 0.005335750105905595 -0.06009239746444648
3.91225E9 0.005031060196434734 -0.0574958024692801 0.9949689398035654 0.0574958024692801 0.9949689398035654 0.0574958024692801 0.005031060196434734 -0.0574958024692801
3.987E9 0.004747641702701637 -0.05496662416433415 0.9952523582972983 0.05496662416433415 0.9952523582972983 0.05496662416433415 0.004747641702701637 -0.05496662416433415
4.06175E9 0.004484048362479742 -0.05250127517697796 0.9955159516375203 0.05250127517697796 0.9955159516375203 0.05250127517697796 0.004484048362479742 -0.05250127517697796
4.1365E9 0.004238961327939223 -0.050096415597302206 0.9957610386720606 0.050096415597302206 0.9957610386720606 0.050096415597302206 0.004238961327939223 -0.050096415597302206
4.21125E9 0.004011175989677224 -0.0477489322051257 0.9959888240103226 0.0477489322051257 0.9959888240103226 0.0477489322051257 0.004011175989677224 -0.0477489322051257
4.286E9 0.003799590359672654 -0.04545591973235578 0.9962004096403272 0.04545591973235578 0.9962004096403272 0.04545591973235578 0.003799590359672654 -0.04545591973235578
4.36075E9 0.0036031948064392796 -0.043214663934469856 0.9963968051935607 0.043214663934469856 0.9963968051935607 0.043214663934469856 0.0036031948064392796 -0.043214663934469856
4.4355E9 0.003421062965910839 -0.0410226262727971 0.9965789370340892 0.0410226262727971 0.9965789370340892 0.0410226262727971 0.003421062965910839 -0.0410226262727971
4.51025E9 0.0032523436770219532 -0.03887743003343583 0.996747656322978 0.03887743003343583 0.996747656322978 0.03887743003343583 0.0032523436770219532 -0.03887743003343583
4.585E9 0.0030962538123810637 -0.03677684772958304 0.9969037461876189 0.03677684772958304 0.9969037461876189 0.03677684772958304 0.0030962538123810637 -0.03677684772958304
4.65975E9 0.0029520718925454266 -0.03471878965224256 0.9970479281074546 0.03471878965224256 0.9970479281074546 0.03471878965224256 0.0029520718925454266 -0.03471878965224256
4.7345E9 0.0028191323877584827 -0.03270129345010291 0.9971808676122416 0.03270129345010291 0.9971808676122416 0.03270129345010291 0.0028191323877584827 -0.03270129345010291
4.80925E9 0.0026968206240525357 -0.030722514633170814 0.9973031793759475 0.030722514633170814 0.9973031793759475 0.030722514633170814 0.0026968206240525357 -0.030722514633170814
4.884E9 0.002584568221729649 -0.028780717906789505 0.9974154317782704 0.028780717906789505 0.9974154317782704 0.028780717906789505 0.002584568221729649 -0.028780717906789505
4.95875E9 0.0024818490037207676 -0.026874269253205595 0.9975181509962789 0.026874269253205595 0.9975181509962789 0.026874269253205595 0.0024818490037207676 -0.026874269253205595
5.0335E9 0.0023881753194438145 -0.025001628687077535 0.9976118246805562 0.025001628687077535 0.9976118246805562 0.025001628687077535 0.0023881753194438145 -0.025001628687077535
5.10825E9 0.0023030947367487023 -0.023161343619416883 0.9976969052632512 0.023161343619416883 0.9976969052632512 0.023161343619416883 0.0023030947367487023 -0.023161343619416883
5.183E9 0.0022261870605285177 -0.02135204277157505 0.9977738129394714 0.02135204277157505 0.9977738129394714 0.02135204277157505 0.0022261870605285177 -0.02135204277157505
5.25775E9 0.002157061641739162 -0.01957243058715395 0.997842938358261 0.01957243058715395 0.997842938358261 0.01957243058715395 0.002157061641739162 -0.01957243058715395
5.3325E9 0.0020953549450289607 -0.017821282095248307 0.9979046450549713 0.017821282095248307 0.9979046450549713 0.017821282095248307 0.0020953549450289607 -0.017821282095248307
5.40725E9 0.0020407283470387115 -0.016097438183308447 0.9979592716529614 0.016097438183308447 0.9979592716529614 0.016097438183308447 0.0020407283470387115 -0.016097438183308447
5.482E9 0.0019928661407791334 -0.014399801242230132 0.9980071338592209 0.014399801242230132 0.9980071338592209 0.014399801242230132 0.0019928661407791334 -0.014399801242230132
5.55675E9 0.001951473724400423 -0.012727331150104087 0.9980485262755996 0.012727331150104087 0.9980485262755996 0.012727331150104087 0.001951473724400423 -0.012727331150104087
5.6315E9 0.0019162759551998856 -0.01107904156445112 0.9980837240448001 0.01107904156445112 0.9980837240448001 0.01107904156445112 0.0019162759551998856 -0.01107904156445112
5.70625E9 0.0018870156519213777 -0.009453996495783455 0.9981129843480785 0.009453996495783455 0.9981129843480785 0.009453996495783455 0.0018870156519213777 -0.009453996495783455
5.781E9 0.0018634522303293225 -0.007851307138015847 0.9981365477696706 0.007851307138015847 0.9981365477696706 0.007851307138015847 0.0018634522303293225 -0.007851307138015847
5.85575E9 0.0018453604587285908 -0.0062701289336398 0.9981546395412715 0.0062701289336398 0.9981546395412715 0.0062701289336398 0.0018453604587285908 -0.0062701289336398
5.9305E9 0.0018325293215820234 -0.004709658853705764 0.9981674706784178 0.004709658853705764 0.9981674706784178 0.004709658853705764 0.0018325293215820234 -0.004709658853705764
6.00525E9 0.0018247609806777284 -0.003169132874563446 0.9981752390193224 0.003169132874563446 0.9981752390193224 0.003169132874563446 0.0018247609806777284 -0.003169132874563446
6.08E9 0.0018218698244422242 -0.0016478236350129737 0.9981781301755578 0.0016478236350129737 0.9981781301755578 0.0016478236350129737 0.0018218698244422242 -0.0016478236350129737
6.15475E9 0.0018236815970035442 -1.450382590467475E-4 0.9981763184029965 1.450382590467475E-4 0.9981763184029965 1.450382590467475E-4 0.0018236815970035442 -1.450382590467475E-4
6.2295E9 0.0018300325994979666 0.0013398836692718429 0.998169967400502 -0.0013398836692718429 0.998169967400502 -0.0013398836692718429 0.0018300325994979666 0.0013398836692718429
6.30425E9 0.001840768956900363 0.0028075719910162634 0.9981592310430996 -0.0028075719910162634 0.9981592310430996 -0.0028075719910162634 0.001840768956900363 0.0028075719910162634
6.379E9 0.0018557459443541942 0.004258627728812528 0.998144254055646 -0.004258627728812528 0.998144254055646 -0.004258627728812528 0.0018557459443541942 0.004258627728812528
6.45375E9 0.0018748273675942054 0.005693624724588488 0.998125172632406 -0.005693624724588488 0.998125172632406 -0.005693624724588488 0.0018748273675942054 0.005693624724588488
6.5285E9 0.0018978849926026776 0.007113111167888679 0.9981021150073977 -0.007113111167888679 0.9981021150073977 -0.007113111167888679 0.0018978849926026776 0.007113111167888679
6.60325E9 0.0019247980201270423 0.008517611023177702 0.998075201979873 -0.008517611023177702 0.998075201979873 -0.008517611023177702 0.0019247980201270423 0.008517611023177702
6.678E9 0.0019554526011202437 0.009907625363827185 0.9980445473988798 -0.009907625363827185 0.9980445473988798 -0.009907625363827185 0.0019554526011202437 0.009907625363827185
6.75275E9 0.001989741389551616 0.011283633619821142 0.9980102586104483 -0.011283633619821142 0.9980102586104483 -0.011283633619821142 0.001989741389551616 0.011283633619821142
6.8275E9 0.0020275631293810484 0.012646094745617883 0.9979724368706189 -0.012646094745617883 0.9979724368706189 -0.012646094745617883 0.0020275631293810484 0.012646094745617883
6.90225E9 0.0020688222727974818 0.013995448314067719 0.9979311777272024 -0.013995448314067719 0.9979311777272024 -0.013995448314067719 0.0020688222727974818 0.013995448314067719
6.977E9 0.0021134286270986084 0.015332115541792968 0.9978865713729016 -0.015332115541792968 0.9978865713729016 -0.015332115541792968 0.0021134286270986084 0.015332115541792968
7.05175E9 0.0021612970278359397 0.01665650025099481 0.9978387029721641 -0.01665650025099481 0.9978387029721641 -0.01665650025099481 0.0021612970278359397 0.01665650025099481
7.1265E9 0.00221234703607102 0.017968989772244735 0.9977876529639292 -0.017968989772244735 0.9977876529639292 -0.017968989772244735 0.00221234703607102 0.017968989772244735
7.20125E9 0.0022665026577878477 0.01926995579245298 0.9977334973422121 -0.01926995579245298 0.9977334973422121 -0.01926995579245298 0.0022665026577878477 0.01926995579245298
7.276E9 0.0023236920836855455 0.02055975515186947 0.9976763079163143 -0.02055975515186947 0.9976763079163143 -0.02055975515186947 0.0023236920836855455 0.02055975515186947
7.35075E9 0.0023838474477366513 0.021838730593670006 0.9976161525522633 -0.021838730593670006 0.9976161525522633 -0.021838730593670006 0.0023838474477366513 0.021838730593670006
7.4255E9 0.0024469046030416446 0.023107211469400413 0.9975530953969582 -0.023107211469400413 0.9975530953969582 -0.023107211469400413 0.0024469046030416446 0.023107211469400413
7.50025E9 0.0025128029136415046 0.024365514403298875 0.9974871970863585 -0.024365514403298875 0.9974871970863585 -0.024365514403298875 0.0025128029136415046 0.024365514403298875
7.575E9 0.002581485061068552 0.025613943918284046 0.9974185149389313 -0.025613943918284046 0.9974185149389313 -0.025613943918284046 0.002581485061068552 0.025613943918284046
7.64975E9 0.0026528968645229286 0.026852793026184648 0.9973471031354774 -0.026852793026184648 0.9973471031354774 -0.026852793026184648 0.0026528968645229286 0.026852793026184648
7.7245E9 0.0027269871136591534 0.028082343784592182 0.9972730128863412 -0.028082343784592182 0.9972730128863412 -0.028082343784592182 0.0027269871136591534 0.028082343784592182
7.79925E9 0.002803707413055035 0.029302867822540414 0.997196292586945 -0.029302867822540414 0.997196292586945 -0.029302867822540414 0.002803707413055035 0.029302867822540414
7.874E9 0.0028830120375151406 0.030514626837053346 0.9971169879624849 -0.030514626837053346 0.9971169879624849 -0.030514626837053346 0.0028830120375151406 0.030514626837053346
7.94875E9 0.0029648577974333884 0.03171787306245195 0.9970351422025665 -0.03171787306245195 0.9970351422025665 -0.03171787306245195 0.0029648577974333884 0.03171787306245195
8.0235E9 0.00304920391350542 0.032912849714175144 0.9969507960864945 -0.032912849714175144 0.9969507960864945 -0.032912849714175144 0.00304920391350542 0.032912849714175144
8.09825E9 0.003136011900141389 0.034099791408742613 0.9968639880998584 -0.034099791408742613 0.9968639880998584 -0.034099791408742613 0.003136011900141389 0.034099791408742613
8.173E9 0.0032252454569845898 0.035278924561372195 0.9967747545430155 -0.035278924561372195 0.9967747545430155 -0.035278924561372195 0.0032252454569845898 0.035278924561372195
8.24775E9 0.003316870367991377 0.036450467762657396 0.9966831296320087 -0.036450467762657396 0.9966831296320087 -0.036450467762657396 0.003316870367991377 0.036450467762657396
8.3225E9 0.003410854407573534 0.037614632135613425 0.9965891455924265 -0.037614632135613425 0.9965891455924265 -0.037614632135613425 0.003410854407573534 0.037614632135613425
8.39725E9 0.003507167253346069 0.03877162167430836 0.9964928327466541 -0.03877162167430836 0.9964928327466541 -0.03877162167430836 0.003507167253346069 0.03877162167430836
8.472E9 0.0036057804050618173 0.03992163356521399 0.996394219594938 -0.03992163356521399 0.996394219594938 -0.03992163356521399 0.0036057804050618173 0.03992163356521399
8.54675E9 0.003706667109349483 0.041064858492333975 0.9962933328906506 -0.041064858492333975 0.9962933328906506 -0.041064858492333975 0.003706667109349483 0.041064858492333975
