!Murata Part Number: GJM0225C1E2R6BB01
!These Parameters are Measured in Series Mode Connection
!       o--ll--o
!Port1            Port2
!       o------o
!Operation Temp=25[degC], DC Bias Voltage=0[V]
!Freq. Start=100[MHz] Stop=30[GHz], 401[Steps]
!Data Generated on Feb 1, 2023
# Hz S RI R 50
!Freq.(Hz) S11(Real) S11(Imag) S21(Real) S21(Imag) S12(Real) S12(Imag) S22(Real) S22(Imag)
1.0E8 0.9739443586072424 -0.15912604618585355 0.026055641392757657 0.15912604618585355 0.026055641392757657 0.15912604618585355 0.9739443586072424 -0.15912604618585355
1.7475E8 0.9244301413481064 -0.26400315549309933 0.07556985865189365 0.26400315549309933 0.07556985865189365 0.26400315549309933 0.9244301413481064 -0.26400315549309933
2.495E8 0.8570431529221505 -0.34959240356539945 0.1429568470778495 0.34959240356539945 0.1429568470778495 0.34959240356539945 0.8570431529221505 -0.34959240356539945
3.2425E8 0.7799752521916401 -0.41369532825634303 0.2200247478083599 0.41369532825634303 0.2200247478083599 0.41369532825634303 0.7799752521916401 -0.41369532825634303
3.99E8 0.7003521207938649 -0.4574043523391069 0.2996478792061351 0.4574043523391069 0.2996478792061351 0.4574043523391069 0.7003521207938649 -0.4574043523391069
4.7375E8 0.623291361428799 -0.4837293175710404 0.3767086385712009 0.4837293175710404 0.3767086385712009 0.4837293175710404 0.623291361428799 -0.4837293175710404
5.485E8 0.5518596685485372 -0.49633897151500145 0.4481403314514628 0.49633897151500145 0.4481403314514628 0.49633897151500145 0.5518596685485372 -0.49633897151500145
6.2325E8 0.48749839660654926 -0.4987458865218529 0.5125016033934509 0.4987458865218529 0.5125016033934509 0.4987458865218529 0.48749839660654926 -0.4987458865218529
6.98E8 0.4305549730907897 -0.49392184737760875 0.5694450269092102 0.49392184737760875 0.5694450269092102 0.49392184737760875 0.4305549730907897 -0.49392184737760875
7.7275E8 0.38073425551022305 -0.48420018134778736 0.6192657444897769 0.48420018134778736 0.6192657444897769 0.48420018134778736 0.38073425551022305 -0.48420018134778736
8.475E8 0.3374179953670085 -0.4713254886535689 0.6625820046329914 0.4713254886535689 0.6625820046329914 0.4713254886535689 0.3374179953670085 -0.4713254886535689
9.2225E8 0.29986560285854197 -0.4565583454074577 0.700134397141458 0.4565583454074577 0.700134397141458 0.4565583454074577 0.29986560285854197 -0.4565583454074577
9.97E8 0.2673284455876535 -0.44078624434142816 0.7326715544123463 0.44078624434142816 0.7326715544123463 0.44078624434142816 0.2673284455876535 -0.44078624434142816
1.07175E9 0.23910812349399616 -0.4246202587422687 0.760891876506004 0.4246202587422687 0.760891876506004 0.4246202587422687 0.23910812349399616 -0.4246202587422687
1.1465E9 0.21458128935518153 -0.4084718384230218 0.7854187106448184 0.4084718384230218 0.7854187106448184 0.4084718384230218 0.21458128935518153 -0.4084718384230218
1.22125E9 0.1932058684130708 -0.3926107700113048 0.8067941315869291 0.3926107700113048 0.8067941315869291 0.3926107700113048 0.1932058684130708 -0.3926107700113048
1.296E9 0.17451775222943394 -0.37720759970065904 0.825482247770566 0.37720759970065904 0.825482247770566 0.37720759970065904 0.17451775222943394 -0.37720759970065904
1.37075E9 0.15812320884406078 -0.36236409755289223 0.8418767911559394 0.36236409755289223 0.8418767911559394 0.36236409755289223 0.15812320884406078 -0.36236409755289223
1.4455E9 0.14368988166385294 -0.3481348699974202 0.8563101183361471 0.3481348699974202 0.8563101183361471 0.3481348699974202 0.14368988166385294 -0.3481348699974202
1.52025E9 0.1309378536956006 -0.3345425698349535 0.8690621463043995 0.3345425698349535 0.8690621463043995 0.3345425698349535 0.1309378536956006 -0.3345425698349535
1.595E9 0.11963146352217248 -0.3215885394549395 0.8803685364778275 0.3215885394549395 0.8803685364778275 0.3215885394549395 0.11963146352217248 -0.3215885394549395
1.66975E9 0.10957212973667385 -0.3092602238061785 0.890427870263326 0.3092602238061785 0.890427870263326 0.3092602238061785 0.10957212973667385 -0.3092602238061785
1.7445E9 0.10059221861248765 -0.2975363097488609 0.8994077813875125 0.2975363097488609 0.8994077813875125 0.2975363097488609 0.10059221861248765 -0.2975363097488609
1.81925E9 0.09254988412696898 -0.28639026968570513 0.9074501158730309 0.28639026968570513 0.9074501158730309 0.28639026968570513 0.09254988412696898 -0.28639026968570513
1.894E9 0.08532476682957943 -0.2757927871764415 0.9146752331704205 0.2757927871764415 0.9146752331704205 0.2757927871764415 0.08532476682957943 -0.2757927871764415
1.96875E9 0.07881442815969375 -0.26571340022725326 0.9211855718403062 0.26571340022725326 0.9211855718403062 0.26571340022725326 0.07881442815969375 -0.26571340022725326
2.0435E9 0.0729314028201201 -0.2561215979055659 0.9270685971798801 0.2561215979055659 0.9270685971798801 0.2561215979055659 0.0729314028201201 -0.2561215979055659
2.11825E9 0.06760076456334434 -0.24698753570228554 0.9323992354366557 0.24698753570228554 0.9323992354366557 0.24698753570228554 0.06760076456334434 -0.24698753570228554
2.193E9 0.06275811547346992 -0.23828248582545133 0.9372418845265299 0.23828248582545133 0.9372418845265299 0.23828248582545133 0.06275811547346992 -0.23828248582545133
2.26775E9 0.0583479231735409 -0.22997910408096284 0.9416520768264591 0.22997910408096284 0.9416520768264591 0.22997910408096284 0.0583479231735409 -0.22997910408096284
2.3425E9 0.05432214331569153 -0.2220515707565705 0.9456778566843085 0.2220515707565705 0.9456778566843085 0.2220515707565705 0.05432214331569153 -0.2220515707565705
2.41725E9 0.05063907587218899 -0.2144756458816007 0.9493609241278109 0.2144756458816007 0.9493609241278109 0.2144756458816007 0.05063907587218899 -0.2144756458816007
2.492E9 0.04726241313644336 -0.20722866722909342 0.9527375868635566 0.20722866722909342 0.9527375868635566 0.20722866722909342 0.04726241313644336 -0.20722866722909342
2.56675E9 0.044160445119364254 -0.20028951095487912 0.9558395548806358 0.20028951095487912 0.9558395548806358 0.20028951095487912 0.044160445119364254 -0.20028951095487912
2.6415E9 0.041305394400637345 -0.19363852878015525 0.9586946055993626 0.19363852878015525 0.9586946055993626 0.19363852878015525 0.041305394400637345 -0.19363852878015525
2.71625E9 0.03867285768636726 -0.18725747138693186 0.9613271423136326 0.18725747138693186 0.9613271423136326 0.18725747138693186 0.03867285768636726 -0.18725747138693186
2.791E9 0.0362413355375412 -0.18112940469557814 0.9637586644624588 0.18112940469557814 0.9637586644624588 0.18112940469557814 0.0362413355375412 -0.18112940469557814
2.86575E9 0.03399183514578833 -0.1752386235697545 0.9660081648542116 0.1752386235697545 0.9660081648542116 0.1752386235697545 0.03399183514578833 -0.1752386235697545
2.9405E9 0.03190753379440063 -0.1695705659920724 0.9680924662055993 0.1695705659920724 0.9680924662055993 0.1695705659920724 0.03190753379440063 -0.1695705659920724
3.01525E9 0.029973492878167456 -0.16411172969425047 0.9700265071218325 0.16411172969425047 0.9700265071218325 0.16411172969425047 0.029973492878167456 -0.16411172969425047
3.09E9 0.028176414167149874 -0.15884959248104935 0.9718235858328502 0.15884959248104935 0.9718235858328502 0.15884959248104935 0.028176414167149874 -0.15884959248104935
3.16475E9 0.026504431469647125 -0.15377253696739693 0.9734955685303528 0.15377253696739693 0.9734955685303528 0.15377253696739693 0.026504431469647125 -0.15377253696739693
3.2395E9 0.02494693204483673 -0.14886978008839544 0.9750530679551634 0.14886978008839544 0.9750530679551634 0.14886978008839544 0.02494693204483673 -0.14886978008839544
3.31425E9 0.02349440308935786 -0.144131307496294 0.976505596910642 0.144131307496294 0.976505596910642 0.144131307496294 0.02349440308935786 -0.144131307496294
3.389E9 0.022138299417319658 -0.13954781279406847 0.9778617005826803 0.13954781279406847 0.9778617005826803 0.13954781279406847 0.022138299417319658 -0.13954781279406847
3.46375E9 0.020870929104193473 -0.1351106414483518 0.9791290708958064 0.1351106414483518 0.9791290708958064 0.1351106414483518 0.020870929104193473 -0.1351106414483518
3.5385E9 0.019685354399320388 -0.13081173915817737 0.9803146456006797 0.13081173915817737 0.9803146456006797 0.13081173915817737 0.019685354399320388 -0.13081173915817737
3.61325E9 0.018575305651401405 -0.12664360441815714 0.9814246943485986 0.12664360441815714 0.9814246943485986 0.12664360441815714 0.018575305651401405 -0.12664360441815714
3.688E9 0.017535106354068523 -0.12259924499661125 0.9824648936459313 0.12259924499661125 0.9824648936459313 0.12259924499661125 0.017535106354068523 -0.12259924499661125
3.76275E9 0.01655960771871437 -0.11867213804453403 0.9834403922812859 0.11867213804453403 0.9834403922812859 0.11867213804453403 0.01655960771871437 -0.11867213804453403
3.8375E9 0.015644131430674748 -0.11485619355566326 0.9843558685693253 0.11485619355566326 0.9843558685693253 0.11485619355566326 0.015644131430674748 -0.11485619355566326
3.91225E9 0.01478441945188828 -0.11114572090813359 0.9852155805481115 0.11114572090813359 0.9852155805481115 0.11114572090813359 0.01478441945188828 -0.11114572090813359
3.987E9 0.013976589905805366 -0.10753539823198653 0.9860234100941949 0.10753539823198653 0.9860234100941949 0.10753539823198653 0.013976589905805366 -0.10753539823198653
4.06175E9 0.013217098224673977 -0.10402024436260567 0.9867829017753262 0.10402024436260567 0.9867829017753262 0.10402024436260567 0.013217098224673977 -0.10402024436260567
4.1365E9 0.012502702860340855 -0.10059559315683843 0.9874972971396592 0.10059559315683843 0.9874972971396592 0.10059559315683843 0.012502702860340855 -0.10059559315683843
4.21125E9 0.011830434961408905 -0.09725706996541733 0.988169565038591 0.09725706996541733 0.988169565038591 0.09725706996541733 0.011830434961408905 -0.09725706996541733
4.286E9 0.011197571505279154 -0.09400057007179234 0.9888024284947208 0.09400057007179234 0.9888024284947208 0.09400057007179234 0.011197571505279154 -0.09400057007179234
4.36075E9 0.010601611445980659 -0.09082223892332308 0.9893983885540194 0.09082223892332308 0.9893983885540194 0.09082223892332308 0.010601611445980659 -0.09082223892332308
4.4355E9 0.010040254499968471 -0.08771845399574868 0.9899597455000315 0.08771845399574868 0.9899597455000315 0.08771845399574868 0.010040254499968471 -0.08771845399574868
4.51025E9 0.0095113822440745 -0.0846858081458559 0.9904886177559253 0.0846858081458559 0.9904886177559253 0.0846858081458559 0.0095113822440745 -0.0846858081458559
4.585E9 0.009013041244034597 -0.08172109432025687 0.9909869587559654 0.08172109432025687 0.9909869587559654 0.08172109432025687 0.009013041244034597 -0.08172109432025687
4.65975E9 0.00854342796973176 -0.07882129150016072 0.9914565720302683 0.07882129150016072 0.9914565720302683 0.07882129150016072 0.00854342796973176 -0.07882129150016072
4.7345E9 0.00810087528552514 -0.07598355177301232 0.9918991247144747 0.07598355177301232 0.9918991247144747 0.07598355177301232 0.00810087528552514 -0.07598355177301232
4.80925E9 0.007683840331633535 -0.07320518843190958 0.9923161596683665 0.07320518843190958 0.9923161596683665 0.07320518843190958 0.007683840331633535 -0.07320518843190958
4.884E9 0.007290893636228445 -0.07048366501286521 0.9927091063637715 0.07048366501286521 0.9927091063637715 0.07048366501286521 0.007290893636228445 -0.07048366501286521
4.95875E9 0.006920709318260421 -0.0678165851882966 0.9930792906817395 0.0678165851882966 0.9930792906817395 0.0678165851882966 0.006920709318260421 -0.0678165851882966
5.0335E9 0.006572056258595629 -0.0652016834426828 0.9934279437414043 0.0652016834426828 0.9934279437414043 0.0652016834426828 0.006572056258595629 -0.0652016834426828
5.10825E9 0.006243790132195308 -0.06263681646317223 0.9937562098678046 0.06263681646317223 0.9937562098678046 0.06263681646317223 0.006243790132195308 -0.06263681646317223
5.183E9 0.0059348462071829 -0.06011995518412642 0.9940651537928169 0.06011995518412642 0.9940651537928169 0.06011995518412642 0.0059348462071829 -0.06011995518412642
5.25775E9 0.0056442328280090215 -0.05764917743019618 0.994355767171991 0.05764917743019618 0.994355767171991 0.05764917743019618 0.0056442328280090215 -0.05764917743019618
5.3325E9 0.005371025509793743 -0.055222661107601455 0.9946289744902063 0.055222661107601455 0.9946289744902063 0.055222661107601455 0.005371025509793743 -0.055222661107601455
5.40725E9 0.005114361579512413 -0.0528386778978779 0.9948856384204875 0.0528386778978779 0.9948856384204875 0.0528386778978779 0.005114361579512413 -0.0528386778978779
5.482E9 0.004873435307174242 -0.05049558741250249 0.9951265646928257 0.05049558741250249 0.9951265646928257 0.05049558741250249 0.004873435307174242 -0.05049558741250249
5.55675E9 0.004647493476676278 -0.04819183177056388 0.9953525065233235 0.04819183177056388 0.9953525065233235 0.04819183177056388 0.004647493476676278 -0.04819183177056388
5.6315E9 0.004435831351729013 -0.04592593056503868 0.995564168648271 0.04592593056503868 0.995564168648271 0.04592593056503868 0.004435831351729013 -0.04592593056503868
5.70625E9 0.00423778899725469 -0.043696476186302756 0.995762211002745 0.043696476186302756 0.995762211002745 0.043696476186302756 0.00423778899725469 -0.043696476186302756
5.781E9 0.00405274792105109 -0.04150212947428777 0.9959472520789489 0.04150212947428777 0.9959472520789489 0.04150212947428777 0.00405274792105109 -0.04150212947428777
5.85575E9 0.0038801280043727275 -0.03934161567320625 0.9961198719956273 0.03934161567320625 0.9961198719956273 0.03934161567320625 0.0038801280043727275 -0.03934161567320625
5.9305E9 0.003719384693478227 -0.037213720665046565 0.9962806153065219 0.037213720665046565 0.9962806153065219 0.037213720665046565 0.003719384693478227 -0.037213720665046565
6.00525E9 0.003570006427187135 -0.03511728746010318 0.9964299935728127 0.03511728746010318 0.9964299935728127 0.03511728746010318 0.003570006427187135 -0.03511728746010318
6.08E9 0.0034315122781328707 -0.033051212924677324 0.9965684877218672 0.033051212924677324 0.9965684877218672 0.033051212924677324 0.0034315122781328707 -0.033051212924677324
6.15475E9 0.003303449787735861 -0.03101444472778146 0.9966965502122642 0.03101444472778146 0.9966965502122642 0.03101444472778146 0.003303449787735861 -0.03101444472778146
6.2295E9 0.003185392976990087 -0.029005978490219134 0.9968146070230098 0.029005978490219134 0.9968146070230098 0.029005978490219134 0.003185392976990087 -0.029005978490219134
6.30425E9 0.003076940516991117 -0.02702485512081233 0.9969230594830089 0.02702485512081233 0.9969230594830089 0.02702485512081233 0.003076940516991117 -0.02702485512081233
6.379E9 0.0029777140447624557 -0.02507015832581651 0.9970222859552377 0.02507015832581651 0.9970222859552377 0.02507015832581651 0.0029777140447624557 -0.02507015832581651
6.45375E9 0.0028873566113853345 -0.02314101227872253 0.9971126433886146 0.02314101227872253 0.9971126433886146 0.02314101227872253 0.0028873566113853345 -0.02314101227872253
6.5285E9 0.002805531250726001 -0.021236579438692556 0.9971944687492743 0.021236579438692556 0.9971944687492743 0.021236579438692556 0.002805531250726001 -0.021236579438692556
6.60325E9 0.0027319196582037 -0.019356058506837186 0.9972680803417961 0.019356058506837186 0.9972680803417961 0.019356058506837186 0.0027319196582037 -0.019356058506837186
6.678E9 0.0026662209700679066 -0.01749868251041153 0.9973337790299323 0.01749868251041153 0.9973337790299323 0.01749868251041153 0.0026662209700679066 -0.01749868251041153
6.75275E9 0.0026081506345696105 -0.015663717005803445 0.9973918493654302 0.015663717005803445 0.9973918493654302 0.015663717005803445 0.0026081506345696105 -0.015663717005803445
6.8275E9 0.002557439367231302 -0.013850458391914452 0.9974425606327686 0.013850458391914452 0.9974425606327686 0.013850458391914452 0.002557439367231302 -0.013850458391914452
6.90225E9 0.0025138321831543104 -0.012058232326192795 0.9974861678168455 0.012058232326192795 0.9974861678168455 0.012058232326192795 0.0025138321831543104 -0.012058232326192795
6.977E9 0.0024770874999607384 -0.010286392236187714 0.9975229125000392 0.010286392236187714 0.9975229125000392 0.010286392236187714 0.0024770874999607384 -0.010286392236187714
7.05175E9 0.0024469763055581352 -0.008534317920043406 0.997553023694442 0.008534317920043406 0.997553023694442 0.008534317920043406 0.0024469763055581352 -0.008534317920043406
7.1265E9 0.00242328138544634 -0.006801414229860114 0.9975767186145535 0.006801414229860114 0.9975767186145535 0.006801414229860114 0.00242328138544634 -0.006801414229860114
7.20125E9 0.0024057966047638475 -0.005087109832312039 0.9975942033952361 0.005087109832312039 0.9975942033952361 0.005087109832312039 0.0024057966047638475 -0.005087109832312039
7.276E9 0.0023943262407015 -0.003390856041336977 0.9976056737592983 0.003390856041336977 0.9976056737592983 0.003390856041336977 0.0023943262407015 -0.003390856041336977
7.35075E9 0.0023886843612994715 -0.0017121257181010386 0.9976113156387006 0.0017121257181010386 0.9976113156387006 0.0017121257181010386 0.0023886843612994715 -0.0017121257181010386
7.4255E9 0.0023886942469938206 -5.0412233800791015E-5 0.997611305753006 5.0412233800791015E-5 0.997611305753006 5.0412233800791015E-5 0.0023886942469938206 -5.0412233800791015E-5
7.50025E9 0.0023941878515953622 0.0015947715088089971 0.9976058121484047 -0.0015947715088089971 0.9976058121484047 -0.0015947715088089971 0.0023941878515953622 0.0015947715088089971
7.575E9 0.0024050052996698783 0.003223893998971646 0.9975949947003301 -0.003223893998971646 0.9975949947003301 -0.003223893998971646 0.0024050052996698783 0.003223893998971646
7.64975E9 0.0024209944175477894 0.004837405990100636 0.9975790055824523 -0.004837405990100636 0.9975790055824523 -0.004837405990100636 0.0024209944175477894 0.004837405990100636
7.7245E9 0.0024420102954261966 0.0064357413238467194 0.9975579897045738 -0.0064357413238467194 0.9975579897045738 -0.0064357413238467194 0.0024420102954261966 0.0064357413238467194
7.79925E9 0.0024679148782391774 0.008019317709102426 0.9975320851217608 -0.008019317709102426 0.9975320851217608 -0.008019317709102426 0.0024679148782391774 0.008019317709102426
7.874E9 0.002498576583165507 0.009588537458772538 0.9975014234168345 -0.009588537458772538 0.9975014234168345 -0.009588537458772538 0.002498576583165507 0.009588537458772538
7.94875E9 0.0025338699418186645 0.011143788186937694 0.9974661300581813 -0.011143788186937694 0.9974661300581813 -0.011143788186937694 0.0025338699418186645 0.011143788186937694
8.0235E9 0.002573675265323718 0.01268544346885742 0.9974263247346764 -0.01268544346885742 0.9974263247346764 -0.01268544346885742 0.002573675265323718 0.01268544346885742
8.09825E9 0.0026178783306310895 0.014213863466086767 0.9973821216693689 -0.014213863466086767 0.9973821216693689 -0.014213863466086767 0.0026178783306310895 0.014213863466086767
8.173E9 0.002666370086549695 0.015729395518826225 0.9973336299134504 -0.015729395518826225 0.9973336299134504 -0.015729395518826225 0.002666370086549695 0.015729395518826225
8.24775E9 0.0027190463781027203 0.017232374707479278 0.9972809536218971 -0.017232374707479278 0.9972809536218971 -0.017232374707479278 0.0027190463781027203 0.017232374707479278
8.3225E9 0.002775807687919515 0.018723124385257906 0.9972241923120806 -0.018723124385257906 0.9972241923120806 -0.018723124385257906 0.002775807687919515 0.018723124385257906
8.39725E9 0.0028365588934778007 0.020201956683553964 0.9971634411065222 -0.020201956683553964 0.9971634411065222 -0.020201956683553964 0.0028365588934778007 0.020201956683553964
8.472E9 0.002901209039102315 0.021669172991678105 0.9970987909608977 -0.021669172991678105 0.9970987909608977 -0.021669172991678105 0.002901209039102315 0.021669172991678105
8.54675E9 0.002969671121710284 0.023125064412463904 0.9970303288782896 -0.023125064412463904 0.9970303288782896 -0.023125064412463904 0.002969671121710284 0.023125064412463904
8.6215E9 0.003041861889371072 0.024569912195134706 0.9969581381106287 -0.024569912195134706 0.9969581381106287 -0.024569912195134706 0.003041861889371072 0.024569912195134706
