!Murata Part Number: GJM0225C1E1R1BB01
!These Parameters are Measured in Series Mode Connection
!       o--ll--o
!Port1            Port2
!       o------o
!Operation Temp=25[degC], DC Bias Voltage=0[V]
!Freq. Start=100[MHz] Stop=30[GHz], 401[Steps]
!Data Generated on Feb 1, 2023
# Hz S RI R 50
!Freq.(Hz) S11(Real) S11(Imag) S21(Real) S21(Imag) S12(Real) S12(Imag) S22(Real) S22(Imag)
1.0E8 0.9952314266360116 -0.06878964373464538 0.004768573363988436 0.06878964373464538 0.004768573363988436 0.06878964373464538 0.9952314266360116 -0.06878964373464538
1.7475E8 0.9855752291396022 -0.11905845024921599 0.014424770860397883 0.11905845024921599 0.014424770860397883 0.11905845024921599 0.9855752291396022 -0.11905845024921599
2.495E8 0.9710172539662963 -0.16750762550672763 0.028982746033703658 0.16750762550672763 0.028982746033703658 0.16750762550672763 0.9710172539662963 -0.16750762550672763
3.2425E8 0.9519810713723483 -0.21348076822914028 0.04801892862765167 0.21348076822914028 0.04801892862765167 0.21348076822914028 0.9519810713723483 -0.21348076822914028
3.99E8 0.9289930116687084 -0.2564358464730379 0.07100698833129152 0.2564358464730379 0.07100698833129152 0.2564358464730379 0.9289930116687084 -0.2564358464730379
4.7375E8 0.9026480952125516 -0.2959603873425613 0.09735190478744836 0.2959603873425613 0.09735190478744836 0.2959603873425613 0.9026480952125516 -0.2959603873425613
5.485E8 0.8735753072011664 -0.33177599730932394 0.12642469279883348 0.33177599730932394 0.12642469279883348 0.33177599730932394 0.8735753072011664 -0.33177599730932394
6.2325E8 0.8424055269341403 -0.36373338646003667 0.15759447306585964 0.36373338646003667 0.15759447306585964 0.36373338646003667 0.8424055269341403 -0.36373338646003667
6.98E8 0.8097445069306051 -0.3917999848266304 0.19025549306939488 0.3917999848266304 0.19025549306939488 0.3917999848266304 0.8097445069306051 -0.3917999848266304
7.7275E8 0.7761522275529529 -0.4160426522302983 0.22384777244704718 0.4160426522302983 0.22384777244704718 0.4160426522302983 0.7761522275529529 -0.4160426522302983
8.475E8 0.7421289536364483 -0.436607946203799 0.25787104636355174 0.436607946203799 0.25787104636355174 0.436607946203799 0.7421289536364483 -0.436607946203799
9.2225E8 0.7081075392832112 -0.45370205479718917 0.29189246071678887 0.45370205479718917 0.29189246071678887 0.45370205479718917 0.7081075392832112 -0.45370205479718917
9.97E8 0.6744510254411491 -0.4675719748052899 0.32554897455885085 0.4675719748052899 0.32554897455885085 0.4675719748052899 0.6744510254411491 -0.4675719748052899
1.07175E9 0.641454340410915 -0.47848895476829395 0.3585456595890849 0.47848895476829395 0.3585456595890849 0.47848895476829395 0.641454340410915 -0.47848895476829395
1.1465E9 0.609348890967882 -0.48673471912717664 0.39065110903211797 0.48673471912717664 0.39065110903211797 0.48673471912717664 0.609348890967882 -0.48673471912717664
1.22125E9 0.578308950656913 -0.49259059438356967 0.4216910493430871 0.49259059438356967 0.4216910493430871 0.49259059438356967 0.578308950656913 -0.49259059438356967
1.296E9 0.5484589455024437 -0.4963293832821939 0.4515410544975563 0.4963293832821939 0.4515410544975563 0.4963293832821939 0.5484589455024437 -0.4963293832821939
1.37075E9 0.5198809540062145 -0.4982096685498771 0.48011904599378574 0.4982096685498771 0.48011904599378574 0.4982096685498771 0.5198809540062145 -0.4982096685498771
1.4455E9 0.49262194350131455 -0.4984721513880957 0.5073780564986854 0.4984721513880957 0.5073780564986854 0.4984721513880957 0.49262194350131455 -0.4984721513880957
1.52025E9 0.4667004399509871 -0.49733761645684826 0.5332995600490128 0.49733761645684826 0.5332995600490128 0.49733761645684826 0.4667004399509871 -0.49733761645684826
1.595E9 0.4421124661090606 -0.49500614148540956 0.5578875338909394 0.49500614148540956 0.5578875338909394 0.49500614148540956 0.4421124661090606 -0.49500614148540956
1.66975E9 0.4188366841525716 -0.49165721756871983 0.5811633158474283 0.49165721756871983 0.5811633158474283 0.49165721756871983 0.4188366841525716 -0.49165721756871983
1.7445E9 0.3968387481143862 -0.48745050251910543 0.6031612518856139 0.48745050251910543 0.6031612518856139 0.48745050251910543 0.3968387481143862 -0.48745050251910543
1.81925E9 0.3760749149672476 -0.4825269858330277 0.6239250850327525 0.4825269858330277 0.6239250850327525 0.4825269858330277 0.3760749149672476 -0.4825269858330277
1.894E9 0.3564949874054936 -0.47701039502328696 0.6435050125945065 0.47701039502328696 0.6435050125945065 0.47701039502328696 0.3564949874054936 -0.47701039502328696
1.96875E9 0.33804467186733234 -0.4710087169643277 0.6619553281326677 0.4710087169643277 0.6619553281326677 0.4710087169643277 0.33804467186733234 -0.4710087169643277
2.0435E9 0.3206674367110267 -0.4646157438903961 0.6793325632889735 0.4646157438903961 0.6793325632889735 0.4646157438903961 0.3206674367110267 -0.4646157438903961
2.11825E9 0.30430595118556014 -0.4579125821525559 0.69569404881444 0.4579125821525559 0.69569404881444 0.4579125821525559 0.30430595118556014 -0.4579125821525559
2.193E9 0.28890317843506375 -0.45096908366540395 0.7110968215649364 0.45096908366540395 0.7110968215649364 0.45096908366540395 0.28890317843506375 -0.45096908366540395
2.26775E9 0.2744031869718258 -0.44384517623158243 0.7255968130281742 0.44384517623158243 0.7255968130281742 0.44384517623158243 0.2744031869718258 -0.44384517623158243
2.3425E9 0.2607517359657561 -0.4365920806972479 0.7392482640342439 0.4365920806972479 0.7392482640342439 0.4365920806972479 0.2607517359657561 -0.4365920806972479
2.41725E9 0.24789668100853499 -0.4292534111414308 0.752103318991465 0.4292534111414308 0.752103318991465 0.4292534111414308 0.24789668100853499 -0.4292534111414308
2.492E9 0.2357882390905792 -0.4218661598721837 0.7642117609094208 0.4218661598721837 0.7642117609094208 0.4218661598721837 0.2357882390905792 -0.4218661598721837
2.56675E9 0.22437914454551625 -0.4144615725775652 0.7756208554544838 0.4144615725775652 0.7756208554544838 0.4144615725775652 0.22437914454551625 -0.4144615725775652
2.6415E9 0.21362472170691477 -0.40706592110389417 0.7863752782930852 0.40706592110389417 0.7863752782930852 0.40706592110389417 0.21362472170691477 -0.40706592110389417
2.71625E9 0.20348289494495747 -0.3997011824284925 0.7965171050550425 0.3997011824284925 0.7965171050550425 0.3997011824284925 0.20348289494495747 -0.3997011824284925
2.791E9 0.19391415252425773 -0.39238563277831306 0.8060858474757423 0.39238563277831306 0.8060858474757423 0.39238563277831306 0.19391415252425773 -0.39238563277831306
2.86575E9 0.18488147724738618 -0.38513436575626286 0.8151185227526137 0.38513436575626286 0.8151185227526137 0.38513436575626286 0.18488147724738618 -0.38513436575626286
2.9405E9 0.17635025401732404 -0.3779597429462867 0.823649745982676 0.3779597429462867 0.823649745982676 0.3779597429462867 0.17635025401732404 -0.3779597429462867
3.01525E9 0.16828816216594458 -0.37087178489963196 0.8317118378340554 0.37087178489963196 0.8317118378340554 0.37087178489963196 0.16828816216594458 -0.37087178489963196
3.09E9 0.1606650585637474 -0.3638785097444018 0.8393349414362525 0.3638785097444018 0.8393349414362525 0.3638785097444018 0.1606650585637474 -0.3638785097444018
3.16475E9 0.15345285606835385 -0.356986225967245 0.846547143931646 0.356986225967245 0.846547143931646 0.356986225967245 0.15345285606835385 -0.356986225967245
3.2395E9 0.14662540071689892 -0.35019978522857814 0.8533745992831011 0.35019978522857814 0.8533745992831011 0.35019978522857814 0.14662540071689892 -0.35019978522857814
3.31425E9 0.14015835016236014 -0.34352280041546696 0.8598416498376398 0.34352280041546696 0.8598416498376398 0.34352280041546696 0.14015835016236014 -0.34352280041546696
3.389E9 0.13402905514764557 -0.33695783352345854 0.8659709448523544 0.33695783352345854 0.8659709448523544 0.33695783352345854 0.13402905514764557 -0.33695783352345854
3.46375E9 0.12821644526411813 -0.3305065573975571 0.8717835547358818 0.3305065573975571 0.8717835547358818 0.3305065573975571 0.12821644526411813 -0.3305065573975571
3.5385E9 0.12270091982057622 -0.3241698948556878 0.8772990801794238 0.3241698948556878 0.8772990801794238 0.3241698948556878 0.12270091982057622 -0.3241698948556878
3.61325E9 0.11746424432819667 -0.3179481382649132 0.8825357556718032 0.3179481382649132 0.8825357556718032 0.3179481382649132 0.11746424432819667 -0.3179481382649132
3.688E9 0.11248945286527967 -0.311841052238878 0.8875105471347204 0.311841052238878 0.8875105471347204 0.311841052238878 0.11248945286527967 -0.311841052238878
3.76275E9 0.10776075640578782 -0.3058479617709305 0.8922392435942124 0.3058479617709305 0.8922392435942124 0.3058479617709305 0.10776075640578782 -0.3058479617709305
3.8375E9 0.10326345706402613 -0.2999678278069993 0.896736542935974 0.2999678278069993 0.896736542935974 0.2999678278069993 0.10326345706402613 -0.2999678278069993
3.91225E9 0.09898386811354748 -0.2941993119912839 0.9010161318864526 0.2941993119912839 0.9010161318864526 0.2941993119912839 0.09898386811354748 -0.2941993119912839
3.987E9 0.09490923957293262 -0.2885408320819438 0.9050907604270673 0.2885408320819438 0.9050907604270673 0.2885408320819438 0.09490923957293262 -0.2885408320819438
4.06175E9 0.09102768910772117 -0.28299060932919906 0.9089723108922788 0.28299060932919906 0.9089723108922788 0.28299060932919906 0.09102768910772117 -0.28299060932919906
4.1365E9 0.08732813797114589 -0.27754670893084304 0.9126718620288542 0.27754670893084304 0.9126718620288542 0.27754670893084304 0.08732813797114589 -0.27754670893084304
4.21125E9 0.08380025169229745 -0.2722070745267278 0.9161997483077026 0.2722070745267278 0.9161997483077026 0.2722070745267278 0.08380025169229745 -0.2722070745267278
4.286E9 0.08043438521566103 -0.26696955756121754 0.919565614784339 0.26696955756121754 0.919565614784339 0.26696955756121754 0.08043438521566103 -0.26696955756121754
4.36075E9 0.07722153219811115 -0.2618319422282061 0.9227784678018889 0.2618319422282061 0.9227784678018889 0.2618319422282061 0.07722153219811115 -0.2618319422282061
4.4355E9 0.07415327817646929 -0.25679196661463144 0.9258467218235307 0.25679196661463144 0.9258467218235307 0.25679196661463144 0.07415327817646929 -0.25679196661463144
4.51025E9 0.07122175732912886 -0.25184734057337516 0.9287782426708712 0.25184734057337516 0.9287782426708712 0.25184734057337516 0.07122175732912886 -0.25184734057337516
4.585E9 0.06841961256788463 -0.2469957607831537 0.9315803874321152 0.2469957607831537 0.9315803874321152 0.2469957607831537 0.06841961256788463 -0.2469957607831537
4.65975E9 0.06573995871010789 -0.24223492338988145 0.9342600412898919 0.24223492338988145 0.9342600412898919 0.24223492338988145 0.06573995871010789 -0.24223492338988145
4.7345E9 0.0631763484961281 -0.23756253456959547 0.9368236515038719 0.23756253456959547 0.9368236515038719 0.23756253456959547 0.0631763484961281 -0.23756253456959547
4.80925E9 0.060722741231642376 -0.23297631930619025 0.9392772587683577 0.23297631930619025 0.9392772587683577 0.23297631930619025 0.060722741231642376 -0.23297631930619025
4.884E9 0.05837347384981823 -0.2284740286368474 0.9416265261501817 0.2284740286368474 0.9416265261501817 0.2284740286368474 0.05837347384981823 -0.2284740286368474
4.95875E9 0.05612323420223727 -0.2240534455832666 0.9438767657977627 0.2240534455832666 0.9438767657977627 0.2240534455832666 0.05612323420223727 -0.2240534455832666
5.0335E9 0.053967036401772146 -0.2197123899568325 0.9460329635982276 0.2197123899568325 0.9460329635982276 0.2197123899568325 0.053967036401772146 -0.2197123899568325
5.10825E9 0.05190019805378528 -0.21544872220001432 0.9480998019462147 0.21544872220001432 0.9480998019462147 0.21544872220001432 0.05190019805378528 -0.21544872220001432
5.183E9 0.0499183192246117 -0.21126034640400804 0.9500816807753883 0.21126034640400804 0.9500816807753883 0.21126034640400804 0.0499183192246117 -0.21126034640400804
5.25775E9 0.04801726300810968 -0.20714521262341914 0.9519827369918903 0.20714521262341914 0.9519827369918903 0.20714521262341914 0.04801726300810968 -0.20714521262341914
5.3325E9 0.04619313756211502 -0.20310131859219024 0.9538068624378849 0.20310131859219024 0.9538068624378849 0.20310131859219024 0.04619313756211502 -0.20310131859219024
5.40725E9 0.04444227949692897 -0.19912671093067089 0.955557720503071 0.19912671093067089 0.955557720503071 0.19912671093067089 0.04444227949692897 -0.19912671093067089
5.482E9 0.0427612385075216 -0.1952194859213606 0.9572387614924786 0.1952194859213606 0.9572387614924786 0.1952194859213606 0.0427612385075216 -0.1952194859213606
5.55675E9 0.04114676314997366 -0.1913777899201836 0.9588532368500263 0.1913777899201836 0.9588532368500263 0.1913777899201836 0.04114676314997366 -0.1913777899201836
5.6315E9 0.039595787670842236 -0.18759981946092938 0.9604042123291577 0.18759981946092938 0.9604042123291577 0.18759981946092938 0.039595787670842236 -0.18759981946092938
5.70625E9 0.038105419805656245 -0.1838838211025175 0.9618945801943437 0.1838838211025175 0.9618945801943437 0.1838838211025175 0.038105419805656245 -0.1838838211025175
5.781E9 0.03667292946966974 -0.18022809106185966 0.9633270705303302 0.18022809106185966 0.9633270705303302 0.18022809106185966 0.03667292946966974 -0.18022809106185966
5.85575E9 0.03529573827035812 -0.1766309746691267 0.9647042617296417 0.1766309746691267 0.9647042617296417 0.1766309746691267 0.03529573827035812 -0.1766309746691267
5.9305E9 0.03397140977697916 -0.17309086567707682 0.9660285902230207 0.17309086567707682 0.9660285902230207 0.17309086567707682 0.03397140977697916 -0.17309086567707682
6.00525E9 0.03269764048787343 -0.16960620545164282 0.9673023595121267 0.16960620545164282 0.9673023595121267 0.16960620545164282 0.03269764048787343 -0.16960620545164282
6.08E9 0.03147225144108253 -0.16617548206711594 0.9685277485589173 0.16617548206711594 0.9685277485589173 0.16617548206711594 0.03147225144108253 -0.16617548206711594
6.15475E9 0.030293180418358313 -0.16279722932593158 0.9697068195816415 0.16279722932593158 0.9697068195816415 0.16279722932593158 0.030293180418358313 -0.16279722932593158
6.2295E9 0.02915847469674631 -0.15947002572016547 0.9708415253032537 0.15947002572016547 0.9708415253032537 0.15947002572016547 0.02915847469674631 -0.15947002572016547
6.30425E9 0.02806628430569518 -0.15619249334936117 0.9719337156943048 0.15619249334936117 0.9719337156943048 0.15619249334936117 0.02806628430569518 -0.15619249334936117
6.379E9 0.0270148557510861 -0.15296329680713777 0.9729851442489139 0.15296329680713777 0.9729851442489139 0.15296329680713777 0.0270148557510861 -0.15296329680713777
6.45375E9 0.026002526170730265 -0.14978114204716364 0.9739974738292698 0.14978114204716364 0.9739974738292698 0.14978114204716364 0.026002526170730265 -0.14978114204716364
6.5285E9 0.02502771788876598 -0.14664477523746086 0.974972282111234 0.14664477523746086 0.974972282111234 0.14664477523746086 0.02502771788876598 -0.14664477523746086
6.60325E9 0.02408893333902679 -0.1435529816106107 0.9759110666609733 0.1435529816106107 0.9759110666609733 0.1435529816106107 0.02408893333902679 -0.1435529816106107
6.678E9 0.023184750329866083 -0.14050458431621884 0.976815249670134 0.14050458431621884 0.976815249670134 0.14050458431621884 0.023184750329866083 -0.14050458431621884
6.75275E9 0.022313817625134617 -0.13749844328095953 0.9776861823748653 0.13749844328095953 0.9776861823748653 0.13749844328095953 0.022313817625134617 -0.13749844328095953
6.8275E9 0.02147485081802983 -0.13453345408061468 0.9785251491819702 0.13453345408061468 0.9785251491819702 0.13453345408061468 0.02147485081802983 -0.13453345408061468
6.90225E9 0.02066662847638844 -0.13160854682775078 0.9793333715236118 0.13160854682775078 0.9793333715236118 0.13160854682775078 0.02066662847638844 -0.13160854682775078
6.977E9 0.019887988539689774 -0.1287226850780055 0.9801120114603101 0.1287226850780055 0.9801120114603101 0.1287226850780055 0.019887988539689774 -0.1287226850780055
7.05175E9 0.019137824949591146 -0.12587486475738227 0.9808621750504088 0.12587486475738227 0.9808621750504088 0.12587486475738227 0.019137824949591146 -0.12587486475738227
7.1265E9 0.01841508449724044 -0.12306411311245635 0.9815849155027597 0.12306411311245635 0.9815849155027597 0.12306411311245635 0.01841508449724044 -0.12306411311245635
7.20125E9 0.01771876387191611 -0.12028948768497241 0.9822812361280838 0.12028948768497241 0.9822812361280838 0.12028948768497241 0.01771876387191611 -0.12028948768497241
7.276E9 0.017047906896741613 -0.11755007531195166 0.9829520931032585 0.11755007531195166 0.9829520931032585 0.11755007531195166 0.017047906896741613 -0.11755007531195166
7.35075E9 0.016401601938318657 -0.11484499115211406 0.9835983980616814 0.11484499115211406 0.9835983980616814 0.11484499115211406 0.016401601938318657 -0.11484499115211406
7.4255E9 0.01577897947813173 -0.11217337773916196 0.9842210205218683 0.11217337773916196 0.9842210205218683 0.11217337773916196 0.01577897947813173 -0.11217337773916196
7.50025E9 0.015179209834500386 -0.10953440406224221 0.9848207901654998 0.10953440406224221 0.9848207901654998 0.10953440406224221 0.015179209834500386 -0.10953440406224221
7.575E9 0.01460150102470532 -0.10692726467371741 0.9853984989752944 0.10692726467371741 0.9853984989752944 0.10692726467371741 0.01460150102470532 -0.10692726467371741
7.64975E9 0.01404509675769516 -0.10435117882421752 0.9859549032423048 0.10435117882421752 0.9859549032423048 0.10435117882421752 0.01404509675769516 -0.10435117882421752
7.7245E9 0.013509274548497343 -0.10180538962480697 0.9864907254515026 0.10180538962480697 0.9864907254515026 0.10180538962480697 0.013509274548497343 -0.10180538962480697
7.79925E9 0.01299334394611659 -0.0992891632359926 0.9870066560538833 0.0992891632359926 0.9870066560538833 0.0992891632359926 0.01299334394611659 -0.0992891632359926
7.874E9 0.012496644867311425 -0.09680178808320576 0.9875033551326888 0.09680178808320576 0.9875033551326888 0.09680178808320576 0.012496644867311425 -0.09680178808320576
7.94875E9 0.012018546029197403 -0.09434257409831542 0.9879814539708024 0.09434257409831542 0.9879814539708024 0.09434257409831542 0.012018546029197403 -0.09434257409831542
8.0235E9 0.011558443474140458 -0.091910851986669 0.9884415565258594 0.091910851986669 0.9884415565258594 0.091910851986669 0.011558443474140458 -0.091910851986669
8.09825E9 0.011115759180877595 -0.08950597251910933 0.9888842408191224 0.08950597251910933 0.9888842408191224 0.08950597251910933 0.011115759180877595 -0.08950597251910933
8.173E9 0.01068993975623869 -0.08712730584837651 0.9893100602437614 0.08712730584837651 0.9893100602437614 0.08712730584837651 0.01068993975623869 -0.08712730584837651
8.24775E9 0.010280455202246401 -0.084774240849277 0.9897195447977537 0.084774240849277 0.9897195447977537 0.084774240849277 0.010280455202246401 -0.084774240849277
8.3225E9 0.009886797753742496 -0.08244618448197964 0.9901132022462574 0.08244618448197964 0.9901132022462574 0.08244618448197964 0.009886797753742496 -0.08244618448197964
8.39725E9 0.009508480782031828 -0.08014256117778357 0.9904915192179682 0.08014256117778357 0.9904915192179682 0.08014256117778357 0.009508480782031828 -0.08014256117778357
8.472E9 0.009145037760352514 -0.0778628122466972 0.9908549622396474 0.0778628122466972 0.9908549622396474 0.0778628122466972 0.009145037760352514 -0.0778628122466972
8.54675E9 0.008796021287272573 -0.0756063953061592 0.9912039787127274 0.0756063953061592 0.9912039787127274 0.0756063953061592 0.008796021287272573 -0.0756063953061592
8.6215E9 0.008461002164384878 -0.07337278373023759 0.9915389978356149 0.07337278373023759 0.9915389978356149 0.07337278373023759 0.008461002164384878 -0.07337278373023759
8.69625E9 0.008139568524921346 -0.07116146611864164 0.9918604314750786 0.07116146611864164 0.9918604314750786 0.07116146611864164 0.008139568524921346 -0.07116146611864164
8.771E9 0.007831325010139712 -0.06897194578489287 0.9921686749898602 0.06897194578489287 0.9921686749898602 0.06897194578489287 0.007831325010139712 -0.06897194578489287
