!Murata Part Number: GJM0225C1E9R7BB01
!These Parameters are Measured in Series Mode Connection
!       o--ll--o
!Port1            Port2
!       o------o
!Operation Temp=25[degC], DC Bias Voltage=0[V]
!Freq. Start=100[MHz] Stop=30[GHz], 401[Steps]
!Data Generated on Feb 1, 2023
# Hz S RI R 50
!Freq.(Hz) S11(Real) S11(Imag) S21(Real) S21(Imag) S12(Real) S12(Imag) S22(Real) S22(Imag)
1.0E8 0.7287898087690242 -0.4443243015052606 0.2712101912309757 0.4443243015052606 0.2712101912309757 0.4443243015052606 0.7287898087690242 -0.4443243015052606
1.7475E8 0.46756718823882604 -0.4984889054443017 0.5324328117611742 0.4984889054443017 0.5324328117611742 0.4984889054443017 0.46756718823882604 -0.4984889054443017
2.495E8 0.3004330722654901 -0.457784261785978 0.6995669277345098 0.457784261785978 0.6995669277345098 0.457784261785978 0.3004330722654901 -0.457784261785978
3.2425E8 0.20205072509822444 -0.40065572568858854 0.7979492749017756 0.40065572568858854 0.7979492749017756 0.40065572568858854 0.20205072509822444 -0.40065572568858854
3.99E8 0.14262868824797095 -0.3485976167239417 0.8573713117520291 0.3485976167239417 0.8573713117520291 0.3485976167239417 0.14262868824797095 -0.3485976167239417
4.7375E8 0.10496240491512158 -0.3051752498786231 0.8950375950848785 0.3051752498786231 0.8950375950848785 0.3051752498786231 0.10496240491512158 -0.3051752498786231
5.485E8 0.07992003117507286 -0.26959336506106957 0.920079968824927 0.26959336506106957 0.920079968824927 0.26959336506106957 0.07992003117507286 -0.26959336506106957
6.2325E8 0.06256001833798239 -0.24033404560746494 0.9374399816620177 0.24033404560746494 0.9374399816620177 0.24033404560746494 0.06256001833798239 -0.24033404560746494
6.98E8 0.05009136155862568 -0.21602355131465897 0.9499086384413742 0.21602355131465897 0.9499086384413742 0.21602355131465897 0.05009136155862568 -0.21602355131465897
7.7275E8 0.0408642551767095 -0.19557707001320876 0.9591357448232906 0.19557707001320876 0.9591357448232906 0.19557707001320876 0.0408642551767095 -0.19557707001320876
8.475E8 0.03386126181112182 -0.17816988626991917 0.9661387381888782 0.17816988626991917 0.9661387381888782 0.17816988626991917 0.03386126181112182 -0.17816988626991917
9.2225E8 0.0284307462938008 -0.16317943786197855 0.9715692537061995 0.16317943786197855 0.9715692537061995 0.16317943786197855 0.0284307462938008 -0.16317943786197855
9.97E8 0.02414123516135544 -0.15013352464838284 0.9758587648386445 0.15013352464838284 0.9758587648386445 0.15013352464838284 0.02414123516135544 -0.15013352464838284
1.07175E9 0.020698567106739514 -0.13867057277953543 0.9793014328932603 0.13867057277953543 0.9793014328932603 0.13867057277953543 0.020698567106739514 -0.13867057277953543
1.1465E9 0.017896980778660337 -0.12851058408553273 0.9821030192213397 0.12851058408553273 0.9821030192213397 0.12851058408553273 0.017896980778660337 -0.12851058408553273
1.22125E9 0.01558925287494489 -0.11943419344816449 0.984410747125055 0.11943419344816449 0.984410747125055 0.11943419344816449 0.01558925287494489 -0.11943419344816449
1.296E9 0.01366790862997757 -0.11126757084296698 0.9863320913700223 0.11126757084296698 0.9863320913700223 0.11126757084296698 0.01366790862997757 -0.11126757084296698
1.37075E9 0.012053074698236995 -0.10387146726950432 0.9879469253017631 0.10387146726950432 0.9879469253017631 0.10387146726950432 0.012053074698236995 -0.10387146726950432
1.4455E9 0.01068443271568465 -0.09713319303689351 0.9893155672843155 0.09713319303689351 0.9893155672843155 0.09713319303689351 0.01068443271568465 -0.09713319303689351
1.52025E9 0.009515770964911591 -0.09096068130785269 0.9904842290350884 0.09096068130785269 0.9904842290350884 0.09096068130785269 0.009515770964911591 -0.09096068130785269
1.595E9 0.008511221330818818 -0.08527804676230583 0.9914887786691814 0.08527804676230583 0.9914887786691814 0.08527804676230583 0.008511221330818818 -0.08527804676230583
1.66975E9 0.0076426130595461895 -0.08002222678128093 0.9923573869404541 0.08002222678128093 0.9923573869404541 0.08002222678128093 0.0076426130595461895 -0.08002222678128093
1.7445E9 0.006887581150034282 -0.07514041459606913 0.9931124188499658 0.07514041459606913 0.9931124188499658 0.07514041459606913 0.006887581150034282 -0.07514041459606913
1.81925E9 0.006228193808357448 -0.07058807794179817 0.9937718061916425 0.07058807794179817 0.9937718061916425 0.07058807794179817 0.006228193808357448 -0.07058807794179817
1.894E9 0.005649942797164754 -0.0663274150613414 0.9943500572028354 0.0663274150613414 0.9943500572028354 0.0663274150613414 0.005649942797164754 -0.0663274150613414
1.96875E9 0.005140991324378792 -0.06232614066704478 0.9948590086756209 0.06232614066704478 0.9948590086756209 0.06232614066704478 0.005140991324378792 -0.06232614066704478
2.0435E9 0.004691607239972688 -0.05855652322820656 0.9953083927600274 0.05855652322820656 0.9953083927600274 0.05855652322820656 0.004691607239972688 -0.05855652322820656
2.11825E9 0.0042937312771581795 -0.054994615441941584 0.9957062687228417 0.054994615441941584 0.9957062687228417 0.054994615441941584 0.0042937312771581795 -0.054994615441941584
2.193E9 0.003940644875677913 -0.05161963448528936 0.9960593551243223 0.05161963448528936 0.9960593551243223 0.05161963448528936 0.003940644875677913 -0.05161963448528936
2.26775E9 0.003626712245745764 -0.04841345935291478 0.9963732877542544 0.04841345935291478 0.9963732877542544 0.04841345935291478 0.003626712245745764 -0.04841345935291478
2.3425E9 0.0033471783469973533 -0.04536022043454779 0.9966528216530028 0.04536022043454779 0.9966528216530028 0.04536022043454779 0.0033471783469973533 -0.04536022043454779
2.41725E9 0.003098009382643566 -0.042445962293980205 0.9969019906173566 0.042445962293980205 0.9969019906173566 0.042445962293980205 0.003098009382643566 -0.042445962293980205
2.492E9 0.002875765908892464 -0.03965836494581914 0.9971242340911076 0.03965836494581914 0.9971242340911076 0.03965836494581914 0.002875765908892464 -0.03965836494581914
2.56675E9 0.0026775011742657616 -0.036986512188127256 0.9973224988257343 0.036986512188127256 0.9973224988257343 0.036986512188127256 0.0026775011742657616 -0.036986512188127256
2.6415E9 0.0025006791290323456 -0.03442069802357276 0.9974993208709677 0.03442069802357276 0.9974993208709677 0.03442069802357276 0.0025006791290323456 -0.03442069802357276
2.71625E9 0.002343107883433013 -0.03195226409320319 0.9976568921165668 0.03195226409320319 0.9976568921165668 0.03195226409320319 0.002343107883433013 -0.03195226409320319
2.791E9 0.00220288538375195 -0.029573462503345832 0.997797114616248 0.029573462503345832 0.997797114616248 0.029573462503345832 0.00220288538375195 -0.029573462503345832
2.86575E9 0.002078354814507876 -0.027277339555304106 0.9979216451854922 0.027277339555304106 0.9979216451854922 0.027277339555304106 0.002078354814507876 -0.027277339555304106
2.9405E9 0.0019680677913256226 -0.025057636768789148 0.9980319322086743 0.025057636768789148 0.9980319322086743 0.025057636768789148 0.0019680677913256226 -0.025057636768789148
3.01525E9 0.0018707538309290811 -0.022908706282166996 0.9981292461690711 0.022908706282166996 0.9981292461690711 0.022908706282166996 0.0018707538309290811 -0.022908706282166996
3.09E9 0.0017852949069977033 -0.020825438259482822 0.9982147050930025 0.020825438259482822 0.9982147050930025 0.020825438259482822 0.0017852949069977033 -0.020825438259482822
3.16475E9 0.0017107041485718134 -0.018803198368817598 0.9982892958514282 0.018803198368817598 0.9982892958514282 0.018803198368817598 0.0017107041485718134 -0.018803198368817598
3.2395E9 0.0016461079296947463 -0.01683777374379196 0.9983538920703051 0.01683777374379196 0.9983538920703051 0.01683777374379196 0.0016461079296947463 -0.01683777374379196
3.31425E9 0.0015907307485986289 -0.014925326118966556 0.9984092692514015 0.014925326118966556 0.9984092692514015 0.014925326118966556 0.0015907307485986289 -0.014925326118966556
3.389E9 0.001543882412029954 -0.013062351055066332 0.9984561175879699 0.013062351055066332 0.9984561175879699 0.013062351055066332 0.001543882412029954 -0.013062351055066332
3.46375E9 0.0015049471327813525 -0.011245642352611489 0.9984950528672186 0.011245642352611489 0.9984950528672186 0.011245642352611489 0.0015049471327813525 -0.011245642352611489
3.5385E9 0.001473374221796132 -0.009472260901383563 0.9985266257782041 0.009472260901383563 0.9985266257782041 0.009472260901383563 0.001473374221796132 -0.009472260901383563
3.61325E9 0.0014486701146187945 -0.0077395073349842865 0.9985513298853811 0.0077395073349842865 0.9985513298853811 0.0077395073349842865 0.0014486701146187945 -0.0077395073349842865
3.688E9 0.0014303915187356098 -0.0060448979598825845 0.9985696084812644 0.0060448979598825845 0.9985696084812644 0.0060448979598825845 0.0014303915187356098 -0.0060448979598825845
3.76275E9 0.001418139505981103 -0.004386143510989304 0.9985818604940186 0.004386143510989304 0.9985818604940186 0.004386143510989304 0.001418139505981103 -0.004386143510989304
3.8375E9 0.0014115544046032103 -0.002761130354270646 0.9985884455953968 0.002761130354270646 0.9985884455953968 0.002761130354270646 0.0014115544046032103 -0.002761130354270646
3.91225E9 0.0014103113702729317 -0.0011679038138528825 0.998589688629727 0.0011679038138528825 0.998589688629727 0.0011679038138528825 0.0014103113702729317 -0.0011679038138528825
3.987E9 0.0014141165354553448 3.9534665140336135E-4 0.9985858834645447 -3.9534665140336135E-4 0.9985858834645447 -3.9534665140336135E-4 0.0014141165354553448 3.9534665140336135E-4
4.06175E9 0.0014227036530371185 0.0019303006570796527 0.9985772963469631 -0.0019303006570796527 0.9985772963469631 -0.0019303006570796527 0.0014227036530371185 0.0019303006570796527
4.1365E9 0.0014358311636469352 0.003438518689900715 0.998564168836353 -0.003438518689900715 0.998564168836353 -0.003438518689900715 0.0014358311636469352 0.003438518689900715
4.21125E9 0.0014532796272748337 0.004921452665539801 0.998546720372725 -0.004921452665539801 0.998546720372725 -0.004921452665539801 0.0014532796272748337 0.004921452665539801
4.286E9 0.0014748494690435402 0.006380455397266156 0.9985251505309564 -0.006380455397266156 0.9985251505309564 -0.006380455397266156 0.0014748494690435402 0.006380455397266156
4.36075E9 0.0015003589966674242 0.00781678910495294 0.9984996410033325 -0.00781678910495294 0.9984996410033325 -0.00781678910495294 0.0015003589966674242 0.00781678910495294
4.4355E9 0.0015296426535393506 0.009231633076765465 0.9984703573464607 -0.009231633076765465 0.9984703573464607 -0.009231633076765465 0.0015296426535393506 0.009231633076765465
4.51025E9 0.0015625494767430776 0.010626090581182307 0.998437450523257 -0.010626090581182307 0.998437450523257 -0.010626090581182307 0.0015625494767430776 0.010626090581182307
4.585E9 0.0015989417337847636 0.012001195114458366 0.9984010582662153 -0.012001195114458366 0.9984010582662153 -0.012001195114458366 0.0015989417337847636 0.012001195114458366
4.65975E9 0.0016386937156225598 0.013357916057886427 0.9983613062843774 -0.013357916057886427 0.9983613062843774 -0.013357916057886427 0.0016386937156225598 0.013357916057886427
4.7345E9 0.001681690666770554 0.014697163809972458 0.9983183093332296 -0.014697163809972458 0.9983183093332296 -0.014697163809972458 0.001681690666770554 0.014697163809972458
4.80925E9 0.0017278278359626354 0.016019794450679484 0.9982721721640374 -0.016019794450679484 0.9982721721640374 -0.016019794450679484 0.0017278278359626354 0.016019794450679484
4.884E9 0.001777009633165156 0.017326613988023674 0.9982229903668347 -0.017326613988023674 0.9982229903668347 -0.017326613988023674 0.001777009633165156 0.017326613988023674
4.95875E9 0.0018291488806918212 0.01861838223136084 0.9981708511193081 -0.01861838223136084 0.9981708511193081 -0.01861838223136084 0.0018291488806918212 0.01861838223136084
5.0335E9 0.0018841661478558717 0.019895816330549203 0.9981158338521442 -0.019895816330549203 0.9981158338521442 -0.019895816330549203 0.0018841661478558717 0.019895816330549203
5.10825E9 0.001941989160039163 0.021159594015699668 0.9980580108399609 -0.021159594015699668 0.9980580108399609 -0.021159594015699668 0.001941989160039163 0.021159594015699668
5.183E9 0.0020025522743037007 0.022410356568332904 0.9979974477256963 -0.022410356568332904 0.9979974477256963 -0.022410356568332904 0.0020025522743037007 0.022410356568332904
5.25775E9 0.0020657960147504374 0.02364871155137264 0.9979342039852498 -0.02364871155137264 0.9979342039852498 -0.02364871155137264 0.0020657960147504374 0.02364871155137264
5.3325E9 0.0021316666617696195 0.02487523532244781 0.9978683333382304 -0.02487523532244781 0.9978683333382304 -0.02487523532244781 0.0021316666617696195 0.02487523532244781
5.40725E9 0.0022001158901493174 0.026090475352395007 0.9977998841098507 -0.026090475352395007 0.9977998841098507 -0.026090475352395007 0.0022001158901493174 0.026090475352395007
5.482E9 0.0022711004517332388 0.027294952368597906 0.9977288995482666 -0.027294952368597906 0.9977288995482666 -0.027294952368597906 0.0022711004517332388 0.027294952368597906
5.55675E9 0.0023445818989620334 0.0284891623408297 0.997655418101038 -0.0284891623408297 0.997655418101038 -0.0284891623408297 0.0023445818989620334 0.0284891623408297
5.6315E9 0.002420526346208204 0.02967357832554322 0.9975794736537917 -0.02967357832554322 0.9975794736537917 -0.02967357832554322 0.002420526346208204 0.02967357832554322
5.70625E9 0.002498904266336044 0.030848652183051536 0.997501095733664 -0.030848652183051536 0.997501095733664 -0.030848652183051536 0.002498904266336044 0.030848652183051536
5.781E9 0.0025796903203955074 0.032014816180731646 0.9974203096796047 -0.032014816180731646 0.9974203096796047 -0.032014816180731646 0.0025796903203955074 0.032014816180731646
5.85575E9 0.002662863218802778 0.03317248449424699 0.9973371367811971 -0.03317248449424699 0.9973371367811971 -0.03317248449424699 0.002662863218802778 0.03317248449424699
5.9305E9 0.002748405612779627 0.034322054617800656 0.9972515943872204 -0.034322054617800656 0.9972515943872204 -0.034322054617800656 0.002748405612779627 0.034322054617800656
6.00525E9 0.002836304015226864 0.03546390869358433 0.9971636959847734 -0.03546390869358433 0.9971636959847734 -0.03546390869358433 0.002836304015226864 0.03546390869358433
6.08E9 0.0029265487506030903 0.03659841476986872 0.9970734512493971 -0.03659841476986872 0.9970734512493971 -0.03659841476986872 0.0029265487506030903 0.03659841476986872
6.15475E9 0.0030191339337764475 0.03772592799657525 0.9969808660662235 -0.03772592799657525 0.9969808660662235 -0.03772592799657525 0.0030191339337764475 0.03772592799657525
6.2295E9 0.0031140574782230986 0.03884679176667132 0.996885942521777 -0.03884679176667132 0.996885942521777 -0.03884679176667132 0.0031140574782230986 0.03884679176667132
6.30425E9 0.003211321134370595 0.039961338811333666 0.9967886788656297 -0.039961338811333666 0.9967886788656297 -0.039961338811333666 0.003211321134370595 0.039961338811333666
6.379E9 0.0033109305593373647 0.041069892256525097 0.9966890694406626 -0.041069892256525097 0.9966890694406626 -0.041069892256525097 0.0033109305593373647 0.041069892256525097
6.45375E9 0.0034128954198118077 0.04217276664842175 0.9965871045801882 -0.04217276664842175 0.9965871045801882 -0.04217276664842175 0.0034128954198118077 0.04217276664842175
6.5285E9 0.0035172295303593825 0.043270268955016664 0.9964827704696406 -0.043270268955016664 0.9964827704696406 -0.043270268955016664 0.0035172295303593825 0.043270268955016664
6.60325E9 0.00362395103005729 0.04436269955120489 0.9963760489699427 -0.04436269955120489 0.9963760489699427 -0.04436269955120489 0.00362395103005729 0.04436269955120489
6.678E9 0.0037330826010522826 0.04545035319473523 0.9962669173989476 -0.04545035319473523 0.9962669173989476 -0.04545035319473523 0.0037330826010522826 0.04545035319473523
6.75275E9 0.003844651733437416 0.046533520000593034 0.9961553482665623 -0.046533520000593034 0.9961553482665623 -0.046533520000593034 0.003844651733437416 0.046533520000593034
6.8275E9 0.003958691041773858 0.047612486421667974 0.9960413089582261 -0.047612486421667974 0.9960413089582261 -0.047612486421667974 0.003958691041773858 0.047612486421667974
6.90225E9 0.004075238639674106 0.04868753624396891 0.9959247613603258 -0.04868753624396891 0.9959247613603258 -0.04868753624396891 0.004075238639674106 0.04868753624396891
6.977E9 0.004194338580150066 0.0497589516051843 0.99580566141985 -0.0497589516051843 0.99580566141985 -0.0497589516051843 0.004194338580150066 0.0497589516051843
7.05175E9 0.004316041370959597 0.050827014046070665 0.9956839586290405 -0.050827014046070665 0.9956839586290405 -0.050827014046070665 0.004316041370959597 0.050827014046070665
7.1265E9 0.004440404576014412 0.051892005604996745 0.9955595954239855 -0.051892005604996745 0.9955595954239855 -0.051892005604996745 0.004440404576014412 0.051892005604996745
7.20125E9 0.004567493516111404 0.05295420996700077 0.9954325064838886 -0.05295420996700077 0.9954325064838886 -0.05295420996700077 0.004567493516111404 0.05295420996700077
7.276E9 0.004697382084907098 0.05401391367996078 0.9953026179150931 -0.05401391367996078 0.9953026179150931 -0.05401391367996078 0.004697382084907098 0.05401391367996078
7.35075E9 0.004830153699281963 0.05507140745196009 0.9951698463007179 -0.05507140745196009 0.9951698463007179 -0.05507140745196009 0.004830153699281963 0.05507140745196009
7.4255E9 0.004965902407178453 0.056126987545690545 0.9950340975928215 -0.056126987545690545 0.9950340975928215 -0.056126987545690545 0.004965902407178453 0.056126987545690545
7.50025E9 0.0051047341808228815 0.057180957287815214 0.994895265819177 -0.057180957287815214 0.994895265819177 -0.057180957287815214 0.0051047341808228815 0.057180957287815214
7.575E9 0.005246768429184563 0.05823362871365706 0.9947532315708154 -0.05823362871365706 0.9947532315708154 -0.05823362871365706 0.005246768429184563 0.05823362871365706
7.64975E9 0.00539213977087929 0.059285324370443995 0.9946078602291208 -0.059285324370443995 0.9946078602291208 -0.059285324370443995 0.00539213977087929 0.059285324370443995
7.7245E9 0.005541000117866134 0.06033637930568009 0.9944589998821339 -0.06033637930568009 0.9944589998821339 -0.06033637930568009 0.005541000117866134 0.06033637930568009
7.79925E9 0.0056935211317065 0.06138714327108721 0.9943064788682934 -0.06138714327108721 0.9943064788682934 -0.06138714327108721 0.0056935211317065 0.06138714327108721
7.874E9 0.005849897128491824 0.06243798317703016 0.9941501028715083 -0.06243798317703016 0.9941501028715083 -0.06243798317703016 0.005849897128491824 0.06243798317703016
7.94875E9 0.006010348526637797 0.0634892858374467 0.993989651473362 -0.0634892858374467 0.993989651473362 -0.0634892858374467 0.006010348526637797 0.0634892858374467
8.0235E9 0.006175125954693018 0.0645414610510819 0.9938248740453071 -0.0645414610510819 0.9938248740453071 -0.0645414610510819 0.006175125954693018 0.0645414610510819
8.09825E9 0.006344515165580652 0.06559494507124697 0.9936554848344193 -0.06559494507124697 0.9936554848344193 -0.06559494507124697 0.006344515165580652 0.06559494507124697
8.173E9 0.006518842941235228 0.06665020452329572 0.9934811570587648 -0.06665020452329572 0.9934811570587648 -0.06665020452329572 0.006518842941235228 0.06665020452329572
8.24775E9 0.006698484220029158 0.06770774083628157 0.9933015157799708 -0.06770774083628157 0.9933015157799708 -0.06770774083628157 0.006698484220029158 0.06770774083628157
8.3225E9 0.0068838707422397855 0.06876809526235765 0.9931161292577604 -0.06876809526235765 0.9931161292577604 -0.06876809526235765 0.0068838707422397855 0.06876809526235765
8.39725E9 0.007075501590885462 0.06983185456352232 0.9929244984091146 -0.06983185456352232 0.9929244984091146 -0.06983185456352232 0.007075501590885462 0.06983185456352232
8.472E9 0.007273956113119333 0.07089965744877212 0.9927260438868805 -0.07089965744877212 0.9927260438868805 -0.07089965744877212 0.007273956113119333 0.07089965744877212
