!Murata Part Number: GJM0225C1E8R2BB01
!These Parameters are Measured in Series Mode Connection
!       o--ll--o
!Port1            Port2
!       o------o
!Operation Temp=25[degC], DC Bias Voltage=0[V]
!Freq. Start=100[MHz] Stop=30[GHz], 401[Steps]
!Data Generated on Feb 1, 2023
# Hz S RI R 50
!Freq.(Hz) S11(Real) S11(Imag) S21(Real) S21(Imag) S12(Real) S12(Imag) S22(Real) S22(Imag)
1.0E8 0.7899346843935693 -0.40712261102075015 0.2100653156064307 0.40712261102075015 0.2100653156064307 0.40712261102075015 0.7899346843935693 -0.40712261102075015
1.7475E8 0.5514026438222532 -0.4969439960927591 0.44859735617774676 0.4969439960927591 0.44859735617774676 0.4969439960927591 0.5514026438222532 -0.4969439960927591
2.495E8 0.3755046424614202 -0.48366970252317665 0.6244953575385799 0.48366970252317665 0.6244953575385799 0.48366970252317665 0.3755046424614202 -0.48366970252317665
3.2425E8 0.26181100992102735 -0.4388579476867322 0.7381889900789727 0.4388579476867322 0.7381889900789727 0.4388579476867322 0.26181100992102735 -0.4388579476867322
3.99E8 0.18904271276619886 -0.39059765934740526 0.8109572872338011 0.39059765934740526 0.8109572872338011 0.39059765934740526 0.18904271276619886 -0.39059765934740526
4.7375E8 0.14119185566051448 -0.34708771498228563 0.8588081443394855 0.34708771498228563 0.8588081443394855 0.34708771498228563 0.14119185566051448 -0.34708771498228563
5.485E8 0.10859674046504382 -0.3098092109680749 0.8914032595349562 0.3098092109680749 0.8914032595349562 0.3098092109680749 0.10859674046504382 -0.3098092109680749
6.2325E8 0.08561817956848122 -0.2782784992897456 0.9143818204315187 0.2782784992897456 0.9143818204315187 0.2782784992897456 0.08561817956848122 -0.2782784992897456
6.98E8 0.06891237519954539 -0.2515800703641116 0.9310876248004546 0.2515800703641116 0.9310876248004546 0.2515800703641116 0.06891237519954539 -0.2515800703641116
7.7275E8 0.056436161308585864 -0.2288255858017732 0.9435638386914141 0.2288255858017732 0.9435638386914141 0.2288255858017732 0.056436161308585864 -0.2288255858017732
8.475E8 0.04689946056638997 -0.2092674441286293 0.9531005394336102 0.2092674441286293 0.9531005394336102 0.2092674441286293 0.04689946056638997 -0.2092674441286293
9.2225E8 0.03946155505687108 -0.1923057436983048 0.9605384449431289 0.1923057436983048 0.9605384449431289 0.1923057436983048 0.03946155505687108 -0.1923057436983048
9.97E8 0.03355840059172924 -0.1774665710709571 0.9664415994082708 0.1774665710709571 0.9664415994082708 0.1774665710709571 0.03355840059172924 -0.1774665710709571
1.07175E9 0.02880150053497482 -0.16437640001343087 0.9711984994650251 0.16437640001343087 0.9711984994650251 0.16437640001343087 0.02880150053497482 -0.16437640001343087
1.1465E9 0.02491688470088616 -0.15273970767537845 0.9750831152991136 0.15273970767537845 0.9750831152991136 0.15273970767537845 0.02491688470088616 -0.15273970767537845
1.22125E9 0.02170722053723956 -0.14232113031362295 0.9782927794627603 0.14232113031362295 0.9782927794627603 0.14232113031362295 0.02170722053723956 -0.14232113031362295
1.296E9 0.019027653692131878 -0.13293173569517613 0.9809723463078682 0.13293173569517613 0.9809723463078682 0.13293173569517613 0.019027653692131878 -0.13293173569517613
1.37075E9 0.01677002196496301 -0.1244186000628486 0.9832299780350368 0.1244186000628486 0.9832299780350368 0.1244186000628486 0.01677002196496301 -0.1244186000628486
1.4455E9 0.014852307435190736 -0.11665691495757798 0.9851476925648092 0.11665691495757798 0.9851476925648092 0.11665691495757798 0.014852307435190736 -0.11665691495757798
1.52025E9 0.013211443315267956 -0.10954399391661226 0.986788556684732 0.10954399391661226 0.986788556684732 0.10954399391661226 0.013211443315267956 -0.10954399391661226
1.595E9 0.011798316248680595 -0.10299469702705612 0.9882016837513192 0.10299469702705612 0.9882016837513192 0.10299469702705612 0.011798316248680595 -0.10299469702705612
1.66975E9 0.010574234229499163 -0.09693791396097329 0.9894257657705009 0.09693791396097329 0.9894257657705009 0.09693791396097329 0.010574234229499163 -0.09693791396097329
1.7445E9 0.00950839098592089 -0.09131384026995196 0.990491609014079 0.09131384026995196 0.990491609014079 0.09131384026995196 0.00950839098592089 -0.09131384026995196
1.81925E9 0.008576019353809123 -0.08607185162525598 0.9914239806461911 0.08607185162525598 0.9914239806461911 0.08607185162525598 0.008576019353809123 -0.08607185162525598
1.894E9 0.007757028496881742 -0.08116883185642164 0.9922429715031184 0.08116883185642164 0.9922429715031184 0.08116883185642164 0.007757028496881742 -0.08116883185642164
1.96875E9 0.007034985821333666 -0.07656784791066674 0.9929650141786664 0.07656784791066674 0.9929650141786664 0.07656784791066674 0.007034985821333666 -0.07656784791066674
2.0435E9 0.006396347736991809 -0.07223709201293116 0.9936036522630084 0.07223709201293116 0.9936036522630084 0.07223709201293116 0.006396347736991809 -0.07223709201293116
2.11825E9 0.00582987229823436 -0.06814903116206654 0.9941701277017655 0.06814903116206654 0.9941701277017655 0.06814903116206654 0.00582987229823436 -0.06814903116206654
2.193E9 0.005326166312600534 -0.06427971868981909 0.9946738336873995 0.06427971868981909 0.9946738336873995 0.06427971868981909 0.005326166312600534 -0.06427971868981909
2.26775E9 0.004877332932660326 -0.060608233396955244 0.9951226670673395 0.060608233396955244 0.9951226670673395 0.060608233396955244 0.004877332932660326 -0.060608233396955244
2.3425E9 0.004476695089085808 -0.05711621980944294 0.9955233049109141 0.05711621980944294 0.9955233049109141 0.05711621980944294 0.004476695089085808 -0.05711621980944294
2.41725E9 0.004118576703306894 -0.05378750911384434 0.995881423296693 0.05378750911384434 0.995881423296693 0.05378750911384434 0.004118576703306894 -0.05378750911384434
2.492E9 0.0037981283068848765 -0.05060780487073749 0.9962018716931151 0.05060780487073749 0.9962018716931151 0.05060780487073749 0.0037981283068848765 -0.05060780487073749
2.56675E9 0.0035111870719295815 -0.04756442105413857 0.9964888129280706 0.04756442105413857 0.9964888129280706 0.04756442105413857 0.0035111870719295815 -0.04756442105413857
2.6415E9 0.0032541637142511947 -0.04464606260331287 0.9967458362857486 0.04464606260331287 0.9967458362857486 0.04464606260331287 0.0032541637142511947 -0.04464606260331287
2.71625E9 0.0030239505362002327 -0.04184264070498013 0.9969760494637999 0.04184264070498013 0.9969760494637999 0.04184264070498013 0.0030239505362002327 -0.04184264070498013
2.791E9 0.002817846214379177 -0.03914511659836326 0.9971821537856209 0.03914511659836326 0.9971821537856209 0.03914511659836326 0.002817846214379177 -0.03914511659836326
2.86575E9 0.0026334939379226087 -0.036545368923270115 0.9973665060620773 0.036545368923270115 0.9973665060620773 0.036545368923270115 0.0026334939379226087 -0.036545368923270115
2.9405E9 0.0024688302571194273 -0.03403608059452725 0.9975311697428805 0.03403608059452725 0.9975311697428805 0.03403608059452725 0.0024688302571194273 -0.03403608059452725
3.01525E9 0.0023220425748465695 -0.031610641946011084 0.9976779574251533 0.031610641946011084 0.9976779574251533 0.031610641946011084 0.0023220425748465695 -0.031610641946011084
3.09E9 0.0021915336513868575 -0.02926306749044818 0.9978084663486131 0.02926306749044818 0.9978084663486131 0.02926306749044818 0.0021915336513868575 -0.02926306749044818
3.16475E9 0.002075891830658187 -0.026987924122084273 0.9979241081693417 0.026987924122084273 0.9979241081693417 0.026987924122084273 0.002075891830658187 -0.026987924122084273
3.2395E9 0.001973865957514724 -0.024780268974906993 0.9980261340424852 0.024780268974906993 0.9980261340424852 0.024780268974906993 0.001973865957514724 -0.024780268974906993
3.31425E9 0.0018843441598958984 -0.0226355954597817 0.9981156558401039 0.0226355954597817 0.9981156558401039 0.0226355954597817 0.0018843441598958984 -0.0226355954597817
3.389E9 0.0018063358297884435 -0.020549786255364945 0.9981936641702117 0.020549786255364945 0.9981936641702117 0.020549786255364945 0.0018063358297884435 -0.020549786255364945
3.46375E9 0.0017389562633976262 -0.01851907223219625 0.9982610437366022 0.01851907223219625 0.9982610437366022 0.01851907223219625 0.0017389562633976262 -0.01851907223219625
3.5385E9 0.0016814135212518519 -0.016539996456436074 0.9983185864787482 0.016539996456436074 0.9983185864787482 0.016539996456436074 0.0016814135212518519 -0.016539996456436074
3.61325E9 0.001632997148992678 -0.01460938255675877 0.9983670028510074 0.01460938255675877 0.9983670028510074 0.01460938255675877 0.001632997148992678 -0.01460938255675877
3.688E9 0.0015930684637546536 -0.012724306850774338 0.9984069315362453 0.012724306850774338 0.9984069315362453 0.012724306850774338 0.0015930684637546536 -0.012724306850774338
3.76275E9 0.0015610521627107555 -0.010882073720673839 0.998438947837289 0.010882073720673839 0.998438947837289 0.010882073720673839 0.0015610521627107555 -0.010882073720673839
3.8375E9 0.0015364290521679344 -0.009080193805242009 0.9984635709478321 0.009080193805242009 0.9984635709478321 0.009080193805242009 0.0015364290521679344 -0.009080193805242009
3.91225E9 0.0015187297295746198 -0.007316364639892211 0.9984812702704253 0.007316364639892211 0.9984812702704253 0.007316364639892211 0.0015187297295746198 -0.007316364639892211
3.987E9 0.0015075290785313735 -0.005588453430302262 0.9984924709214685 0.005588453430302262 0.9984924709214685 0.005588453430302262 0.0015075290785313735 -0.005588453430302262
4.06175E9 0.001502441459618143 -0.0038944816904531204 0.9984975585403818 0.0038944816904531204 0.9984975585403818 0.0038944816904531204 0.001502441459618143 -0.0038944816904531204
4.1365E9 0.0015031164985436986 -0.0022326115139256223 0.9984968835014565 0.0022326115139256223 0.9984968835014565 0.0022326115139256223 0.0015031164985436986 -0.0022326115139256223
4.21125E9 0.0015092353885576416 -6.011332794289367E-4 0.9984907646114424 6.011332794289367E-4 0.9984907646114424 6.011332794289367E-4 0.0015092353885576416 -6.011332794289367E-4
4.286E9 0.0015205076368567758 0.0010015453812723086 0.9984794923631432 -0.0010015453812723086 0.9984794923631432 -0.0010015453812723086 0.0015205076368567758 0.0010015453812723086
4.36075E9 0.0015366681953555884 0.002576909501775967 0.9984633318046445 -0.002576909501775967 0.9984633318046445 -0.002576909501775967 0.0015366681953555884 0.002576909501775967
4.4355E9 0.0015574749250676372 0.004126345714886239 0.9984425250749325 -0.004126345714886239 0.9984425250749325 -0.004126345714886239 0.0015574749250676372 0.004126345714886239
4.51025E9 0.0015827063507764738 0.005651150314177164 0.9984172936492234 -0.005651150314177164 0.9984172936492234 -0.005651150314177164 0.0015827063507764738 0.005651150314177164
4.585E9 0.0016121596689164456 0.007152536541194286 0.9983878403310837 -0.007152536541194286 0.9983878403310837 -0.007152536541194286 0.0016121596689164456 0.007152536541194286
4.65975E9 0.0016456489768419092 0.008631641183877088 0.9983543510231578 -0.008631641183877088 0.9983543510231578 -0.008631641183877088 0.0016456489768419092 0.008631641183877088
4.7345E9 0.0016830036961062583 0.010089530561167738 0.9983169963038937 -0.010089530561167738 0.9983169963038937 -0.010089530561167738 0.0016830036961062583 0.010089530561167738
4.80925E9 0.0017240671661369197 0.011527205959615448 0.998275932833863 -0.011527205959615448 0.998275932833863 -0.011527205959615448 0.0017240671661369197 0.011527205959615448
4.884E9 0.001768695387891619 0.0129456085798681 0.9982313046121083 -0.0129456085798681 0.9982313046121083 -0.0129456085798681 0.001768695387891619 0.0129456085798681
4.95875E9 0.00181675589980704 0.014345624044083231 0.9981832441001932 -0.014345624044083231 0.9981832441001932 -0.014345624044083231 0.00181675589980704 0.014345624044083231
5.0335E9 0.0018681267706798235 0.015728086509332644 0.9981318732293202 -0.015728086509332644 0.9981318732293202 -0.015728086509332644 0.0018681267706798235 0.015728086509332644
5.10825E9 0.0019226956961145394 0.01709378242689021 0.9980773043038855 -0.01709378242689021 0.9980773043038855 -0.01709378242689021 0.0019226956961145394 0.01709378242689021
5.183E9 0.0019803591868861954 0.018443453982771384 0.9980196408131139 -0.018443453982771384 0.9980196408131139 -0.018443453982771384 0.0019803591868861954 0.018443453982771384
5.25775E9 0.0020410218390394352 0.019777802250942285 0.9979589781609605 -0.019777802250942285 0.9979589781609605 -0.019777802250942285 0.0020410218390394352 0.019777802250942285
5.3325E9 0.0021045956768191458 0.021097490087157996 0.997895404323181 -0.021097490087157996 0.997895404323181 -0.021097490087157996 0.0021045956768191458 0.021097490087157996
5.40725E9 0.00217099956062811 0.022403144788356436 0.997829000439372 -0.022403144788356436 0.997829000439372 -0.022403144788356436 0.00217099956062811 0.022403144788356436
5.482E9 0.002240158653162091 0.02369536053986931 0.9977598413468378 -0.02369536053986931 0.9977598413468378 -0.02369536053986931 0.002240158653162091 0.02369536053986931
5.55675E9 0.0023120039377027574 0.0249747006703666 0.9976879960622972 -0.0249747006703666 0.9976879960622972 -0.0249747006703666 0.0023120039377027574 0.0249747006703666
5.6315E9 0.0023864717832722667 0.02624169973238346 0.9976135282167277 -0.02624169973238346 0.9976135282167277 -0.02624169973238346 0.0023864717832722667 0.02624169973238346
5.70625E9 0.0024635035519855034 0.027496865424453454 0.9975364964480143 -0.027496865424453454 0.9975364964480143 -0.027496865424453454 0.0024635035519855034 0.027496865424453454
5.781E9 0.0025430452444898327 0.02874068036925965 0.9974569547555101 -0.02874068036925965 0.9974569547555101 -0.02874068036925965 0.0025430452444898327 0.02874068036925965
5.85575E9 0.0026250471798688604 0.02997360376078441 0.9973749528201311 -0.02997360376078441 0.9973749528201311 -0.02997360376078441 0.0026250471798688604 0.02997360376078441
5.9305E9 0.002709463706815802 0.031196072892176196 0.9972905362931842 -0.031196072892176196 0.9972905362931842 -0.031196072892176196 0.002709463706815802 0.031196072892176196
6.00525E9 0.002796252943261323 0.032408504574925716 0.9972037470567385 -0.032408504574925716 0.9972037470567385 -0.032408504574925716 0.002796252943261323 0.032408504574925716
6.08E9 0.002885376541977628 0.03361129645894884 0.9971146234580223 -0.03361129645894884 0.9971146234580223 -0.03361129645894884 0.002885376541977628 0.03361129645894884
6.15475E9 0.0029767994799807635 0.034804828262285634 0.9970232005200192 -0.034804828262285634 0.9970232005200192 -0.034804828262285634 0.0029767994799807635 0.034804828262285634
6.2295E9 0.0030704898698221323 0.035989462918338655 0.9969295101301779 -0.035989462918338655 0.9969295101301779 -0.035989462918338655 0.0030704898698221323 0.035989462918338655
6.30425E9 0.003166418791102525 0.03716554764787211 0.9968335812088974 -0.03716554764787211 0.9968335812088974 -0.03716554764787211 0.003166418791102525 0.03716554764787211
6.379E9 0.003264560140761684 0.03833341496237144 0.9967354398592384 -0.03833341496237144 0.9967354398592384 -0.03833341496237144 0.003264560140761684 0.03833341496237144
6.45375E9 0.003364890500897117 0.03949338360480888 0.9966351094991028 -0.03949338360480888 0.9966351094991028 -0.03949338360480888 0.003364890500897117 0.03949338360480888
6.5285E9 0.003467389023050922 0.04064575943337046 0.9965326109769491 -0.04064575943337046 0.9965326109769491 -0.04064575943337046 0.003467389023050922 0.04064575943337046
6.60325E9 0.0035720373280755387 0.04179083625326438 0.9964279626719243 -0.04179083625326438 0.9964279626719243 -0.04179083625326438 0.0035720373280755387 0.04179083625326438
6.678E9 0.003678819420851605 0.042928896601346744 0.9963211805791484 -0.042928896601346744 0.9963211805791484 -0.042928896601346744 0.003678819420851605 0.042928896601346744
6.75275E9 0.0037877216192858322 0.04406021248796304 0.996212278380714 -0.04406021248796304 0.996212278380714 -0.04406021248796304 0.0037877216192858322 0.04406021248796304
6.8275E9 0.0038987324971667503 0.04518504610010809 0.9961012675028332 -0.04518504610010809 0.9961012675028332 -0.04518504610010809 0.0038987324971667503 0.04518504610010809
6.90225E9 0.0040118428406034825 0.04630365046975065 0.9959881571593967 -0.04630365046975065 0.9959881571593967 -0.04630365046975065 0.0040118428406034825 0.04630365046975065
6.977E9 0.004127045617920277 0.04741627011094934 0.9958729543820798 -0.04741627011094934 0.9958729543820798 -0.04741627011094934 0.004127045617920277 0.04741627011094934
7.05175E9 0.0042443359630295 0.04852314162920104 0.9957556640369705 -0.04852314162920104 0.9957556640369705 -0.04852314162920104 0.0042443359630295 0.04852314162920104
7.1265E9 0.004363711172461177 0.04962449430630915 0.995636288827539 -0.04962449430630915 0.995636288827539 -0.04962449430630915 0.004363711172461177 0.04962449430630915
7.20125E9 0.004485170716390938 0.05072055066393943 0.9955148292836089 -0.05072055066393943 0.9955148292836089 -0.05072055066393943 0.004485170716390938 0.05072055066393943
7.276E9 0.0046087162641834005 0.05181152700893913 0.9953912837358165 -0.05181152700893913 0.9953912837358165 -0.05181152700893913 0.0046087162641834005 0.05181152700893913
7.35075E9 0.004734351725158578 0.05289763396343649 0.9952656482748413 -0.05289763396343649 0.9952656482748413 -0.05289763396343649 0.004734351725158578 0.05289763396343649
7.4255E9 0.004862083305498772 0.05397907698270779 0.9951379166945011 -0.05397907698270779 0.9951379166945011 -0.05397907698270779 0.004862083305498772 0.05397907698270779
7.50025E9 0.0049919195824479675 0.05505605686380404 0.9950080804175521 -0.05505605686380404 0.9950080804175521 -0.05505605686380404 0.0049919195824479675 0.05505605686380404
7.575E9 0.00512387159721989 0.05612877024796338 0.9948761284027801 -0.05612877024796338 0.9948761284027801 -0.05612877024796338 0.00512387159721989 0.05612877024796338
7.64975E9 0.00525795296833234 0.05719741011990734 0.9947420470316676 -0.05719741011990734 0.9947420470316676 -0.05719741011990734 0.00525795296833234 0.05719741011990734
7.7245E9 0.005394180027431733 0.05826216630722894 0.994605819972568 -0.05826216630722894 0.994605819972568 -0.05826216630722894 0.005394180027431733 0.05826216630722894
7.79925E9 0.005532571980072574 0.059323225983227874 0.9944674280199273 -0.059323225983227874 0.9944674280199273 -0.059323225983227874 0.005532571980072574 0.059323225983227874
7.874E9 0.0056731510943842005 0.06038077417674503 0.994326848905616 -0.06038077417674503 0.994326848905616 -0.06038077417674503 0.0056731510943842005 0.06038077417674503
7.94875E9 0.005815942921105223 0.06143499429279126 0.994184057078895 -0.06143499429279126 0.994184057078895 -0.06143499429279126 0.005815942921105223 0.06143499429279126
8.0235E9 0.005960976549112518 0.06248606864806732 0.9940390234508873 -0.06248606864806732 0.9940390234508873 -0.06248606864806732 0.005960976549112518 0.06248606864806732
8.09825E9 0.006108284901337708 0.06353417902583403 0.9938917150986624 -0.06353417902583403 0.9938917150986624 -0.06353417902583403 0.006108284901337708 0.06353417902583403
8.173E9 0.0062579050768761585 0.06457950725502869 0.9937420949231238 -0.06457950725502869 0.9937420949231238 -0.06457950725502869 0.0062579050768761585 0.06457950725502869
8.24775E9 0.006409878746184409 0.06562223581903903 0.9935901212538154 -0.06562223581903903 0.9935901212538154 -0.06562223581903903 0.006409878746184409 0.06562223581903903
8.3225E9 0.006564252607572333 0.0666625485001586 0.9934357473924275 -0.0666625485001586 0.9934357473924275 -0.0666625485001586 0.006564252607572333 0.0666625485001586
8.39725E9 0.006721078914776691 0.06770063106646211 0.9932789210852232 -0.06770063106646211 0.9932789210852232 -0.06770063106646211 0.006721078914776691 0.06770063106646211
8.472E9 0.00688041608731743 0.06873667200868315 0.9931195839126826 -0.06873667200868315 0.9931195839126826 -0.06873667200868315 0.00688041608731743 0.06873667200868315
