!Murata Part Number: GJM0225C1ER60WB01
!These Parameters are Measured in Series Mode Connection
!       o--ll--o
!Port1            Port2
!       o------o
!Operation Temp=25[degC], DC Bias Voltage=0[V]
!Freq. Start=100[MHz] Stop=30[GHz], 401[Steps]
!Data Generated on Feb 1, 2023
# Hz S RI R 50
!Freq.(Hz) S11(Real) S11(Imag) S21(Real) S21(Imag) S12(Real) S12(Imag) S22(Real) S22(Imag)
1.0E8 0.9985770173460402 -0.03764668305058748 0.0014229826539597552 0.03764668305058748 0.0014229826539597552 0.03764668305058748 0.9985770173460402 -0.03764668305058748
1.7475E8 0.9956666349423569 -0.06560019333111473 0.004333365057643092 0.06560019333111473 0.004333365057643092 0.06560019333111473 0.9956666349423569 -0.06560019333111473
2.495E8 0.9912042104826126 -0.09325071883624339 0.008795789517387211 0.09325071883624339 0.008795789517387211 0.09325071883624339 0.9912042104826126 -0.09325071883624339
3.2425E8 0.9852295032073278 -0.12047477009842418 0.014770496792672205 0.12047477009842418 0.014770496792672205 0.12047477009842418 0.9852295032073278 -0.12047477009842418
3.99E8 0.9777949505266054 -0.14715509716363553 0.022205049473394696 0.14715509716363553 0.022205049473394696 0.14715509716363553 0.9777949505266054 -0.14715509716363553
4.7375E8 0.9689645394249093 -0.173182237372309 0.031035460575090608 0.173182237372309 0.031035460575090608 0.173182237372309 0.9689645394249093 -0.173182237372309
5.485E8 0.958812468455526 -0.19845583448284648 0.04118753154447387 0.19845583448284648 0.04118753154447387 0.19845583448284648 0.958812468455526 -0.19845583448284648
6.2325E8 0.9474216509674422 -0.22288570041516445 0.052578349032557745 0.22288570041516445 0.052578349032557745 0.22288570041516445 0.9474216509674422 -0.22288570041516445
6.98E8 0.9348821134515554 -0.2463926028757337 0.06511788654844455 0.2463926028757337 0.06511788654844455 0.2463926028757337 0.9348821134515554 -0.2463926028757337
7.7275E8 0.9212893431796837 -0.2689087740716985 0.07871065682031629 0.2689087740716985 0.07871065682031629 0.2689087740716985 0.9212893431796837 -0.2689087740716985
8.475E8 0.9067426368797353 -0.2903781468910545 0.09325736312026464 0.2903781468910545 0.09325736312026464 0.2903781468910545 0.9067426368797353 -0.2903781468910545
9.2225E8 0.8913434974629448 -0.3107563347132346 0.10865650253705522 0.3107563347132346 0.10865650253705522 0.3107563347132346 0.8913434974629448 -0.3107563347132346
9.97E8 0.8751941193339952 -0.3300103789856559 0.12480588066600483 0.3300103789856559 0.12480588066600483 0.3300103789856559 0.8751941193339952 -0.3300103789856559
1.07175E9 0.8583959951698105 -0.3481182946089117 0.14160400483018953 0.3481182946089117 0.14160400483018953 0.3481182946089117 0.8583959951698105 -0.3481182946089117
1.1465E9 0.8410486688443303 -0.36506844694894003 0.15895133115566967 0.36506844694894003 0.15895133115566967 0.36506844694894003 0.8410486688443303 -0.36506844694894003
1.22125E9 0.8232486509506629 -0.3808587960290704 0.17675134904933706 0.3808587960290704 0.17675134904933706 0.3808587960290704 0.8232486509506629 -0.3808587960290704
1.296E9 0.8050885055880602 -0.3954960433627791 0.1949114944119398 0.3954960433627791 0.1949114944119398 0.3954960433627791 0.8050885055880602 -0.3954960433627791
1.37075E9 0.7866561100909224 -0.40899471526843306 0.21334388990907757 0.40899471526843306 0.21334388990907757 0.40899471526843306 0.7866561100909224 -0.40899471526843306
1.4455E9 0.7680340834175211 -0.4213762137048377 0.231965916582479 0.4213762137048377 0.231965916582479 0.4213762137048377 0.7680340834175211 -0.4213762137048377
1.52025E9 0.7492993741143191 -0.4326678620358013 0.2507006258856809 0.4326678620358013 0.2507006258856809 0.4326678620358013 0.7492993741143191 -0.4326678620358013
1.595E9 0.7305229951580057 -0.4429019690096154 0.2694770048419943 0.4429019690096154 0.2694770048419943 0.4429019690096154 0.7305229951580057 -0.4429019690096154
1.66975E9 0.7117698905039775 -0.452114929922998 0.2882301094960225 0.452114929922998 0.2882301094960225 0.452114929922998 0.7117698905039775 -0.452114929922998
1.7445E9 0.693098916732091 -0.46034637967513276 0.30690108326790894 0.46034637967513276 0.30690108326790894 0.46034637967513276 0.693098916732091 -0.46034637967513276
1.81925E9 0.6745629226363369 -0.46763840839600024 0.3254370773636632 0.46763840839600024 0.3254370773636632 0.46763840839600024 0.6745629226363369 -0.46763840839600024
1.894E9 0.6562089097943491 -0.4740348466884299 0.34379109020565085 0.4740348466884299 0.34379109020565085 0.4740348466884299 0.6562089097943491 -0.4740348466884299
1.96875E9 0.63807825791149 -0.47958062433826587 0.3619217420885102 0.47958062433826587 0.3619217420885102 0.47958062433826587 0.63807825791149 -0.47958062433826587
2.0435E9 0.6202069999065092 -0.48432120366104026 0.37979300009349093 0.48432120366104026 0.37979300009349093 0.48432120366104026 0.6202069999065092 -0.48432120366104026
2.11825E9 0.6026261331509412 -0.48830208647073875 0.3973738668490589 0.48830208647073875 0.3973738668490589 0.48830208647073875 0.6026261331509412 -0.48830208647073875
2.193E9 0.585361954871871 -0.4915683919543867 0.4146380451281289 0.4915683919543867 0.4146380451281289 0.4915683919543867 0.585361954871871 -0.4915683919543867
2.26775E9 0.5684364113789091 -0.49416450147487606 0.4315635886210909 0.49416450147487606 0.4315635886210909 0.49416450147487606 0.5684364113789091 -0.49416450147487606
2.3425E9 0.5518674524042715 -0.49613376545219523 0.4481325475957285 0.49613376545219523 0.4481325475957285 0.49613376545219523 0.5518674524042715 -0.49613376545219523
2.41725E9 0.5356693833932328 -0.4975182669332841 0.4643306166067672 0.4975182669332841 0.4643306166067672 0.4975182669332841 0.5356693833932328 -0.4975182669332841
2.492E9 0.5198532100121249 -0.49835863619566195 0.4801467899878751 0.49835863619566195 0.4801467899878751 0.49835863619566195 0.5198532100121249 -0.49835863619566195
2.56675E9 0.5044269704288487 -0.49869391068475777 0.49557302957115146 0.49869391068475777 0.49557302957115146 0.49869391068475777 0.5044269704288487 -0.49869391068475777
2.6415E9 0.48939605205497844 -0.4985614347091867 0.5106039479450216 0.4985614347091867 0.5106039479450216 0.4985614347091867 0.48939605205497844 -0.4985614347091867
2.71625E9 0.4747634904168034 -0.49799679356758125 0.5252365095831967 0.49799679356758125 0.5252365095831967 0.49799679356758125 0.4747634904168034 -0.49799679356758125
2.791E9 0.46053024864975267 -0.4970337771169315 0.5394697513502474 0.4970337771169315 0.5394697513502474 0.4970337771169315 0.46053024864975267 -0.4970337771169315
2.86575E9 0.44669547679604954 -0.4957043681840844 0.5533045232039507 0.4957043681840844 0.5533045232039507 0.4957043681840844 0.44669547679604954 -0.4957043681840844
2.9405E9 0.43325675064155017 -0.49403875164355343 0.5667432493584499 0.49403875164355343 0.5667432493584499 0.49403875164355343 0.43325675064155017 -0.49403875164355343
3.01525E9 0.4202102902685657 -0.4920653404160624 0.5797897097314343 0.4920653404160624 0.5797897097314343 0.4920653404160624 0.4202102902685657 -0.4920653404160624
3.09E9 0.4075511588416097 -0.4898108150681549 0.5924488411583904 0.4898108150681549 0.5924488411583904 0.4898108150681549 0.4075511588416097 -0.4898108150681549
3.16475E9 0.3952734423967581 -0.4873001741026911 0.6047265576032419 0.4873001741026911 0.6047265576032419 0.4873001741026911 0.3952734423967581 -0.4873001741026911
3.2395E9 0.38337041158626706 -0.4845567924155711 0.6166295884137329 0.4845567924155711 0.6166295884137329 0.4845567924155711 0.38337041158626706 -0.4845567924155711
3.31425E9 0.3718346664506802 -0.48160248575070363 0.6281653335493197 0.48160248575070363 0.6281653335493197 0.48160248575070363 0.3718346664506802 -0.48160248575070363
3.389E9 0.36065826536214746 -0.4784575793105243 0.6393417346378525 0.4784575793105243 0.6393417346378525 0.4784575793105243 0.36065826536214746 -0.4784575793105243
3.46375E9 0.34983283931486964 -0.475140978972234 0.6501671606851304 0.475140978972234 0.6501671606851304 0.475140978972234 0.34983283931486964 -0.475140978972234
3.5385E9 0.3393496927400387 -0.47167024382074474 0.6606503072599613 0.47167024382074474 0.6606503072599613 0.47167024382074474 0.3393496927400387 -0.47167024382074474
3.61325E9 0.32919989200059785 -0.46806165893921114 0.6708001079994019 0.46806165893921114 0.6708001079994019 0.46806165893921114 0.32919989200059785 -0.46806165893921114
3.688E9 0.31937434268169623 -0.4643303075988306 0.6806256573183037 0.4643303075988306 0.6806256573183037 0.4643303075988306 0.31937434268169623 -0.4643303075988306
3.76275E9 0.3098638567408353 -0.4604901421634263 0.6901361432591647 0.4604901421634263 0.6901361432591647 0.4604901421634263 0.3098638567408353 -0.4604901421634263
3.8375E9 0.300659210521556 -0.45655405317359016 0.6993407894784439 0.45655405317359016 0.6993407894784439 0.45655405317359016 0.300659210521556 -0.45655405317359016
3.91225E9 0.29175119456928156 -0.4525339362022347 0.7082488054307186 0.4525339362022347 0.7082488054307186 0.4525339362022347 0.29175119456928156 -0.4525339362022347
3.987E9 0.28313065612026367 -0.44844075618072854 0.7168693438797363 0.44844075618072854 0.7168693438797363 0.44844075618072854 0.28313065612026367 -0.44844075618072854
4.06175E9 0.2747885350664446 -0.4442846089846464 0.7252114649335555 0.4442846089846464 0.7252114649335555 0.4442846089846464 0.2747885350664446 -0.4442846089846464
4.1365E9 0.2667158941319296 -0.44007478014271745 0.7332841058680706 0.44007478014271745 0.7332841058680706 0.44007478014271745 0.2667158941319296 -0.44007478014271745
4.21125E9 0.2589039439318207 -0.4358198005938276 0.7410960560681794 0.4358198005938276 0.7410960560681794 0.4358198005938276 0.2589039439318207 -0.4358198005938276
4.286E9 0.25134406352211813 -0.43152749946672075 0.7486559364778819 0.43152749946672075 0.7486559364778819 0.43152749946672075 0.25134406352211813 -0.43152749946672075
4.36075E9 0.24402781699082612 -0.4272050538970086 0.7559721830091739 0.4272050538970086 0.7559721830091739 0.4272050538970086 0.24402781699082612 -0.4272050538970086
4.4355E9 0.236946966585568 -0.4228590359276999 0.763053033414432 0.4228590359276999 0.763053033414432 0.4228590359276999 0.236946966585568 -0.4228590359276999
4.51025E9 0.2300934828221199 -0.41849545656398307 0.76990651717788 0.41849545656398307 0.76990651717788 0.41849545656398307 0.2300934828221199 -0.41849545656398307
4.585E9 0.22345955197131834 -0.4141198070715841 0.7765404480286817 0.4141198070715841 0.7765404480286817 0.4141198070715841 0.22345955197131834 -0.4141198070715841
4.65975E9 0.2170375812787385 -0.4097370976216565 0.7829624187212616 0.4097370976216565 0.7829624187212616 0.4097370976216565 0.2170375812787385 -0.4097370976216565
4.7345E9 0.21082020223224723 -0.40535189339469985 0.7891797977677527 0.40535189339469985 0.7891797977677527 0.40535189339469985 0.21082020223224723 -0.40535189339469985
4.80925E9 0.20480027215683844 -0.40096834826216543 0.7951997278431617 0.40096834826216543 0.7951997278431617 0.40096834826216543 0.20480027215683844 -0.40096834826216543
4.884E9 0.19897087438385855 -0.3965902361678526 0.8010291256161416 0.3965902361678526 0.8010291256161416 0.3965902361678526 0.19897087438385855 -0.3965902361678526
4.95875E9 0.1933253172126026 -0.39222098033242214 0.8066746827873976 0.39222098033242214 0.8066746827873976 0.39222098033242214 0.1933253172126026 -0.39222098033242214
5.0335E9 0.18785713185607875 -0.38786368040382463 0.8121428681439211 0.38786368040382463 0.8121428681439211 0.38786368040382463 0.18785713185607875 -0.38786368040382463
5.10825E9 0.18256006953928022 -0.3835211376745518 0.8174399304607195 0.3835211376745518 0.8174399304607195 0.3835211376745518 0.18256006953928022 -0.3835211376745518
5.183E9 0.1774280978973252 -0.3791958784836471 0.8225719021026748 0.3791958784836471 0.8225719021026748 0.3791958784836471 0.1774280978973252 -0.3791958784836471
5.25775E9 0.1724553968021305 -0.3748901759176677 0.8275446031978694 0.3748901759176677 0.8275446031978694 0.3748901759176677 0.1724553968021305 -0.3748901759176677
5.3325E9 0.16763635372964575 -0.37060606992045186 0.8323636462703542 0.37060606992045186 0.8323636462703542 0.37060606992045186 0.16763635372964575 -0.37060606992045186
5.40725E9 0.16296555876490887 -0.3663453859168147 0.8370344412350912 0.3663453859168147 0.8370344412350912 0.3663453859168147 0.16296555876490887 -0.3663453859168147
5.482E9 0.15843779932910756 -0.36210975205030976 0.8415622006708925 0.36210975205030976 0.8415622006708925 0.36210975205030976 0.15843779932910756 -0.36210975205030976
5.55675E9 0.15404805470125957 -0.3579006151300696 0.8459519452987405 0.3579006151300696 0.8459519452987405 0.3579006151300696 0.15404805470125957 -0.3579006151300696
5.6315E9 0.1497914903969294 -0.35371925537656657 0.8502085096030704 0.35371925537656657 0.8502085096030704 0.35371925537656657 0.1497914903969294 -0.35371925537656657
5.70625E9 0.1456634524574073 -0.34956680005100504 0.8543365475425927 0.34956680005100504 0.8543365475425927 0.34956680005100504 0.1456634524574073 -0.34956680005100504
5.781E9 0.14165946169487606 -0.345444236047994 0.858340538305124 0.345444236047994 0.858340538305124 0.345444236047994 0.14165946169487606 -0.345444236047994
5.85575E9 0.13777520793216727 -0.3413524215262426 0.8622247920678328 0.3413524215262426 0.8622247920678328 0.3413524215262426 0.13777520793216727 -0.3413524215262426
5.9305E9 0.1340065442696281 -0.3372920966472521 0.8659934557303718 0.3372920966472521 0.8659934557303718 0.3372920966472521 0.1340065442696281 -0.3372920966472521
6.00525E9 0.1303494814063239 -0.3332638934874199 0.8696505185936761 0.3332638934874199 0.8696505185936761 0.3332638934874199 0.1303494814063239 -0.3332638934874199
6.08E9 0.12680018203816582 -0.32926834518459464 0.8731998179618341 0.32926834518459464 0.8731998179618341 0.32926834518459464 0.12680018203816582 -0.32926834518459464
6.15475E9 0.12335495535153315 -0.3253058943759789 0.8766450446484667 0.3253058943759789 0.8766450446484667 0.3253058943759789 0.12335495535153315 -0.3253058943759789
6.2295E9 0.12001025162745346 -0.32137690098033 0.8799897483725467 0.32137690098033 0.8799897483725467 0.32137690098033 0.12001025162745346 -0.32137690098033
6.30425E9 0.11676265696837909 -0.3174816493736978 0.8832373430316209 0.3174816493736978 0.8832373430316209 0.3174816493736978 0.11676265696837909 -0.3174816493736978
6.379E9 0.11360888815697624 -0.3136203550044368 0.8863911118430238 0.3136203550044368 0.8863911118430238 0.3136203550044368 0.11360888815697624 -0.3136203550044368
6.45375E9 0.11054578765408829 -0.3097931704899395 0.8894542123459118 0.3097931704899395 0.8894542123459118 0.3097931704899395 0.11054578765408829 -0.3097931704899395
6.5285E9 0.10757031874109514 -0.30600019123445815 0.8924296812589049 0.30600019123445815 0.8924296812589049 0.30600019123445815 0.10757031874109514 -0.30600019123445815
6.60325E9 0.10467956081023469 -0.30224146060449997 0.8953204391897653 0.30224146060449997 0.8953204391897653 0.30224146060449997 0.10467956081023469 -0.30224146060449997
6.678E9 0.10187070480503316 -0.2985169746955837 0.8981292951949669 0.2985169746955837 0.8981292951949669 0.2985169746955837 0.10187070480503316 -0.2985169746955837
6.75275E9 0.09914104881179794 -0.2948266867216428 0.900858951188202 0.2948266867216428 0.900858951188202 0.2948266867216428 0.09914104881179794 -0.2948266867216428
6.8275E9 0.09648799380210862 -0.2911705110560198 0.9035120061978915 0.2911705110560198 0.9035120061978915 0.2911705110560198 0.09648799380210862 -0.2911705110560198
6.90225E9 0.09390903952539333 -0.287548326950821 0.9060909604746068 0.287548326950821 0.9060909604746068 0.287548326950821 0.09390903952539333 -0.287548326950821
6.977E9 0.09140178054997149 -0.28395998195938654 0.9085982194500284 0.28395998195938654 0.9085982194500284 0.28395998195938654 0.09140178054997149 -0.28395998195938654
7.05175E9 0.088963902450357 -0.28040529508475254 0.9110360975496432 0.28040529508475254 0.9110360975496432 0.28040529508475254 0.088963902450357 -0.28040529508475254
7.1265E9 0.08659317813814078 -0.27688405967524654 0.9134068218618594 0.27688405967524654 0.9134068218618594 0.27688405967524654 0.08659317813814078 -0.27688405967524654
7.20125E9 0.08428746433338632 -0.2733960460867474 0.9157125356666136 0.2733960460867474 0.9157125356666136 0.2733960460867474 0.08428746433338632 -0.2733960460867474
7.276E9 0.08204469817316569 -0.2699410041296465 0.9179553018268344 0.2699410041296465 0.9179553018268344 0.2699410041296465 0.08204469817316569 -0.2699410041296465
7.35075E9 0.07986289395363 -0.26651866531716895 0.9201371060463701 0.26651866531716895 0.9201371060463701 0.26651866531716895 0.07986289395363 -0.26651866531716895
7.4255E9 0.07774014000183072 -0.263128744930439 0.9222598599981694 0.263128744930439 0.9222598599981694 0.263128744930439 0.07774014000183072 -0.263128744930439
7.50025E9 0.07567459567338121 -0.25977094391448524 0.9243254043266188 0.25977094391448524 0.9243254043266188 0.25977094391448524 0.07567459567338121 -0.25977094391448524
7.575E9 0.07366448847196763 -0.25644495061829975 0.9263355115280325 0.25644495061829975 0.9263355115280325 0.25644495061829975 0.07366448847196763 -0.25644495061829975
7.64975E9 0.07170811128666976 -0.2531504423910487 0.92829188871333 0.2531504423910487 0.92829188871333 0.2531504423910487 0.07170811128666976 -0.2531504423910487
7.7245E9 0.06980381974303969 -0.2498870870456055 0.9301961802569603 0.2498870870456055 0.9301961802569603 0.2498870870456055 0.06980381974303969 -0.2498870870456055
7.79925E9 0.06795002966389528 -0.24665454419971355 0.9320499703361048 0.24665454419971355 0.9320499703361048 0.24665454419971355 0.06795002966389528 -0.24665454419971355
7.874E9 0.06614521463582035 -0.24345246650429503 0.9338547853641798 0.24345246650429503 0.9338547853641798 0.24345246650429503 0.06614521463582035 -0.24345246650429503
7.94875E9 0.06438790367741376 -0.24028050076768714 0.9356120963225862 0.24028050076768714 0.9356120963225862 0.24028050076768714 0.06438790367741376 -0.24028050076768714
8.0235E9 0.06267667900539389 -0.23713828898390749 0.9373233209946061 0.23713828898390749 0.9373233209946061 0.23713828898390749 0.06267667900539389 -0.23713828898390749
8.09825E9 0.06101017389474704 -0.23402546927243334 0.9389898261052531 0.23402546927243334 0.9389898261052531 0.23402546927243334 0.06101017389474704 -0.23402546927243334
8.173E9 0.05938707062919005 -0.2309416767363933 0.9406129293708101 0.2309416767363933 0.9406129293708101 0.2309416767363933 0.05938707062919005 -0.2309416767363933
8.24775E9 0.057806098538318515 -0.22788654424554755 0.9421939014616816 0.22788654424554755 0.9421939014616816 0.22788654424554755 0.057806098538318515 -0.22788654424554755
8.3225E9 0.056266032117907844 -0.22485970314993442 0.9437339678820923 0.22485970314993442 0.9437339678820923 0.22485970314993442 0.056266032117907844 -0.22485970314993442
8.39725E9 0.05476568922994257 -0.22186078392961356 0.9452343107700575 0.22186078392961356 0.9452343107700575 0.22186078392961356 0.05476568922994257 -0.22186078392961356
8.472E9 0.05330392937905538 -0.21888941678551554 0.9466960706209449 0.21888941678551554 0.9466960706209449 0.21888941678551554 0.05330392937905538 -0.21888941678551554
8.54675E9 0.05187965206216815 -0.21594523217602224 0.9481203479378318 0.21594523217602224 0.9481203479378318 0.21594523217602224 0.05187965206216815 -0.21594523217602224
8.6215E9 0.05049179518823731 -0.21302786130354992 0.9495082048117628 0.21302786130354992 0.9495082048117628 0.21302786130354992 0.05049179518823731 -0.21302786130354992
8.69625E9 0.049139333565115656 -0.2101369365550724 0.9508606664348843 0.2101369365550724 0.9508606664348843 0.2101369365550724 0.049139333565115656 -0.2101369365550724
8.771E9 0.047821277450654495 -0.20727209190022727 0.9521787225493453 0.20727209190022727 0.9521787225493453 0.20727209190022727 0.047821277450654495 -0.20727209190022727
8.84575E9 0.046536671165276676 -0.2044329632503612 0.9534633288347235 0.2044329632503612 0.9534633288347235 0.2044329632503612 0.046536671165276676 -0.2044329632503612
