!Murata Part Number: GJM0225C1E9R9BB01
!These Parameters are Measured in Series Mode Connection
!       o--ll--o
!Port1            Port2
!       o------o
!Operation Temp=25[degC], DC Bias Voltage=0[V]
!Freq. Start=100[MHz] Stop=30[GHz], 401[Steps]
!Data Generated on Feb 1, 2023
# Hz S RI R 50
!Freq.(Hz) S11(Real) S11(Imag) S21(Real) S21(Imag) S12(Real) S12(Imag) S22(Real) S22(Imag)
1.0E8 0.7206461834256824 -0.44841630620594797 0.2793538165743177 0.44841630620594797 0.2793538165743177 0.44841630620594797 0.7206461834256824 -0.44841630620594797
1.7475E8 0.4574173302915548 -0.49771586796693273 0.5425826697084453 0.49771586796693273 0.5425826697084453 0.49771586796693273 0.4574173302915548 -0.49771586796693273
2.495E8 0.2919195689789438 -0.4539697669178182 0.7080804310210561 0.4539697669178182 0.7080804310210561 0.4539697669178182 0.2919195689789438 -0.4539697669178182
3.2425E8 0.19554349829489034 -0.3957263157015762 0.8044565017051096 0.3957263157015762 0.8044565017051096 0.3957263157015762 0.19554349829489034 -0.3957263157015762
3.99E8 0.1377030360755974 -0.3434691992841265 0.8622969639244026 0.3434691992841265 0.8622969639244026 0.3434691992841265 0.1377030360755974 -0.3434691992841265
4.7375E8 0.10118262241620472 -0.30021315218903194 0.8988173775837952 0.30021315218903194 0.8988173775837952 0.30021315218903194 0.10118262241620472 -0.30021315218903194
5.485E8 0.0769635653741609 -0.264924991240803 0.9230364346258393 0.264924991240803 0.9230364346258393 0.264924991240803 0.0769635653741609 -0.264924991240803
6.2325E8 0.06020322997861083 -0.23598905317005794 0.9397967700213892 0.23598905317005794 0.9397967700213892 0.23598905317005794 0.06020322997861083 -0.23598905317005794
6.98E8 0.04818004792944593 -0.21199276387594354 0.9518199520705543 0.21199276387594354 0.9518199520705543 0.21199276387594354 0.04818004792944593 -0.21199276387594354
7.7275E8 0.03929068702092242 -0.1918371961582342 0.9607093129790776 0.1918371961582342 0.9607093129790776 0.1918371961582342 0.03929068702092242 -0.1918371961582342
8.475E8 0.03254874030849037 -0.17469391303080015 0.9674512596915095 0.17469391303080015 0.9674512596915095 0.17469391303080015 0.03254874030849037 -0.17469391303080015
9.2225E8 0.02732356037776963 -0.15994090877487685 0.9726764396222304 0.15994090877487685 0.9726764396222304 0.15994090877487685 0.02732356037776963 -0.15994090877487685
9.97E8 0.023198127657247252 -0.14710816200783575 0.9768018723427527 0.14710816200783575 0.9768018723427527 0.14710816200783575 0.023198127657247252 -0.14710816200783575
1.07175E9 0.019888428912627373 -0.13583674258210687 0.9801115710873729 0.13583674258210687 0.9801115710873729 0.13583674258210687 0.019888428912627373 -0.13583674258210687
1.1465E9 0.01719596380721137 -0.12584926840009714 0.9828040361927886 0.12584926840009714 0.9828040361927886 0.12584926840009714 0.01719596380721137 -0.12584926840009714
1.22125E9 0.014978798062623125 -0.11692876934344232 0.9850212019373769 0.11692876934344232 0.9850212019373769 0.11692876934344232 0.014978798062623125 -0.11692876934344232
1.296E9 0.01313337404451702 -0.108903530331488 0.986866625955483 0.108903530331488 0.986866625955483 0.108903530331488 0.01313337404451702 -0.108903530331488
1.37075E9 0.011582764254561576 -0.10163613709940142 0.9884172357454383 0.10163613709940142 0.9884172357454383 0.10163613709940142 0.011582764254561576 -0.10163613709940142
1.4455E9 0.010268897106696996 -0.09501547810624882 0.9897311028933029 0.09501547810624882 0.9897311028933029 0.09501547810624882 0.010268897106696996 -0.09501547810624882
1.52025E9 0.009147296746398009 -0.08895083931476014 0.990852703253602 0.08895083931476014 0.990852703253602 0.08895083931476014 0.009147296746398009 -0.08895083931476014
1.595E9 0.00818345217630972 -0.08336749447085974 0.9918165478236901 0.08336749447085974 0.9918165478236901 0.08336749447085974 0.00818345217630972 -0.08336749447085974
1.66975E9 0.007350265277388018 -0.07820337529039396 0.992649734722612 0.07820337529039396 0.992649734722612 0.07820337529039396 0.007350265277388018 -0.07820337529039396
1.7445E9 0.006626227386421421 -0.0734065299999945 0.9933737726135785 0.0734065299999945 0.9933737726135785 0.0734065299999945 0.006626227386421421 -0.0734065299999945
1.81925E9 0.005994096729342526 -0.06893316368307667 0.9940059032706576 0.06893316368307667 0.9940059032706576 0.06893316368307667 0.005994096729342526 -0.06893316368307667
1.894E9 0.0054399258577002224 -0.06474611257296428 0.9945600741422996 0.06474611257296428 0.9945600741422996 0.06474611257296428 0.0054399258577002224 -0.06474611257296428
1.96875E9 0.004952337375111853 -0.060813645329277646 0.9950476626248882 0.060813645329277646 0.9950476626248882 0.060813645329277646 0.004952337375111853 -0.060813645329277646
2.0435E9 0.0045219782537207365 -0.05710851311016715 0.9954780217462794 0.05710851311016715 0.9954780217462794 0.05710851311016715 0.0045219782537207365 -0.05710851311016715
2.11825E9 0.0041411042588961906 -0.05360719070856845 0.9958588957411036 0.05360719070856845 0.9958588957411036 0.05360719070856845 0.0041411042588961906 -0.05360719070856845
2.193E9 0.0038032602897379426 -0.050289265708962944 0.9961967397102621 0.050289265708962944 0.9961967397102621 0.050289265708962944 0.0038032602897379426 -0.050289265708962944
2.26775E9 0.0035030322093822243 -0.04713694327305547 0.9964969677906178 0.04713694327305547 0.9964969677906178 0.04713694327305547 0.0035030322093822243 -0.04713694327305547
2.3425E9 0.0032358525066179763 -0.044134641961986965 0.9967641474933817 0.044134641961986965 0.9967641474933817 0.044134641961986965 0.0032358525066179763 -0.044134641961986965
2.41725E9 0.002997846880182558 -0.04126866176616927 0.9970021531198174 0.04126866176616927 0.9970021531198174 0.04126866176616927 0.002997846880182558 -0.04126866176616927
2.492E9 0.0027857122109174325 -0.038526909810812845 0.9972142877890826 0.038526909810812845 0.9972142877890826 0.038526909810812845 0.0027857122109174325 -0.038526909810812845
2.56675E9 0.0025966188102894672 -0.03589867243609316 0.9974033811897107 0.03589867243609316 0.9974033811897107 0.03589867243609316 0.0025966188102894672 -0.03589867243609316
2.6415E9 0.0024281315927084917 -0.03337442479988172 0.9975718684072913 0.03337442479988172 0.9975718684072913 0.03337442479988172 0.0024281315927084917 -0.03337442479988172
2.71625E9 0.002278146108355329 -0.030945671021630976 0.9977218538916446 0.030945671021630976 0.9977218538916446 0.030945671021630976 0.002278146108355329 -0.030945671021630976
2.791E9 0.00214483632704098 -0.028604809325441835 0.997855163672959 0.028604809325441835 0.997855163672959 0.028604809325441835 0.00214483632704098 -0.028604809325441835
2.86575E9 0.002026611775404009 -0.026345017755733308 0.9979733882245959 0.026345017755733308 0.9979733882245959 0.026345017755733308 0.002026611775404009 -0.026345017755733308
2.9405E9 0.001922082165306984 -0.024160156909004787 0.9980779178346929 0.024160156909004787 0.9980779178346929 0.024160156909004787 0.001922082165306984 -0.024160156909004787
3.01525E9 0.0018300280573851104 -0.022044686808210905 0.9981699719426147 0.022044686808210905 0.9981699719426147 0.022044686808210905 0.0018300280573851104 -0.022044686808210905
3.09E9 0.0017493764138947758 -0.019993595585721446 0.9982506235861053 0.019993595585721446 0.9982506235861053 0.019993595585721446 0.0017493764138947758 -0.019993595585721446
3.16475E9 0.0016791801336070535 -0.018002338069365503 0.9983208198663929 0.018002338069365503 0.9983208198663929 0.018002338069365503 0.0016791801336070535 -0.018002338069365503
3.2395E9 0.001618600846233276 -0.016066782708349537 0.9983813991537668 0.016066782708349537 0.9983813991537668 0.016066782708349537 0.001618600846233276 -0.016066782708349537
3.31425E9 0.0015668943878135468 -0.014183165550693416 0.9984331056121865 0.014183165550693416 0.9984331056121865 0.014183165550693416 0.0015668943878135468 -0.014183165550693416
3.389E9 0.0015233984913269334 -0.012348050205647262 0.998476601508673 0.012348050205647262 0.998476601508673 0.012348050205647262 0.0015233984913269334 -0.012348050205647262
3.46375E9 0.0014875223157254564 -0.0105582929044329 0.9985124776842746 0.0105582929044329 0.9985124776842746 0.0105582929044329 0.0014875223157254564 -0.0105582929044329
3.5385E9 0.0014587375070913742 -0.008811011919201379 0.9985412624929084 0.008811011919201379 0.9985412624929084 0.008811011919201379 0.0014587375070913742 -0.008811011919201379
3.61325E9 0.0014365705417851537 -0.007103560720018322 0.9985634294582151 0.007103560720018322 0.9985634294582151 0.007103560720018322 0.0014365705417851537 -0.007103560720018322
3.688E9 0.0014205961464255552 -0.005433504348235717 0.9985794038535744 0.005433504348235717 0.9985794038535744 0.005433504348235717 0.0014205961464255552 -0.005433504348235717
3.76275E9 0.00141043162572621 -0.0037985985659245375 0.998589568374274 0.0037985985659245375 0.998589568374274 0.0037985985659245375 0.00141043162572621 -0.0037985985659245375
3.8375E9 0.0014057319584563357 -0.002196771408398668 0.9985942680415437 0.002196771408398668 0.9985942680415437 0.002196771408398668 0.0014057319584563357 -0.002196771408398668
3.91225E9 0.001406185545531837 -6.261068228673263E-4 0.9985938144544684 6.261068228673263E-4 0.9985938144544684 6.261068228673263E-4 0.001406185545531837 -6.261068228673263E-4
3.987E9 0.0014115105135943072 9.151698770117177E-4 0.9985884894864058 -9.151698770117177E-4 0.9985884894864058 -9.151698770117177E-4 0.0014115105135943072 9.151698770117177E-4
4.06175E9 0.0014214514932744708 0.002428704971770699 0.9985785485067256 -0.002428704971770699 0.9985785485067256 -0.002428704971770699 0.0014214514932744708 0.002428704971770699
4.1365E9 0.0014357768043515744 0.003916027910174015 0.9985642231956486 -0.003916027910174015 0.9985642231956486 -0.003916027910174015 0.0014357768043515744 0.003916027910174015
4.21125E9 0.0014542759907551232 0.005378561667162243 0.998545724009245 -0.005378561667162243 0.998545724009245 -0.005378561667162243 0.0014542759907551232 0.005378561667162243
4.286E9 0.0014767576572420292 0.006817632032763835 0.9985232423427579 -0.006817632032763835 0.9985232423427579 -0.006817632032763835 0.0014767576572420292 0.006817632032763835
4.36075E9 0.0015030475669649884 0.008234475959170486 0.998496952433035 -0.008234475959170486 0.998496952433035 -0.008234475959170486 0.0015030475669649884 0.008234475959170486
4.4355E9 0.001532986965302429 0.00963024907627321 0.9984670130346976 -0.00963024907627321 0.9984670130346976 -0.00963024907627321 0.001532986965302429 0.00963024907627321
4.51025E9 0.0015664311004683015 0.011006032471546242 0.9984335688995318 -0.011006032471546242 0.9984335688995318 -0.011006032471546242 0.0015664311004683015 0.011006032471546242
4.585E9 0.0016032479157401707 0.012362838817843511 0.9983967520842597 -0.012362838817843511 0.9983967520842597 -0.012362838817843511 0.0016032479157401707 0.012362838817843511
4.65975E9 0.0016433168917814615 0.013701617922110915 0.9983566831082186 -0.013701617922110915 0.9983566831082186 -0.013701617922110915 0.0016433168917814615 0.013701617922110915
4.7345E9 0.0016865280206061263 0.015023261758941565 0.9983134719793938 -0.015023261758941565 0.9983134719793938 -0.015023261758941565 0.0016865280206061263 0.015023261758941565
4.80925E9 0.0017327808953376811 0.01632860904508399 0.9982672191046625 -0.01632860904508399 0.9982672191046625 -0.01632860904508399 0.0017327808953376811 0.01632860904508399
4.884E9 0.001781983902128223 0.017618449404266236 0.998218016097872 -0.017618449404266236 0.998218016097872 -0.017618449404266236 0.001781983902128223 0.017618449404266236
4.95875E9 0.0018340535024916193 0.01889352716586217 0.9981659464975083 -0.01889352716586217 0.9981659464975083 -0.01889352716586217 0.0018340535024916193 0.01889352716586217
5.0335E9 0.001888913595921907 0.020154544835868683 0.998111086404078 -0.020154544835868683 0.998111086404078 -0.020154544835868683 0.001888913595921907 0.020154544835868683
5.10825E9 0.001946494954057452 0.02140216627427033 0.9980535050459427 -0.02140216627427033 0.9980535050459427 -0.02140216627427033 0.001946494954057452 0.02140216627427033
5.183E9 0.0020067347188504766 0.02263701960905003 0.9979932652811494 -0.02263701960905003 0.9979932652811494 -0.02263701960905003 0.0020067347188504766 0.02263701960905003
5.25775E9 0.002069575958240901 0.023859699913777673 0.997930424041759 -0.023859699913777673 0.997930424041759 -0.023859699913777673 0.002069575958240901 0.023859699913777673
5.3325E9 0.0021349672737390715 0.02507077167280962 0.9978650327262609 -0.02507077167280962 0.9978650327262609 -0.02507077167280962 0.0021349672737390715 0.02507077167280962
5.40725E9 0.0022028624551156885 0.026270771055601324 0.9977971375448843 -0.026270771055601324 0.9977971375448843 -0.026270771055601324 0.0022028624551156885 0.026270771055601324
5.482E9 0.0022732201780975925 0.02746020801942503 0.9977267798219024 -0.02746020801942503 0.9977267798219024 -0.02746020801942503 0.0022732201780975925 0.02746020801942503
5.55675E9 0.0023460037415913527 0.028639568257856053 0.9976539962584086 -0.028639568257856053 0.9976539962584086 -0.028639568257856053 0.0023460037415913527 0.028639568257856053
5.6315E9 0.002421180841516107 0.029809315010705273 0.9975788191584838 -0.029809315010705273 0.9975788191584838 -0.029809315010705273 0.002421180841516107 0.029809315010705273
5.70625E9 0.0024987233788355974 0.030969890749607647 0.9975012766211645 -0.030969890749607647 0.9975012766211645 -0.030969890749607647 0.0024987233788355974 0.030969890749607647
5.781E9 0.0025786072998471923 0.03212171875219819 0.9974213927001527 -0.03212171875219819 0.9974213927001527 -0.03212171875219819 0.0025786072998471923 0.03212171875219819
5.85575E9 0.0026608124672229455 0.03326520457669797 0.9973391875327771 -0.03326520457669797 0.9973391875327771 -0.03326520457669797 0.0026608124672229455 0.03326520457669797
5.9305E9 0.0027453225607135937 0.03440073744777692 0.9972546774392864 -0.03440073744777692 0.9972546774392864 -0.03440073744777692 0.0027453225607135937 0.03440073744777692
6.00525E9 0.0028321250068294454 0.035528691563739924 0.9971678749931705 -0.035528691563739924 0.9971678749931705 -0.035528691563739924 0.0028321250068294454 0.035528691563739924
6.08E9 0.00292121093721109 0.0366494273343894 0.9970787890627889 -0.0366494273343894 0.9970787890627889 -0.0366494273343894 0.00292121093721109 0.0366494273343894
6.15475E9 0.003012575175806236 0.037763292558337005 0.9969874248241938 -0.037763292558337005 0.9969874248241938 -0.037763292558337005 0.003012575175806236 0.037763292558337005
6.2295E9 0.003106216255386219 0.03887062354806763 0.9968937837446137 -0.03887062354806763 0.9968937837446137 -0.03887062354806763 0.003106216255386219 0.03887062354806763
6.30425E9 0.0032021364643759678 0.03997174621068724 0.9967978635356239 -0.03997174621068724 0.9967978635356239 -0.03997174621068724 0.0032021364643759678 0.03997174621068724
6.379E9 0.003300341925445964 0.04106697709201713 0.9966996580745541 -0.04106697709201713 0.9966996580745541 -0.04106697709201713 0.003300341925445964 0.04106697709201713
6.45375E9 0.0034008427078355006 0.04215662439152125 0.9965991572921648 -0.04215662439152125 0.9965991572921648 -0.04215662439152125 0.0034008427078355006 0.04215662439152125
6.5285E9 0.0035036529759579034 0.043240988955476366 0.9964963470240421 -0.043240988955476366 0.9964963470240421 -0.043240988955476366 0.0035036529759579034 0.043240988955476366
6.60325E9 0.003608791177496505 0.044320365255815036 0.9963912088225035 -0.044320365255815036 0.9963912088225035 -0.044320365255815036 0.003608791177496505 0.044320365255815036
6.678E9 0.003716280274954834 0.04539504236219433 0.9962837197250451 -0.04539504236219433 0.9962837197250451 -0.04539504236219433 0.003716280274954834 0.04539504236219433
6.75275E9 0.003826148025499402 0.046465304915076194 0.9961738519745004 -0.046465304915076194 0.9961738519745004 -0.046465304915076194 0.003826148025499402 0.046465304915076194
6.8275E9 0.003938427314957002 0.04753143410795242 0.996061572685043 -0.04753143410795242 0.996061572685043 -0.04753143410795242 0.003938427314957002 0.04753143410795242
6.90225E9 0.004053156553036266 0.04859370868732625 0.9959468434469638 -0.04859370868732625 0.9959468434469638 -0.04859370868732625 0.004053156553036266 0.04859370868732625
6.977E9 0.004170380138278054 0.049652405979679994 0.9958296198617219 -0.049652405979679994 0.9958296198617219 -0.049652405979679994 0.004170380138278054 0.049652405979679994
7.05175E9 0.0042901490029554085 0.050707802955438065 0.9957098509970446 -0.050707802955438065 0.9957098509970446 -0.050707802955438065 0.0042901490029554085 0.050707802955438065
7.1265E9 0.004412521250207799 0.051760177340892624 0.9955874787497921 -0.051760177340892624 0.9955874787497921 -0.051760177340892624 0.004412521250207799 0.051760177340892624
7.20125E9 0.004537562898190908 0.05280980879022478 0.9954624371018091 -0.05280980879022478 0.9954624371018091 -0.05280980879022478 0.004537562898190908 0.05280980879022478
7.276E9 0.004665348749057561 0.05385698013115321 0.9953346512509424 -0.05385698013115321 0.9953346512509424 -0.05385698013115321 0.004665348749057561 0.05385698013115321
7.35075E9 0.004795963404292642 0.054901978699414405 0.9952040365957074 -0.054901978699414405 0.9952040365957074 -0.054901978699414405 0.004795963404292642 0.054901978699414405
7.4255E9 0.004929502452475238 0.05594509777925991 0.9950704975475247 -0.05594509777925991 0.9950704975475247 -0.05594509777925991 0.004929502452475238 0.05594509777925991
7.50025E9 0.005066073861154359 0.056986638169498546 0.9949339261388456 -0.056986638169498546 0.9949339261388456 -0.056986638169498546 0.005066073861154359 0.056986638169498546
7.575E9 0.005205799611480977 0.05802690989736244 0.994794200388519 -0.05802690989736244 0.994794200388519 -0.05802690989736244 0.005205799611480977 0.05802690989736244
7.64975E9 0.005348817622903544 0.059066234105698896 0.9946511823770964 -0.059066234105698896 0.9946511823770964 -0.059066234105698896 0.005348817622903544 0.059066234105698896
7.7245E9 0.00549528402607866 0.06010494514274141 0.9945047159739213 -0.06010494514274141 0.9945047159739213 -0.06010494514274141 0.00549528402607866 0.06010494514274141
7.79925E9 0.0056453758557913755 0.06114339288805566 0.9943546241442087 -0.06114339288805566 0.9943546241442087 -0.06114339288805566 0.0056453758557913755 0.06114339288805566
7.874E9 0.005799294252932895 0.06218194535324423 0.9942007057470672 -0.06218194535324423 0.9942007057470672 -0.06218194535324423 0.005799294252932895 0.06218194535324423
7.94875E9 0.005957268286519564 0.06322099160165529 0.9940427317134805 -0.06322099160165529 0.9940427317134805 -0.06322099160165529 0.005957268286519564 0.06322099160165529
8.0235E9 0.0061195595347831875 0.06426094503767117 0.9938804404652168 -0.06426094503767117 0.9938804404652168 -0.06426094503767117 0.0061195595347831875 0.06426094503767117
8.09825E9 0.006286467600426156 0.06530224712306254 0.993713532399574 -0.06530224712306254 0.993713532399574 -0.06530224712306254 0.006286467600426156 0.06530224712306254
8.173E9 0.006458336781783598 0.06634537158516678 0.9935416632182166 -0.06634537158516678 0.9935416632182166 -0.06634537158516678 0.006458336781783598 0.06634537158516678
8.24775E9 0.006635564182344846 0.06739082918882679 0.9933644358176551 -0.06739082918882679 0.9933644358176551 -0.06739082918882679 0.006635564182344846 0.06739082918882679
8.3225E9 0.0068186096205976685 0.06843917315027981 0.9931813903794022 -0.06843917315027981 0.9931813903794022 -0.06843917315027981 0.0068186096205976685 0.06843917315027981
8.39725E9 0.00700800780696987 0.06949100527502713 0.9929919921930302 -0.06949100527502713 0.9929919921930302 -0.06949100527502713 0.00700800780696987 0.06949100527502713
8.472E9 0.007204383393729084 0.07054698290061794 0.9927956166062708 -0.07054698290061794 0.9927956166062708 -0.07054698290061794 0.007204383393729084 0.07054698290061794
