!Murata Part Number: GJM0225C1E4R0BB01
!These Parameters are Measured in Series Mode Connection
!       o--ll--o
!Port1            Port2
!       o------o
!Operation Temp=25[degC], DC Bias Voltage=0[V]
!Freq. Start=100[MHz] Stop=30[GHz], 401[Steps]
!Data Generated on Feb 1, 2023
# Hz S RI R 50
!Freq.(Hz) S11(Real) S11(Imag) S21(Real) S21(Imag) S12(Real) S12(Imag) S22(Real) S22(Imag)
1.0E8 0.9404755818511241 -0.23640253669640882 0.05952441814887592 0.23640253669640882 0.05952441814887592 0.23640253669640882 0.9404755818511241 -0.23640253669640882
1.7475E8 0.8379163998146735 -0.36817594717234375 0.16208360018532653 0.36817594717234375 0.16208360018532653 0.36817594717234375 0.8379163998146735 -0.36817594717234375
2.495E8 0.7169400674926195 -0.4499829406717611 0.2830599325073806 0.4499829406717611 0.2830599325073806 0.4499829406717611 0.7169400674926195 -0.4499829406717611
3.2425E8 0.5995300577530822 -0.4893399659511377 0.4004699422469177 0.4893399659511377 0.4004699422469177 0.4893399659511377 0.5995300577530822 -0.4893399659511377
3.99E8 0.4966131965479853 -0.49918290589783876 0.5033868034520146 0.49918290589783876 0.5033868034520146 0.49918290589783876 0.4966131965479853 -0.49918290589783876
4.7375E8 0.41105801117333246 -0.49106737741942164 0.5889419888266677 0.49106737741942164 0.5889419888266677 0.49106737741942164 0.41105801117333246 -0.49106737741942164
5.485E8 0.3417139331876066 -0.47317219790524606 0.6582860668123932 0.47317219790524606 0.6582860668123932 0.47317219790524606 0.3417139331876066 -0.47317219790524606
6.2325E8 0.28604059970645157 -0.4506418208397124 0.7139594002935485 0.4506418208397124 0.7139594002935485 0.4506418208397124 0.28604059970645157 -0.4506418208397124
6.98E8 0.24136874727036506 -0.4264906418280416 0.7586312527296349 0.4264906418280416 0.7586312527296349 0.4264906418280416 0.24136874727036506 -0.4264906418280416
7.7275E8 0.20536931882440204 -0.4023911099576288 0.794630681175598 0.4023911099576288 0.794630681175598 0.4023911099576288 0.20536931882440204 -0.4023911099576288
8.475E8 0.17615864120242397 -0.37921603342813853 0.823841358797576 0.37921603342813853 0.823841358797576 0.37921603342813853 0.17615864120242397 -0.37921603342813853
9.2225E8 0.15226443001933612 -0.35737734246967734 0.8477355699806638 0.35737734246967734 0.8477355699806638 0.35737734246967734 0.15226443001933612 -0.35737734246967734
9.97E8 0.13255242524041855 -0.33702820899758157 0.8674475747595816 0.33702820899758157 0.8674475747595816 0.33702820899758157 0.13255242524041855 -0.33702820899758157
1.07175E9 0.11615234633871999 -0.31818083755570203 0.8838476536612799 0.31818083755570203 0.8838476536612799 0.31818083755570203 0.11615234633871999 -0.31818083755570203
1.1465E9 0.10239538717623979 -0.30077416321262795 0.8976046128237603 0.30077416321262795 0.8976046128237603 0.30077416321262795 0.10239538717623979 -0.30077416321262795
1.22125E9 0.09076511657752974 -0.28471230961506994 0.9092348834224703 0.28471230961506994 0.9092348834224703 0.28471230961506994 0.09076511657752974 -0.28471230961506994
1.296E9 0.08086015910591574 -0.2698861127926489 0.9191398408940845 0.2698861127926489 0.9191398408940845 0.2698861127926489 0.08086015910591574 -0.2698861127926489
1.37075E9 0.07236624425526322 -0.25618487668181844 0.9276337557447368 0.25618487668181844 0.9276337557447368 0.25618487668181844 0.07236624425526322 -0.25618487668181844
1.4455E9 0.06503537934123556 -0.24350251569502762 0.9349646206587644 0.24350251569502762 0.9349646206587644 0.24350251569502762 0.06503537934123556 -0.24350251569502762
1.52025E9 0.058670326290022126 -0.23174049366192498 0.9413296737099778 0.23174049366192498 0.9413296737099778 0.23174049366192498 0.058670326290022126 -0.23174049366192498
1.595E9 0.05311299207238538 -0.22080895775041295 0.9468870079276147 0.22080895775041295 0.9468870079276147 0.22080895775041295 0.05311299207238538 -0.22080895775041295
1.66975E9 0.04823570037315598 -0.2106268796077027 0.9517642996268443 0.2106268796077027 0.9517642996268443 0.2106268796077027 0.04823570037315598 -0.2106268796077027
1.7445E9 0.043934587914924154 -0.20112167447131432 0.956065412085076 0.20112167447131432 0.956065412085076 0.20112167447131432 0.043934587914924154 -0.20112167447131432
1.81925E9 0.04012457377583472 -0.19222856933626706 0.9598754262241651 0.19222856933626706 0.9598754262241651 0.19222856933626706 0.04012457377583472 -0.19222856933626706
1.894E9 0.036735499565237695 -0.1838898741871182 0.9632645004347624 0.1838898741871182 0.9632645004347624 0.1838898741871182 0.036735499565237695 -0.1838898741871182
1.96875E9 0.033709146549837005 -0.17605424159865676 0.9662908534501631 0.17605424159865676 0.9662908534501631 0.17605424159865676 0.033709146549837005 -0.17605424159865676
2.0435E9 0.03099691398132722 -0.16867595979177027 0.9690030860186726 0.16867595979177027 0.9690030860186726 0.16867595979177027 0.03099691398132722 -0.16867595979177027
2.11825E9 0.028557999384477093 -0.1617143008630625 0.9714420006155229 0.1617143008630625 0.9714420006155229 0.1617143008630625 0.028557999384477093 -0.1617143008630625
2.193E9 0.026357962554556278 -0.15513293252969132 0.9736420374454435 0.15513293252969132 0.9736420374454435 0.15513293252969132 0.026357962554556278 -0.15513293252969132
2.26775E9 0.024367584884720978 -0.14889939427763327 0.9756324151152792 0.14889939427763327 0.9756324151152792 0.14889939427763327 0.024367584884720978 -0.14889939427763327
2.3425E9 0.02256195753260795 -0.14298463484804722 0.9774380424673922 0.14298463484804722 0.9774380424673922 0.14298463484804722 0.02256195753260795 -0.14298463484804722
2.41725E9 0.020919748070330323 -0.13736260609253018 0.9790802519296699 0.13736260609253018 0.9790802519296699 0.13736260609253018 0.020919748070330323 -0.13736260609253018
2.492E9 0.019422607230155674 -0.13200990750504482 0.9805773927698443 0.13200990750504482 0.9805773927698443 0.13200990750504482 0.019422607230155674 -0.13200990750504482
2.56675E9 0.01805468629208079 -0.12690547567625884 0.981945313707919 0.12690547567625884 0.981945313707919 0.12690547567625884 0.01805468629208079 -0.12690547567625884
2.6415E9 0.016802242371162374 -0.12203031320533843 0.9831977576288377 0.12203031320533843 0.9831977576288377 0.12203031320533843 0.016802242371162374 -0.12203031320533843
2.71625E9 0.015653313936576922 -0.11736725206232779 0.9843466860634232 0.11736725206232779 0.9843466860634232 0.11736725206232779 0.015653313936576922 -0.11736725206232779
2.791E9 0.01459745275443348 -0.11290074691541943 0.9854025472455664 0.11290074691541943 0.9854025472455664 0.11290074691541943 0.01459745275443348 -0.11290074691541943
2.86575E9 0.013625501400757719 -0.10861669446228099 0.9863744985992423 0.10861669446228099 0.9863744985992423 0.10861669446228099 0.013625501400757719 -0.10861669446228099
2.9405E9 0.012729407765748803 -0.10450227530158185 0.9872705922342511 0.10450227530158185 0.9872705922342511 0.10450227530158185 0.012729407765748803 -0.10450227530158185
3.01525E9 0.011902069731886731 -0.10054581533484269 0.9880979302681132 0.10054581533484269 0.9880979302681132 0.10054581533484269 0.011902069731886731 -0.10054581533484269
3.09E9 0.011137204580172892 -0.0967366640941791 0.9888627954198272 0.0967366640941791 0.9888627954198272 0.0967366640941791 0.011137204580172892 -0.0967366640941791
3.16475E9 0.010429238752765307 -0.09306508774829186 0.9895707612472348 0.09306508774829186 0.9895707612472348 0.09306508774829186 0.010429238752765307 -0.09306508774829186
3.2395E9 0.009773214445557803 -0.08952217484990276 0.9902267855544419 0.08952217484990276 0.9902267855544419 0.08952217484990276 0.009773214445557803 -0.08952217484990276
3.31425E9 0.009164710172920995 -0.08609975315683546 0.9908352898270787 0.08609975315683546 0.9908352898270787 0.08609975315683546 0.009164710172920995 -0.08609975315683546
3.389E9 0.00859977297836777 -0.08279031609068345 0.9914002270216322 0.08279031609068345 0.9914002270216322 0.08279031609068345 0.00859977297836777 -0.08279031609068345
3.46375E9 0.008074860389445987 -0.07958695759605658 0.9919251396105542 0.07958695759605658 0.9919251396105542 0.07958695759605658 0.008074860389445987 -0.07958695759605658
3.5385E9 0.007586790555785632 -0.07648331433406486 0.9924132094442145 0.07648331433406486 0.9924132094442145 0.07648331433406486 0.007586790555785632 -0.07648331433406486
3.61325E9 0.0071326992837291965 -0.0734735142898874 0.9928673007162706 0.0734735142898874 0.9928673007162706 0.0734735142898874 0.0071326992837291965 -0.0734735142898874
3.688E9 0.0067100029031284675 -0.07055213099945314 0.9932899970968713 0.07055213099945314 0.9932899970968713 0.07055213099945314 0.0067100029031284675 -0.07055213099945314
3.76275E9 0.006316366082421864 -0.06771414270747704 0.9936836339175781 0.06771414270747704 0.9936836339175781 0.06771414270747704 0.006316366082421864 -0.06771414270747704
3.8375E9 0.0059496738553921165 -0.06495489586096213 0.9940503261446078 0.06495489586096213 0.9940503261446078 0.06495489586096213 0.0059496738553921165 -0.06495489586096213
3.91225E9 0.005608007243629828 -0.06227007242107405 0.9943919927563704 0.06227007242107405 0.9943919927563704 0.06227007242107405 0.005608007243629828 -0.06227007242107405
3.987E9 0.005289621957883538 -0.05965566054393372 0.9947103780421167 0.05965566054393372 0.9947103780421167 0.05965566054393372 0.005289621957883538 -0.05965566054393372
4.06175E9 0.004992929743276491 -0.05710792823902102 0.9950070702567234 0.05710792823902102 0.9950070702567234 0.05710792823902102 0.004992929743276491 -0.05710792823902102
4.1365E9 0.004716482001084629 -0.054623399663926 0.9952835179989152 0.054623399663926 0.9952835179989152 0.054623399663926 0.004716482001084629 -0.054623399663926
4.21125E9 0.004458955376012639 -0.05219883375732023 0.9955410446239875 0.05219883375732023 0.9955410446239875 0.05219883375732023 0.004458955376012639 -0.05219883375732023
4.286E9 0.0042191390447702684 -0.049831204949259716 0.9957808609552297 0.049831204949259716 0.9957808609552297 0.049831204949259716 0.0042191390447702684 -0.049831204949259716
4.36075E9 0.003995923480925017 -0.04751768572012713 0.9960040765190749 0.04751768572012713 0.9960040765190749 0.04751768572012713 0.003995923480925017 -0.04751768572012713
4.4355E9 0.003788290503851286 -0.04525563080740136 0.9962117094961488 0.04525563080740136 0.9962117094961488 0.04525563080740136 0.003788290503851286 -0.04525563080740136
4.51025E9 0.003595304447214395 -0.04304256288362879 0.9964046955527857 0.04304256288362879 0.9964046955527857 0.04304256288362879 0.003595304447214395 -0.04304256288362879
4.585E9 0.003416104305717463 -0.04087615954998239 0.9965838956942824 0.04087615954998239 0.9965838956942824 0.04087615954998239 0.003416104305717463 -0.04087615954998239
4.65975E9 0.0032498967385331755 -0.03875424150808102 0.9967501032614666 0.03875424150808102 0.9967501032614666 0.03875424150808102 0.0032498967385331755 -0.03875424150808102
4.7345E9 0.0030959498245402136 -0.03667476178868122 0.9969040501754596 0.03667476178868122 0.9969040501754596 0.03667476178868122 0.0030959498245402136 -0.03667476178868122
4.80925E9 0.0029535874786786186 -0.034635795929772076 0.9970464125213214 0.034635795929772076 0.9970464125213214 0.034635795929772076 0.0029535874786786186 -0.034635795929772076
4.884E9 0.002822184450834803 -0.03263553300877462 0.9971778155491652 0.03263553300877462 0.9971778155491652 0.03263553300877462 0.002822184450834803 -0.03263553300877462
4.95875E9 0.002701161839001148 -0.030672267444210193 0.9972988381609988 0.030672267444210193 0.9972988381609988 0.030672267444210193 0.002701161839001148 -0.030672267444210193
5.0335E9 0.002589983057304267 -0.02874439149155547 0.9974100169426958 0.02874439149155547 0.9974100169426958 0.02874439149155547 0.002589983057304267 -0.02874439149155547
5.10825E9 0.0024881502070915593 -0.026850388366223228 0.9975118497929083 0.026850388366223228 0.9975118497929083 0.026850388366223228 0.0024881502070915593 -0.026850388366223228
5.183E9 0.0023952008057993067 -0.024988825933842135 0.9976047991942006 0.024988825933842135 0.9976047991942006 0.024988825933842135 0.0023952008057993067 -0.024988825933842135
5.25775E9 0.002310704833958336 -0.023158350914386436 0.9976892951660418 0.023158350914386436 0.9976892951660418 0.023158350914386436 0.002310704833958336 -0.023158350914386436
5.3325E9 0.002234262065559574 -0.02135768355233627 0.9977657379344405 0.02135768355233627 0.9977657379344405 0.02135768355233627 0.002234262065559574 -0.02135768355233627
5.40725E9 0.0021654996512145844 -0.019585612710027685 0.9978345003487852 0.019585612710027685 0.9978345003487852 0.019585612710027685 0.0021654996512145844 -0.019585612710027685
5.482E9 0.0021040699272005373 -0.017840991345757708 0.9978959300727996 0.017840991345757708 0.9978959300727996 0.017840991345757708 0.0021040699272005373 -0.017840991345757708
5.55675E9 0.0020496484266552878 -0.016122732342118834 0.9979503515733448 0.016122732342118834 0.9979503515733448 0.016122732342118834 0.0020496484266552878 -0.016122732342118834
5.6315E9 0.00200193207195399 -0.014429804653507426 0.997998067928046 0.014429804653507426 0.997998067928046 0.014429804653507426 0.00200193207195399 -0.014429804653507426
5.70625E9 0.0019606375297116017 -0.012761229744835479 0.9980393624702887 0.012761229744835479 0.9980393624702887 0.012761229744835479 0.0019606375297116017 -0.012761229744835479
5.781E9 0.0019254997119644865 -0.011116078296223597 0.9980745002880355 0.011116078296223597 0.9980745002880355 0.011116078296223597 0.0019254997119644865 -0.011116078296223597
5.85575E9 0.001896270408930693 -0.009493467150902516 0.9981037295910693 0.009493467150902516 0.9981037295910693 0.009493467150902516 0.001896270408930693 -0.009493467150902516
5.9305E9 0.0018727170403677457 -0.007892556485737091 0.9981272829596324 0.007892556485737091 0.9981272829596324 0.007892556485737091 0.0018727170403677457 -0.007892556485737091
6.00525E9 0.0018546215139694088 -0.00631254718574286 0.9981453784860306 0.00631254718574286 0.9981453784860306 0.00631254718574286 0.0018546215139694088 -0.00631254718574286
6.08E9 0.0018417791804945553 -0.004752678405713898 0.9981582208195054 0.004752678405713898 0.9981582208195054 0.004752678405713898 0.0018417791804945553 -0.004752678405713898
6.15475E9 0.001833997876424552 -0.0032122253036504108 0.9981660021235755 0.0032122253036504108 0.9981660021235755 0.0032122253036504108 0.001833997876424552 -0.0032122253036504108
6.2295E9 0.0018310970459193654 -0.001690496932080228 0.9981689029540806 0.001690496932080228 0.9981689029540806 0.001690496932080228 0.0018310970459193654 -0.001690496932080228
6.30425E9 0.0018329069347034874 -1.868342746340591E-4 0.9981670930652965 1.868342746340591E-4 0.9981670930652965 1.868342746340591E-4 0.0018329069347034874 -1.868342746340591E-4
6.379E9 0.0018392678492750209 0.0012993915836300245 0.998160732150725 -0.0012993915836300245 0.998160732150725 -0.0012993915836300245 0.0018392678492750209 0.0012993915836300245
6.45375E9 0.0018500294755070608 0.0027687811626325672 0.9981499705244931 -0.0027687811626325672 0.9981499705244931 -0.0027687811626325672 0.0018500294755070608 0.0027687811626325672
6.5285E9 0.001865050251310616 0.004221908179966961 0.9981349497486895 -0.004221908179966961 0.9981349497486895 -0.004221908179966961 0.001865050251310616 0.004221908179966961
6.60325E9 0.001884196788561818 0.005659321038605231 0.998115803211438 -0.005659321038605231 0.998115803211438 -0.005659321038605231 0.001884196788561818 0.005659321038605231
6.678E9 0.0019073433399712809 0.00708154421758843 0.9980926566600286 -0.00708154421758843 0.9980926566600286 -0.00708154421758843 0.0019073433399712809 0.00708154421758843
6.75275E9 0.001934371306996938 0.008489079572992077 0.9980656286930027 -0.008489079572992077 0.9980656286930027 -0.008489079572992077 0.001934371306996938 0.008489079572992077
6.8275E9 0.001965168785279843 0.009882407555841903 0.9980348312147199 -0.009882407555841903 0.9980348312147199 -0.009882407555841903 0.001965168785279843 0.009882407555841903
6.90225E9 0.001999630144420341 0.011261988353097288 0.9980003698555797 -0.011261988353097288 0.9980003698555797 -0.011261988353097288 0.001999630144420341 0.011261988353097288
6.977E9 0.0020376556392144836 0.012628262957311709 0.9979623443607857 -0.012628262957311709 0.9979623443607857 -0.012628262957311709 0.0020376556392144836 0.012628262957311709
7.05175E9 0.00207915104974164 0.013981654170121458 0.9979208489502583 -0.013981654170121458 0.9979208489502583 -0.013981654170121458 0.00207915104974164 0.013981654170121458
7.1265E9 0.002124027347937367 0.015322567544293654 0.9978759726520626 -0.015322567544293654 0.9978759726520626 -0.015322567544293654 0.002124027347937367 0.015322567544293654
7.20125E9 0.002172200388504076 0.016651392268686244 0.9978277996114959 -0.016651392268686244 0.9978277996114959 -0.016651392268686244 0.002172200388504076 0.016651392268686244
7.276E9 0.002223590622208439 0.01796850200012446 0.9977764093777914 -0.01796850200012446 0.9977764093777914 -0.01796850200012446 0.002223590622208439 0.01796850200012446
7.35075E9 0.002278122829791354 0.019274255645884024 0.9977218771702089 -0.019274255645884024 0.9977218771702089 -0.019274255645884024 0.002278122829791354 0.019274255645884024
7.4255E9 0.0023357258748756726 0.02056899810018148 0.9976642741251243 -0.02056899810018148 0.9976642741251243 -0.02056899810018148 0.0023357258748756726 0.02056899810018148
7.50025E9 0.0023963324744008083 0.02185306093781124 0.9976036675255991 -0.02185306093781124 0.9976036675255991 -0.02185306093781124 0.0023963324744008083 0.02185306093781124
7.575E9 0.0024598789852432615 0.023126763067826312 0.9975401210147566 -0.023126763067826312 0.9975401210147566 -0.023126763067826312 0.0024598789852432615 0.023126763067826312
7.64975E9 0.002526305205799652 0.02439041134994124 0.9974736947942002 -0.02439041134994124 0.9974736947942002 -0.02439041134994124 0.002526305205799652 0.02439041134994124
7.7245E9 0.002595554191415354 0.025644301176134306 0.9974044458085848 -0.025644301176134306 0.9974044458085848 -0.025644301176134306 0.002595554191415354 0.025644301176134306
7.79925E9 0.00266757208263818 0.02688871701974065 0.997332427917362 -0.02688871701974065 0.997332427917362 -0.02688871701974065 0.00266757208263818 0.02688871701974065
7.874E9 0.002742307945364275 0.028123932954160793 0.9972576920546357 -0.028123932954160793 0.9972576920546357 -0.028123932954160793 0.002742307945364275 0.028123932954160793
7.94875E9 0.0028197136220227906 0.0293502131431517 0.9971802863779774 -0.0293502131431517 0.9971802863779774 -0.0293502131431517 0.0028197136220227906 0.0293502131431517
8.0235E9 0.0028997435930183443 0.030567812304526917 0.9971002564069817 -0.030567812304526917 0.9971002564069817 -0.030567812304526917 0.0028997435930183443 0.030567812304526917
8.09825E9 0.0029823548477161564 0.03177697614896058 0.9970176451522842 -0.03177697614896058 0.9970176451522842 -0.03177697614896058 0.0029823548477161564 0.03177697614896058
8.173E9 0.0030675067643147758 0.032977941795469645 0.9969324932356853 -0.032977941795469645 0.9969324932356853 -0.032977941795469645 0.0030675067643147758 0.032977941795469645
8.24775E9 0.0031551609980062095 0.034170938165038536 0.9968448390019939 -0.034170938165038536 0.9968448390019939 -0.034170938165038536 0.0031551609980062095 0.034170938165038536
8.3225E9 0.0032452813768733446 0.035356186353748 0.9967547186231268 -0.035356186353748 0.9967547186231268 -0.035356186353748 0.0032452813768733446 0.035356186353748
8.39725E9 0.0033378338050204567 0.036533899986676055 0.9966621661949796 -0.036533899986676055 0.9966621661949796 -0.036533899986676055 0.0033378338050204567 0.036533899986676055
8.472E9 0.00343278617247462 0.03770428555375256 0.9965672138275253 -0.03770428555375256 0.9965672138275253 -0.03770428555375256 0.00343278617247462 0.03770428555375256
8.54675E9 0.0035301082714344497 0.038867542728669095 0.9964698917285655 -0.038867542728669095 0.9964698917285655 -0.038867542728669095 0.0035301082714344497 0.038867542728669095
