!Murata Part Number: GJM0225C1E1R5BB01
!These Parameters are Measured in Series Mode Connection
!       o--ll--o
!Port1            Port2
!       o------o
!Operation Temp=25[degC], DC Bias Voltage=0[V]
!Freq. Start=100[MHz] Stop=30[GHz], 401[Steps]
!Data Generated on Feb 1, 2023
# Hz S RI R 50
!Freq.(Hz) S11(Real) S11(Imag) S21(Real) S21(Imag) S12(Real) S12(Imag) S22(Real) S22(Imag)
1.0E8 0.991172275859782 -0.09342329273395471 0.008827724140217905 0.09342329273395471 0.008827724140217905 0.09342329273395471 0.991172275859782 -0.09342329273395471
1.7475E8 0.9735126579484645 -0.1603749345170422 0.026487342051535568 0.1603749345170422 0.026487342051535568 0.1603749345170422 0.9735126579484645 -0.1603749345170422
2.495E8 0.9474226002561471 -0.22289621071529941 0.052577399743852754 0.22289621071529941 0.052577399743852754 0.22289621071529941 0.9474226002561471 -0.22289621071529941
3.2425E8 0.9142417243485844 -0.27962701384442884 0.08575827565141562 0.27962701384442884 0.08575827565141562 0.27962701384442884 0.9142417243485844 -0.27962701384442884
3.99E8 0.8755207422448334 -0.32965993727804604 0.12447925775516641 0.32965993727804604 0.12447925775516641 0.32965993727804604 0.8755207422448334 -0.32965993727804604
4.7375E8 0.8328620568336721 -0.3725434311723976 0.16713794316632796 0.3725434311723976 0.16713794316632796 0.3725434311723976 0.8328620568336721 -0.3725434311723976
5.485E8 0.7877864040291709 -0.40823153620555164 0.21221359597082912 0.40823153620555164 0.21221359597082912 0.40823153620555164 0.7877864040291709 -0.40823153620555164
6.2325E8 0.7416395033083173 -0.43700104882509483 0.2583604966916826 0.43700104882509483 0.2583604966916826 0.43700104882509483 0.7416395033083173 -0.43700104882509483
6.98E8 0.6955409423001295 -0.45935711817441804 0.3044590576998703 0.45935711817441804 0.3044590576998703 0.45935711817441804 0.6955409423001295 -0.45935711817441804
7.7275E8 0.6503692197709573 -0.47594352730497025 0.3496307802290426 0.47594352730497025 0.3496307802290426 0.47594352730497025 0.6503692197709573 -0.47594352730497025
8.475E8 0.6067729418233272 -0.4874674084511864 0.3932270581766727 0.4874674084511864 0.3932270581766727 0.4874674084511864 0.6067729418233272 -0.4874674084511864
9.2225E8 0.5651978028770842 -0.4946422420266846 0.4348021971229157 0.4946422420266846 0.4348021971229157 0.4946422420266846 0.5651978028770842 -0.4946422420266846
9.97E8 0.5259207191199933 -0.4981488152715538 0.4740792808800066 0.4981488152715538 0.4740792808800066 0.4981488152715538 0.5259207191199933 -0.4981488152715538
1.07175E9 0.48908498283028645 -0.49861149869966326 0.5109150171697134 0.49861149869966326 0.5109150171697134 0.49861149869966326 0.48908498283028645 -0.49861149869966326
1.1465E9 0.45473270142660216 -0.4965863390713196 0.5452672985733977 0.4965863390713196 0.5452672985733977 0.4965863390713196 0.45473270142660216 -0.4965863390713196
1.22125E9 0.42283266922847956 -0.49255752997538393 0.5771673307715204 0.49255752997538393 0.5771673307715204 0.49255752997538393 0.42283266922847956 -0.49255752997538393
1.296E9 0.39330310691438597 -0.48693934447807935 0.606696893085614 0.48693934447807935 0.606696893085614 0.48693934447807935 0.39330310691438597 -0.48693934447807935
1.37075E9 0.366029473795345 -0.4800812845889441 0.6339705262046549 0.4800812845889441 0.6339705262046549 0.4800812845889441 0.366029473795345 -0.4800812845889441
1.4455E9 0.34087794751653744 -0.47227484260682506 0.6591220524834623 0.47227484260682506 0.6591220524834623 0.47227484260682506 0.34087794751653744 -0.47227484260682506
1.52025E9 0.31770530668878627 -0.4637608014803107 0.6822946933112137 0.4637608014803107 0.6822946933112137 0.4637608014803107 0.31770530668878627 -0.4637608014803107
1.595E9 0.29636594802201305 -0.4547364061959011 0.7036340519779869 0.4547364061959011 0.7036340519779869 0.4547364061959011 0.29636594802201305 -0.4547364061959011
1.66975E9 0.27671669259631054 -0.44536202677914477 0.7232833074036894 0.44536202677914477 0.7232833074036894 0.44536202677914477 0.27671669259631054 -0.44536202677914477
1.7445E9 0.2586199309037167 -0.43576712800893375 0.7413800690962832 0.43576712800893375 0.7413800690962832 0.43576712800893375 0.2586199309037167 -0.43576712800893375
1.81925E9 0.2419455486842096 -0.4260554850639686 0.7580544513157903 0.4260554850639686 0.7580544513157903 0.4260554850639686 0.2419455486842096 -0.4260554850639686
1.894E9 0.226571978045686 -0.41630965865536795 0.7734280219543141 0.41630965865536795 0.7734280219543141 0.41630965865536795 0.226571978045686 -0.41630965865536795
1.96875E9 0.21238663588154164 -0.4065947839429271 0.7876133641184584 0.4065947839429271 0.7876133641184584 0.4065947839429271 0.21238663588154164 -0.4065947839429271
2.0435E9 0.19928594491131943 -0.3969617465893821 0.8007140550886807 0.3969617465893821 0.8007140550886807 0.3969617465893821 0.19928594491131943 -0.3969617465893821
2.11825E9 0.1871750804137404 -0.3874498250156476 0.8128249195862598 0.3874498250156476 0.8128249195862598 0.3874498250156476 0.1871750804137404 -0.3874498250156476
2.193E9 0.17596754571908366 -0.3780888758938383 0.8240324542809163 0.3780888758938383 0.8240324542809163 0.3780888758938383 0.17596754571908366 -0.3780888758938383
2.26775E9 0.16558464946104268 -0.3689011337981866 0.8344153505389575 0.3689011337981866 0.8344153505389575 0.3689011337981866 0.16558464946104268 -0.3689011337981866
2.3425E9 0.15595493532799248 -0.35990268800524483 0.8440450646720072 0.35990268800524483 0.8440450646720072 0.35990268800524483 0.15595493532799248 -0.35990268800524483
2.41725E9 0.14701359878951345 -0.35110469105642617 0.8529864012104864 0.35110469105642617 0.8529864012104864 0.35110469105642617 0.14701359878951345 -0.35110469105642617
2.492E9 0.13870191353669856 -0.342514345634218 0.8612980864633013 0.342514345634218 0.8612980864633013 0.342514345634218 0.13870191353669856 -0.342514345634218
2.56675E9 0.13096668200860828 -0.3341357089482612 0.8690333179913917 0.3341357089482612 0.8690333179913917 0.3341357089482612 0.13096668200860828 -0.3341357089482612
2.6415E9 0.1237597184932685 -0.3259703473393034 0.8762402815067315 0.3259703473393034 0.8762402815067315 0.3259703473393034 0.1237597184932685 -0.3259703473393034
2.71625E9 0.11703736921723412 -0.31801786821442807 0.8829626307827659 0.31801786821442807 0.8829626307827659 0.31801786821442807 0.11703736921723412 -0.31801786821442807
2.791E9 0.11076007107045381 -0.31027635167938006 0.8892399289295462 0.31027635167938006 0.8892399289295462 0.31027635167938006 0.11076007107045381 -0.31027635167938006
2.86575E9 0.10489194878136204 -0.30274270025119676 0.8951080512186379 0.30274270025119676 0.8951080512186379 0.30274270025119676 0.10489194878136204 -0.30274270025119676
2.9405E9 0.09940044918830793 -0.2954129217214688 0.9005995508116921 0.2954129217214688 0.9005995508116921 0.2954129217214688 0.09940044918830793 -0.2954129217214688
3.01525E9 0.09425601054929117 -0.2882823575017969 0.9057439894507088 0.2882823575017969 0.9057439894507088 0.2882823575017969 0.09425601054929117 -0.2882823575017969
3.09E9 0.0894317644491885 -0.28134586652917115 0.9105682355508116 0.28134586652917115 0.9105682355508116 0.28134586652917115 0.0894317644491885 -0.28134586652917115
3.16475E9 0.08490326769934227 -0.27459797296034616 0.9150967323006579 0.27459797296034616 0.9150967323006579 0.27459797296034616 0.08490326769934227 -0.27459797296034616
3.2395E9 0.08064826160523299 -0.26803298437155526 0.9193517383947669 0.26803298437155526 0.9193517383947669 0.26803298437155526 0.08064826160523299 -0.26803298437155526
3.31425E9 0.07664645605216637 -0.2616450859440829 0.9233535439478335 0.2616450859440829 0.9233535439478335 0.2616450859440829 0.07664645605216637 -0.2616450859440829
3.389E9 0.07287933599019833 -0.2554284151076724 0.9271206640098016 0.2554284151076724 0.9271206640098016 0.2554284151076724 0.07287933599019833 -0.2554284151076724
3.46375E9 0.06932998806281293 -0.2493771202911957 0.930670011937187 0.2493771202911957 0.930670011937187 0.2493771202911957 0.06932998806281293 -0.2493771202911957
3.5385E9 0.06598294530207975 -0.24348540675934074 0.9340170546979202 0.24348540675934074 0.9340170546979202 0.24348540675934074 0.06598294530207975 -0.24348540675934074
3.61325E9 0.06282404799473938 -0.23774757196721608 0.9371759520052605 0.23774757196721608 0.9371759520052605 0.23774757196721608 0.06282404799473938 -0.23774757196721608
3.688E9 0.059840319001535774 -0.23215803241880786 0.940159680998464 0.23215803241880786 0.940159680998464 0.23215803241880786 0.059840319001535774 -0.23215803241880786
3.76275E9 0.05701985198155203 -0.2267113436513825 0.942980148018448 0.2267113436513825 0.942980148018448 0.2267113436513825 0.05701985198155203 -0.2267113436513825
3.8375E9 0.054351711131702 -0.22140221467095744 0.945648288868298 0.22140221467095744 0.945648288868298 0.22140221467095744 0.054351711131702 -0.22140221467095744
3.91225E9 0.05182584119758882 -0.21622551792143577 0.9481741588024111 0.21622551792143577 0.9481741588024111 0.21622551792143577 0.05182584119758882 -0.21622551792143577
3.987E9 0.04943298664526422 -0.2111762956718134 0.9505670133547356 0.2111762956718134 0.9505670133547356 0.2111762956718134 0.04943298664526422 -0.2111762956718134
4.06175E9 0.047164619004192596 -0.2062497635438228 0.9528353809958076 0.2062497635438228 0.9528353809958076 0.2062497635438228 0.047164619004192596 -0.2062497635438228
4.1365E9 0.04501287150047555 -0.20144131176978947 0.9549871284995244 0.20144131176978947 0.9549871284995244 0.20144131176978947 0.04501287150047555 -0.20144131176978947
4.21125E9 0.042970480196890135 -0.19674650466194202 0.9570295198031098 0.19674650466194202 0.9570295198031098 0.19674650466194202 0.042970480196890135 -0.19674650466194202
4.286E9 0.04103073094338869 -0.1921610786855063 0.9589692690566114 0.1921610786855063 0.9589692690566114 0.1921610786855063 0.04103073094338869 -0.1921610786855063
4.36075E9 0.03918741151931082 -0.18768093945506106 0.9608125884806892 0.18768093945506106 0.9608125884806892 0.18768093945506106 0.03918741151931082 -0.18768093945506106
4.4355E9 0.03743476841755767 -0.18330215791389906 0.9625652315824424 0.18330215791389906 0.9625652315824424 0.18330215791389906 0.03743476841755767 -0.18330215791389906
4.51025E9 0.035767467782238785 -0.1790209659071563 0.9642325322177614 0.1790209659071563 0.9642325322177614 0.1790209659071563 0.035767467782238785 -0.1790209659071563
4.585E9 0.03418056006562866 -0.17483375131929177 0.9658194399343714 0.17483375131929177 0.9658194399343714 0.17483375131929177 0.03418056006562866 -0.17483375131929177
4.65975E9 0.03266944801841601 -0.17073705291354904 0.967330551981584 0.17073705291354904 0.967330551981584 0.17073705291354904 0.03266944801841601 -0.17073705291354904
4.7345E9 0.03122985766987034 -0.16672755498399885 0.9687701423301298 0.16672755498399885 0.9687701423301298 0.16672755498399885 0.03122985766987034 -0.16672755498399885
4.80925E9 0.029857811992313656 -0.16280208190860257 0.9701421880076861 0.16280208190860257 0.9701421880076861 0.16280208190860257 0.029857811992313656 -0.16280208190860257
4.884E9 0.028549606977722193 -0.15895759267357593 0.9714503930222779 0.15895759267357593 0.9714503930222779 0.15895759267357593 0.028549606977722193 -0.15895759267357593
4.95875E9 0.02730178988389571 -0.15519117542446403 0.9726982101161042 0.15519117542446403 0.9726982101161042 0.15519117542446403 0.02730178988389571 -0.15519117542446403
5.0335E9 0.026111139433860217 -0.15150004208717247 0.9738888605661399 0.15150004208717247 0.9738888605661399 0.15150004208717247 0.026111139433860217 -0.15150004208717247
5.10825E9 0.024974647775414197 -0.14788152309226676 0.9750253522245856 0.14788152309226676 0.9750253522245856 0.14788152309226676 0.024974647775414197 -0.14788152309226676
5.183E9 0.023889504028331822 -0.14433306222775177 0.9761104959716682 0.14433306222775177 0.9761104959716682 0.14433306222775177 0.023889504028331822 -0.14433306222775177
5.25775E9 0.022853079265013017 -0.14085221163895137 0.9771469207349872 0.14085221163895137 0.9771469207349872 0.14085221163895137 0.022853079265013017 -0.14085221163895137
5.3325E9 0.02186291278659051 -0.137436626988765 0.9781370872134094 0.137436626988765 0.9781370872134094 0.137436626988765 0.02186291278659051 -0.137436626988765
5.40725E9 0.02091669957090848 -0.13408406278725576 0.9790833004290914 0.13408406278725576 0.9790833004290914 0.13408406278725576 0.02091669957090848 -0.13408406278725576
5.482E9 0.020012278781589704 -0.13079236789604753 0.9799877212184102 0.13079236789604753 0.9799877212184102 0.13079236789604753 0.020012278781589704 -0.13079236789604753
5.55675E9 0.01914762323879353 -0.12755948121022445 0.9808523767612066 0.12755948121022445 0.9808523767612066 0.12755948121022445 0.01914762323879353 -0.12755948121022445
5.6315E9 0.01832082976240157 -0.12438342751821466 0.9816791702375987 0.12438342751821466 0.9816791702375987 0.12438342751821466 0.01832082976240157 -0.12438342751821466
5.70625E9 0.017530110307394393 -0.12126231353839281 0.9824698896926057 0.12126231353839281 0.9824698896926057 0.12126231353839281 0.017530110307394393 -0.12126231353839281
5.781E9 0.01677378381923112 -0.11819432412977882 0.983226216180769 0.11819432412977882 0.983226216180769 0.11819432412977882 0.01677378381923112 -0.11819432412977882
5.85575E9 0.016050268744224615 -0.11517771867316344 0.9839497312557753 0.11517771867316344 0.9839497312557753 0.11517771867316344 0.016050268744224615 -0.11517771867316344
5.9305E9 0.015358076136317171 -0.11221082761820374 0.9846419238636828 0.11221082761820374 0.9846419238636828 0.11221082761820374 0.015358076136317171 -0.11221082761820374
6.00525E9 0.014695803307394197 -0.1092920491914532 0.9853041966926059 0.1092920491914532 0.9853041966926059 0.1092920491914532 0.014695803307394197 -0.1092920491914532
6.08E9 0.014062127973399858 -0.10641984625988286 0.9859378720266001 0.10641984625988286 0.9859378720266001 0.10641984625988286 0.014062127973399858 -0.10641984625988286
6.15475E9 0.01345580285311085 -0.10359274334418167 0.9865441971468892 0.10359274334418167 0.9865441971468892 0.10359274334418167 0.01345580285311085 -0.10359274334418167
6.2295E9 0.012875650680537889 -0.10080932377596276 0.987124349319462 0.10080932377596276 0.987124349319462 0.10080932377596276 0.012875650680537889 -0.10080932377596276
6.30425E9 0.012320559595615368 -0.0980682269929348 0.9876794404043845 0.0980682269929348 0.9876794404043845 0.0980682269929348 0.012320559595615368 -0.0980682269929348
6.379E9 0.011789478881152693 -0.09536814596609715 0.9882105211188473 0.09536814596609715 0.9882105211188473 0.09536814596609715 0.011789478881152693 -0.09536814596609715
6.45375E9 0.0112814150169976 -0.09270782475307465 0.9887185849830021 0.09270782475307465 0.9887185849830021 0.09270782475307465 0.0112814150169976 -0.09270782475307465
6.5285E9 0.010795428025039092 -0.09008605617180708 0.9892045719749609 0.09008605617180708 0.9892045719749609 0.09008605617180708 0.010795428025039092 -0.09008605617180708
6.60325E9 0.010330628081087635 -0.08750167958894198 0.9896693719189122 0.08750167958894198 0.9896693719189122 0.08750167958894198 0.010330628081087635 -0.08750167958894198
6.678E9 0.009886172371841374 -0.08495357881743765 0.9901138276281586 0.08495357881743765 0.9901138276281586 0.08495357881743765 0.009886172371841374 -0.08495357881743765
6.75275E9 0.009461262177104515 -0.08244068011805773 0.9905387378228954 0.08244068011805773 0.9905387378228954 0.08244068011805773 0.009461262177104515 -0.08244068011805773
6.8275E9 0.009055140159191358 -0.07996195029962963 0.9909448598408085 0.07996195029962963 0.9909448598408085 0.07996195029962963 0.009055140159191358 -0.07996195029962963
6.90225E9 0.008667087843044683 -0.07751639491313365 0.9913329121569552 0.07751639491313365 0.9913329121569552 0.07751639491313365 0.008667087843044683 -0.07751639491313365
6.977E9 0.008296423272040221 -0.0751030565348923 0.99170357672796 0.0751030565348923 0.99170357672796 0.0751030565348923 0.008296423272040221 -0.0751030565348923
7.05175E9 0.00794249882575424 -0.07272101313433235 0.9920575011742456 0.07272101313433235 0.9920575011742456 0.07272101313433235 0.00794249882575424 -0.07272101313433235
7.1265E9 0.007604699187152787 -0.070369376521993 0.9923953008128472 0.070369376521993 0.9923953008128472 0.070369376521993 0.007604699187152787 -0.070369376521993
7.20125E9 0.0072824394477329765 -0.06804729087365577 0.992717560552267 0.06804729087365577 0.992717560552267 0.06804729087365577 0.0072824394477329765 -0.06804729087365577
7.276E9 0.006975163340117619 -0.06575393132666522 0.9930248366598826 0.06575393132666522 0.9930248366598826 0.06575393132666522 0.006975163340117619 -0.06575393132666522
7.35075E9 0.006682341588486865 -0.06348850264470295 0.9933176584115131 0.06348850264470295 0.9933176584115131 0.06348850264470295 0.006682341588486865 -0.06348850264470295
7.4255E9 0.0064034703680316924 -0.06125023794746208 0.9935965296319685 0.06125023794746208 0.9935965296319685 0.06125023794746208 0.0064034703680316924 -0.06125023794746208
7.50025E9 0.006138069865342223 -0.05903839750184762 0.9938619301346576 0.05903839750184762 0.9938619301346576 0.05903839750184762 0.006138069865342223 -0.05903839750184762
7.575E9 0.0058856829323071114 -0.05685226757150261 0.9941143170676929 0.05685226757150261 0.9941143170676929 0.05685226757150261 0.0058856829323071114 -0.05685226757150261
7.64975E9 0.005645873826703532 -0.05469115932162442 0.9943541261732965 0.05469115932162442 0.9943541261732965 0.05469115932162442 0.005645873826703532 -0.05469115932162442
7.7245E9 0.005418227033207359 -0.05255440777619447 0.9945817729667927 0.05255440777619447 0.9945817729667927 0.05255440777619447 0.005418227033207359 -0.05255440777619447
7.79925E9 0.0052023461590548666 -0.05044137082489667 0.994797653840945 0.05044137082489667 0.994797653840945 0.05044137082489667 0.0052023461590548666 -0.05044137082489667
7.874E9 0.004997852899044968 -0.04835142827714416 0.995002147100955 0.04835142827714416 0.995002147100955 0.04835142827714416 0.004997852899044968 -0.04835142827714416
7.94875E9 0.004804386064989222 -0.04628398096077202 0.9951956139350107 0.04628398096077202 0.9951956139350107 0.04628398096077202 0.004804386064989222 -0.04628398096077202
8.0235E9 0.0046216006750989256 -0.04423844986308415 0.9953783993249011 0.04423844986308415 0.9953783993249011 0.04423844986308415 0.0046216006750989256 -0.04423844986308415
8.09825E9 0.004449167099148325 -0.042214275312067985 0.9955508329008518 0.042214275312067985 0.9955508329008518 0.042214275312067985 0.004449167099148325 -0.042214275312067985
8.173E9 0.004286770255572711 -0.040210916195707054 0.9957132297444272 0.040210916195707054 0.9957132297444272 0.040210916195707054 0.004286770255572711 -0.040210916195707054
8.24775E9 0.004134108856953443 -0.03822784921743572 0.9958658911430465 0.03822784921743572 0.9958658911430465 0.03822784921743572 0.004134108856953443 -0.03822784921743572
8.3225E9 0.003990894700610382 -0.03626456818588379 0.9960091052993899 0.03626456818588379 0.9960091052993899 0.03626456818588379 0.003990894700610382 -0.03626456818588379
8.39725E9 0.0038568520012686727 -0.034320583337161197 0.996143147998731 0.034320583337161197 0.996143147998731 0.034320583337161197 0.0038568520012686727 -0.034320583337161197
8.472E9 0.0037317167629929396 -0.0323954206880272 0.9962682832370069 0.0323954206880272 0.9962682832370069 0.0323954206880272 0.0037317167629929396 -0.0323954206880272
8.54675E9 0.003615236187789561 -0.030488621418377587 0.9963847638122103 0.030488621418377587 0.9963847638122103 0.030488621418377587 0.003615236187789561 -0.030488621418377587
8.6215E9 0.003507168118468666 -0.0285997412815699 0.9964928318815311 0.0285997412815699 0.9964928318815311 0.0285997412815699 0.003507168118468666 -0.0285997412815699
8.69625E9 0.0034072805135328893 -0.02672835004118494 0.9965927194864672 0.02672835004118494 0.9965927194864672 0.02672835004118494 0.0034072805135328893 -0.02672835004118494
