!Murata Part Number: GJM0225C1E4R3BB01
!These Parameters are Measured in Series Mode Connection
!       o--ll--o
!Port1            Port2
!       o------o
!Operation Temp=25[degC], DC Bias Voltage=0[V]
!Freq. Start=100[MHz] Stop=30[GHz], 401[Steps]
!Data Generated on Feb 1, 2023
# Hz S RI R 50
!Freq.(Hz) S11(Real) S11(Imag) S21(Real) S21(Imag) S12(Real) S12(Imag) S22(Real) S22(Imag)
1.0E8 0.9318419763833821 -0.2518007399312732 0.06815802361661796 0.2518007399312732 0.06815802361661796 0.2518007399312732 0.9318419763833821 -0.2518007399312732
1.7475E8 0.8172899265510883 -0.38605073379274807 0.18271007344891166 0.38605073379274807 0.18271007344891166 0.38605073379274807 0.8172899265510883 -0.38605073379274807
2.495E8 0.6866591879969103 -0.4633115584022477 0.3133408120030897 0.4633115584022477 0.3133408120030897 0.4633115584022477 0.6866591879969103 -0.4633115584022477
3.2425E8 0.5642970618730848 -0.495145848461914 0.43570293812691524 0.495145848461914 0.43570293812691524 0.495145848461914 0.5642970618730848 -0.495145848461914
3.99E8 0.4604425890513447 -0.49756651124253226 0.5395574109486551 0.49756651124253226 0.5395574109486551 0.49756651124253226 0.4604425890513447 -0.49756651124253226
4.7375E8 0.3764228756968985 -0.48345750760880835 0.6235771243031013 0.48345750760880835 0.6235771243031013 0.48345750760880835 0.3764228756968985 -0.48345750760880835
5.485E8 0.3098095414906924 -0.461219009673608 0.6901904585093077 0.461219009673608 0.6901904585093077 0.461219009673608 0.3098095414906924 -0.461219009673608
6.2325E8 0.25726346662248845 -0.43576326572439195 0.7427365333775114 0.43576326572439195 0.7427365333775114 0.43576326572439195 0.25726346662248845 -0.43576326572439195
6.98E8 0.2156889831044818 -0.4097689141824548 0.7843110168955182 0.4097689141824548 0.7843110168955182 0.4097689141824548 0.2156889831044818 -0.4097689141824548
7.7275E8 0.18255961511063717 -0.38460494540039897 0.8174403848893628 0.38460494540039897 0.8174403848893628 0.38460494540039897 0.18255961511063717 -0.38460494540039897
8.475E8 0.1559195507264613 -0.3609076161068158 0.8440804492735388 0.3609076161068158 0.8440804492735388 0.3609076161068158 0.1559195507264613 -0.3609076161068158
9.2225E8 0.134287372310831 -0.3389161137102127 0.8657126276891691 0.3389161137102127 0.8657126276891691 0.3389161137102127 0.134287372310831 -0.3389161137102127
9.97E8 0.11654848295948976 -0.318661427500391 0.8834515170405102 0.318661427500391 0.8834515170405102 0.318661427500391 0.11654848295948976 -0.318661427500391
1.07175E9 0.101863307219629 -0.30007072294901 0.898136692780371 0.30007072294901 0.898136692780371 0.30007072294901 0.101863307219629 -0.30007072294901
1.1465E9 0.0895960427591957 -0.283024237234643 0.9104039572408044 0.283024237234643 0.9104039572408044 0.283024237234643 0.0895960427591957 -0.283024237234643
1.22125E9 0.0792615579628718 -0.2673857689239552 0.920738442037128 0.2673857689239552 0.920738442037128 0.2673857689239552 0.0792615579628718 -0.2673857689239552
1.296E9 0.07048648400590128 -0.25301855385229166 0.9295135159940985 0.25301855385229166 0.9295135159940985 0.25301855385229166 0.07048648400590128 -0.25301855385229166
1.37075E9 0.06298085915964165 -0.23979309121257333 0.9370191408403585 0.23979309121257333 0.9370191408403585 0.23979309121257333 0.06298085915964165 -0.23979309121257333
1.4455E9 0.05651744304445869 -0.227590573343041 0.9434825569555413 0.227590573343041 0.9434825569555413 0.227590573343041 0.05651744304445869 -0.227590573343041
1.52025E9 0.05091655768430072 -0.21630395524614748 0.9490834423156993 0.21630395524614748 0.9490834423156993 0.21630395524614748 0.05091655768430072 -0.21630395524614748
1.595E9 0.04603490609957044 -0.20583779841391095 0.9539650939004294 0.20583779841391095 0.9539650939004294 0.20583779841391095 0.04603490609957044 -0.20583779841391095
1.66975E9 0.0417572619166963 -0.19610751885278654 0.9582427380833036 0.19610751885278654 0.9582427380833036 0.19610751885278654 0.0417572619166963 -0.19610751885278654
1.7445E9 0.037990242450899755 -0.18703838545900137 0.9620097575491001 0.18703838545900137 0.9620097575491001 0.18703838545900137 0.037990242450899755 -0.18703838545900137
1.81925E9 0.03465760398633558 -0.178564454981506 0.9653423960136646 0.178564454981506 0.9653423960136646 0.178564454981506 0.03465760398633558 -0.178564454981506
1.894E9 0.031696657556289434 -0.17062753975738174 0.9683033424437106 0.17062753975738174 0.9683033424437106 0.17062753975738174 0.031696657556289434 -0.17062753975738174
1.96875E9 0.029055516042233814 -0.16317625399087282 0.9709444839577661 0.16317625399087282 0.9709444839577661 0.16317625399087282 0.029055516042233814 -0.16317625399087282
2.0435E9 0.026690962982509475 -0.15616515651004964 0.9733090370174906 0.15616515651004964 0.9733090370174906 0.15616515651004964 0.026690962982509475 -0.15616515651004964
2.11825E9 0.02456679003537079 -0.149553992969446 0.9754332099646291 0.149553992969446 0.9754332099646291 0.149553992969446 0.02456679003537079 -0.149553992969446
2.193E9 0.022652490483351072 -0.14330703281742585 0.9773475095166488 0.14330703281742585 0.9773475095166488 0.14330703281742585 0.022652490483351072 -0.14330703281742585
2.26775E9 0.02092222528463475 -0.13739249281882557 0.9790777747153653 0.13739249281882557 0.9790777747153653 0.13739249281882557 0.02092222528463475 -0.13739249281882557
2.3425E9 0.019353999294209796 -0.1317820376754666 0.9806460007057901 0.1317820376754666 0.9806460007057901 0.1317820376754666 0.019353999294209796 -0.1317820376754666
2.41725E9 0.017929000704780474 -0.12645034825957185 0.9820709992952195 0.12645034825957185 0.9820709992952195 0.12645034825957185 0.017929000704780474 -0.12645034825957185
2.492E9 0.01663106811118826 -0.1213747485612974 0.9833689318888118 0.1213747485612974 0.9833689318888118 0.1213747485612974 0.01663106811118826 -0.1213747485612974
2.56675E9 0.01544625801913581 -0.11653488330850395 0.9845537419808641 0.11653488330850395 0.9845537419808641 0.11653488330850395 0.01544625801913581 -0.11653488330850395
2.6415E9 0.01436249190375871 -0.11191243915497506 0.9856375080962412 0.11191243915497506 0.9856375080962412 0.11191243915497506 0.01436249190375871 -0.11191243915497506
2.71625E9 0.013369266649105703 -0.10749090325195207 0.9866307333508945 0.10749090325195207 0.9866307333508945 0.10749090325195207 0.013369266649105703 -0.10749090325195207
2.791E9 0.012457415776903015 -0.1032553538676721 0.9875425842230969 0.1032553538676721 0.9875425842230969 0.1032553538676721 0.012457415776903015 -0.1032553538676721
2.86575E9 0.011618911598939973 -0.0991922784801075 0.9883810884010601 0.0991922784801075 0.9883810884010601 0.0991922784801075 0.011618911598939973 -0.0991922784801075
2.9405E9 0.01084670051787076 -0.09528941543477906 0.9891532994821293 0.09528941543477906 0.9891532994821293 0.09528941543477906 0.01084670051787076 -0.09528941543477906
3.01525E9 0.010134565314198568 -0.0915356158361897 0.9898654346858016 0.0915356158361897 0.9898654346858016 0.0915356158361897 0.010134565314198568 -0.0915356158361897
3.09E9 0.009477009509134986 -0.08792072283587779 0.9905229904908651 0.08792072283587779 0.9905229904908651 0.08792072283587779 0.009477009509134986 -0.08792072283587779
3.16475E9 0.00886915987027844 -0.08443546590163206 0.9911308401297217 0.08443546590163206 0.9911308401297217 0.08443546590163206 0.00886915987027844 -0.08443546590163206
3.2395E9 0.00830668389409075 -0.08107136801047807 0.9916933161059093 0.08107136801047807 0.9916933161059093 0.08107136801047807 0.00830668389409075 -0.08107136801047807
3.31425E9 0.007785719704378989 -0.07782066401153899 0.9922142802956211 0.07782066401153899 0.9922142802956211 0.07782066401153899 0.007785719704378989 -0.07782066401153899
3.389E9 0.00730281628597988 -0.07467622866182971 0.9926971837140202 0.07467622866182971 0.9926971837140202 0.07467622866182971 0.00730281628597988 -0.07467622866182971
3.46375E9 0.006854882355379104 -0.07163151305552438 0.9931451176446209 0.07163151305552438 0.9931451176446209 0.07163151305552438 0.006854882355379104 -0.07163151305552438
3.5385E9 0.006439142476307436 -0.0686804883513644 0.9935608575236925 0.0686804883513644 0.9935608575236925 0.0686804883513644 0.006439142476307436 -0.0686804883513644
3.61325E9 0.00605309927474407 -0.06581759585886568 0.9939469007252559 0.06581759585886568 0.9939469007252559 0.06581759585886568 0.00605309927474407 -0.06581759585886568
3.688E9 0.0056945008068173516 -0.06303770267628281 0.9943054991931827 0.06303770267628281 0.9943054991931827 0.06303770267628281 0.0056945008068173516 -0.06303770267628281
3.76275E9 0.005361312294595082 -0.060336062185633296 0.994638687705405 0.060336062185633296 0.994638687705405 0.060336062185633296 0.005361312294595082 -0.060336062185633296
3.8375E9 0.005051691576320971 -0.05770827880562933 0.9949483084236791 0.05770827880562933 0.9949483084236791 0.05770827880562933 0.005051691576320971 -0.05770827880562933
3.91225E9 0.004763967725251734 -0.0551502764847503 0.9952360322747484 0.0551502764847503 0.9952360322747484 0.0551502764847503 0.004763967725251734 -0.0551502764847503
3.987E9 0.004496622379580364 -0.052658270486134896 0.9955033776204196 0.052658270486134896 0.9955033776204196 0.052658270486134896 0.004496622379580364 -0.052658270486134896
4.06175E9 0.004248273398710653 -0.050228742075335196 0.9957517266012893 0.050228742075335196 0.9957517266012893 0.050228742075335196 0.004248273398710653 -0.050228742075335196
4.1365E9 0.004017660521326188 -0.04785841577281207 0.9959823394786738 0.04785841577281207 0.9959823394786738 0.04785841577281207 0.004017660521326188 -0.04785841577281207
4.21125E9 0.0038036327506256466 -0.04554423887667136 0.9961963672493742 0.04554423887667136 0.9961963672493742 0.04554423887667136 0.0038036327506256466 -0.04554423887667136
4.286E9 0.0036051372336577225 -0.043283362998635465 0.9963948627663423 0.043283362998635465 0.9963948627663423 0.043283362998635465 0.0036051372336577225 -0.043283362998635465
4.36075E9 0.003421209436396032 -0.04107312738854 0.9965787905636039 0.04107312738854 0.9965787905636039 0.04107312738854 0.003421209436396032 -0.04107312738854
4.4355E9 0.003250964445266868 -0.03891104385051147 0.9967490355547332 0.03891104385051147 0.9967490355547332 0.03891104385051147 0.003250964445266868 -0.03891104385051147
4.51025E9 0.0030935892502682817 -0.0367947830780742 0.9969064107497315 0.0367947830780742 0.9969064107497315 0.0367947830780742 0.0030935892502682817 -0.0367947830780742
4.585E9 0.0029483358853996987 -0.03472216225630315 0.9970516641146003 0.03472216225630315 0.9970516641146003 0.03472216225630315 0.0029483358853996987 -0.03472216225630315
4.65975E9 0.002814515319511081 -0.03269113379724728 0.997185484680489 0.03269113379724728 0.997185484680489 0.03269113379724728 0.002814515319511081 -0.03269113379724728
4.7345E9 0.00269149200541412 -0.030699775090592768 0.9973085079945859 0.030699775090592768 0.9973085079945859 0.030699775090592768 0.00269149200541412 -0.030699775090592768
4.80925E9 0.00257867900761374 -0.02874627916524658 0.9974213209923862 0.02874627916524658 0.9974213209923862 0.02874627916524658 0.00257867900761374 -0.02874627916524658
4.884E9 0.002475533639677272 -0.02682894616948561 0.9975244663603228 0.02682894616948561 0.9975244663603228 0.02682894616948561 0.002475533639677272 -0.02682894616948561
4.95875E9 0.002381553551358988 -0.02494617558777412 0.997618446448641 0.02494617558777412 0.997618446448641 0.02494617558777412 0.002381553551358988 -0.02494617558777412
5.0335E9 0.0022962732133858465 -0.023096459121508144 0.9977037267866141 0.023096459121508144 0.9977037267866141 0.023096459121508144 0.0022962732133858465 -0.023096459121508144
5.10825E9 0.0022192607544911217 -0.021278374168976356 0.9977807392455088 0.021278374168976356 0.9977807392455088 0.021278374168976356 0.0022192607544911217 -0.021278374168976356
5.183E9 0.0021501151110265306 -0.019490577846882576 0.9978498848889736 0.019490577846882576 0.9978498848889736 0.019490577846882576 0.0021501151110265306 -0.019490577846882576
5.25775E9 0.002088463454432706 -0.017731801501983172 0.9979115365455672 0.017731801501983172 0.9979115365455672 0.017731801501983172 0.002088463454432706 -0.017731801501983172
5.3325E9 0.002033958866121597 -0.016000845666864303 0.9979660411338783 0.016000845666864303 0.9979660411338783 0.016000845666864303 0.002033958866121597 -0.016000845666864303
5.40725E9 0.0019862782330225047 -0.014296575418716212 0.9980137217669776 0.014296575418716212 0.9980137217669776 0.014296575418716212 0.0019862782330225047 -0.014296575418716212
5.482E9 0.0019451203402498377 -0.012617916104230981 0.99805487965975 0.012617916104230981 0.99805487965975 0.012617916104230981 0.0019451203402498377 -0.012617916104230981
5.55675E9 0.0019102041401363999 -0.010963849397533162 0.9980897958598637 0.010963849397533162 0.9980897958598637 0.010963849397533162 0.0019102041401363999 -0.010963849397533162
5.6315E9 0.001881267179300791 -0.009333409661407185 0.9981187328206994 0.009333409661407185 0.9981187328206994 0.009333409661407185 0.001881267179300791 -0.009333409661407185
5.70625E9 0.0018580641675320217 -0.007725680585062351 0.9981419358324681 0.007725680585062351 0.9981419358324681 0.007725680585062351 0.0018580641675320217 -0.007725680585062351
5.781E9 0.0018403656741219265 -0.006139792074327256 0.9981596343258781 0.006139792074327256 0.9981596343258781 0.006139792074327256 0.0018403656741219265 -0.006139792074327256
5.85575E9 0.0018279569388927814 -0.004574917372523488 0.9981720430611071 0.004574917372523488 0.9981720430611071 0.004574917372523488 0.0018279569388927814 -0.004574917372523488
5.9305E9 0.0018206367865851328 -0.0030302703923729695 0.9981793632134149 0.0030302703923729695 0.9981793632134149 0.0030302703923729695 0.0018206367865851328 -0.0030302703923729695
6.00525E9 0.0018182166345157747 -0.0015051032411727136 0.9981817833654841 0.0015051032411727136 0.9981817833654841 0.0015051032411727136 0.0018182166345157747 -0.0015051032411727136
6.08E9 0.001820519584510889 1.2960768498509968E-6 0.9981794804154893 -1.2960768498509968E-6 0.9981794804154893 -1.2960768498509968E-6 0.001820519584510889 1.2960768498509968E-6
6.15475E9 0.0018273795910842743 0.0014896057955823335 0.9981726204089157 -0.0014896057955823335 0.9981726204089157 -0.0014896057955823335 0.0018273795910842743 0.0014896057955823335
6.2295E9 0.001838640698682036 0.002960472372707541 0.998161359301318 -0.002960472372707541 0.998161359301318 -0.002960472372707541 0.001838640698682036 0.002960472372707541
6.30425E9 0.0018541563415676334 0.004414512338040279 0.9981458436584322 -0.004414512338040279 0.9981458436584322 -0.004414512338040279 0.0018541563415676334 0.004414512338040279
6.379E9 0.0018737887005873032 0.005852314015456469 0.9981262112994125 -0.005852314015456469 0.9981262112994125 -0.005852314015456469 0.0018737887005873032 0.005852314015456469
6.45375E9 0.0018974081116463128 0.0072744391283698605 0.9981025918883536 -0.0072744391283698605 0.9981025918883536 -0.0072744391283698605 0.0018974081116463128 0.0072744391283698605
6.5285E9 0.0019248925212506762 0.008681424297831163 0.9980751074787491 -0.008681424297831163 0.9980751074787491 -0.008681424297831163 0.0019248925212506762 0.008681424297831163
6.60325E9 0.0019561269849348822 0.01007378244152846 0.998043873015065 -0.01007378244152846 0.998043873015065 -0.01007378244152846 0.0019561269849348822 0.01007378244152846
6.678E9 0.001991003204811005 0.011452004081250546 0.9980089967951892 -0.011452004081250546 0.9980089967951892 -0.011452004081250546 0.001991003204811005 0.011452004081250546
6.75275E9 0.002029419102844258 0.012816558565725548 0.9979705808971557 -0.012816558565725548 0.9979705808971557 -0.012816558565725548 0.002029419102844258 0.012816558565725548
6.8275E9 0.0020712784267901004 0.0141678952151603 0.9979287215732097 -0.0141678952151603 0.9979287215732097 -0.0141678952151603 0.0020712784267901004 0.0141678952151603
6.90225E9 0.0021164903860228924 0.015506444393274952 0.9978835096139771 -0.015506444393274952 0.9978835096139771 -0.015506444393274952 0.0021164903860228924 0.015506444393274952
6.977E9 0.002164969314750049 0.016832618512143876 0.9978350306852498 -0.016832618512143876 0.9978350306852498 -0.016832618512143876 0.002164969314750049 0.016832618512143876
7.05175E9 0.002216634360342124 0.01814681297471817 0.9977833656396579 -0.01814681297471817 0.9977833656396579 -0.01814681297471817 0.002216634360342124 0.01814681297471817
7.1265E9 0.0022714091947213496 0.01944940705950624 0.9977285908052789 -0.01944940705950624 0.9977285908052789 -0.01944940705950624 0.0022714091947213496 0.01944940705950624
7.20125E9 0.0023292217469417557 0.020740764751528553 0.9976707782530583 -0.020740764751528553 0.9976707782530583 -0.020740764751528553 0.0023292217469417557 0.020740764751528553
7.276E9 0.0023900039552652986 0.022021235523333096 0.9976099960447347 -0.022021235523333096 0.9976099960447347 -0.022021235523333096 0.0023900039552652986 0.022021235523333096
7.35075E9 0.0024536915371927296 0.02329115506955921 0.9975463084628073 -0.02329115506955921 0.9975463084628073 -0.02329115506955921 0.0024536915371927296 0.02329115506955921
7.4255E9 0.0025202237760469743 0.024550845998263095 0.9974797762239528 -0.024550845998263095 0.9974797762239528 -0.024550845998263095 0.0025202237760469743 0.024550845998263095
7.50025E9 0.0025895433228323487 0.02580061848197045 0.9974104566771677 -0.02580061848197045 0.9974104566771677 -0.02580061848197045 0.0025895433228323487 0.02580061848197045
7.575E9 0.0026615960122062764 0.027040770871192665 0.9973384039877937 -0.027040770871192665 0.9973384039877937 -0.027040770871192665 0.0026615960122062764 0.027040770871192665
7.64975E9 0.0027363306915028085 0.028271590272935403 0.997263669308497 -0.028271590272935403 0.997263669308497 -0.028271590272935403 0.0027363306915028085 0.028271590272935403
7.7245E9 0.002813699061840174 0.029493353096538322 0.9971863009381599 -0.029493353096538322 0.9971863009381599 -0.029493353096538322 0.002813699061840174 0.029493353096538322
7.79925E9 0.002893655530428727 0.03070632556900863 0.9971063444695712 -0.03070632556900863 0.9971063444695712 -0.03070632556900863 0.002893655530428727 0.03070632556900863
7.874E9 0.0029761570732723857 0.031910764221854335 0.9970238429267277 -0.031910764221854335 0.9970238429267277 -0.031910764221854335 0.0029761570732723857 0.031910764221854335
7.94875E9 0.0030611631075258927 0.03310691635127267 0.9969388368924742 -0.03310691635127267 0.9969388368924742 -0.03310691635127267 0.0030611631075258927 0.03310691635127267
8.0235E9 0.003148635372833824 0.034295020453418375 0.9968513646271662 -0.034295020453418375 0.9968513646271662 -0.034295020453418375 0.003148635372833824 0.034295020453418375
8.09825E9 0.0032385378210347472 0.035475306636350366 0.9967614621789651 -0.035475306636350366 0.9967614621789651 -0.035475306636350366 0.0032385378210347472 0.035475306636350366
8.173E9 0.003330836513666699 0.03664799701014324 0.9966691634863333 -0.03664799701014324 0.9966691634863333 -0.03664799701014324 0.003330836513666699 0.03664799701014324
8.24775E9 0.0034254995267582384 0.03781330605654498 0.9965745004732415 -0.03781330605654498 0.9965745004732415 -0.03781330605654498 0.0034254995267582384 0.03781330605654498
8.3225E9 0.0035224968624334454 0.038971440979467094 0.9964775031375663 -0.038971440979467094 0.9964775031375663 -0.038971440979467094 0.0035224968624334454 0.038971440979467094
8.39725E9 0.003621800366899573 0.04012260203750379 0.9963781996331005 -0.04012260203750379 0.9963781996331005 -0.04012260203750379 0.003621800366899573 0.04012260203750379
8.472E9 0.003723383654423223 0.041266982859596624 0.9962766163455768 -0.041266982859596624 0.9962766163455768 -0.041266982859596624 0.003723383654423223 0.041266982859596624
8.54675E9 0.0038272220369351432 0.04240477074488557 0.996172777963065 -0.04240477074488557 0.996172777963065 -0.04240477074488557 0.0038272220369351432 0.04240477074488557
