!Murata Part Number: GJM0225C1E6R2BB01
!These Parameters are Measured in Series Mode Connection
!       o--ll--o
!Port1            Port2
!       o------o
!Operation Temp=25[degC], DC Bias Voltage=0[V]
!Freq. Start=100[MHz] Stop=30[GHz], 401[Steps]
!Data Generated on Feb 1, 2023
# Hz S RI R 50
!Freq.(Hz) S11(Real) S11(Imag) S21(Real) S21(Imag) S12(Real) S12(Imag) S22(Real) S22(Imag)
1.0E8 0.8680258423138577 -0.33822861190325343 0.13197415768614232 0.33822861190325343 0.13197415768614232 0.33822861190325343 0.8680258423138577 -0.33822861190325343
1.7475E8 0.6826251809587625 -0.46504429837744454 0.31737481904123743 0.46504429837744454 0.31737481904123743 0.46504429837744454 0.6826251809587625 -0.46504429837744454
2.495E8 0.5128795630448602 -0.4992452176714221 0.48712043695513996 0.4992452176714221 0.48712043695513996 0.4992452176714221 0.5128795630448602 -0.4992452176714221
3.2425E8 0.3833266163240372 -0.48542632833242144 0.6166733836759629 0.48542632833242144 0.6166733836759629 0.48542632833242144 0.3833266163240372 -0.48542632833242144
3.99E8 0.29029515664563527 -0.4529425555025227 0.7097048433543649 0.4529425555025227 0.7097048433543649 0.4529425555025227 0.29029515664563527 -0.4529425555025227
4.7375E8 0.22413650303736124 -0.4158662035011271 0.7758634969626387 0.4158662035011271 0.7758634969626387 0.4158662035011271 0.22413650303736124 -0.4158662035011271
5.485E8 0.17656590571255087 -0.3799591285459288 0.8234340942874491 0.3799591285459288 0.8234340942874491 0.3799591285459288 0.17656590571255087 -0.3799591285459288
6.2325E8 0.14172052508233388 -0.34721985610877387 0.858279474917666 0.34721985610877387 0.858279474917666 0.34721985610877387 0.14172052508233388 -0.34721985610877387
6.98E8 0.1156711506908165 -0.3180785398126311 0.8843288493091835 0.3180785398126311 0.8843288493091835 0.3180785398126311 0.1156711506908165 -0.3180785398126311
7.7275E8 0.09580743754853518 -0.2923600639486669 0.9041925624514646 0.2923600639486669 0.9041925624514646 0.2923600639486669 0.09580743754853518 -0.2923600639486669
8.475E8 0.08037946229837298 -0.2696900446962615 0.9196205377016271 0.2696900446962615 0.9196205377016271 0.2696900446962615 0.08037946229837298 -0.2696900446962615
9.2225E8 0.06819507154393024 -0.24965995579209677 0.9318049284560699 0.24965995579209677 0.9318049284560699 0.24965995579209677 0.06819507154393024 -0.24965995579209677
9.97E8 0.05842692650808091 -0.23188968400915266 0.9415730734919193 0.23188968400915266 0.9415730734919193 0.23188968400915266 0.05842692650808091 -0.23188968400915266
1.07175E9 0.050489962336399206 -0.2160470152474619 0.9495100376636006 0.2160470152474619 0.9495100376636006 0.2160470152474619 0.050489962336399206 -0.2160470152474619
1.1465E9 0.04396286131884041 -0.20184962832630848 0.9560371386811596 0.20184962832630848 0.9560371386811596 0.20184962832630848 0.04396286131884041 -0.20184962832630848
1.22125E9 0.03853699318238496 -0.18906057475268742 0.961463006817615 0.18906057475268742 0.961463006817615 0.18906057475268742 0.03853699318238496 -0.18906057475268742
1.296E9 0.03398265462819514 -0.17748189154811883 0.9660173453718051 0.17748189154811883 0.9660173453718051 0.17748189154811883 0.03398265462819514 -0.17748189154811883
1.37075E9 0.03012635800540791 -0.16694823200769915 0.9698736419945919 0.16694823200769915 0.9698736419945919 0.16694823200769915 0.03012635800540791 -0.16694823200769915
1.4455E9 0.02683529096275908 -0.1573211975853437 0.9731647090372408 0.1573211975853437 0.9731647090372408 0.1573211975853437 0.02683529096275908 -0.1573211975853437
1.52025E9 0.024006507841915988 -0.14848454200568353 0.975993492158084 0.14848454200568353 0.975993492158084 0.14848454200568353 0.024006507841915988 -0.14848454200568353
1.595E9 0.021559294883297424 -0.14034021249897688 0.9784407051167024 0.14034021249897688 0.9784407051167024 0.14034021249897688 0.021559294883297424 -0.14034021249897688
1.66975E9 0.01942969825462805 -0.13280512142258774 0.980570301745372 0.13280512142258774 0.980570301745372 0.13280512142258774 0.01942969825462805 -0.13280512142258774
1.7445E9 0.017566548393651054 -0.12580852736483356 0.9824334516063487 0.12580852736483356 0.9824334516063487 0.12580852736483356 0.017566548393651054 -0.12580852736483356
1.81925E9 0.015928534466079686 -0.11928991344708581 0.9840714655339204 0.11928991344708581 0.9840714655339204 0.11928991344708581 0.015928534466079686 -0.11928991344708581
1.894E9 0.014482025799716964 -0.11319726658371067 0.9855179742002832 0.11319726658371067 0.9855179742002832 0.11319726658371067 0.014482025799716964 -0.11319726658371067
1.96875E9 0.013199431443162303 -0.10748567838862691 0.9868005685568376 0.10748567838862691 0.9868005685568376 0.10748567838862691 0.013199431443162303 -0.10748567838862691
2.0435E9 0.012057952035877794 -0.10211620370310859 0.9879420479641222 0.10211620370310859 0.9879420479641222 0.10211620370310859 0.012057952035877794 -0.10211620370310859
2.11825E9 0.011038620902834561 -0.09705492561436867 0.9889613790971655 0.09705492561436867 0.9889613790971655 0.09705492561436867 0.011038620902834561 -0.09705492561436867
2.193E9 0.010125560625795808 -0.09227218634172722 0.9898744393742039 0.09227218634172722 0.9898744393742039 0.09227218634172722 0.010125560625795808 -0.09227218634172722
2.26775E9 0.009305401739789177 -0.08774195177000521 0.9906945982602109 0.08774195177000521 0.9906945982602109 0.08774195177000521 0.009305401739789177 -0.08774195177000521
2.3425E9 0.008566824550097041 -0.0834412840624401 0.991433175449903 0.0834412840624401 0.991433175449903 0.0834412840624401 0.008566824550097041 -0.0834412840624401
2.41725E9 0.00790019526907443 -0.07934990202646461 0.9920998047309255 0.07934990202646461 0.9920998047309255 0.07934990202646461 0.00790019526907443 -0.07934990202646461
2.492E9 0.0072972750061822194 -0.075449813027389 0.9927027249938177 0.075449813027389 0.9927027249938177 0.075449813027389 0.0072972750061822194 -0.075449813027389
2.56675E9 0.006750985468647823 -0.0717250034873699 0.9932490145313521 0.0717250034873699 0.9932490145313521 0.0717250034873699 0.006750985468647823 -0.0717250034873699
2.6415E9 0.006255219131613315 -0.06816117756180592 0.9937447808683867 0.06816117756180592 0.9937447808683867 0.06816117756180592 0.006255219131613315 -0.06816117756180592
2.71625E9 0.005804684521254841 -0.0647455356033691 0.9941953154787452 0.0647455356033691 0.9941953154787452 0.0647455356033691 0.005804684521254841 -0.0647455356033691
2.791E9 0.005394779405308668 -0.061466585622987444 0.9946052205946913 0.061466585622987444 0.9946052205946913 0.061466585622987444 0.005394779405308668 -0.061466585622987444
2.86575E9 0.00502148630226278 -0.0583139822286573 0.9949785136977373 0.0583139822286573 0.9949785136977373 0.0583139822286573 0.00502148630226278 -0.0583139822286573
2.9405E9 0.004681285945118843 -0.055278388537877275 0.995318714054881 0.055278388537877275 0.995318714054881 0.055278388537877275 0.004681285945118843 -0.055278388537877275
3.01525E9 0.0043710852699807385 -0.05235135737271547 0.995628914730019 0.05235135737271547 0.995628914730019 0.05235135737271547 0.0043710852699807385 -0.05235135737271547
3.09E9 0.00408815721753495 -0.04952522870072006 0.9959118427824648 0.04952522870072006 0.9959118427824648 0.04952522870072006 0.00408815721753495 -0.04952522870072006
3.16475E9 0.0038300901905773616 -0.04679304081325855 0.9961699098094225 0.04679304081325855 0.9961699098094225 0.04679304081325855 0.0038300901905773616 -0.04679304081325855
3.2395E9 0.0035947454426955073 -0.04414845316131554 0.9964052545573043 0.04414845316131554 0.9964052545573043 0.04414845316131554 0.0035947454426955073 -0.04414845316131554
3.31425E9 0.0033802210113648354 -0.04158567911756538 0.9966197789886352 0.04158567911756538 0.9966197789886352 0.04158567911756538 0.0033802210113648354 -0.04158567911756538
3.389E9 0.0031848210749471874 -0.03909942721856584 0.9968151789250529 0.03909942721856584 0.9968151789250529 0.03909942721856584 0.0031848210749471874 -0.03909942721856584
3.46375E9 0.003007029823831904 -0.03668484967473833 0.9969929701761681 0.03668484967473833 0.9969929701761681 0.03668484967473833 0.003007029823831904 -0.03668484967473833
3.5385E9 0.002845489103666532 -0.03433749712831551 0.9971545108963332 0.03433749712831551 0.9971545108963332 0.03433749712831551 0.002845489103666532 -0.03433749712831551
3.61325E9 0.0026989792227444906 -0.03205327879852314 0.9973010207772555 0.03205327879852314 0.9973010207772555 0.03205327879852314 0.0026989792227444906 -0.03205327879852314
3.688E9 0.0025664024233908716 -0.029828427285184766 0.997433597576609 0.029828427285184766 0.997433597576609 0.029828427285184766 0.0025664024233908716 -0.029828427285184766
3.76275E9 0.0024467686041878766 -0.027659467411712175 0.9975532313958122 0.027659467411712175 0.9975532313958122 0.027659467411712175 0.0024467686041878766 -0.027659467411712175
3.8375E9 0.0023391829504212924 -0.025543188580091206 0.9976608170495787 0.025543188580091206 0.9976608170495787 0.025543188580091206 0.0023391829504212924 -0.025543188580091206
3.91225E9 0.002242835187565032 -0.02347662018723526 0.997757164812435 0.02347662018723526 0.997757164812435 0.02347662018723526 0.002242835187565032 -0.02347662018723526
3.987E9 0.0021569902195761707 -0.0214570097165758 0.9978430097804238 0.0214570097165758 0.9978430097804238 0.0214570097165758 0.0021569902195761707 -0.0214570097165758
4.06175E9 0.002080979952310397 -0.019481803173116152 0.9979190200476896 0.019481803173116152 0.9979190200476896 0.019481803173116152 0.002080979952310397 -0.019481803173116152
4.1365E9 0.002014196134115058 -0.01754862757612139 0.9979858038658851 0.01754862757612139 0.9979858038658851 0.01754862757612139 0.002014196134115058 -0.01754862757612139
4.21125E9 0.001956084071905126 -0.015655275262566482 0.9980439159280948 0.015655275262566482 0.9980439159280948 0.015655275262566482 0.001956084071905126 -0.015655275262566482
4.286E9 0.0019061371028045568 -0.013799689787574627 0.9980938628971954 0.013799689787574627 0.9980938628971954 0.013799689787574627 0.0019061371028045568 -0.013799689787574627
4.36075E9 0.0018638917195637353 -0.01197995323629864 0.9981361082804363 0.01197995323629864 0.9981361082804363 0.01197995323629864 0.0018638917195637353 -0.01197995323629864
4.4355E9 0.0018289232631035824 -0.010194274785817536 0.9981710767368965 0.010194274785817536 0.9981710767368965 0.010194274785817536 0.0018289232631035824 -0.010194274785817536
4.51025E9 0.0018008421082203075 -0.008440980376283186 0.9981991578917797 0.008440980376283186 0.9981991578917797 0.008440980376283186 0.0018008421082203075 -0.008440980376283186
4.585E9 0.0017792902791426497 -0.0067185033683019296 0.9982207097208574 0.0067185033683019296 0.9982207097208574 0.0067185033683019296 0.0017792902791426497 -0.0067185033683019296
4.65975E9 0.0017639384406151815 -0.005025376078815193 0.9982360615593849 0.005025376078815193 0.9982360615593849 0.005025376078815193 0.0017639384406151815 -0.005025376078815193
4.7345E9 0.0017544832177720446 -0.0033602221009309957 0.998245516782228 0.0033602221009309957 0.998245516782228 0.0033602221009309957 0.0017544832177720446 -0.0033602221009309957
4.80925E9 0.0017506448044981061 -0.0017217493245630202 0.9982493551955021 0.0017217493245630202 0.9982493551955021 0.0017217493245630202 0.0017506448044981061 -0.0017217493245630202
4.884E9 0.0017521648254402486 -1.087435846210186E-4 0.9982478351745597 1.087435846210186E-4 0.9982478351745597 1.087435846210186E-4 0.0017521648254402486 -1.087435846210186E-4
4.95875E9 0.001758804421487509 0.0014799371279160334 0.9982411955785123 -0.0014799371279160334 0.9982411955785123 -0.0014799371279160334 0.001758804421487509 0.0014799371279160334
5.0335E9 0.0017703425325148903 0.0030453679492361135 0.998229657467485 -0.0030453679492361135 0.998229657467485 -0.0030453679492361135 0.0017703425325148903 0.0030453679492361135
5.10825E9 0.0017865743545894166 0.004588561970911766 0.9982134256454104 -0.004588561970911766 0.9982134256454104 -0.004588561970911766 0.0017865743545894166 0.004588561970911766
5.183E9 0.0018073099517575092 0.006110474658071523 0.9981926900482424 -0.006110474658071523 0.9981926900482424 -0.006110474658071523 0.0018073099517575092 0.006110474658071523
5.25775E9 0.0018323730050444082 0.007612007897508602 0.9981676269949555 -0.007612007897508602 0.9981676269949555 -0.007612007897508602 0.0018323730050444082 0.007612007897508602
5.3325E9 0.0018615996834611616 0.009094013711331773 0.9981384003165388 -0.009094013711331773 0.9981384003165388 -0.009094013711331773 0.0018615996834611616 0.009094013711331773
5.40725E9 0.0018948376236844753 0.010557297667917156 0.9981051623763159 -0.010557297667917156 0.9981051623763159 -0.010557297667917156 0.0018948376236844753 0.010557297667917156
5.482E9 0.001931945006693167 0.012002622018532002 0.998068054993307 -0.012002622018532002 0.998068054993307 -0.012002622018532002 0.001931945006693167 0.012002622018532002
5.55675E9 0.001972789721048663 0.013430708585015447 0.9980272102789512 -0.013430708585015447 0.9980272102789512 -0.013430708585015447 0.001972789721048663 0.013430708585015447
5.6315E9 0.0020172486037267783 0.014842241421261795 0.9979827513962733 -0.014842241421261795 0.9979827513962733 -0.014842241421261795 0.0020172486037267783 0.014842241421261795
5.70625E9 0.0020652067504702233 0.016237869268918244 0.9979347932495297 -0.016237869268918244 0.9979347932495297 -0.016237869268918244 0.0020652067504702233 0.016237869268918244
5.781E9 0.0021165568885578236 0.017618207825639647 0.9978834431114423 -0.017618207825639647 0.9978834431114423 -0.017618207825639647 0.0021165568885578236 0.017618207825639647
5.85575E9 0.0021711988056962333 0.018983841842406132 0.997828801194304 -0.018983841842406132 0.997828801194304 -0.018983841842406132 0.0021711988056962333 0.018983841842406132
5.9305E9 0.002229038829448975 0.02033532706477835 0.9977709611705511 -0.02033532706477835 0.9977709611705511 -0.02033532706477835 0.002229038829448975 0.02033532706477835
6.00525E9 0.0022899893522394937 0.021673192031510826 0.9977100106477607 -0.021673192031510826 0.9977100106477607 -0.021673192031510826 0.0022899893522394937 0.021673192031510826
6.08E9 0.00235396839751135 0.022997939742649486 0.9976460316024887 -0.022997939742649486 0.9976460316024887 -0.022997939742649486 0.00235396839751135 0.022997939742649486
6.15475E9 0.00242089922310953 0.024310049208082173 0.9975791007768906 -0.024310049208082173 0.9975791007768906 -0.024310049208082173 0.00242089922310953 0.024310049208082173
6.2295E9 0.002490709958370905 0.025609976886478453 0.9975092900416291 -0.025609976886478453 0.9975092900416291 -0.025609976886478453 0.002490709958370905 0.025609976886478453
6.30425E9 0.002563333271786176 0.02689815802362832 0.9974366667282137 -0.02689815802362832 0.9974366667282137 -0.02689815802362832 0.002563333271786176 0.02689815802362832
6.379E9 0.002638706066426922 0.028175007898361696 0.997361293933573 -0.028175007898361696 0.997361293933573 -0.028175007898361696 0.002638706066426922 0.028175007898361696
6.45375E9 0.002716769200624687 0.029440922983485295 0.9972832307993754 -0.029440922983485295 0.9972832307993754 -0.029440922983485295 0.002716769200624687 0.029440922983485295
6.5285E9 0.0027974672316495573 0.030696282028505877 0.9972025327683506 -0.030696282028505877 0.9972025327683506 -0.030696282028505877 0.0027974672316495573 0.030696282028505877
6.60325E9 0.0028807481803670393 0.031941447070306696 0.9971192518196332 -0.031941447070306696 0.9971192518196332 -0.031941447070306696 0.0028807481803670393 0.031941447070306696
6.678E9 0.002966563315058317 0.03317676437740372 0.9970334366849419 -0.03317676437740372 0.9970334366849419 -0.03317676437740372 0.002966563315058317 0.03317676437740372
6.75275E9 0.0030548669527727013 0.034402565332919036 0.9969451330472274 -0.034402565332919036 0.9969451330472274 -0.034402565332919036 0.0030548669527727013 0.034402565332919036
6.8275E9 0.0031456162767454325 0.035619167260968705 0.9968543837232545 -0.035619167260968705 0.9968543837232545 -0.035619167260968705 0.0031456162767454325 0.035619167260968705
6.90225E9 0.003238771168561107 0.03682687420076555 0.996761228831439 -0.03682687420076555 0.996761228831439 -0.03682687420076555 0.003238771168561107 0.03682687420076555
6.977E9 0.0033342940538748215 0.03802597763237552 0.9966657059461252 -0.03802597763237552 0.9966657059461252 -0.03802597763237552 0.0033342940538748215 0.03802597763237552
7.05175E9 0.0034321497606218257 0.039216757157743615 0.9965678502393781 -0.039216757157743615 0.9965678502393781 -0.039216757157743615 0.0034321497606218257 0.039216757157743615
7.1265E9 0.00353230538875318 0.04039948114030794 0.9964676946112471 -0.04039948114030794 0.9964676946112471 -0.04039948114030794 0.00353230538875318 0.04039948114030794
7.20125E9 0.0036347301906314144 0.04157440730625499 0.9963652698093688 -0.04157440730625499 0.9963652698093688 -0.04157440730625499 0.0036347301906314144 0.04157440730625499
7.276E9 0.0037393954613074852 0.04274178331022638 0.9962606045386925 -0.04274178331022638 0.9962606045386925 -0.04274178331022638 0.0037393954613074852 0.04274178331022638
7.35075E9 0.003846274437979661 0.0439018472680674 0.9961537255620203 -0.0439018472680674 0.9961537255620203 -0.0439018472680674 0.003846274437979661 0.0439018472680674
7.4255E9 0.003955342208007089 0.04505482825900776 0.9960446577919929 -0.04505482825900776 0.9960446577919929 -0.04505482825900776 0.003955342208007089 0.04505482825900776
7.50025E9 0.004066575624916948 0.046200946799484076 0.995933424375083 -0.046200946799484076 0.995933424375083 -0.046200946799484076 0.004066575624916948 0.046200946799484076
7.575E9 0.004179953231904719 0.04734041529064887 0.9958200467680952 -0.04734041529064887 0.9958200467680952 -0.04734041529064887 0.004179953231904719 0.04734041529064887
7.64975E9 0.004295455192382912 0.04847343844145997 0.9957045448076174 -0.04847343844145997 0.9957045448076174 -0.04847343844145997 0.004295455192382912 0.04847343844145997
7.7245E9 0.004413063227185654 0.04960021366910974 0.9955869367728143 -0.04960021366910974 0.9955869367728143 -0.04960021366910974 0.004413063227185654 0.04960021366910974
7.79925E9 0.00453276055808483 0.05072093147842886 0.9954672394419152 -0.05072093147842886 0.9954672394419152 -0.05072093147842886 0.00453276055808483 0.05072093147842886
7.874E9 0.004654531857318984 0.051835775821787715 0.9953454681426809 -0.051835775821787715 0.9953454681426809 -0.051835775821787715 0.004654531857318984 0.051835775821787715
7.94875E9 0.0047783632028791856 0.052944924440915475 0.9952216367971211 -0.052944924440915475 0.9952216367971211 -0.052944924440915475 0.0047783632028791856 0.052944924440915475
8.0235E9 0.0049042420393374106 0.05404854919196734 0.9950957579606624 -0.05404854919196734 0.9950957579606624 -0.05404854919196734 0.0049042420393374106 0.05404854919196734
8.09825E9 0.005032157144042254 0.05514681635508347 0.9949678428559579 -0.05514681635508347 0.9949678428559579 -0.05514681635508347 0.005032157144042254 0.05514681635508347
8.173E9 0.005162098598545812 0.056239886929611016 0.9948379014014541 -0.056239886929611016 0.9948379014014541 -0.056239886929611016 0.005162098598545812 0.056239886929611016
8.24775E9 0.005294057765163235 0.0573279169160907 0.9947059422348367 -0.0573279169160907 0.9947059422348367 -0.0573279169160907 0.005294057765163235 0.0573279169160907
8.3225E9 0.005428027268604636 0.05841105758605047 0.9945719727313953 -0.05841105758605047 0.9945719727313953 -0.05841105758605047 0.005428027268604636 0.05841105758605047
8.39725E9 0.005564000982656943 0.059489455740592834 0.994435999017343 -0.059489455740592834 0.994435999017343 -0.059489455740592834 0.005564000982656943 0.059489455740592834
8.472E9 0.005701974021932475 0.06056325395871658 0.9942980259780674 -0.06056325395871658 0.9942980259780674 -0.06056325395871658 0.005701974021932475 0.06056325395871658
