!Murata Part Number: GJM0225C1E5R1BB01
!These Parameters are Measured in Series Mode Connection
!       o--ll--o
!Port1            Port2
!       o------o
!Operation Temp=25[degC], DC Bias Voltage=0[V]
!Freq. Start=100[MHz] Stop=30[GHz], 401[Steps]
!Data Generated on Feb 1, 2023
# Hz S RI R 50
!Freq.(Hz) S11(Real) S11(Imag) S21(Real) S21(Imag) S12(Real) S12(Imag) S22(Real) S22(Imag)
1.0E8 0.9067138627754575 -0.2905974640078612 0.09328613722454254 0.2905974640078612 0.09328613722454254 0.2905974640078612 0.9067138627754575 -0.2905974640078612
1.7475E8 0.7607499935805251 -0.4262137712482489 0.239250006419475 0.4262137712482489 0.239250006419475 0.4262137712482489 0.7607499935805251 -0.4262137712482489
2.495E8 0.6089893458833532 -0.4873880699958789 0.3910106541166468 0.4873880699958789 0.3910106541166468 0.4873880699958789 0.6089893458833532 -0.4873880699958789
3.2425E8 0.479234948945592 -0.4988024249781168 0.5207650510544078 0.4988024249781168 0.5207650510544078 0.4988024249781168 0.479234948945592 -0.4988024249781168
3.99E8 0.3773994534635745 -0.48379151707657087 0.6226005465364254 0.48379151707657087 0.6226005465364254 0.48379151707657087 0.3773994534635745 -0.48379151707657087
4.7375E8 0.30002576884878757 -0.4571447069922262 0.6999742311512125 0.4571447069922262 0.6999742311512125 0.4571447069922262 0.30002576884878757 -0.4571447069922262
5.485E8 0.24161132560410042 -0.426754987506524 0.7583886743958996 0.426754987506524 0.7583886743958996 0.426754987506524 0.24161132560410042 -0.426754987506524
6.2325E8 0.1972454404244742 -0.39643189909254706 0.8027545595755258 0.39643189909254706 0.8027545595755258 0.39643189909254706 0.1972454404244742 -0.39643189909254706
6.98E8 0.1631609185821501 -0.36784103497377896 0.8368390814178499 0.36784103497377896 0.8368390814178499 0.36784103497377896 0.1631609185821501 -0.36784103497377896
7.7275E8 0.1366192186692821 -0.3415874375645456 0.8633807813307179 0.3415874375645456 0.8633807813307179 0.3415874375645456 0.1366192186692821 -0.3415874375645456
8.475E8 0.11566297481965553 -0.31777457850821844 0.8843370251803445 0.31777457850821844 0.8843370251803445 0.31777457850821844 0.11566297481965553 -0.31777457850821844
9.2225E8 0.09889383016551717 -0.29628292218362684 0.9011061698344829 0.29628292218362684 0.9011061698344829 0.29628292218362684 0.09889383016551717 -0.29628292218362684
9.97E8 0.08530549674093897 -0.2769058633293522 0.914694503259061 0.2769058633293522 0.914694503259061 0.2769058633293522 0.08530549674093897 -0.2769058633293522
1.07175E9 0.07416590900764952 -0.2594144602417204 0.9258340909923503 0.2594144602417204 0.9258340909923503 0.2594144602417204 0.07416590900764952 -0.2594144602417204
1.1465E9 0.06493586210739437 -0.2435868980520062 0.9350641378926053 0.2435868980520062 0.9350641378926053 0.2435868980520062 0.06493586210739437 -0.2435868980520062
1.22125E9 0.0572130937940054 -0.22922061953548564 0.9427869062059944 0.22922061953548564 0.9427869062059944 0.22922061953548564 0.0572130937940054 -0.22922061953548564
1.296E9 0.05069369704025847 -0.216136078017565 0.9493063029597415 0.216136078017565 0.9493063029597415 0.216136078017565 0.05069369704025847 -0.216136078017565
1.37075E9 0.045145267962349536 -0.20417658634583513 0.9548547320376504 0.20417658634583513 0.9548547320376504 0.20417658634583513 0.045145267962349536 -0.20417658634583513
1.4455E9 0.04038802273813689 -0.19320648951924368 0.9596119772618633 0.19320648951924368 0.9596119772618633 0.19320648951924368 0.04038802273813689 -0.19320648951924368
1.52025E9 0.036281365761429096 -0.18310875561573503 0.9637186342385708 0.18310875561573503 0.9637186342385708 0.18310875561573503 0.036281365761429096 -0.18310875561573503
1.595E9 0.03271422287235325 -0.17378250628659164 0.9672857771276469 0.17378250628659164 0.9672857771276469 0.17378250628659164 0.03271422287235325 -0.17378250628659164
1.66975E9 0.029598003171911733 -0.1651407185037091 0.9704019968280885 0.1651407185037091 0.9704019968280885 0.1651407185037091 0.029598003171911733 -0.1651407185037091
1.7445E9 0.026861416603142906 -0.15710818466422535 0.9731385833968571 0.15710818466422535 0.9731385833968571 0.15710818466422535 0.026861416603142906 -0.15710818466422535
1.81925E9 0.024446616449498155 -0.1496197479515917 0.9755533835505018 0.1496197479515917 0.9755533835505018 0.1496197479515917 0.024446616449498155 -0.1496197479515917
1.894E9 0.02230629820707829 -0.14261879773069266 0.9776937017929217 0.14261879773069266 0.9776937017929217 0.14261879773069266 0.02230629820707829 -0.14261879773069266
1.96875E9 0.020401496194618254 -0.13605599692872103 0.9795985038053816 0.13605599692872103 0.9795985038053816 0.13605599692872103 0.020401496194618254 -0.13605599692872103
2.0435E9 0.018699894447591067 -0.12988821006155116 0.981300105552409 0.12988821006155116 0.981300105552409 0.12988821006155116 0.018699894447591067 -0.12988821006155116
2.11825E9 0.017174520407386595 -0.12407760174499106 0.9828254795926135 0.12407760174499106 0.9828254795926135 0.12407760174499106 0.017174520407386595 -0.12407760174499106
2.193E9 0.015802726206700254 -0.11859087858214776 0.9841972737932998 0.11859087858214776 0.9841972737932998 0.11859087858214776 0.015802726206700254 -0.11859087858214776
2.26775E9 0.014565387954869474 -0.11339865093774432 0.9854346120451304 0.11339865093774432 0.9854346120451304 0.11339865093774432 0.014565387954869474 -0.11339865093774432
2.3425E9 0.013446271668951333 -0.10847489467246234 0.9865537283310486 0.10847489467246234 0.9865537283310486 0.10847489467246234 0.013446271668951333 -0.10847489467246234
2.41725E9 0.012431527618810332 -0.10379649614321257 0.9875684723811897 0.10379649614321257 0.9875684723811897 0.10379649614321257 0.012431527618810332 -0.10379649614321257
2.492E9 0.011509284381466315 -0.09934286658630648 0.9884907156185336 0.09934286658630648 0.9884907156185336 0.09934286658630648 0.011509284381466315 -0.09934286658630648
2.56675E9 0.010669320877969539 -0.0950956143851861 0.9893306791220304 0.0950956143851861 0.9893306791220304 0.0950956143851861 0.010669320877969539 -0.0950956143851861
2.6415E9 0.009902799820559699 -0.09103826571749762 0.9900972001794403 0.09103826571749762 0.9900972001794403 0.09103826571749762 0.009902799820559699 -0.09103826571749762
2.71625E9 0.009202049836331725 -0.08715602572720849 0.9907979501636681 0.08715602572720849 0.9907979501636681 0.08715602572720849 0.009202049836331725 -0.08715602572720849
2.791E9 0.008560386414310901 -0.08343557372771167 0.9914396135856893 0.08343557372771167 0.9914396135856893 0.08343557372771167 0.008560386414310901 -0.08343557372771167
2.86575E9 0.0079719640007955 -0.0798648870594244 0.9920280359992045 0.0798648870594244 0.9920280359992045 0.0798648870594244 0.0079719640007955 -0.0798648870594244
2.9405E9 0.0074316532261842995 -0.07643308914250237 0.9925683467738158 0.07643308914250237 0.9925683467738158 0.07643308914250237 0.0074316532261842995 -0.07643308914250237
3.01525E9 0.006934938517806814 -0.07313031801790454 0.9930650614821932 0.07313031801790454 0.9930650614821932 0.07313031801790454 0.006934938517806814 -0.07313031801790454
3.09E9 0.006477832334185993 -0.06994761228817697 0.9935221676658138 0.06994761228817697 0.9935221676658138 0.06994761228817697 0.006477832334185993 -0.06994761228817697
3.16475E9 0.0060568030177180305 -0.06687681187771931 0.9939431969822818 0.06687681187771931 0.9939431969822818 0.06687681187771931 0.0060568030177180305 -0.06687681187771931
3.2395E9 0.005668713857522569 -0.06391047145120955 0.9943312861424777 0.06391047145120955 0.9943312861424777 0.06391047145120955 0.005668713857522569 -0.06391047145120955
3.31425E9 0.005310771421370011 -0.06104178467477656 0.99468922857863 0.06104178467477656 0.99468922857863 0.06104178467477656 0.005310771421370011 -0.06104178467477656
3.389E9 0.00498048158451425 -0.058264517790815304 0.995019518415486 0.058264517790815304 0.995019518415486 0.058264517790815304 0.00498048158451425 -0.058264517790815304
3.46375E9 0.0046756119761276575 -0.0555729512149018 0.9953243880238721 0.0555729512149018 0.9953243880238721 0.0555729512149018 0.0046756119761276575 -0.0555729512149018
3.5385E9 0.004394159797695295 -0.052961828060891725 0.9956058402023047 0.052961828060891725 0.9956058402023047 0.052961828060891725 0.004394159797695295 -0.052961828060891725
3.61325E9 0.004134324155043813 -0.050426308665124896 0.9958656758449562 0.050426308665124896 0.9958656758449562 0.050426308665124896 0.004134324155043813 -0.050426308665124896
3.688E9 0.003894482196542695 -0.04796193031851866 0.9961055178034571 0.04796193031851866 0.9961055178034571 0.04796193031851866 0.003894482196542695 -0.04796193031851866
3.76275E9 0.003673168472055928 -0.04556457153093915 0.9963268315279441 0.04556457153093915 0.9963268315279441 0.04556457153093915 0.003673168472055928 -0.04556457153093915
3.8375E9 0.003469057026369038 -0.04323042024944384 0.9965309429736311 0.04323042024944384 0.9965309429736311 0.04323042024944384 0.003469057026369038 -0.04323042024944384
3.91225E9 0.0032809458216949056 -0.04095594553393679 0.9967190541783049 0.04095594553393679 0.9967190541783049 0.04095594553393679 0.0032809458216949056 -0.04095594553393679
3.987E9 0.0031077431500992647 -0.03873787226304884 0.9968922568499007 0.03873787226304884 0.9968922568499007 0.03873787226304884 0.0031077431500992647 -0.03873787226304884
4.06175E9 0.002948455751139888 -0.036573158501755076 0.9970515442488601 0.036573158501755076 0.9970515442488601 0.036573158501755076 0.002948455751139888 -0.036573158501755076
4.1365E9 0.00280217839494363 -0.03445897521212027 0.9971978216050561 0.03445897521212027 0.9971978216050561 0.03445897521212027 0.00280217839494363 -0.03445897521212027
4.21125E9 0.002668084728148898 -0.03239268803104203 0.9973319152718512 0.03239268803104203 0.9973319152718512 0.03239268803104203 0.002668084728148898 -0.03239268803104203
4.286E9 0.002545419211052199 -0.03037184087513506 0.9974545807889479 0.03037184087513506 0.9974545807889479 0.03037184087513506 0.002545419211052199 -0.03037184087513506
4.36075E9 0.0024334900000648877 -0.02839414116394371 0.9975665099999351 0.02839414116394371 0.9975665099999351 0.02839414116394371 0.0024334900000648877 -0.02839414116394371
4.4355E9 0.0023316626511345876 -0.02645744647930506 0.9976683373488655 0.02645744647930506 0.9976683373488655 0.02645744647930506 0.0023316626511345876 -0.02645744647930506
4.51025E9 0.0022393545378611877 -0.024559752501585458 0.9977606454621389 0.024559752501585458 0.9977606454621389 0.024559752501585458 0.0022393545378611877 -0.024559752501585458
4.585E9 0.0021560298932448243 -0.02269918208325089 0.9978439701067552 0.02269918208325089 0.9978439701067552 0.02269918208325089 0.0021560298932448243 -0.02269918208325089
4.65975E9 0.0020811953968346455 -0.02087397533727819 0.9979188046031654 0.02087397533727819 0.9979188046031654 0.02087397533727819 0.0020811953968346455 -0.02087397533727819
4.7345E9 0.0020143962399039074 -0.019082480632668722 0.997985603760096 0.019082480632668722 0.997985603760096 0.019082480632668722 0.0020143962399039074 -0.019082480632668722
4.80925E9 0.0019552126104877927 -0.017323146402124644 0.9980447873895122 0.017323146402124644 0.9980447873895122 0.017323146402124644 0.0019552126104877927 -0.017323146402124644
4.884E9 0.0019032565479551735 -0.015594513678069927 0.9980967434520447 0.015594513678069927 0.9980967434520447 0.015594513678069927 0.0019032565479551735 -0.015594513678069927
4.95875E9 0.001858169123466887 -0.013895209282885838 0.9981418308765331 0.013895209282885838 0.9981418308765331 0.013895209282885838 0.001858169123466887 -0.013895209282885838
5.0335E9 0.0018196179083847554 -0.012223939607681719 0.9981803820916151 0.012223939607681719 0.9981803820916151 0.012223939607681719 0.0018196179083847554 -0.012223939607681719
5.10825E9 0.0017872946975900094 -0.010579484921311869 0.99821270530241 0.010579484921311869 0.99821270530241 0.010579484921311869 0.0017872946975900094 -0.010579484921311869
5.183E9 0.0017609134588735178 -0.008960694157819868 0.9982390865411266 0.008960694157819868 0.9982390865411266 0.008960694157819868 0.0017609134588735178 -0.008960694157819868
5.25775E9 0.001740208483178987 -0.007366480136170206 0.9982597915168212 0.007366480136170206 0.9982597915168212 0.007366480136170206 0.001740208483178987 -0.007366480136170206
5.3325E9 0.001724932713602231 -0.0057958151711177686 0.9982750672863976 0.0057958151711177686 0.9982750672863976 0.0057958151711177686 0.001724932713602231 -0.0057958151711177686
5.40725E9 0.001714856233748653 -0.004247727038459859 0.9982851437662515 0.004247727038459859 0.9982851437662515 0.004247727038459859 0.001714856233748653 -0.004247727038459859
5.482E9 0.0017097648983893964 -0.0027212952617909217 0.9982902351016106 0.0027212952617909217 0.9982902351016106 0.0027212952617909217 0.0017097648983893964 -0.0027212952617909217
5.55675E9 0.001709459091386455 -0.0012156476913034399 0.9982905409086136 0.0012156476913034399 0.9982905409086136 0.0012156476913034399 0.001709459091386455 -0.0012156476913034399
5.6315E9 0.0017137525976225086 2.700426517921817E-4 0.9982862474023774 -2.700426517921817E-4 0.9982862474023774 -2.700426517921817E-4 0.0017137525976225086 2.700426517921817E-4
5.70625E9 0.0017224715772098656 0.0017365604889720517 0.99827752842279 -0.0017365604889720517 0.99827752842279 -0.0017365604889720517 0.0017224715772098656 0.0017365604889720517
5.781E9 0.0017354536315960915 0.003184650977588473 0.9982645463684038 -0.003184650977588473 0.9982645463684038 -0.003184650977588473 0.0017354536315960915 0.003184650977588473
5.85575E9 0.0017525469523588415 0.004615022202787711 0.9982474530476412 -0.004615022202787711 0.9982474530476412 -0.004615022202787711 0.0017525469523588415 0.004615022202787711
5.9305E9 0.0017736095445118622 0.00602834748551511 0.9982263904554881 -0.00602834748551511 0.9982263904554881 -0.00602834748551511 0.0017736095445118622 0.00602834748551511
6.00525E9 0.0017985085170477229 0.007425267522285403 0.9982014914829525 -0.007425267522285403 0.9982014914829525 -0.007425267522285403 0.0017985085170477229 0.007425267522285403
6.08E9 0.0018271194342373074 0.00880639237089764 0.9981728805657627 -0.00880639237089764 0.9981728805657627 -0.00880639237089764 0.0018271194342373074 0.00880639237089764
6.15475E9 0.0018593257219057743 0.010172303294932968 0.9981406742780943 -0.010172303294932968 0.9981406742780943 -0.010172303294932968 0.0018593257219057743 0.010172303294932968
6.2295E9 0.0018950181235219165 0.011523554478674232 0.9981049818764782 -0.011523554478674232 0.9981049818764782 -0.011523554478674232 0.0018950181235219165 0.011523554478674232
6.30425E9 0.001934094201483197 0.012860674623011567 0.9980659057985166 -0.012860674623011567 0.9980659057985166 -0.012860674623011567 0.001934094201483197 0.012860674623011567
6.379E9 0.001976457879461341 0.014184168431933729 0.9980235421205386 -0.014184168431933729 0.9980235421205386 -0.014184168431933729 0.001976457879461341 0.014184168431933729
6.45375E9 0.0020220190221011012 0.015494517998337561 0.9979779809778989 -0.015494517998337561 0.9979779809778989 -0.015494517998337561 0.0020220190221011012 0.015494517998337561
6.5285E9 0.002070693048744615 0.01679218409711109 0.9979293069512554 -0.01679218409711109 0.9979293069512554 -0.01679218409711109 0.002070693048744615 0.01679218409711109
6.60325E9 0.0021224005781912696 0.018077607392740964 0.9978775994218085 -0.018077607392740964 0.9978775994218085 -0.018077607392740964 0.0021224005781912696 0.018077607392740964
6.678E9 0.0021770671018037317 0.019351209568065804 0.9978229328981963 -0.019351209568065804 0.9978229328981963 -0.019351209568065804 0.0021770671018037317 0.019351209568065804
6.75275E9 0.002234622682538845 0.020613394380224196 0.9977653773174611 -0.020613394380224196 0.9977653773174611 -0.020613394380224196 0.002234622682538845 0.020613394380224196
6.8275E9 0.0022950016777216267 0.021864548649331572 0.9977049983222785 -0.021864548649331572 0.9977049983222785 -0.021864548649331572 0.0022950016777216267 0.021864548649331572
6.90225E9 0.002358142483594807 0.023105043184954044 0.9976418575164053 -0.023105043184954044 0.9976418575164053 -0.023105043184954044 0.002358142483594807 0.023105043184954044
6.977E9 0.002423987299868393 0.024335233655025504 0.9975760127001316 -0.024335233655025504 0.9975760127001316 -0.024335233655025504 0.002423987299868393 0.024335233655025504
7.05175E9 0.002492481912666041 0.025555461401472343 0.9975075180873341 -0.025555461401472343 0.9975075180873341 -0.025555461401472343 0.002492481912666041 0.025555461401472343
7.1265E9 0.0025635754944199575 0.02676605420646331 0.9974364245055802 -0.02676605420646331 0.9974364245055802 -0.02676605420646331 0.0025635754944199575 0.02676605420646331
7.20125E9 0.0026372204194056587 0.027967327012888645 0.9973627795805945 -0.027967327012888645 0.9973627795805945 -0.027967327012888645 0.0026372204194056587 0.027967327012888645
7.276E9 0.002713372093733845 0.029159582602386252 0.9972866279062662 -0.029159582602386252 0.9972866279062662 -0.029159582602386252 0.002713372093733845 0.029159582602386252
7.35075E9 0.0027919887987305787 0.03034311223397415 0.9972080112012693 -0.03034311223397415 0.9972080112012693 -0.03034311223397415 0.0027919887987305787 0.03034311223397415
7.4255E9 0.0028730315467402115 0.03151819624611219 0.9971269684532599 -0.03151819624611219 0.9971269684532599 -0.03151819624611219 0.0028730315467402115 0.03151819624611219
7.50025E9 0.0029564639484793258 0.032685104624802085 0.9970435360515207 -0.032685104624802085 0.9970435360515207 -0.032685104624802085 0.0029564639484793258 0.032685104624802085
7.575E9 0.00304225209115541 0.03384409754013909 0.9969577479088447 -0.03384409754013909 0.9969577479088447 -0.03384409754013909 0.00304225209115541 0.03384409754013909
7.64975E9 0.0031303644266420932 0.03499542585355159 0.996869635573358 -0.03499542585355159 0.996869635573358 -0.03499542585355159 0.0031303644266420932 0.03499542585355159
7.7245E9 0.003220771669074379 0.036139331597802735 0.9967792283309256 -0.036139331597802735 0.9967792283309256 -0.036139331597802735 0.003220771669074379 0.036139331597802735
7.79925E9 0.0033134467012931493 0.037276048431681044 0.9966865532987066 -0.037276048431681044 0.9966865532987066 -0.037276048431681044 0.0033134467012931493 0.037276048431681044
7.874E9 0.0034083644896292335 0.03840580207117382 0.9965916355103709 -0.03840580207117382 0.9965916355103709 -0.03840580207117382 0.0034083644896292335 0.03840580207117382
7.94875E9 0.00350550200657364 0.03952881069879303 0.9964944979934266 -0.03952881069879303 0.9964944979934266 -0.03952881069879303 0.00350550200657364 0.03952881069879303
8.0235E9 0.0036048381609336435 0.040645285352615884 0.9963951618390662 -0.040645285352615884 0.9963951618390662 -0.040645285352615884 0.0036048381609336435 0.040645285352615884
8.09825E9 0.003706353735123656 0.04175543029649787 0.9962936462648764 -0.04175543029649787 0.9962936462648764 -0.04175543029649787 0.003706353735123656 0.04175543029649787
8.173E9 0.0038100313292869902 0.04285944337282812 0.9961899686707129 -0.04285944337282812 0.9961899686707129 -0.04285944337282812 0.0038100313292869902 0.04285944337282812
8.24775E9 0.003915855311989049 0.04395751633911173 0.996084144688011 -0.04395751633911173 0.996084144688011 -0.04395751633911173 0.003915855311989049 0.04395751633911173
8.3225E9 0.004023811777265543 0.045049835189590874 0.9959761882227346 -0.045049835189590874 0.9959761882227346 -0.045049835189590874 0.004023811777265543 0.045049835189590874
8.39725E9 0.00413388850785085 0.046136580463048436 0.9958661114921492 -0.046136580463048436 0.9958661114921492 -0.046136580463048436 0.00413388850785085 0.046136580463048436
8.472E9 0.004246074944452403 0.04721792753787838 0.9957539250555475 -0.04721792753787838 0.9957539250555475 -0.04721792753787838 0.004246074944452403 0.04721792753787838
8.54675E9 0.004360362160977273 0.04829404691545322 0.9956396378390228 -0.04829404691545322 0.9956396378390228 -0.04829404691545322 0.004360362160977273 0.04829404691545322
