!Murata Part Number: GJM0225C1E9R5BB01
!These Parameters are Measured in Series Mode Connection
!       o--ll--o
!Port1            Port2
!       o------o
!Operation Temp=25[degC], DC Bias Voltage=0[V]
!Freq. Start=100[MHz] Stop=30[GHz], 401[Steps]
!Data Generated on Feb 1, 2023
# Hz S RI R 50
!Freq.(Hz) S11(Real) S11(Imag) S21(Real) S21(Imag) S12(Real) S12(Imag) S22(Real) S22(Imag)
1.0E8 0.7369495152455018 -0.44003493330294885 0.26305048475449827 0.44003493330294885 0.26305048475449827 0.44003493330294885 0.7369495152455018 -0.44003493330294885
1.7475E8 0.47796353159048055 -0.499065518686236 0.5220364684095193 0.499065518686236 0.5220364684095193 0.499065518686236 0.47796353159048055 -0.499065518686236
2.495E8 0.3092810206553016 -0.4615488403628716 0.6907189793446984 0.4615488403628716 0.6907189793446984 0.4615488403628716 0.3092810206553016 -0.4615488403628716
3.2425E8 0.20887567984879543 -0.4056493666724296 0.7911243201512045 0.4056493666724296 0.7911243201512045 0.4056493666724296 0.20887567984879543 -0.4056493666724296
3.99E8 0.14782696235446205 -0.35385497774906804 0.8521730376455381 0.35385497774906804 0.8521730376455381 0.35385497774906804 0.14782696235446205 -0.35385497774906804
4.7375E8 0.10897007448596469 -0.3102996518615008 0.8910299255140355 0.3102996518615008 0.8910299255140355 0.3102996518615008 0.10897007448596469 -0.3102996518615008
5.485E8 0.08306700332195577 -0.27444043774076854 0.9169329966780442 0.27444043774076854 0.9169329966780442 0.27444043774076854 0.08306700332195577 -0.27444043774076854
6.2325E8 0.06507756856787544 -0.24486536818477744 0.9349224314321247 0.24486536818477744 0.9349224314321247 0.24486536818477744 0.06507756856787544 -0.24486536818477744
6.98E8 0.052140021980045796 -0.2202438951565336 0.9478599780199543 0.2202438951565336 0.9478599780199543 0.2202438951565336 0.052140021980045796 -0.2202438951565336
7.7275E8 0.04255666887330146 -0.19950761124695515 0.9574433311266985 0.19950761124695515 0.9574433311266985 0.19950761124695515 0.04255666887330146 -0.19950761124695515
8.475E8 0.0352778701618635 -0.18183672938644843 0.9647221298381363 0.18183672938644843 0.9647221298381363 0.18183672938644843 0.0352778701618635 -0.18183672938644843
9.2225E8 0.0296301065634006 -0.16660876774890415 0.9703698934365992 0.16660876774890415 0.9703698934365992 0.16660876774890415 0.0296301065634006 -0.16660876774890415
9.97E8 0.02516678180739566 -0.15334968014120592 0.9748332181926043 0.15334968014120592 0.9748332181926043 0.15334968014120592 0.02516678180739566 -0.15334968014120592
1.07175E9 0.021583089762783995 -0.14169541705479488 0.978416910237216 0.14169541705479488 0.978416910237216 0.14169541705479488 0.021583089762783995 -0.14169541705479488
1.1465E9 0.01866563768667513 -0.13136344230266198 0.9813343623133248 0.13136344230266198 0.9813343623133248 0.13136344230266198 0.01866563768667513 -0.13136344230266198
1.22125E9 0.01626163487043454 -0.1221320245619407 0.9837383651295654 0.1221320245619407 0.9837383651295654 0.1221320245619407 0.01626163487043454 -0.1221320245619407
1.296E9 0.014259478117310922 -0.11382522097679917 0.9857405218826892 0.11382522097679917 0.9857405218826892 0.11382522097679917 0.014259478117310922 -0.11382522097679917
1.37075E9 0.012576186171278961 -0.10630193590885541 0.9874238138287211 0.10630193590885541 0.9874238138287211 0.10630193590885541 0.012576186171278961 -0.10630193590885541
1.4455E9 0.01114906828379898 -0.09944788275474085 0.988850931716201 0.09944788275474085 0.988850931716201 0.09944788275474085 0.01114906828379898 -0.09944788275474085
1.52025E9 0.009930078527163724 -0.0931696202916456 0.990069921472836 0.0931696202916456 0.990069921472836 0.0931696202916456 0.009930078527163724 -0.0931696202916456
1.595E9 0.008881913909174968 -0.08739008197710131 0.9911180860908251 0.08739008197710131 0.9911180860908251 0.08739008197710131 0.008881913909174968 -0.08739008197710131
1.66975E9 0.00797526898739827 -0.08204518935113075 0.9920247310126016 0.08204518935113075 0.9920247310126016 0.08204518935113075 0.00797526898739827 -0.08204518935113075
1.7445E9 0.0071868724669180446 -0.07708126041715475 0.9928131275330818 0.07708126041715475 0.9928131275330818 0.07708126041715475 0.0071868724669180446 -0.07708126041715475
1.81925E9 0.006498061983735024 -0.0724530068811826 0.993501938016265 0.0724530068811826 0.993501938016265 0.0724530068811826 0.006498061983735024 -0.0724530068811826
1.894E9 0.005893735339312695 -0.06812197194730119 0.9941062646606873 0.06812197194730119 0.9941062646606873 0.06812197194730119 0.005893735339312695 -0.06812197194730119
1.96875E9 0.005361569009683538 -0.0640553009358387 0.9946384309903162 0.0640553009358387 0.9946384309903162 0.0640553009358387 0.005361569009683538 -0.0640553009358387
2.0435E9 0.0048914290397308515 -0.06022476569929114 0.9951085709602691 0.06022476569929114 0.9951085709602691 0.06022476569929114 0.0048914290397308515 -0.06022476569929114
2.11825E9 0.00447492218569159 -0.056605984313626075 0.9955250778143084 0.056605984313626075 0.9955250778143084 0.056605984313626075 0.00447492218569159 -0.056605984313626075
2.193E9 0.004105050507355503 -0.053177792301966204 0.9958949494926445 0.053177792301966204 0.9958949494926445 0.053177792301966204 0.004105050507355503 -0.053177792301966204
2.26775E9 0.0037759431044469397 -0.04992173240103371 0.996224056895553 0.04992173240103371 0.996224056895553 0.04992173240103371 0.0037759431044469397 -0.04992173240103371
2.3425E9 0.0034826459684884604 -0.046821637776504645 0.9965173540315114 0.046821637776504645 0.9965173540315114 0.046821637776504645 0.0034826459684884604 -0.046821637776504645
2.41725E9 0.00322095603239591 -0.04386328944253575 0.9967790439676042 0.04386328944253575 0.9967790439676042 0.04386328944253575 0.00322095603239591 -0.04386328944253575
2.492E9 0.002987289132643952 -0.04103413301086542 0.9970127108673559 0.04103413301086542 0.9970127108673559 0.04103413301086542 0.002987289132643952 -0.04103413301086542
2.56675E9 0.0027785742095190616 -0.038323043186934386 0.997221425790481 0.038323043186934386 0.997221425790481 0.038323043186934386 0.0027785742095190616 -0.038323043186934386
2.6415E9 0.002592167966854071 -0.03572012692995001 0.997407832033146 0.03572012692995001 0.997407832033146 0.03572012692995001 0.002592167966854071 -0.03572012692995001
2.71625E9 0.0024257856029480315 -0.03321655810586846 0.997574214397052 0.03321655810586846 0.997574214397052 0.03321655810586846 0.0024257856029480315 -0.03321655810586846
2.791E9 0.002277444253350954 -0.03080443793548928 0.9977225557466491 0.03080443793548928 0.9977225557466491 0.03080443793548928 0.002277444253350954 -0.03080443793548928
2.86575E9 0.002145416554369102 -0.02847667668277374 0.9978545834456308 0.02847667668277374 0.9978545834456308 0.02847667668277374 0.002145416554369102 -0.02847667668277374
2.9405E9 0.002028192314331547 -0.02622689292099053 0.9979718076856684 0.02622689292099053 0.9979718076856684 0.02622689292099053 0.002028192314331547 -0.02622689292099053
3.01525E9 0.001924446718218715 -0.024049327415596365 0.9980755532817812 0.024049327415596365 0.9980755532817812 0.024049327415596365 0.001924446718218715 -0.024049327415596365
3.09E9 0.0018330138263497155 -0.02193876921713314 0.9981669861736503 0.02193876921713314 0.9981669861736503 0.02193876921713314 0.0018330138263497155 -0.02193876921713314
3.16475E9 0.0017528643856483711 -0.01989049199815077 0.9982471356143516 0.01989049199815077 0.9982471356143516 0.01989049199815077 0.0017528643856483711 -0.01989049199815077
3.2395E9 0.0016830871716884748 -0.017900199020460087 0.9983169128283117 0.017900199020460087 0.9983169128283117 0.017900199020460087 0.0016830871716884748 -0.017900199020460087
3.31425E9 0.001622873235340395 -0.015963975402097215 0.9983771267646595 0.015963975402097215 0.9983771267646595 0.015963975402097215 0.001622873235340395 -0.015963975402097215
3.389E9 0.0015715025498505948 -0.014078246581974511 0.9984284974501494 0.014078246581974511 0.9984284974501494 0.014078246581974511 0.0015715025498505948 -0.014078246581974511
3.46375E9 0.0015283326503881672 -0.012239742065675602 0.9984716673496119 0.012239742065675602 0.9984716673496119 0.012239742065675602 0.0015283326503881672 -0.012239742065675602
3.5385E9 0.0014927889343592602 -0.01044546368704039 0.9985072110656407 0.01044546368704039 0.9985072110656407 0.01044546368704039 0.0014927889343592602 -0.01044546368704039
3.61325E9 0.0014643563515669331 -0.008692657743964952 0.9985356436484332 0.008692657743964952 0.9985356436484332 0.008692657743964952 0.0014643563515669331 -0.008692657743964952
3.688E9 0.0014425722619674007 -0.0069787904686047925 0.9985574277380324 0.0069787904686047925 0.9985574277380324 0.0069787904686047925 0.0014425722619674007 -0.0069787904686047925
3.76275E9 0.0014270202779398662 -0.005301526376174307 0.99857297972206 0.005301526376174307 0.99857297972206 0.005301526376174307 0.0014270202779398662 -0.005301526376174307
3.8375E9 0.0014173249396469492 -0.0036587091061475036 0.9985826750603529 0.0036587091061475036 0.9985826750603529 0.0036587091061475036 0.0014173249396469492 -0.0036587091061475036
3.91225E9 0.0014131470977671622 -0.002048344427566569 0.9985868529022329 0.002048344427566569 0.9985868529022329 0.002048344427566569 0.0014131470977671622 -0.002048344427566569
3.987E9 0.0014141798988378976 -4.685851285000408E-4 0.9985858201011619 4.685851285000408E-4 0.9985858201011619 4.685851285000408E-4 0.0014141798988378976 -4.685851285000408E-4
4.06175E9 0.0014201452856032835 0.0010822824498213793 0.9985798547143968 -0.0010822824498213793 0.9985798547143968 -0.0010822824498213793 0.0014201452856032835 0.0010822824498213793
4.1365E9 0.0014307909388601853 0.002605850439636321 0.9985692090611397 -0.002605850439636321 0.9985692090611397 -0.002605850439636321 0.0014307909388601853 0.002605850439636321
4.21125E9 0.0014458875989261776 0.004103600210808372 0.9985541124010737 -0.004103600210808372 0.9985541124010737 -0.004103600210808372 0.0014458875989261776 0.004103600210808372
4.286E9 0.0014652267144824535 0.005576912025000307 0.9985347732855177 -0.005576912025000307 0.9985347732855177 -0.005576912025000307 0.0014652267144824535 0.005576912025000307
4.36075E9 0.0014886183745451568 0.007027073711781789 0.9985113816254549 -0.007027073711781789 0.9985113816254549 -0.007027073711781789 0.0014886183745451568 0.007027073711781789
4.4355E9 0.0015158894859886726 0.00845528848107899 0.9984841105140113 -0.00845528848107899 0.9984841105140113 -0.00845528848107899 0.0015158894859886726 0.00845528848107899
4.51025E9 0.0015468821646239922 0.009862681971442923 0.9984531178353759 -0.009862681971442923 0.9984531178353759 -0.009862681971442923 0.0015468821646239922 0.009862681971442923
4.585E9 0.0015814523125179032 0.011250308620841904 0.9984185476874821 -0.011250308620841904 0.9984185476874821 -0.011250308620841904 0.0015814523125179032 0.011250308620841904
4.65975E9 0.0016194683581813617 0.01261915743573459 0.9983805316418186 -0.01261915743573459 0.9983805316418186 -0.01261915743573459 0.0016194683581813617 0.01261915743573459
4.7345E9 0.0016608101395856124 0.013970157224769051 0.9983391898604145 -0.013970157224769051 0.9983391898604145 -0.013970157224769051 0.0016608101395856124 0.013970157224769051
4.80925E9 0.0017053679127864373 0.015304181355346166 0.9982946320872136 -0.015304181355346166 0.9982946320872136 -0.015304181355346166 0.0017053679127864373 0.015304181355346166
4.884E9 0.0017530414713358242 0.016622052084285792 0.9982469585286643 -0.016622052084285792 0.9982469585286643 -0.016622052084285792 0.0017530414713358242 0.016622052084285792
4.95875E9 0.0018037393637063634 0.017924544507778802 0.9981962606362937 -0.017924544507778802 0.9981962606362937 -0.017924544507778802 0.0018037393637063634 0.017924544507778802
5.0335E9 0.0018573781977047896 0.019212390170558247 0.9981426218022951 -0.019212390170558247 0.9981426218022951 -0.019212390170558247 0.0018573781977047896 0.019212390170558247
5.10825E9 0.001913882022355134 0.020486280369663507 0.9980861179776449 -0.020486280369663507 0.9980861179776449 -0.020486280369663507 0.001913882022355134 0.020486280369663507
5.183E9 0.0019731817790289504 0.02174686918420617 0.9980268182209713 -0.02174686918420617 0.9980268182209713 -0.02174686918420617 0.0019731817790289504 0.02174686918420617
5.25775E9 0.0020352148147231935 0.02299477625909083 0.9979647851852769 -0.02299477625909083 0.9979647851852769 -0.02299477625909083 0.0020352148147231935 0.02299477625909083
5.3325E9 0.0020999244513636535 0.024230589367630867 0.9979000755486364 -0.024230589367630867 0.9979000755486364 -0.024230589367630867 0.0020999244513636535 0.024230589367630867
5.40725E9 0.002167259605866781 0.02545486677536744 0.9978327403941329 -0.02545486677536744 0.9978327403941329 -0.02545486677536744 0.002167259605866781 0.02545486677536744
5.482E9 0.002237174456445543 0.02666813942510157 0.9977628255435543 -0.02666813942510157 0.9977628255435543 -0.02666813942510157 0.002237174456445543 0.02666813942510157
5.55675E9 0.0023096281513124706 0.027870912961139194 0.9976903718486877 -0.027870912961139194 0.9976903718486877 -0.027870912961139194 0.0023096281513124706 0.027870912961139194
5.6315E9 0.002384584556530309 0.029063669608993536 0.9976154154434695 -0.029063669608993536 0.9976154154434695 -0.029063669608993536 0.002384584556530309 0.029063669608993536
5.70625E9 0.0024620120403004474 0.030246869925256544 0.9975379879596996 -0.030246869925256544 0.9975379879596996 -0.030246869925256544 0.0024620120403004474 0.030246869925256544
5.781E9 0.0025418832914729443 0.03142095443101409 0.997458116708527 -0.03142095443101409 0.997458116708527 -0.03142095443101409 0.0025418832914729443 0.03142095443101409
5.85575E9 0.0026241751705199643 0.03258634514101897 0.99737582482948 -0.03258634514101897 0.99737582482948 -0.03258634514101897 0.0026241751705199643 0.03258634514101897
5.9305E9 0.002708868591645989 0.033743446999829986 0.9972911314083541 -0.033743446999829986 0.9972911314083541 -0.033743446999829986 0.002708868591645989 0.033743446999829986
6.00525E9 0.0027959484351222784 0.03489264923526034 0.9972040515648777 -0.03489264923526034 0.9972040515648777 -0.03489264923526034 0.0027959484351222784 0.03489264923526034
6.08E9 0.0028854034893383332 0.036034326638741836 0.9971145965106618 -0.036034326638741836 0.9971145965106618 -0.036034326638741836 0.0028854034893383332 0.036034326638741836
6.15475E9 0.002977226422467952 0.037168840781590405 0.997022773577532 -0.037168840781590405 0.997022773577532 -0.037168840781590405 0.002977226422467952 0.037168840781590405
6.2295E9 0.0030714137840607892 0.03829654117564804 0.9969285862159394 -0.03829654117564804 0.9969285862159394 -0.03829654117564804 0.0030714137840607892 0.03829654117564804
6.30425E9 0.003167966037301177 0.039417766386365835 0.9968320339626988 -0.039417766386365835 0.9968320339626988 -0.039417766386365835 0.003167966037301177 0.039417766386365835
6.379E9 0.0032668876231346316 0.04053284510608336 0.9967331123768655 -0.04053284510608336 0.9967331123768655 -0.04053284510608336 0.0032668876231346316 0.04053284510608336
6.45375E9 0.0033681870579597736 0.0416420971950414 0.9966318129420403 -0.0416420971950414 0.9966318129420403 -0.0416420971950414 0.0033681870579597736 0.0416420971950414
6.5285E9 0.0034718770671325456 0.042745834697546135 0.9965281229328675 -0.042745834697546135 0.9965281229328675 -0.042745834697546135 0.0034718770671325456 0.042745834697546135
6.60325E9 0.0035779747571447343 0.043844362840673445 0.9964220252428555 -0.043844362840673445 0.9964220252428555 -0.043844362840673445 0.0035779747571447343 0.043844362840673445
6.678E9 0.0036865018300380175 0.0449379810229763 0.9963134981699621 -0.0449379810229763 0.9963134981699621 -0.0449379810229763 0.0036865018300380175 0.0449379810229763
6.75275E9 0.0037974848444180384 0.04602698380083096 0.996202515155582 -0.04602698380083096 0.996202515155582 -0.04602698380083096 0.0037974848444180384 0.04602698380083096
6.8275E9 0.003910955528365782 0.04711166188034198 0.9960890444716343 -0.04711166188034198 0.9960890444716343 -0.04711166188034198 0.003910955528365782 0.04711166188034198
6.90225E9 0.004026951150636 0.04819230312313011 0.9959730488493642 -0.04819230312313011 0.9959730488493642 -0.04819230312313011 0.004026951150636 0.04819230312313011
6.977E9 0.00414551495782142 0.04926919357485901 0.9958544850421787 -0.04926919357485901 0.9958544850421787 -0.04926919357485901 0.00414551495782142 0.04926919357485901
7.05175E9 0.004266696686693178 0.05034261852603806 0.9957333033133069 -0.05034261852603806 0.9957333033133069 -0.05034261852603806 0.004266696686693178 0.05034261852603806
7.1265E9 0.004390553162758501 0.05141286361548005 0.9956094468372415 -0.05141286361548005 0.9956094468372415 -0.05141286361548005 0.004390553162758501 0.05141286361548005
7.20125E9 0.0045171489982769675 0.05248021598782193 0.9954828510017232 -0.05248021598782193 0.9954828510017232 -0.05248021598782193 0.0045171489982769675 0.05248021598782193
7.276E9 0.0046465574056349995 0.05354496551775562 0.9953534425943651 -0.05354496551775562 0.9953534425943651 -0.05354496551775562 0.0046465574056349995 0.05354496551775562
7.35075E9 0.004778861145205914 0.054607406115099684 0.9952211388547945 -0.054607406115099684 0.9952211388547945 -0.054607406115099684 0.004778861145205914 0.054607406115099684
7.4255E9 0.004914153630760247 0.055667837126600825 0.9950858463692399 -0.055667837126600825 0.9950858463692399 -0.055667837126600825 0.004914153630760247 0.055667837126600825
7.50025E9 0.005052540220317491 0.05672656485243648 0.9949474597796822 -0.05672656485243648 0.9949474597796822 -0.05672656485243648 0.005052540220317491 0.05672656485243648
7.575E9 0.005194139726273432 0.05778390419783434 0.9948058602737265 -0.05778390419783434 0.9948058602737265 -0.05778390419783434 0.005194139726273432 0.05778390419783434
7.64975E9 0.0053390861859906645 0.05884018048309247 0.9946609138140092 -0.05884018048309247 0.9946609138140092 -0.05884018048309247 0.0053390861859906645 0.05884018048309247
7.7245E9 0.005487530943181122 0.05989573143862786 0.994512469056819 -0.05989573143862786 0.994512469056819 -0.05989573143862786 0.005487530943181122 0.05989573143862786
7.79925E9 0.005639645101828618 0.06095090941556012 0.9943603548981711 -0.06095090941556012 0.9943603548981711 -0.06095090941556012 0.005639645101828618 0.06095090941556012
7.874E9 0.0057956224287359385 0.0620060838468159 0.994204377571264 -0.0620060838468159 0.994204377571264 -0.0620060838468159 0.0057956224287359385 0.0620060838468159
7.94875E9 0.005955682798871347 0.06306164399885704 0.9940443172011286 -0.06306164399885704 0.9940443172011286 -0.06306164399885704 0.005955682798871347 0.06306164399885704
8.0235E9 0.006120076300638305 0.06411800205992804 0.9938799236993617 -0.06411800205992804 0.9938799236993617 -0.06411800205992804 0.006120076300638305 0.06411800205992804
8.09825E9 0.006289088147461972 0.06517559661715787 0.9937109118525379 -0.06517559661715787 0.9937109118525379 -0.06517559661715787 0.006289088147461972 0.06517559661715787
8.173E9 0.006463044579628836 0.06623489658184695 0.9935369554203712 -0.06623489658184695 0.9935369554203712 -0.06623489658184695 0.006463044579628836 0.06623489658184695
8.24775E9 0.00664231998874859 0.06729640562957108 0.9933576800112515 -0.06729640562957108 0.9933576800112515 -0.06729640562957108 0.00664231998874859 0.06729640562957108
8.3225E9 0.006827345560065182 0.0683606672288745 0.9931726544399349 -0.0683606672288745 0.9931726544399349 -0.0683606672288745 0.006827345560065182 0.0683606672288745
8.39725E9 0.007018619809925655 0.06942827033841516 0.9929813801900743 -0.06942827033841516 0.9929813801900743 -0.06942827033841516 0.007018619809925655 0.06942827033841516
8.472E9 0.007216721503583769 0.07049985585595518 0.9927832784964163 -0.07049985585595518 0.9927832784964163 -0.07049985585595518 0.007216721503583769 0.07049985585595518
