!Murata Part Number: GJM0225C1E3R6BB01
!These Parameters are Measured in Series Mode Connection
!       o--ll--o
!Port1            Port2
!       o------o
!Operation Temp=25[degC], DC Bias Voltage=0[V]
!Freq. Start=100[MHz] Stop=30[GHz], 401[Steps]
!Data Generated on Feb 1, 2023
# Hz S RI R 50
!Freq.(Hz) S11(Real) S11(Imag) S21(Real) S21(Imag) S12(Real) S12(Imag) S22(Real) S22(Imag)
1.0E8 0.9512210700231309 -0.2151906817229402 0.04877892997686903 0.2151906817229402 0.04877892997686903 0.2151906817229402 0.9512210700231309 -0.2151906817229402
1.7475E8 0.864515436700552 -0.34186478594033737 0.13548456329944802 0.34186478594033737 0.13548456329944802 0.34186478594033737 0.864515436700552 -0.34186478594033737
2.495E8 0.7576660528797916 -0.42795858559882466 0.24233394712020837 0.42795858559882466 0.24233394712020837 0.42795858559882466 0.7576660528797916 -0.42795858559882466
3.2425E8 0.6489022612779195 -0.4766152335618532 0.35109773872208055 0.4766152335618532 0.35109773872208055 0.4766152335618532 0.6489022612779195 -0.4766152335618532
3.99E8 0.5491683114593935 -0.49671632812504796 0.4508316885406066 0.49671632812504796 0.4508316885406066 0.49671632812504796 0.5491683114593935 -0.49671632812504796
4.7375E8 0.46292909842429736 -0.4976008080284433 0.5370709015757027 0.4976008080284433 0.5370709015757027 0.4976008080284433 0.46292909842429736 -0.4976008080284433
5.485E8 0.3906884618405771 -0.48671804408040964 0.609311538159423 0.48671804408040964 0.609311538159423 0.48671804408040964 0.3906884618405771 -0.48671804408040964
6.2325E8 0.33110176291574606 -0.46925837627246253 0.668898237084254 0.46925837627246253 0.668898237084254 0.46925837627246253 0.33110176291574606 -0.46925837627246253
6.98E8 0.28222860936830635 -0.44856713475443344 0.7177713906316937 0.44856713475443344 0.7177713906316937 0.44856713475443344 0.28222860936830635 -0.44856713475443344
7.7275E8 0.24213481450576654 -0.42669168254099754 0.7578651854942334 0.42669168254099754 0.7578651854942334 0.42669168254099754 0.24213481450576654 -0.42669168254099754
8.475E8 0.20912533459379087 -0.4048319822823826 0.7908746654062091 0.4048319822823826 0.7908746654062091 0.4048319822823826 0.20912533459379087 -0.4048319822823826
9.2225E8 0.18179963173020283 -0.3836574016923499 0.8182003682697973 0.3836574016923499 0.8182003682697973 0.3836574016923499 0.18179963173020283 -0.3836574016923499
9.97E8 0.15903333588184607 -0.3635137736813084 0.8409666641181538 0.3635137736813084 0.8409666641181538 0.3635137736813084 0.15903333588184607 -0.3635137736813084
1.07175E9 0.13993585584094745 -0.34455375505818125 0.8600641441590526 0.34455375505818125 0.8600641441590526 0.34455375505818125 0.13993585584094745 -0.34455375505818125
1.1465E9 0.12380526284322144 -0.3268172446610934 0.8761947371567785 0.3268172446610934 0.8761947371567785 0.3268172446610934 0.12380526284322144 -0.3268172446610934
1.22125E9 0.11008834200919797 -0.3102803923578288 0.8899116579908019 0.3102803923578288 0.8899116579908019 0.3102803923578288 0.11008834200919797 -0.3102803923578288
1.296E9 0.09834782693324656 -0.29488519077199193 0.9016521730667533 0.29488519077199193 0.9016521730667533 0.29488519077199193 0.09834782693324656 -0.29488519077199193
1.37075E9 0.08823650512190206 -0.2805571627964265 0.9117634948780978 0.2805571627964265 0.9117634948780978 0.2805571627964265 0.08823650512190206 -0.2805571627964265
1.4455E9 0.07947712883360789 -0.26721578078922453 0.9205228711663921 0.26721578078922453 0.9205228711663921 0.26721578078922453 0.07947712883360789 -0.26721578078922453
1.52025E9 0.07184696206197003 -0.2547804600590546 0.9281530379380302 0.2547804600590546 0.9281530379380302 0.2547804600590546 0.07184696206197003 -0.2547804600590546
1.595E9 0.06516592638719784 -0.24317386681018302 0.934834073612802 0.24317386681018302 0.934834073612802 0.24317386681018302 0.06516592638719784 -0.24317386681018302
1.66975E9 0.05928750088609624 -0.2323236064005234 0.9407124991139039 0.2323236064005234 0.9407124991139039 0.2323236064005234 0.05928750088609624 -0.2323236064005234
1.7445E9 0.05409171610771623 -0.22216294543669754 0.9459082838922838 0.22216294543669754 0.9459082838922838 0.22216294543669754 0.05409171610771623 -0.22216294543669754
1.81925E9 0.04947973749627836 -0.21263096855233082 0.9505202625037217 0.21263096855233082 0.9505202625037217 0.21263096855233082 0.04947973749627836 -0.21263096855233082
1.894E9 0.04536965661012523 -0.20367241537434816 0.9546303433898745 0.20367241537434816 0.9546303433898745 0.20367241537434816 0.04536965661012523 -0.20367241537434816
1.96875E9 0.04169320283613796 -0.19523734736642068 0.9583067971638621 0.19523734736642068 0.9583067971638621 0.19523734736642068 0.04169320283613796 -0.19523734736642068
2.0435E9 0.038393159519370536 -0.1872807349846358 0.9616068404806295 0.1872807349846358 0.9616068404806295 0.1872807349846358 0.038393159519370536 -0.1872807349846358
2.11825E9 0.03542132175074203 -0.17976201889073717 0.9645786782492579 0.17976201889073717 0.9645786782492579 0.17976201889073717 0.03542132175074203 -0.17976201889073717
2.193E9 0.03273687284872005 -0.1726446762688746 0.96726312715128 0.1726446762688746 0.96726312715128 0.1726446762688746 0.03273687284872005 -0.1726446762688746
2.26775E9 0.030305086261401853 -0.16589580930124015 0.9696949137385981 0.16589580930124015 0.9696949137385981 0.16589580930124015 0.030305086261401853 -0.16589580930124015
2.3425E9 0.028096281807851745 -0.1594857643043171 0.971903718192148 0.1594857643043171 0.971903718192148 0.1594857643043171 0.028096281807851745 -0.1594857643043171
2.41725E9 0.026084981816906907 -0.1533877848727756 0.9739150181830932 0.1533877848727756 0.9739150181830932 0.1533877848727756 0.026084981816906907 -0.1533877848727756
2.492E9 0.024249225246727995 -0.1475776993468174 0.9757507747532718 0.1475776993468174 0.9757507747532718 0.1475776993468174 0.024249225246727995 -0.1475776993468174
2.56675E9 0.022570007338916627 -0.14203364120956835 0.9774299926610833 0.14203364120956835 0.9774299926610833 0.14203364120956835 0.022570007338916627 -0.14203364120956835
2.6415E9 0.02103081955668354 -0.13673580012898665 0.9789691804433166 0.13673580012898665 0.9789691804433166 0.13673580012898665 0.02103081955668354 -0.13673580012898665
2.71625E9 0.019617270051383327 -0.13166620096516715 0.9803827299486167 0.13166620096516715 0.9803827299486167 0.13166620096516715 0.019617270051383327 -0.13166620096516715
2.791E9 0.018316769119362534 -0.1268085079680598 0.9816832308806376 0.1268085079680598 0.9816832308806376 0.1268085079680598 0.018316769119362534 -0.1268085079680598
2.86575E9 0.01711826736512632 -0.12214785146631497 0.9828817326348737 0.12214785146631497 0.9828817326348737 0.12214785146631497 0.01711826736512632 -0.12214785146631497
2.9405E9 0.016012036810389506 -0.11767067451647349 0.9839879631896105 0.11767067451647349 0.9839879631896105 0.11767067451647349 0.016012036810389506 -0.11767067451647349
3.01525E9 0.014989487155595374 -0.1133645971944485 0.9850105128444047 0.1133645971944485 0.9850105128444047 0.1133645971944485 0.014989487155595374 -0.1133645971944485
3.09E9 0.014043010941372006 -0.1092182964387933 0.9859569890586282 0.1092182964387933 0.9859569890586282 0.1092182964387933 0.014043010941372006 -0.1092182964387933
3.16475E9 0.013165852570385737 -0.10522139958035764 0.9868341474296142 0.10522139958035764 0.9868341474296142 0.10522139958035764 0.013165852570385737 -0.10522139958035764
3.2395E9 0.012351997109488663 -0.10136438990598755 0.9876480028905111 0.10136438990598755 0.9876480028905111 0.10136438990598755 0.012351997109488663 -0.10136438990598755
3.31425E9 0.011596075554481508 -0.0976385228000833 0.9884039244455187 0.0976385228000833 0.9884039244455187 0.0976385228000833 0.011596075554481508 -0.0976385228000833
3.389E9 0.010893283848427101 -0.09403575118517048 0.989106716151573 0.09403575118517048 0.989106716151573 0.09403575118517048 0.010893283848427101 -0.09403575118517048
3.46375E9 0.010239313432422542 -0.09054865914097181 0.9897606865675777 0.09054865914097181 0.9897606865675777 0.09054865914097181 0.010239313432422542 -0.09054865914097181
3.5385E9 0.00963029150065678 -0.0871704027216078 0.990369708499343 0.0871704027216078 0.990369708499343 0.0871704027216078 0.00963029150065678 -0.0871704027216078
3.61325E9 0.009062729449273069 -0.08389465711383291 0.990937270550727 0.08389465711383291 0.990937270550727 0.08389465711383291 0.009062729449273069 -0.08389465711383291
3.688E9 0.008533478266456266 -0.08071556938718777 0.9914665217335435 0.08071556938718777 0.9914665217335435 0.08071556938718777 0.008533478266456266 -0.08071556938718777
3.76275E9 0.00803968982134366 -0.07762771618124296 0.9919603101786563 0.07762771618124296 0.9919603101786563 0.07762771618124296 0.00803968982134366 -0.07762771618124296
3.8375E9 0.007578783181290444 -0.07462606575729017 0.9924212168187097 0.07462606575729017 0.9924212168187097 0.07462606575729017 0.007578783181290444 -0.07462606575729017
3.91225E9 0.007148415228182041 -0.07170594391337191 0.9928515847718179 0.07170594391337191 0.9928515847718179 0.07170594391337191 0.007148415228182041 -0.07170594391337191
3.987E9 0.0067464549607927325 -0.0688630033237716 0.9932535450392073 0.0688630033237716 0.9932535450392073 0.0688630033237716 0.0067464549607927325 -0.0688630033237716
4.06175E9 0.006370960966347833 -0.06609319591820302 0.9936290390336522 0.06609319591820302 0.9936290390336522 0.06609319591820302 0.006370960966347833 -0.06609319591820302
4.1365E9 0.006020161624211232 -0.06339274796301869 0.9939798383757886 0.06339274796301869 0.9939798383757886 0.06339274796301869 0.006020161624211232 -0.06339274796301869
4.21125E9 0.005692437670998115 -0.06075813754771625 0.9943075623290017 0.06075813754771625 0.9943075623290017 0.06075813754771625 0.005692437670998115 -0.06075813754771625
4.286E9 0.005386306811824403 -0.058186074215694286 0.9946136931881756 0.058186074215694286 0.9946136931881756 0.058186074215694286 0.005386306811824403 -0.058186074215694286
4.36075E9 0.005100410108801056 -0.05567348050928957 0.994899589891199 0.05567348050928957 0.994899589891199 0.05567348050928957 0.005100410108801056 -0.05567348050928957
4.4355E9 0.004833499916843875 -0.05321747522623924 0.9951665000831561 0.05321747522623924 0.9951665000831561 0.05321747522623924 0.004833499916843875 -0.05321747522623924
4.51025E9 0.00458442916968224 -0.05081535820838337 0.9954155708303176 0.05081535820838337 0.9954155708303176 0.05081535820838337 0.00458442916968224 -0.05081535820838337
4.585E9 0.004352141846660093 -0.0484645965041139 0.9956478581533398 0.0484645965041139 0.9956478581533398 0.0484645965041139 0.004352141846660093 -0.0484645965041139
4.65975E9 0.004135664474386218 -0.04616281176418603 0.9958643355256138 0.04616281176418603 0.9958643355256138 0.04616281176418603 0.004135664474386218 -0.04616281176418603
4.7345E9 0.0039340985372102516 -0.04390776874637301 0.9960659014627897 0.04390776874637301 0.9960659014627897 0.04390776874637301 0.0039340985372102516 -0.04390776874637301
4.80925E9 0.0037466136874546906 -0.04169736481836782 0.9962533863125452 0.04169736481836782 0.9962533863125452 0.04169736481836782 0.0037466136874546906 -0.04169736481836782
4.884E9 0.0035724416607978257 -0.039529620360563046 0.9964275583392022 0.039529620360563046 0.9964275583392022 0.039529620360563046 0.0035724416607978257 -0.039529620360563046
4.95875E9 0.0034108708145733214 -0.0374026699810983 0.9965891291854266 0.0374026699810983 0.9965891291854266 0.0374026699810983 0.0034108708145733214 -0.0374026699810983
5.0335E9 0.0032612412173565614 -0.03531475446503937 0.9967387587826434 0.03531475446503937 0.9967387587826434 0.03531475446503937 0.0032612412173565614 -0.03531475446503937
5.10825E9 0.0031229402273184963 -0.033264213387909324 0.9968770597726815 0.033264213387909324 0.9968770597726815 0.033264213387909324 0.0031229402273184963 -0.033264213387909324
5.183E9 0.002995398504672452 -0.031249478331173104 0.9970046014953274 0.031249478331173104 0.9970046014953274 0.031249478331173104 0.002995398504672452 -0.031249478331173104
5.25775E9 0.0028780864103081748 -0.02926906664380333 0.9971219135896917 0.02926906664380333 0.9971219135896917 0.02926906664380333 0.0028780864103081748 -0.02926906664380333
5.3325E9 0.002770510748560137 -0.027321575699833792 0.99722948925144 0.027321575699833792 0.99722948925144 0.027321575699833792 0.002770510748560137 -0.027321575699833792
5.40725E9 0.0026722118171280573 -0.02540567760693274 0.9973277881828718 0.02540567760693274 0.9973277881828718 0.02540567760693274 0.0026722118171280573 -0.02540567760693274
5.482E9 0.0025827607315696546 -0.023520114325576918 0.9974172392684304 0.023520114325576918 0.9974172392684304 0.023520114325576918 0.0025827607315696546 -0.023520114325576918
5.55675E9 0.0025017569956144103 -0.02166369316245098 0.9974982430043858 0.02166369316245098 0.9974982430043858 0.02166369316245098 0.0025017569956144103 -0.02166369316245098
5.6315E9 0.002428826291883719 -0.019835282605299452 0.9975711737081162 0.019835282605299452 0.9975711737081162 0.019835282605299452 0.002428826291883719 -0.019835282605299452
5.70625E9 0.002363618470515268 -0.01803380846966358 0.9976363815294846 0.01803380846966358 0.9976363815294846 0.01803380846966358 0.002363618470515268 -0.01803380846966358
5.781E9 0.002305805715736847 -0.01625825033080136 0.9976941942842632 0.01625825033080136 0.9976941942842632 0.01625825033080136 0.002305805715736847 -0.01625825033080136
5.85575E9 0.002255080872666253 -0.014507638216645885 0.9977449191273339 0.014507638216645885 0.9977449191273339 0.014507638216645885 0.002255080872666253 -0.014507638216645885
5.9305E9 0.0022111559185720416 -0.01278104953994478 0.9977888440814282 0.01278104953994478 0.9977888440814282 0.01278104953994478 0.0022111559185720416 -0.01278104953994478
6.00525E9 0.0021737605645512203 -0.011077606249775098 0.9978262394354488 0.011077606249775098 0.9978262394354488 0.011077606249775098 0.0021737605645512203 -0.011077606249775098
6.08E9 0.002142640975095125 -0.009396472184462643 0.9978573590249048 0.009396472184462643 0.9978573590249048 0.009396472184462643 0.002142640975095125 -0.009396472184462643
6.15475E9 0.0021175585943509624 -0.007736850609587484 0.997882441405649 0.007736850609587484 0.997882441405649 0.007736850609587484 0.0021175585943509624 -0.007736850609587484
6.2295E9 0.0020982890690664033 -0.00609798192623721 0.9979017109309335 0.00609798192623721 0.9979017109309335 0.00609798192623721 0.0020982890690664033 -0.00609798192623721
6.30425E9 0.002084621259248246 -0.004479141536006086 0.997915378740752 0.004479141536006086 0.997915378740752 0.004479141536006086 0.002084621259248246 -0.004479141536006086
6.379E9 0.002076356328490482 -0.002879637850436964 0.9979236436715095 0.002879637850436964 0.9979236436715095 0.002879637850436964 0.002076356328490482 -0.002879637850436964
6.45375E9 0.002073306906747019 -0.00129881043368933 0.9979266930932529 0.00129881043368933 0.9979266930932529 0.00129881043368933 0.002073306906747019 -0.00129881043368933
6.5285E9 0.002075296319052539 2.6397173180817975E-4 0.9979247036809474 -2.6397173180817975E-4 0.9979247036809474 -2.6397173180817975E-4 0.002075296319052539 2.6397173180817975E-4
6.60325E9 0.0020821578743427157 0.001809311866076065 0.9979178421256574 -0.001809311866076065 0.9979178421256574 -0.001809311866076065 0.0020821578743427157 0.001809311866076065
6.678E9 0.002093734209101943 0.0033377869072307286 0.9979062657908984 -0.0033377869072307286 0.9979062657908984 -0.0033377869072307286 0.002093734209101943 0.0033377869072307286
6.75275E9 0.002109876681081169 0.004849948929892829 0.9978901233189188 -0.004849948929892829 0.9978901233189188 -0.004849948929892829 0.002109876681081169 0.004849948929892829
6.8275E9 0.0021304448087878505 0.006346326473534016 0.9978695551912123 -0.006346326473534016 0.9978695551912123 -0.006346326473534016 0.0021304448087878505 0.006346326473534016
6.90225E9 0.0021553057528607648 0.007827425787344387 0.9978446942471393 -0.007827425787344387 0.9978446942471393 -0.007827425787344387 0.0021553057528607648 0.007827425787344387
6.977E9 0.0021843338358100923 0.009293731997661285 0.99781566616419 -0.009293731997661285 0.99781566616419 -0.009293731997661285 0.0021843338358100923 0.009293731997661285
7.05175E9 0.0022174100969326966 0.010745710203510193 0.9977825899030673 -0.010745710203510193 0.9977825899030673 -0.010745710203510193 0.0022174100969326966 0.010745710203510193
7.1265E9 0.0022544218795081785 0.012183806505359617 0.9977455781204919 -0.012183806505359617 0.9977455781204919 -0.012183806505359617 0.0022544218795081785 0.012183806505359617
7.20125E9 0.0022952624476469297 0.01360844897178659 0.9977047375523532 -0.01360844897178659 0.9977047375523532 -0.01360844897178659 0.0022952624476469297 0.01360844897178659
7.276E9 0.0023398306304002344 0.015020048548376323 0.9976601693695999 -0.015020048548376323 0.9976601693695999 -0.015020048548376323 0.0023398306304002344 0.015020048548376323
7.35075E9 0.0023880304909575764 0.016418999912842912 0.9976119695090422 -0.016418999912842912 0.9976119695090422 -0.016418999912842912 0.0023880304909575764 0.016418999912842912
7.4255E9 0.002439771018950139 0.017805682280047384 0.9975602289810497 -0.017805682280047384 0.9975602289810497 -0.017805682280047384 0.002439771018950139 0.017805682280047384
7.50025E9 0.002494965844054361 0.019180460160307517 0.9975050341559456 -0.019180460160307517 0.9975050341559456 -0.019180460160307517 0.002494965844054361 0.019180460160307517
7.575E9 0.002553532969247469 0.020543684074135534 0.9974464670307525 -0.020543684074135534 0.9974464670307525 -0.020543684074135534 0.002553532969247469 0.020543684074135534
7.64975E9 0.002615394522209643 0.021895691226302673 0.9973846054777902 -0.021895691226302673 0.9973846054777902 -0.021895691226302673 0.002615394522209643 0.021895691226302673
7.7245E9 0.0026804765234968776 0.023236806141913865 0.9973195234765033 -0.023236806141913865 0.9973195234765033 -0.023236806141913865 0.0026804765234968776 0.023236806141913865
7.79925E9 0.002748708670225635 0.024567341266975972 0.9972512913297744 -0.024567341266975972 0.9972512913297744 -0.024567341266975972 0.002748708670225635 0.024567341266975972
7.874E9 0.002820024134116699 0.025887597535761853 0.9971799758658833 -0.025887597535761853 0.9971799758658833 -0.025887597535761853 0.002820024134116699 0.025887597535761853
7.94875E9 0.002894359372842019 0.027197864907104092 0.9971056406271579 -0.027197864907104092 0.9971056406271579 -0.027197864907104092 0.002894359372842019 0.027197864907104092
8.0235E9 0.002971653953706019 0.028498422871599514 0.9970283460462939 -0.028498422871599514 0.9970283460462939 -0.028498422871599514 0.002971653953706019 0.028498422871599514
8.09825E9 0.0030518503887724943 0.029789540931562924 0.9969481496112275 -0.029789540931562924 0.9969481496112275 -0.029789540931562924 0.0030518503887724943 0.029789540931562924
8.173E9 0.0031348939806208555 0.031071479055439718 0.9968651060193794 -0.031071479055439718 0.9968651060193794 -0.031071479055439718 0.0031348939806208555 0.031071479055439718
8.24775E9 0.0032207326779815394 0.03234448810826583 0.9967792673220184 -0.03234448810826583 0.9967792673220184 -0.03234448810826583 0.0032207326779815394 0.03234448810826583
8.3225E9 0.003309316940560779 0.033608810259653975 0.9966906830594393 -0.033608810259653975 0.9966906830594393 -0.033608810259653975 0.003309316940560779 0.033608810259653975
8.39725E9 0.0034005996124199752 0.03486467937068301 0.99659940038758 -0.03486467937068301 0.99659940038758 -0.03486467937068301 0.0034005996124199752 0.03486467937068301
8.472E9 0.0034945358033252254 0.03611232136097271 0.9965054641966749 -0.03611232136097271 0.9965054641966749 -0.03611232136097271 0.0034945358033252254 0.03611232136097271
8.54675E9 0.0035910827775286597 0.03735195455714089 0.9964089172224714 -0.03735195455714089 0.9964089172224714 -0.03735195455714089 0.0035910827775286597 0.03735195455714089
