!Murata Part Number: GJM0225C1E7R9BB01
!These Parameters are Measured in Series Mode Connection
!       o--ll--o
!Port1            Port2
!       o------o
!Operation Temp=25[degC], DC Bias Voltage=0[V]
!Freq. Start=100[MHz] Stop=30[GHz], 401[Steps]
!Data Generated on Feb 1, 2023
# Hz S RI R 50
!Freq.(Hz) S11(Real) S11(Imag) S21(Real) S21(Imag) S12(Real) S12(Imag) S22(Real) S22(Imag)
1.0E8 0.8020431133076815 -0.3982358493672145 0.1979568866923184 0.3982358493672145 0.1979568866923184 0.3982358493672145 0.8020431133076815 -0.3982358493672145
1.7475E8 0.5697913866019547 -0.49471332809104807 0.43020861339804517 0.49471332809104807 0.43020861339804517 0.49471332809104807 0.5697913866019547 -0.49471332809104807
2.495E8 0.3931977162236128 -0.4878982005407424 0.6068022837763873 0.4878982005407424 0.6068022837763873 0.4878982005407424 0.3931977162236128 -0.4878982005407424
3.2425E8 0.2765520865257585 -0.44655853173787985 0.7234479134742413 0.44655853173787985 0.7234479134742413 0.44655853173787985 0.2765520865257585 -0.44655853173787985
3.99E8 0.20083445005461345 -0.39971414267189664 0.7991655499453866 0.39971414267189664 0.7991655499453866 0.39971414267189664 0.20083445005461345 -0.39971414267189664
4.7375E8 0.15058493567595124 -0.35655357841624163 0.8494150643240489 0.35655357841624163 0.8494150643240489 0.35655357841624163 0.15058493567595124 -0.35655357841624163
5.485E8 0.11614452690084437 -0.3191231692724241 0.8838554730991557 0.3191231692724241 0.8838554730991557 0.3191231692724241 0.11614452690084437 -0.3191231692724241
6.2325E8 0.09176104907478096 -0.28722307663912916 0.908238950925219 0.28722307663912916 0.908238950925219 0.28722307663912916 0.09176104907478096 -0.28722307663912916
6.98E8 0.07397925799449188 -0.2600752794598707 0.9260207420055081 0.2600752794598707 0.9260207420055081 0.2600752794598707 0.07397925799449188 -0.2600752794598707
7.7275E8 0.060669114062492854 -0.23685687749877915 0.9393308859375071 0.23685687749877915 0.9393308859375071 0.23685687749877915 0.060669114062492854 -0.23685687749877915
8.475E8 0.05047715352598371 -0.2168504642592979 0.9495228464740164 0.2168504642592979 0.9495228464740164 0.2168504642592979 0.05047715352598371 -0.2168504642592979
9.2225E8 0.0425172179416313 -0.19946901820879684 0.9574827820583687 0.19946901820879684 0.9574827820583687 0.19946901820879684 0.0425172179416313 -0.19946901820879684
9.97E8 0.03619266138321357 -0.1842429952693097 0.9638073386167865 0.1842429952693097 0.9638073386167865 0.1842429952693097 0.03619266138321357 -0.1842429952693097
1.07175E9 0.031091395934693504 -0.1707991135299295 0.9689086040653067 0.1707991135299295 0.9689086040653067 0.1707991135299295 0.031091395934693504 -0.1707991135299295
1.1465E9 0.026922178107553124 -0.15884018113750886 0.9730778218924467 0.15884018113750886 0.9730778218924467 0.15884018113750886 0.026922178107553124 -0.15884018113750886
1.22125E9 0.02347486372854769 -0.14812837339989024 0.9765251362714522 0.14812837339989024 0.9765251362714522 0.14812837339989024 0.02347486372854769 -0.14812837339989024
1.296E9 0.02059497146918568 -0.13847207005416434 0.9794050285308143 0.13847207005416434 0.9794050285308143 0.13847207005416434 0.02059497146918568 -0.13847207005416434
1.37075E9 0.018167013059499422 -0.1297157092605608 0.9818329869405008 0.1297157092605608 0.9818329869405008 0.1297157092605608 0.018167013059499422 -0.1297157092605608
1.4455E9 0.0161033279011895 -0.12173202157152084 0.9838966720988105 0.12173202157152084 0.9838966720988105 0.12173202157152084 0.0161033279011895 -0.12173202157152084
1.52025E9 0.014336453492374689 -0.11441608593444082 0.9856635465076253 0.11441608593444082 0.9856635465076253 0.11441608593444082 0.014336453492374689 -0.11441608593444082
1.595E9 0.012813815561849034 -0.1076807638019677 0.9871861844381509 0.1076807638019677 0.9871861844381509 0.1076807638019677 0.012813815561849034 -0.1076807638019677
1.66975E9 0.011493970008170661 -0.1014531722624428 0.9885060299918293 0.1014531722624428 0.9885060299918293 0.1014531722624428 0.011493970008170661 -0.1014531722624428
1.7445E9 0.010343901760718638 -0.09567194176778324 0.9896560982392812 0.09567194176778324 0.9896560982392812 0.09567194176778324 0.010343901760718638 -0.09567194176778324
1.81925E9 0.009337055536566843 -0.09028506883138498 0.9906629444634333 0.09028506883138498 0.9906629444634333 0.09028506883138498 0.009337055536566843 -0.09028506883138498
1.894E9 0.00845188124363966 -0.08524822246062232 0.9915481187563602 0.08524822246062232 0.9915481187563602 0.08524822246062232 0.00845188124363966 -0.08524822246062232
1.96875E9 0.007670746434438182 -0.08052339885056917 0.9923292535655618 0.08052339885056917 0.9923292535655618 0.08052339885056917 0.007670746434438182 -0.08052339885056917
2.0435E9 0.006979114007780154 -0.07607784520977838 0.9930208859922199 0.07607784520977838 0.9930208859922199 0.07607784520977838 0.006979114007780154 -0.07607784520977838
2.11825E9 0.006364913946505596 -0.07188319301423907 0.9936350860534945 0.07188319301423907 0.9936350860534945 0.07188319301423907 0.006364913946505596 -0.07188319301423907
2.193E9 0.0058180586205005555 -0.06791475535790362 0.9941819413794997 0.06791475535790362 0.9941819413794997 0.06791475535790362 0.0058180586205005555 -0.06791475535790362
2.26775E9 0.0053300654446500105 -0.064150953753416 0.9946699345553499 0.064150953753416 0.9946699345553499 0.064150953753416 0.0053300654446500105 -0.064150953753416
2.3425E9 0.004893760613931904 -0.06057284772596751 0.9951062393860681 0.06057284772596751 0.9951062393860681 0.06057284772596751 0.004893760613931904 -0.06057284772596751
2.41725E9 0.004503044640896148 -0.057163746553544295 0.9954969553591038 0.057163746553544295 0.9954969553591038 0.057163746553544295 0.004503044640896148 -0.057163746553544295
2.492E9 0.004152705414997852 -0.0539088870572767 0.9958472945850022 0.0539088870572767 0.9958472945850022 0.0539088870572767 0.004152705414997852 -0.0539088870572767
2.56675E9 0.003838268103298691 -0.05079516481298413 0.9961617318967012 0.05079516481298413 0.9961617318967012 0.05079516481298413 0.003838268103298691 -0.05079516481298413
2.6415E9 0.003555873833424015 -0.04781090881407857 0.9964441261665758 0.04781090881407857 0.9964441261665758 0.04781090881407857 0.003555873833424015 -0.04781090881407857
2.71625E9 0.0033021810266452047 -0.0449456916680657 0.9966978189733547 0.0449456916680657 0.9966978189733547 0.0449456916680657 0.0033021810266452047 -0.0449456916680657
2.791E9 0.0030742846782461897 -0.042190169002301006 0.9969257153217538 0.042190169002301006 0.9969257153217538 0.042190169002301006 0.0030742846782461897 -0.042190169002301006
2.86575E9 0.002869649951491653 -0.039535942999371285 0.9971303500485085 0.039535942999371285 0.9971303500485085 0.039535942999371285 0.002869649951491653 -0.039535942999371285
2.9405E9 0.002686057257717903 -0.0369754459604432 0.9973139427422821 0.0369754459604432 0.9973139427422821 0.0369754459604432 0.002686057257717903 -0.0369754459604432
3.01525E9 0.0025215566076227367 -0.034501840567640205 0.9974784433923772 0.034501840567640205 0.9974784433923772 0.034501840567640205 0.0025215566076227367 -0.034501840567640205
3.09E9 0.002374429487616494 -0.032108934130365904 0.9976255705123835 0.032108934130365904 0.9976255705123835 0.032108934130365904 0.002374429487616494 -0.032108934130365904
3.16475E9 0.002243156876319904 -0.02979110459070065 0.9977568431236802 0.02979110459070065 0.9977568431236802 0.02979110459070065 0.002243156876319904 -0.02979110459070065
3.2395E9 0.0021263922964531194 -0.027543236456436544 0.9978736077035468 0.027543236456436544 0.9978736077035468 0.027543236456436544 0.0021263922964531194 -0.027543236456436544
3.31425E9 0.002022939015997863 -0.02536066514761971 0.9979770609840022 0.02536066514761971 0.9979770609840022 0.02536066514761971 0.002022939015997863 -0.02536066514761971
3.389E9 0.001931730684152252 -0.023239128499566292 0.9980682693158479 0.023239128499566292 0.9980682693158479 0.023239128499566292 0.001931730684152252 -0.023239128499566292
3.46375E9 0.0018518148231014945 -0.021174724374569565 0.9981481851768985 0.021174724374569565 0.9981481851768985 0.021174724374569565 0.0018518148231014945 -0.021174724374569565
3.5385E9 0.0017823387041828952 -0.019163873505561643 0.9982176612958171 0.019163873505561643 0.9982176612958171 0.019163873505561643 0.0017823387041828952 -0.019163873505561643
3.61325E9 0.0017225372228366431 -0.01720328683539178 0.9982774627771634 0.01720328683539178 0.9982774627771634 0.01720328683539178 0.0017225372228366431 -0.01720328683539178
3.688E9 0.0016717224555390995 -0.015289936731089372 0.9983282775444609 0.015289936731089372 0.9983282775444609 0.015289936731089372 0.0016717224555390995 -0.015289936731089372
3.76275E9 0.00162927463734573 -0.013421031548202404 0.9983707253626544 0.013421031548202404 0.9983707253626544 0.013421031548202404 0.00162927463734573 -0.013421031548202404
3.8375E9 0.0015946343435297606 -0.011593993099790824 0.9984053656564703 0.011593993099790824 0.9984053656564703 0.011593993099790824 0.0015946343435297606 -0.011593993099790824
3.91225E9 0.001567295695265363 -0.009806436650896314 0.9984327043047347 0.009806436650896314 0.9984327043047347 0.009806436650896314 0.001567295695265363 -0.009806436650896314
3.987E9 0.0015468004390668288 -0.008056153114706411 0.9984531995609333 0.008056153114706411 0.9984531995609333 0.008056153114706411 0.0015468004390668288 -0.008056153114706411
4.06175E9 0.0015327327740873792 -0.006341093173111471 0.9984672672259128 0.006341093173111471 0.9984672672259128 0.006341093173111471 0.0015327327740873792 -0.006341093173111471
4.1365E9 0.0015247148214500245 -0.004659353083478696 0.9984752851785498 0.004659353083478696 0.9984752851785498 0.004659353083478696 0.0015247148214500245 -0.004659353083478696
4.21125E9 0.0015224026463565748 -0.0030091619665055334 0.9984775973536434 0.0030091619665055334 0.9984775973536434 0.0030091619665055334 0.0015224026463565748 -0.0030091619665055334
4.286E9 0.0015254827574578136 -0.0013888703979953994 0.9984745172425423 0.0013888703979953994 0.9984745172425423 0.0013888703979953994 0.0015254827574578136 -0.0013888703979953994
4.36075E9 0.0015336690193934088 2.0305984883339356E-4 0.9984663309806068 -2.0305984883339356E-4 0.9984663309806068 -2.0305984883339356E-4 0.0015336690193934088 2.0305984883339356E-4
4.4355E9 0.0015466999239452449 0.0017680650436492373 0.9984533000760546 -0.0017680650436492373 0.9984533000760546 -0.0017680650436492373 0.0015466999239452449 0.0017680650436492373
4.51025E9 0.001564336173231407 0.0033074878377708054 0.9984356638267687 -0.0033074878377708054 0.9984356638267687 -0.0033074878377708054 0.001564336173231407 0.0033074878377708054
4.585E9 0.0015863585350734898 0.004822584802434293 0.9984136414649265 -0.004822584802434293 0.9984136414649265 -0.004822584802434293 0.0015863585350734898 0.004822584802434293
4.65975E9 0.0016125659363191362 0.006314533254891432 0.9983874340636807 -0.006314533254891432 0.9983874340636807 -0.006314533254891432 0.0016125659363191362 0.006314533254891432
4.7345E9 0.001642773764675099 0.007784437449720929 0.998357226235325 -0.007784437449720929 0.998357226235325 -0.007784437449720929 0.001642773764675099 0.007784437449720929
4.80925E9 0.0016768123536510563 0.00923333420329318 0.9983231876463489 -0.00923333420329318 0.9983231876463489 -0.00923333420329318 0.0016768123536510563 0.00923333420329318
4.884E9 0.0017145256286515745 0.010662198011162685 0.9982854743713484 -0.010662198011162685 0.9982854743713484 -0.010662198011162685 0.0017145256286515745 0.010662198011162685
4.95875E9 0.0017557698951821553 0.012071945711083899 0.998244230104818 -0.012071945711083899 0.998244230104818 -0.012071945711083899 0.0017557698951821553 0.012071945711083899
5.0335E9 0.001800412752637082 0.013463440738198659 0.998199587247363 -0.013463440738198659 0.998199587247363 -0.013463440738198659 0.001800412752637082 0.013463440738198659
5.10825E9 0.001848332119279398 0.01483749701359042 0.9981516678807206 -0.01483749701359042 0.9981516678807206 -0.01483749701359042 0.001848332119279398 0.01483749701359042
5.183E9 0.0018994153558629097 0.016194882502732693 0.998100584644137 -0.016194882502732693 0.998100584644137 -0.016194882502732693 0.0018994153558629097 0.016194882502732693
5.25775E9 0.001953558476929358 0.017536322476277764 0.9980464415230708 -0.017536322476277764 0.9980464415230708 -0.017536322476277764 0.001953558476929358 0.017536322476277764
5.3325E9 0.0020106654401797286 0.018862502502059154 0.9979893345598204 -0.018862502502059154 0.9979893345598204 -0.018862502502059154 0.0020106654401797286 0.018862502502059154
5.40725E9 0.0020706475054997103 0.02017407119404515 0.9979293524945 -0.02017407119404515 0.9979293524945 -0.02017407119404515 0.0020706475054997103 0.02017407119404515
5.482E9 0.0021334226562429214 0.021471642741226142 0.9978665773437572 -0.021471642741226142 0.9978665773437572 -0.021471642741226142 0.0021334226562429214 0.021471642741226142
5.55675E9 0.002198915076264647 0.02275579923699131 0.9978010849237354 -0.02275579923699131 0.9978010849237354 -0.02275579923699131 0.002198915076264647 0.02275579923699131
5.6315E9 0.002267054676972985 0.02402709282741127 0.9977329453230269 -0.02402709282741127 0.9977329453230269 -0.02402709282741127 0.002267054676972985 0.02402709282741127
5.70625E9 0.0023377766693397643 0.025286047694952136 0.9976622233306603 -0.025286047694952136 0.9976622233306603 -0.025286047694952136 0.0023377766693397643 0.025286047694952136
5.781E9 0.0024110211764044164 0.026533161892474788 0.9975889788235955 -0.026533161892474788 0.9975889788235955 -0.026533161892474788 0.0024110211764044164 0.026533161892474788
5.85575E9 0.0024867328823218833 0.027768909040890855 0.9975132671176782 -0.027768909040890855 0.9975132671176782 -0.027768909040890855 0.0024867328823218833 0.027768909040890855
5.9305E9 0.0025648607144608425 0.028993739902532647 0.9974351392855391 -0.028993739902532647 0.9974351392855391 -0.028993739902532647 0.0025648607144608425 0.028993739902532647
6.00525E9 0.00264535755545945 0.03020808384112564 0.9973546424445405 -0.03020808384112564 0.9973546424445405 -0.03020808384112564 0.00264535755545945 0.03020808384112564
6.08E9 0.0027281799825001167 0.031412350178213734 0.9972718200174999 -0.031412350178213734 0.9972718200174999 -0.031412350178213734 0.0027281799825001167 0.031412350178213734
6.15475E9 0.0028132880313785796 0.03260692945496154 0.9971867119686214 -0.03260692945496154 0.9971867119686214 -0.03260692945496154 0.0028132880313785796 0.03260692945496154
6.2295E9 0.0029006449832215822 0.03379219460743457 0.9970993550167785 -0.03379219460743457 0.9970993550167785 -0.03379219460743457 0.0029006449832215822 0.03379219460743457
6.30425E9 0.002990217171956093 0.03496850206272037 0.997009782828044 -0.03496850206272037 0.997009782828044 -0.03496850206272037 0.002990217171956093 0.03496850206272037
6.379E9 0.0030819738108559076 0.036136192762599405 0.9969180261891442 -0.036136192762599405 0.9969180261891442 -0.036136192762599405 0.0030819738108559076 0.036136192762599405
6.45375E9 0.003175886836691709 0.03729559312088553 0.9968241131633081 -0.03729559312088553 0.9968241131633081 -0.03729559312088553 0.003175886836691709 0.03729559312088553
6.5285E9 0.003271930770191923 0.038447015920033654 0.9967280692298082 -0.038447015920033654 0.9967280692298082 -0.038447015920033654 0.003271930770191923 0.038447015920033654
6.60325E9 0.003370082591686306 0.039590761152142516 0.9966299174083137 -0.039590761152142516 0.9966299174083137 -0.039590761152142516 0.003370082591686306 0.039590761152142516
6.678E9 0.0034703216309551967 0.04072711680906378 0.9965296783690447 -0.04072711680906378 0.9965296783690447 -0.04072711680906378 0.0034703216309551967 0.04072711680906378
6.75275E9 0.003572629470446527 0.041856359625955096 0.9964273705295535 -0.041856359625955096 0.9964273705295535 -0.041856359625955096 0.003572629470446527 0.041856359625955096
6.8275E9 0.003676989861152306 0.04297875578228159 0.9963230101388478 -0.04297875578228159 0.9963230101388478 -0.04297875578228159 0.003676989861152306 0.04297875578228159
6.90225E9 0.003783388650558501 0.04409456156397691 0.9962166113494413 -0.04409456156397691 0.9962166113494413 -0.04409456156397691 0.003783388650558501 0.04409456156397691
6.977E9 0.0038918137221982648 0.045204023990210895 0.9961081862778014 -0.045204023990210895 0.9961081862778014 -0.045204023990210895 0.0038918137221982648 0.045204023990210895
7.05175E9 0.004002254946450635 0.04630738140798086 0.9959977450535493 -0.04630738140798086 0.9959977450535493 -0.04630738140798086 0.004002254946450635 0.04630738140798086
7.1265E9 0.004114704142336453 0.0474048640575408 0.9958852958576636 -0.0474048640575408 0.9958852958576636 -0.0474048640575408 0.004114704142336453 0.0474048640575408
7.20125E9 0.004229155050172157 0.048496694611506165 0.9957708449498278 -0.048496694611506165 0.9957708449498278 -0.048496694611506165 0.004229155050172157 0.048496694611506165
7.276E9 0.004345603315051844 0.04958308869031918 0.995654396684948 -0.04958308869031918 0.995654396684948 -0.04958308869031918 0.004345603315051844 0.04958308869031918
7.35075E9 0.004464046481240693 0.05066425535663265 0.9955359535187595 -0.05066425535663265 0.9955359535187595 -0.05066425535663265 0.004464046481240693 0.05066425535663265
7.4255E9 0.004584483997679974 0.05174039759106225 0.99541551600232 -0.05174039759106225 0.99541551600232 -0.05174039759106225 0.004584483997679974 0.05174039759106225
7.50025E9 0.004706917234927848 0.05281171275167386 0.995293082765072 -0.05281171275167386 0.995293082765072 -0.05281171275167386 0.004706917234927848 0.05281171275167386
7.575E9 0.004831349513993081 0.053878393019507344 0.9951686504860068 -0.053878393019507344 0.9951686504860068 -0.053878393019507344 0.004831349513993081 0.053878393019507344
7.64975E9 0.004957786147663313 0.054940625832395576 0.9950422138523366 -0.054940625832395576 0.9950422138523366 -0.054940625832395576 0.004957786147663313 0.054940625832395576
7.7245E9 0.005086234495088755 0.055998594309317196 0.9949137655049114 -0.055998594309317196 0.9949137655049114 -0.055998594309317196 0.005086234495088755 0.055998594309317196
7.79925E9 0.005216704030558897 0.0570524776675174 0.9947832959694409 -0.0570524776675174 0.9947832959694409 -0.0570524776675174 0.005216704030558897 0.0570524776675174
7.874E9 0.005349206427609097 0.05810245163465737 0.994650793572391 -0.05810245163465737 0.994650793572391 -0.05810245163465737 0.005349206427609097 0.05810245163465737
7.94875E9 0.005483755659818908 0.05914868885829326 0.9945162443401809 -0.05914868885829326 0.9945162443401809 -0.05914868885829326 0.005483755659818908 0.05914868885829326
8.0235E9 0.005620368119921876 0.06019135931505958 0.9943796318800782 -0.06019135931505958 0.9943796318800782 -0.06019135931505958 0.005620368119921876 0.06019135931505958
8.09825E9 0.005759062759142194 0.061230630722024365 0.9942409372408578 -0.061230630722024365 0.9942409372408578 -0.061230630722024365 0.005759062759142194 0.061230630722024365
8.173E9 0.0058998612490163554 0.062266668952812416 0.9941001387509838 -0.062266668952812416 0.9941001387509838 -0.062266668952812416 0.0058998612490163554 0.062266668952812416
8.24775E9 0.006042788168355912 0.06329963846124623 0.9939572118316441 -0.06329963846124623 0.9939572118316441 -0.06329963846124623 0.006042788168355912 0.06329963846124623
8.3225E9 0.006187871218473223 0.06432970271544938 0.9938121287815268 -0.06432970271544938 0.9938121287815268 -0.06432970271544938 0.006187871218473223 0.06432970271544938
8.39725E9 0.006335141470338406 0.06535702464558589 0.9936648585296615 -0.06535702464558589 0.9936648585296615 -0.06535702464558589 0.006335141470338406 0.06535702464558589
8.472E9 0.006484633647980349 0.06638176710868479 0.9935153663520198 -0.06638176710868479 0.9935153663520198 -0.06638176710868479 0.006484633647980349 0.06638176710868479
