!Murata Part Number: GJM0225C1E2R3BB01
!These Parameters are Measured in Series Mode Connection
!       o--ll--o
!Port1            Port2
!       o------o
!Operation Temp=25[degC], DC Bias Voltage=0[V]
!Freq. Start=100[MHz] Stop=30[GHz], 401[Steps]
!Data Generated on Feb 1, 2023
# Hz S RI R 50
!Freq.(Hz) S11(Real) S11(Imag) S21(Real) S21(Imag) S12(Real) S12(Imag) S22(Real) S22(Imag)
1.0E8 0.9795011731729093 -0.14156541191510735 0.020498826827090668 0.14156541191510735 0.020498826827090668 0.14156541191510735 0.9795011731729093 -0.14156541191510735
1.7475E8 0.9399022307793647 -0.2374342907324731 0.0600977692206352 0.2374342907324731 0.0600977692206352 0.2374342907324731 0.9399022307793647 -0.2374342907324731
2.495E8 0.8846095805387091 -0.3191588213870786 0.11539041946129107 0.3191588213870786 0.11539041946129107 0.3191588213870786 0.8846095805387091 -0.3191588213870786
3.2425E8 0.8193082011701753 -0.3843286225075324 0.1806917988298247 0.3843286225075324 0.1806917988298247 0.3843286225075324 0.8193082011701753 -0.3843286225075324
3.99E8 0.7494076664526574 -0.4328195944698564 0.2505923335473426 0.4328195944698564 0.2505923335473426 0.4328195944698564 0.7494076664526574 -0.4328195944698564
4.7375E8 0.6792717583149508 -0.46612108215881504 0.3207282416850491 0.46612108215881504 0.3207282416850491 0.46612108215881504 0.6792717583149508 -0.46612108215881504
5.485E8 0.6119571844338194 -0.48656773580054863 0.3880428155661806 0.48656773580054863 0.3880428155661806 0.48656773580054863 0.6119571844338194 -0.48656773580054863
6.2325E8 0.5493107792958561 -0.4967241426606442 0.45068922070414374 0.4967241426606442 0.45068922070414374 0.4967241426606442 0.5493107792958561 -0.4967241426606442
6.98E8 0.4922330624014483 -0.4989991218859324 0.5077669375985516 0.4989991218859324 0.5077669375985516 0.4989991218859324 0.4922330624014483 -0.4989991218859324
7.7275E8 0.4409685889768667 -0.4954597692770193 0.5590314110231334 0.4954597692770193 0.5590314110231334 0.4954597692770193 0.4409685889768667 -0.4954597692770193
8.475E8 0.3953527309360761 -0.4877796614936968 0.6046472690639239 0.4877796614936968 0.6046472690639239 0.4877796614936968 0.3953527309360761 -0.4877796614936968
9.2225E8 0.3549940566681543 -0.4772608105103768 0.6450059433318458 0.4772608105103768 0.6450059433318458 0.4772608105103768 0.3549940566681543 -0.4772608105103768
9.97E8 0.31939688509873265 -0.4648874709607197 0.6806031149012673 0.4648874709607197 0.6806031149012673 0.4648874709607197 0.31939688509873265 -0.4648874709607197
1.07175E9 0.28803746738270214 -0.45138751976945085 0.7119625326172979 0.45138751976945085 0.7119625326172979 0.45138751976945085 0.28803746738270214 -0.45138751976945085
1.1465E9 0.26040773545063656 -0.43728949722115934 0.7395922645493633 0.43728949722115934 0.7395922645493633 0.43728949722115934 0.26040773545063656 -0.43728949722115934
1.22125E9 0.23603791029385687 -0.42297073781755234 0.7639620897061431 0.42297073781755234 0.7639620897061431 0.42297073781755234 0.23603791029385687 -0.42297073781755234
1.296E9 0.2145060958806623 -0.40869582809437444 0.7854939041193375 0.40869582809437444 0.7854939041193375 0.40869582809437444 0.2145060958806623 -0.40869582809437444
1.37075E9 0.19544029953125178 -0.3946463235646707 0.8045597004687483 0.3946463235646707 0.8045597004687483 0.3946463235646707 0.19544029953125178 -0.3946463235646707
1.4455E9 0.17851634111046977 -0.3809432231449651 0.82148365888953 0.3809432231449651 0.82148365888953 0.3809432231449651 0.17851634111046977 -0.3809432231449651
1.52025E9 0.16345376417204632 -0.36766372721825874 0.8365462358279537 0.36766372721825874 0.8365462358279537 0.36766372721825874 0.16345376417204632 -0.36766372721825874
1.595E9 0.15001098685209585 -0.3548536149451674 0.8499890131479041 0.3548536149451674 0.8499890131479041 0.3548536149451674 0.15001098685209585 -0.3548536149451674
1.66975E9 0.13798038276642619 -0.34253632614316687 0.8620196172335739 0.34253632614316687 0.8620196172335739 0.34253632614316687 0.13798038276642619 -0.34253632614316687
1.7445E9 0.1271836500255539 -0.3307195934181087 0.8728163499744461 0.3307195934181087 0.8728163499744461 0.3307195934181087 0.1271836500255539 -0.3307195934181087
1.81925E9 0.11746763106121837 -0.31940026695036855 0.8825323689387816 0.31940026695036855 0.8825323689387816 0.31940026695036855 0.11746763106121837 -0.31940026695036855
1.894E9 0.10870063506750016 -0.30856781222541396 0.8912993649324997 0.30856781222541396 0.8912993649324997 0.30856781222541396 0.10870063506750016 -0.30856781222541396
1.96875E9 0.10076925505533858 -0.2982068362370345 0.8992307449446616 0.2982068362370345 0.8992307449446616 0.2982068362370345 0.10076925505533858 -0.2982068362370345
2.0435E9 0.09357564188676272 -0.28829890373554445 0.9064243581132372 0.28829890373554445 0.9064243581132372 0.28829890373554445 0.09357564188676272 -0.28829890373554445
2.11825E9 0.08703518536155413 -0.2788238352851484 0.9129648146384459 0.2788238352851484 0.9129648146384459 0.2788238352851484 0.08703518536155413 -0.2788238352851484
2.193E9 0.08107454973262909 -0.26976062745832224 0.9189254502673709 0.26976062745832224 0.9189254502673709 0.26976062745832224 0.08107454973262909 -0.26976062745832224
2.26775E9 0.07563001333825532 -0.2610880977820325 0.9243699866617447 0.2610880977820325 0.9243699866617447 0.2610880977820325 0.07563001333825532 -0.2610880977820325
2.3425E9 0.07064606669581962 -0.25278532947238463 0.9293539333041805 0.25278532947238463 0.9293539333041805 0.25278532947238463 0.07064606669581962 -0.25278532947238463
2.41725E9 0.06607422890088666 -0.2448319708490869 0.9339257710991133 0.2448319708490869 0.9339257710991133 0.2448319708490869 0.06607422890088666 -0.2448319708490869
2.492E9 0.06187204770503998 -0.2372084296057975 0.9381279522949602 0.2372084296057975 0.9381279522949602 0.2372084296057975 0.06187204770503998 -0.2372084296057975
2.56675E9 0.058002253799013304 -0.22989599135609598 0.9419977462009868 0.22989599135609598 0.9419977462009868 0.22989599135609598 0.058002253799013304 -0.22989599135609598
2.6415E9 0.05443204442777136 -0.22287688400351457 0.9455679555722286 0.22287688400351457 0.9455679555722286 0.22287688400351457 0.05443204442777136 -0.22287688400351457
2.71625E9 0.05113247546351043 -0.21613430371611858 0.9488675245364895 0.21613430371611858 0.9488675245364895 0.21613430371611858 0.05113247546351043 -0.21613430371611858
2.791E9 0.048077944480375945 -0.20965241405339533 0.9519220555196242 0.20965241405339533 0.9519220555196242 0.20965241405339533 0.048077944480375945 -0.20965241405339533
2.86575E9 0.04524575026250248 -0.20341632668273874 0.9547542497374978 0.20341632668273874 0.9547542497374978 0.20341632668273874 0.04524575026250248 -0.20341632668273874
2.9405E9 0.04261571659848138 -0.19741206983428175 0.9573842834015188 0.19741206983428175 0.9573842834015188 0.19741206983428175 0.04261571659848138 -0.19741206983428175
3.01525E9 0.04016987023568379 -0.19162654895740877 0.9598301297643163 0.19162654895740877 0.9598301297643163 0.19162654895740877 0.04016987023568379 -0.19162654895740877
3.09E9 0.03789216454813907 -0.1860475028003525 0.962107835451861 0.1860475028003525 0.962107835451861 0.1860475028003525 0.03789216454813907 -0.1860475028003525
3.16475E9 0.035768241866545036 -0.1806634572190601 0.9642317581334551 0.1806634572190601 0.9642317581334551 0.1806634572190601 0.035768241866545036 -0.1806634572190601
3.2395E9 0.033785228575954035 -0.175463678347434 0.9662147714240461 0.175463678347434 0.9662147714240461 0.175463678347434 0.033785228575954035 -0.175463678347434
3.31425E9 0.03193155804619854 -0.170438126265231 0.9680684419538013 0.170438126265231 0.9680684419538013 0.170438126265231 0.03193155804619854 -0.170438126265231
3.389E9 0.030196817256245144 -0.16557740993603887 0.9698031827437549 0.16557740993603887 0.9698031827437549 0.16557740993603887 0.030196817256245144 -0.16557740993603887
3.46375E9 0.028571613634790008 -0.1608727439216559 0.97142838636521 0.1608727439216559 0.97142838636521 0.1608727439216559 0.028571613634790008 -0.1608727439216559
3.5385E9 0.02704745918908901 -0.15631590718560673 0.9729525408109109 0.15631590718560673 0.9729525408109109 0.15631590718560673 0.02704745918908901 -0.15631590718560673
3.61325E9 0.025616669451692872 -0.15189920415867753 0.9743833305483072 0.15189920415867753 0.9743833305483072 0.15189920415867753 0.025616669451692872 -0.15189920415867753
3.688E9 0.02427227515646089 -0.14761542813934891 0.9757277248435391 0.14761542813934891 0.9757277248435391 0.14761542813934891 0.02427227515646089 -0.14761542813934891
3.76275E9 0.023007944874133917 -0.14345782703148247 0.9769920551258662 0.14345782703148247 0.9769920551258662 0.14345782703148247 0.023007944874133917 -0.14345782703148247
3.8375E9 0.021817917104692643 -0.13942007137287465 0.9781820828953073 0.13942007137287465 0.9781820828953073 0.13942007137287465 0.021817917104692643 -0.13942007137287465
3.91225E9 0.020696940547619523 -0.13549622457558314 0.9793030594523805 0.13549622457558314 0.9793030594523805 0.13549622457558314 0.020696940547619523 -0.13549622457558314
3.987E9 0.019640221459346144 -0.13168071527797706 0.9803597785406541 0.13168071527797706 0.9803597785406541 0.13168071527797706 0.019640221459346144 -0.13168071527797706
4.06175E9 0.0186433771656296 -0.12796831169605954 0.9813566228343705 0.12796831169605954 0.9813566228343705 0.12796831169605954 0.0186433771656296 -0.12796831169605954
4.1365E9 0.017702394930330167 -0.1243540978553887 0.9822976050696698 0.1243540978553887 0.9822976050696698 0.1243540978553887 0.017702394930330167 -0.1243540978553887
4.21125E9 0.01681359549515438 -0.12083345158309765 0.9831864045048458 0.12083345158309765 0.9831864045048458 0.12083345158309765 0.01681359549515438 -0.12083345158309765
4.286E9 0.015973600700768982 -0.1174020241407796 0.9840263992992307 0.1174020241407796 0.9840263992992307 0.1174020241407796 0.015973600700768982 -0.1174020241407796
4.36075E9 0.015179304681082277 -0.11405572138237338 0.9848206953189178 0.11405572138237338 0.9848206953189178 0.11405572138237338 0.015179304681082277 -0.11405572138237338
4.4355E9 0.014427848191754498 -0.11079068632594902 0.9855721518082455 0.11079068632594902 0.9855721518082455 0.11079068632594902 0.014427848191754498 -0.11079068632594902
4.51025E9 0.013716595693063735 -0.10760328303391507 0.9862834043069361 0.10760328303391507 0.9862834043069361 0.10760328303391507 0.013716595693063735 -0.10760328303391507
4.585E9 0.013043114857726457 -0.10449008170227504 0.9869568851422735 0.10449008170227504 0.9869568851422735 0.10449008170227504 0.013043114857726457 -0.10449008170227504
4.65975E9 0.012405158217485402 -0.10144784486586025 0.9875948417825146 0.10144784486586025 0.9875948417825146 0.10144784486586025 0.012405158217485402 -0.10144784486586025
4.7345E9 0.011800646699353457 -0.09847351463278198 0.9881993533006465 0.09847351463278198 0.9881993533006465 0.09847351463278198 0.011800646699353457 -0.09847351463278198
4.80925E9 0.01122765483427129 -0.09556420086752199 0.9887723451657289 0.09556420086752199 0.9887723451657289 0.09556420086752199 0.01122765483427129 -0.09556420086752199
4.884E9 0.010684397448385058 -0.09271717024804196 0.9893156025516148 0.09271717024804196 0.9893156025516148 0.09271717024804196 0.010684397448385058 -0.09271717024804196
4.95875E9 0.010169217670835116 -0.08992983612796887 0.989830782329165 0.08992983612796887 0.989830782329165 0.08992983612796887 0.010169217670835116 -0.08992983612796887
5.0335E9 0.009680576112422401 -0.08719974914027605 0.9903194238875778 0.08719974914027605 0.9903194238875778 0.08719974914027605 0.009680576112422401 -0.08719974914027605
5.10825E9 0.009217041087252803 -0.08452458848391022 0.9907829589127473 0.08452458848391022 0.9907829589127473 0.08452458848391022 0.009217041087252803 -0.08452458848391022
5.183E9 0.008777279764846147 -0.08190215383950464 0.9912227202351538 0.08190215383950464 0.9912227202351538 0.08190215383950464 0.008777279764846147 -0.08190215383950464
5.25775E9 0.008360050153569928 -0.07933035786467764 0.9916399498464301 0.07933035786467764 0.9916399498464301 0.07933035786467764 0.008360050153569928 -0.07933035786467764
5.3325E9 0.00796419382790166 -0.07680721922344781 0.9920358061720984 0.07680721922344781 0.9920358061720984 0.07680721922344781 0.00796419382790166 -0.07680721922344781
5.40725E9 0.007588629322179283 -0.07433085610802143 0.9924113706778209 0.07433085610802143 0.9924113706778209 0.07433085610802143 0.007588629322179283 -0.07433085610802143
5.482E9 0.0072323461223702664 -0.07189948021463452 0.9927676538776297 0.07189948021463452 0.9927676538776297 0.07189948021463452 0.0072323461223702664 -0.07189948021463452
5.55675E9 0.006894399195153451 -0.0695113911382867 0.9931056008048468 0.0695113911382867 0.9931056008048468 0.0695113911382867 0.006894399195153451 -0.0695113911382867
5.6315E9 0.006573904000411087 -0.06716497115409653 0.993426095999589 0.06716497115409653 0.993426095999589 0.06716497115409653 0.006573904000411087 -0.06716497115409653
5.70625E9 0.006270031939200771 -0.06485868035566271 0.9937299680607992 0.06485868035566271 0.9937299680607992 0.06485868035566271 0.006270031939200771 -0.06485868035566271
5.781E9 0.005982006194527738 -0.06259105212324831 0.9940179938054724 0.06259105212324831 0.9940179938054724 0.06259105212324831 0.005982006194527738 -0.06259105212324831
5.85575E9 0.005709097926860723 -0.06036068889683208 0.9942909020731392 0.06036068889683208 0.9942909020731392 0.06036068889683208 0.005709097926860723 -0.06036068889683208
5.9305E9 0.00545062279041109 -0.05816625823110929 0.9945493772095887 0.05816625823110929 0.9945493772095887 0.05816625823110929 0.00545062279041109 -0.05816625823110929
6.00525E9 0.005205937739794649 -0.05600648911139086 0.9947940622602053 0.05600648911139086 0.9947940622602053 0.05600648911139086 0.005205937739794649 -0.05600648911139086
6.08E9 0.0049744380998786334 -0.05388016851105482 0.9950255619001213 0.05388016851105482 0.9950255619001213 0.05388016851105482 0.0049744380998786334 -0.05388016851105482
6.15475E9 0.004755554874435397 -0.051786138172767546 0.9952444451255646 0.051786138172767546 0.9952444451255646 0.051786138172767546 0.004755554874435397 -0.051786138172767546
6.2295E9 0.00454875227172363 -0.049723291597117976 0.9954512477282765 0.049723291597117976 0.9954512477282765 0.049723291597117976 0.00454875227172363 -0.049723291597117976
6.30425E9 0.00435352542733763 -0.047690571223617105 0.9956464745726622 0.047690571223617105 0.9956464745726622 0.047690571223617105 0.00435352542733763 -0.047690571223617105
6.379E9 0.004169398306638077 -0.045686965790208374 0.9958306016933618 0.045686965790208374 0.9958306016933618 0.045686965790208374 0.004169398306638077 -0.045686965790208374
6.45375E9 0.0039959217708347965 -0.04371150785853212 0.9960040782291653 0.04371150785853212 0.9960040782291653 0.04371150785853212 0.0039959217708347965 -0.04371150785853212
6.5285E9 0.0038326717923573518 -0.041763271493185435 0.9961673282076426 0.041763271493185435 0.9961673282076426 0.041763271493185435 0.0038326717923573518 -0.041763271493185435
6.60325E9 0.0036792478065470063 -0.03984137008413977 0.996320752193453 0.03984137008413977 0.996320752193453 0.03984137008413977 0.0036792478065470063 -0.03984137008413977
6.678E9 0.0035352711879520363 -0.03794495430231738 0.9964647288120481 0.03794495430231738 0.9964647288120481 0.03794495430231738 0.0035352711879520363 -0.03794495430231738
6.75275E9 0.003400383840625275 -0.03607321017909772 0.9965996161593749 0.03607321017909772 0.9965996161593749 0.03607321017909772 0.003400383840625275 -0.03607321017909772
6.8275E9 0.0032742468928234235 -0.034225357301233765 0.9967257531071766 0.034225357301233765 0.9967257531071766 0.034225357301233765 0.0032742468928234235 -0.034225357301233765
6.90225E9 0.003156539487404317 -0.03240064711330268 0.9968434605125958 0.03240064711330268 0.9968434605125958 0.03240064711330268 0.003156539487404317 -0.03240064711330268
6.977E9 0.003046957660023854 -0.030598361320412756 0.9969530423399764 0.030598361320412756 0.9969530423399764 0.030598361320412756 0.003046957660023854 -0.030598361320412756
7.05175E9 0.002945213297957676 -0.02881781038443268 0.9970547867020425 0.02881781038443268 0.9970547867020425 0.02881781038443268 0.002945213297957676 -0.02881781038443268
7.1265E9 0.0028510331730237683 -0.0270583321075117 0.9971489668269762 0.0270583321075117 0.9971489668269762 0.0270583321075117 0.0028510331730237683 -0.0270583321075117
7.20125E9 0.0027641580426682848 -0.02531929029711887 0.9972358419573315 0.02531929029711887 0.9972358419573315 0.02531929029711887 0.0027641580426682848 -0.02531929029711887
7.276E9 0.0026843418138054877 -0.023600073507255046 0.9973156581861945 0.023600073507255046 0.9973156581861945 0.023600073507255046 0.0026843418138054877 -0.023600073507255046
7.35075E9 0.002611350764479492 -0.021900093850878627 0.9973886492355206 0.021900093850878627 0.9973886492355206 0.021900093850878627 0.002611350764479492 -0.021900093850878627
7.4255E9 0.0025449628188464724 -0.02021878587894799 0.9974550371811536 0.02021878587894799 0.9974550371811536 0.02021878587894799 0.0025449628188464724 -0.02021878587894799
7.50025E9 0.002484966871365382 -0.018555605521810695 0.9975150331286345 0.018555605521810695 0.9975150331286345 0.018555605521810695 0.002484966871365382 -0.018555605521810695
7.575E9 0.0024311621564379517 -0.016910029088976496 0.9975688378435619 0.016910029088976496 0.9975688378435619 0.016910029088976496 0.0024311621564379517 -0.016910029088976496
7.64975E9 0.002383357660058082 -0.015281552323591083 0.9976166423399419 0.015281552323591083 0.9976166423399419 0.015281552323591083 0.002383357660058082 -0.015281552323591083
7.7245E9 0.0023413715703204103 -0.013669689508185432 0.9976586284296798 0.013669689508185432 0.9976586284296798 0.013669689508185432 0.0023413715703204103 -0.013669689508185432
7.79925E9 0.0023050307639007673 -0.012073972618516693 0.9976949692360995 0.012073972618516693 0.9976949692360995 0.012073972618516693 0.0023050307639007673 -0.012073972618516693
7.874E9 0.002274170325860012 -0.010493950522534833 0.9977258296741403 0.010493950522534833 0.9977258296741403 0.010493950522534833 0.002274170325860012 -0.010493950522534833
7.94875E9 0.002248633100339948 -0.008929188221715364 0.9977513668996598 0.008929188221715364 0.9977513668996598 0.008929188221715364 0.002248633100339948 -0.008929188221715364
8.0235E9 0.0022282692699176106 -0.007379266132184847 0.9977717307300824 0.007379266132184847 0.9977717307300824 0.007379266132184847 0.0022282692699176106 -0.007379266132184847
8.09825E9 0.0022129359615642263 -0.005843779403242298 0.9977870640384359 0.005843779403242298 0.9977870640384359 0.005843779403242298 0.0022129359615642263 -0.005843779403242298
8.173E9 0.002202496877319266 -0.004322337271038745 0.9977975031226807 0.004322337271038745 0.9977975031226807 0.004322337271038745 0.002202496877319266 -0.004322337271038745
8.24775E9 0.0021968219479396745 -0.002814562445328759 0.9978031780520604 0.002814562445328759 0.9978031780520604 0.002814562445328759 0.0021968219479396745 -0.002814562445328759
8.3225E9 0.002195787007921084 -0.0013200905273440388 0.9978042129920789 0.0013200905273440388 0.9978042129920789 0.0013200905273440388 0.002195787007921084 -0.0013200905273440388
8.39725E9 0.0021992734904127636 1.614305430310123E-4 0.9978007265095873 -1.614305430310123E-4 0.9978007265095873 -1.614305430310123E-4 0.0021992734904127636 1.614305430310123E-4
8.472E9 0.0022071681406622442 0.0016303410124834635 0.9977928318593376 -0.0016303410124834635 0.9977928318593376 -0.0016303410124834635 0.0022071681406622442 0.0016303410124834635
8.54675E9 0.0022193627467302036 0.0030869698134879525 0.9977806372532699 -0.0030869698134879525 0.9977806372532699 -0.0030869698134879525 0.0022193627467302036 0.0030869698134879525
8.6215E9 0.0022357538863119106 0.004531635039002397 0.997764246113688 -0.004531635039002397 0.997764246113688 -0.004531635039002397 0.0022357538863119106 0.004531635039002397
