!Murata Part Number: GJM0225C1E8R4BB01
!These Parameters are Measured in Series Mode Connection
!       o--ll--o
!Port1            Port2
!       o------o
!Operation Temp=25[degC], DC Bias Voltage=0[V]
!Freq. Start=100[MHz] Stop=30[GHz], 401[Steps]
!Data Generated on Feb 1, 2023
# Hz S RI R 50
!Freq.(Hz) S11(Real) S11(Imag) S21(Real) S21(Imag) S12(Real) S12(Imag) S22(Real) S22(Imag)
1.0E8 0.7818250927685554 -0.41276889206963147 0.21817490723144456 0.41276889206963147 0.21817490723144456 0.41276889206963147 0.7818250927685554 -0.41276889206963147
1.7475E8 0.5394521775964735 -0.4980237597840687 0.4605478224035265 0.4980237597840687 0.4605478224035265 0.4980237597840687 0.5394521775964735 -0.4980237597840687
2.495E8 0.3642699190954024 -0.4806254749791347 0.6357300809045976 0.4806254749791347 0.6357300809045976 0.4806254749791347 0.3642699190954024 -0.4806254749791347
3.2425E8 0.25260206837012644 -0.4337195541454311 0.7473979316298736 0.4337195541454311 0.7473979316298736 0.4337195541454311 0.25260206837012644 -0.4337195541454311
3.99E8 0.18176449876630382 -0.3846748397516114 0.8182355012336961 0.3846748397516114 0.8182355012336961 0.3846748397516114 0.18176449876630382 -0.3846748397516114
4.7375E8 0.135451031720134 -0.34103309872488635 0.8645489682798658 0.34103309872488635 0.8645489682798658 0.34103309872488635 0.135451031720134 -0.34103309872488635
5.485E8 0.10402488239643813 -0.30391846592101734 0.8959751176035619 0.30391846592101734 0.8959751176035619 0.30391846592101734 0.10402488239643813 -0.30391846592101734
6.2325E8 0.08193023830749413 -0.2726737506746713 0.918069761692506 0.2726737506746713 0.918069761692506 0.2726737506746713 0.08193023830749413 -0.2726737506746713
6.98E8 0.06589873407977997 -0.2463016624580576 0.9341012659202199 0.2463016624580576 0.9341012659202199 0.2463016624580576 0.06589873407977997 -0.2463016624580576
7.7275E8 0.053944057644607184 -0.22387609256301372 0.9460559423553929 0.22387609256301372 0.9460559423553929 0.22387609256301372 0.053944057644607184 -0.22387609256301372
8.475E8 0.0448168421702708 -0.20463272266637453 0.955183157829729 0.20463272266637453 0.955183157829729 0.20463272266637453 0.0448168421702708 -0.20463272266637453
9.2225E8 0.03770519633997662 -0.187965047118192 0.9622948036600233 0.187965047118192 0.9622948036600233 0.187965047118192 0.03770519633997662 -0.187965047118192
9.97E8 0.03206557416354034 -0.17339738697438872 0.9679344258364596 0.17339738697438872 0.9679344258364596 0.17339738697438872 0.03206557416354034 -0.17339738697438872
1.07175E9 0.027524210336585586 -0.16055670832224253 0.9724757896634143 0.16055670832224253 0.9724757896634143 0.16055670832224253 0.027524210336585586 -0.16055670832224253
1.1465E9 0.02381786161761481 -0.14914896252684212 0.9761821383823851 0.14914896252684212 0.9761821383823851 0.14914896252684212 0.02381786161761481 -0.14914896252684212
1.22125E9 0.02075711611790255 -0.13894061076709505 0.9792428838820976 0.13894061076709505 0.9792428838820976 0.13894061076709505 0.02075711611790255 -0.13894061076709505
1.296E9 0.018203049927667418 -0.12974458927232543 0.9817969500723324 0.12974458927232543 0.9817969500723324 0.12974458927232543 0.018203049927667418 -0.12974458927232543
1.37075E9 0.016052001529499395 -0.12140974375803482 0.9839479984705006 0.12140974375803482 0.9839479984705006 0.12140974375803482 0.016052001529499395 -0.12140974375803482
1.4455E9 0.014225413144521628 -0.1138128775533086 0.9857745868554781 0.1138128775533086 0.9857745868554781 0.1138128775533086 0.014225413144521628 -0.1138128775533086
1.52025E9 0.012662911196069663 -0.10685274182294022 0.9873370888039303 0.10685274182294022 0.9873370888039303 0.10685274182294022 0.012662911196069663 -0.10685274182294022
1.595E9 0.011317503349654649 -0.1004454642073836 0.9886824966503454 0.1004454642073836 0.9886824966503454 0.1004454642073836 0.011317503349654649 -0.1004454642073836
1.66975E9 0.010152186734474105 -0.09452104520309212 0.989847813265526 0.09452104520309212 0.989847813265526 0.09452104520309212 0.010152186734474105 -0.09452104520309212
1.7445E9 0.009137514595368691 -0.0890206512044916 0.9908624854046314 0.0890206512044916 0.9908624854046314 0.0890206512044916 0.009137514595368691 -0.0890206512044916
1.81925E9 0.008249825044972448 -0.08389450593042182 0.9917501749550274 0.08389450593042182 0.9917501749550274 0.08389450593042182 0.008249825044972448 -0.08389450593042182
1.894E9 0.007469934431509378 -0.07910023466705005 0.9925300655684904 0.07910023466705005 0.9925300655684904 0.07910023466705005 0.007469934431509378 -0.07910023466705005
1.96875E9 0.006782161495926239 -0.07460155384724904 0.9932178385040737 0.07460155384724904 0.9932178385040737 0.07460155384724904 0.006782161495926239 -0.07460155384724904
2.0435E9 0.006173590216694966 -0.07036722607099202 0.993826409783305 0.07036722607099202 0.993826409783305 0.07036722607099202 0.006173590216694966 -0.07036722607099202
2.11825E9 0.005633507039676577 -0.0663702207416464 0.9943664929603232 0.0663702207416464 0.9943664929603232 0.0663702207416464 0.005633507039676577 -0.0663702207416464
2.193E9 0.005152966995439634 -0.0625870351837707 0.9948470330045602 0.0625870351837707 0.9948470330045602 0.0625870351837707 0.005152966995439634 -0.0625870351837707
2.26775E9 0.004724456108914937 -0.05899714193374405 0.9952755438910851 0.05899714193374405 0.9952755438910851 0.05899714193374405 0.004724456108914937 -0.05899714193374405
2.3425E9 0.00434162647688248 -0.05558253592904872 0.9956583735231176 0.05558253592904872 0.9956583735231176 0.05558253592904872 0.00434162647688248 -0.05558253592904872
2.41725E9 0.003999086703420305 -0.052327361328352216 0.9960009132965798 0.052327361328352216 0.9960009132965798 0.052327361328352216 0.003999086703420305 -0.052327361328352216
2.492E9 0.003692234880343033 -0.04921760221730717 0.9963077651196568 0.04921760221730717 0.9963077651196568 0.04921760221730717 0.003692234880343033 -0.04921760221730717
2.56675E9 0.0034171245371471563 -0.04624082488504544 0.9965828754628528 0.04624082488504544 0.9965828754628528 0.04624082488504544 0.0034171245371471563 -0.04624082488504544
2.6415E9 0.0031703563397692124 -0.04338596197591688 0.9968296436602307 0.04338596197591688 0.9968296436602307 0.04338596197591688 0.0031703563397692124 -0.04338596197591688
2.71625E9 0.002948990046823185 -0.040643130835232445 0.9970510099531769 0.040643130835232445 0.9970510099531769 0.040643130835232445 0.002948990046823185 -0.040643130835232445
2.791E9 0.0027504725136403966 -0.038003479926720825 0.9972495274863598 0.038003479926720825 0.9972495274863598 0.038003479926720825 0.0027504725136403966 -0.038003479926720825
2.86575E9 0.0025725784924945077 -0.03545905841366919 0.9974274215075054 0.03545905841366919 0.9974274215075054 0.03545905841366919 0.0025725784924945077 -0.03545905841366919
2.9405E9 0.002413361699408916 -0.033002704947298254 0.9975866383005912 0.033002704947298254 0.9975866383005912 0.033002704947298254 0.002413361699408916 -0.033002704947298254
3.01525E9 0.002271114166279546 -0.030627952456044626 0.9977288858337205 0.030627952456044626 0.9977288858337205 0.030627952456044626 0.002271114166279546 -0.030627952456044626
3.09E9 0.002144332316535729 -0.028328946324091844 0.9978556676834643 0.028328946324091844 0.9978556676834643 0.028328946324091844 0.002144332316535729 -0.028328946324091844
3.16475E9 0.0020316885257163253 -0.026100373821489616 0.9979683114742838 0.026100373821489616 0.9979683114742838 0.026100373821489616 0.0020316885257163253 -0.026100373821489616
3.2395E9 0.0019320071789285498 -0.02393740302799468 0.9980679928210715 0.02393740302799468 0.9980679928210715 0.02393740302799468 0.0019320071789285498 -0.02393740302799468
3.31425E9 0.0018442444327009691 -0.021835629798608456 0.9981557555672991 0.021835629798608456 0.9981557555672991 0.021835629798608456 0.0018442444327009691 -0.021835629798608456
3.389E9 0.0017674710422468187 -0.01979103156626676 0.998232528957753 0.01979103156626676 0.998232528957753 0.01979103156626676 0.0017674710422468187 -0.01979103156626676
3.46375E9 0.001700857736345835 -0.017799926978321837 0.9982991422636543 0.017799926978321837 0.9982991422636543 0.017799926978321837 0.001700857736345835 -0.017799926978321837
3.5385E9 0.0016436627182558725 -0.015858940527736932 0.9983563372817439 0.015858940527736932 0.9983563372817439 0.015858940527736932 0.0016436627182558725 -0.015858940527736932
3.61325E9 0.0015952209478300068 -0.013964971474634396 0.9984047790521701 0.013964971474634396 0.9984047790521701 0.013964971474634396 0.0015952209478300068 -0.013964971474634396
3.688E9 0.0015549349215731492 -0.01211516646477341 0.9984450650784269 0.01211516646477341 0.9984450650784269 0.01211516646477341 0.0015549349215731492 -0.01211516646477341
3.76275E9 0.0015222667169717927 -0.010306895343246993 0.9984777332830282 0.010306895343246993 0.9984777332830282 0.010306895343246993 0.0015222667169717927 -0.010306895343246993
3.8375E9 0.0014967311075765064 -0.008537729737796783 0.9985032688924237 0.008537729737796783 0.9985032688924237 0.008537729737796783 0.0014967311075765064 -0.008537729737796783
3.91225E9 0.0014778895879531742 -0.006805424049539595 0.9985221104120466 0.006805424049539595 0.9985221104120466 0.006805424049539595 0.0014778895879531742 -0.006805424049539595
3.987E9 0.0014653451742614374 -0.005107898541889471 0.9985346548257387 0.005107898541889471 0.9985346548257387 0.005107898541889471 0.0014653451742614374 -0.005107898541889471
4.06175E9 0.0014587378680556548 -0.0034432242629030873 0.9985412621319443 0.0034432242629030873 0.9985412621319443 0.0034432242629030873 0.0014587378680556548 -0.0034432242629030873
4.1365E9 0.0014577406888708964 -0.0018096095736769588 0.9985422593111289 0.0018096095736769588 0.9985422593111289 0.0018096095736769588 0.0014577406888708964 -0.0018096095736769588
4.21125E9 0.0014620561959945073 -2.0538808699568486E-4 0.9985379438040053 2.0538808699568486E-4 0.9985379438040053 2.0538808699568486E-4 0.0014620561959945073 -2.0538808699568486E-4
4.286E9 0.0014714134321215286 0.0013709921528363858 0.9985285865678784 -0.0013709921528363858 0.9985285865678784 -0.0013709921528363858 0.0014714134321215286 0.0013709921528363858
4.36075E9 0.0014855652318195558 0.002920978395344124 0.9985144347681802 -0.002920978395344124 0.9985144347681802 -0.002920978395344124 0.0014855652318195558 0.002920978395344124
4.4355E9 0.001504285846262308 0.004445921941440972 0.9984957141537377 -0.004445921941440972 0.9984957141537377 -0.004445921941440972 0.001504285846262308 0.004445921941440972
4.51025E9 0.001527368842834475 0.005947086043714693 0.9984726311571656 -0.005947086043714693 0.9984726311571656 -0.005947086043714693 0.001527368842834475 0.005947086043714693
4.585E9 0.0015546252442083693 0.007425653045816254 0.9984453747557915 -0.007425653045816254 0.9984453747557915 -0.007425653045816254 0.0015546252442083693 0.007425653045816254
4.65975E9 0.0015858818765441516 0.00888273084519005 0.9984141181234557 -0.00888273084519005 0.9984141181234557 -0.00888273084519005 0.0015858818765441516 0.00888273084519005
4.7345E9 0.0016209799007317726 0.010319358752936332 0.9983790200992683 -0.010319358752936332 0.9983790200992683 -0.010319358752936332 0.0016209799007317726 0.010319358752936332
4.80925E9 0.001659773504206263 0.011736512815584877 0.9983402264957938 -0.011736512815584877 0.9983402264957938 -0.011736512815584877 0.001659773504206263 0.011736512815584877
4.884E9 0.0017021287339369444 0.013135110655765307 0.9982978712660631 -0.013135110655765307 0.9982978712660631 -0.013135110655765307 0.0017021287339369444 0.013135110655765307
4.95875E9 0.0017479224538044847 0.014516015882006478 0.9982520775461955 -0.014516015882006478 0.9982520775461955 -0.014516015882006478 0.0017479224538044847 0.014516015882006478
5.0335E9 0.0017970414118109175 0.015880042112031145 0.9982029585881892 -0.015880042112031145 0.9982029585881892 -0.015880042112031145 0.0017970414118109175 0.015880042112031145
5.10825E9 0.0018493814044775298 0.01722795664880776 0.9981506185955227 -0.01722795664880776 0.9981506185955227 -0.01722795664880776 0.0018493814044775298 0.01722795664880776
5.183E9 0.0019048465274242538 0.01856048384416847 0.9980951534725759 -0.01856048384416847 0.9980951534725759 -0.01856048384416847 0.0019048465274242538 0.01856048384416847
5.25775E9 0.0019633485025339066 0.019878308180912994 0.998036651497466 -0.019878308180912994 0.998036651497466 -0.019878308180912994 0.0019633485025339066 0.019878308180912994
5.3325E9 0.002024806073320233 0.02118207710091226 0.99797519392668 -0.02118207710091226 0.99797519392668 -0.02118207710091226 0.002024806073320233 0.02118207710091226
5.40725E9 0.002089144461169573 0.022472403603738745 0.9979108555388304 -0.022472403603738745 0.9979108555388304 -0.022472403603738745 0.002089144461169573 0.022472403603738745
5.482E9 0.0021562948760367674 0.023749868637727777 0.9978437051239634 -0.023749868637727777 0.9978437051239634 -0.023749868637727777 0.0021562948760367674 0.023749868637727777
5.55675E9 0.002226194075967129 0.025015023303064158 0.9977738059240329 -0.025015023303064158 0.9977738059240329 -0.025015023303064158 0.002226194075967129 0.025015023303064158
5.6315E9 0.002298783970505751 0.02626839088445455 0.9977012160294942 -0.02626839088445455 0.9977012160294942 -0.02626839088445455 0.002298783970505751 0.02626839088445455
5.70625E9 0.0023740112636575824 0.027510468729150264 0.9976259887363425 -0.027510468729150264 0.9976259887363425 -0.027510468729150264 0.0023740112636575824 0.027510468729150264
5.781E9 0.002451827132589385 0.028741729984497564 0.9975481728674105 -0.028741729984497564 0.9975481728674105 -0.028741729984497564 0.002451827132589385 0.028741729984497564
5.85575E9 0.002532186938728478 0.02996262520778883 0.9974678130612716 -0.02996262520778883 0.9974678130612716 -0.02996262520778883 0.002532186938728478 0.02996262520778883
5.9305E9 0.0026150499683223025 0.031173583859943472 0.9973849500316777 -0.031173583859943472 0.9973849500316777 -0.031173583859943472 0.0026150499683223025 0.031173583859943472
6.00525E9 0.0027003791998851715 0.032375015693444684 0.9972996208001151 -0.032375015693444684 0.9972996208001151 -0.032375015693444684 0.0027003791998851715 0.032375015693444684
6.08E9 0.002788141096280834 0.03356731204397898 0.9972118589037191 -0.03356731204397898 0.9972118589037191 -0.03356731204397898 0.002788141096280834 0.03356731204397898
6.15475E9 0.0028783054194776994 0.03475084703435712 0.9971216945805224 -0.03475084703435712 0.9971216945805224 -0.03475084703435712 0.0028783054194776994 0.03475084703435712
6.2295E9 0.0029708450662726963 0.03592597869852235 0.9970291549337276 -0.03592597869852235 0.9970291549337276 -0.03592597869852235 0.0029708450662726963 0.03592597869852235
6.30425E9 0.003065735923514449 0.037093050032767055 0.9969342640764857 -0.037093050032767055 0.9969342640764857 -0.037093050032767055 0.003065735923514449 0.037093050032767055
6.379E9 0.0031629567415707377 0.03825238998067086 0.9968370432584291 -0.03825238998067086 0.9968370432584291 -0.03825238998067086 0.0031629567415707377 0.03825238998067086
6.45375E9 0.003262489024982505 0.039404314357732624 0.9967375109750173 -0.039404314357732624 0.9967375109750173 -0.039404314357732624 0.003262489024982505 0.039404314357732624
6.5285E9 0.0033643169394305243 0.04054912672119252 0.9966356830605694 -0.04054912672119252 0.9966356830605694 -0.04054912672119252 0.0033643169394305243 0.04054912672119252
6.60325E9 0.0034684272343139893 0.041687119190117174 0.9965315727656859 -0.041687119190117174 0.9965315727656859 -0.041687119190117174 0.0034684272343139893 0.041687119190117174
6.678E9 0.0035748091804058075 0.04281857322045068 0.9964251908195942 -0.04281857322045068 0.9964251908195942 -0.04281857322045068 0.0035748091804058075 0.04281857322045068
6.75275E9 0.0036834545222098245 0.04394376033940835 0.9963165454777901 -0.04394376033940835 0.9963165454777901 -0.04394376033940835 0.0036834545222098245 0.04394376033940835
6.8275E9 0.0037943574448033473 0.04506294284330765 0.9962056425551965 -0.04506294284330765 0.9962056425551965 -0.04506294284330765 0.0037943574448033473 0.04506294284330765
6.90225E9 0.003907514555106881 0.04617637446268731 0.9960924854448931 -0.04617637446268731 0.9960924854448931 -0.04617637446268731 0.003907514555106881 0.04617637446268731
6.977E9 0.004022924877684653 0.04728430099835854 0.9959770751223154 -0.04728430099835854 0.9959770751223154 -0.04728430099835854 0.004022924877684653 0.04728430099835854
7.05175E9 0.004140589865347281 0.04838696093186067 0.9958594101346525 -0.04838696093186067 0.9958594101346525 -0.04838696093186067 0.004140589865347281 0.04838696093186067
7.1265E9 0.0042605134250049735 0.04948458601365408 0.995739486574995 -0.04948458601365408 0.995739486574995 -0.04948458601365408 0.0042605134250049735 0.04948458601365408
7.20125E9 0.004382701959409416 0.05057740183227656 0.9956172980405906 -0.05057740183227656 0.9956172980405906 -0.05057740183227656 0.004382701959409416 0.05057740183227656
7.276E9 0.004507164425628981 0.051665628367614076 0.995492835574371 -0.051665628367614076 0.995492835574371 -0.051665628367614076 0.004507164425628981 0.051665628367614076
7.35075E9 0.004633912411329596 0.05274948053139323 0.9953660875886704 -0.05274948053139323 0.9953660875886704 -0.05274948053139323 0.004633912411329596 0.05274948053139323
7.4255E9 0.00476296023018733 0.053829168697989364 0.9952370397698126 -0.053829168697989364 0.9952370397698126 -0.053829168697989364 0.00476296023018733 0.053829168697989364
7.50025E9 0.004894325038045321 0.054904899228666634 0.9951056749619546 -0.054904899228666634 0.9951056749619546 -0.054904899228666634 0.004894325038045321 0.054904899228666634
7.575E9 0.005028026971753169 0.05597687499241937 0.9949719730282469 -0.05597687499241937 0.9949719730282469 -0.05597687499241937 0.005028026971753169 0.05597687499241937
7.64975E9 0.005164089313000602 0.05704529588667466 0.9948359106869994 -0.05704529588667466 0.9948359106869994 -0.05704529588667466 0.005164089313000602 0.05704529588667466
7.7245E9 0.005302538679888924 0.05811035936124607 0.994697461320111 -0.05811035936124607 0.994697461320111 -0.05811035936124607 0.005302538679888924 0.05811035936124607
7.79925E9 0.005443405249485403 0.0591722609490973 0.9945565947505147 -0.0591722609490973 0.9945565947505147 -0.0591722609490973 0.005443405249485403 0.0591722609490973
7.874E9 0.005586723015192418 0.060231194807691325 0.9944132769848074 -0.060231194807691325 0.9944132769848074 -0.060231194807691325 0.005586723015192418 0.060231194807691325
7.94875E9 0.005732530083452519 0.061287354274966635 0.9942674699165474 -0.061287354274966635 0.9942674699165474 -0.061287354274966635 0.005732530083452519 0.061287354274966635
8.0235E9 0.0058808690151243735 0.062340932444302485 0.9941191309848756 -0.062340932444302485 0.9941191309848756 -0.062340932444302485 0.0058808690151243735 0.062340932444302485
8.09825E9 0.006031787217829649 0.06339212276321883 0.9939682127821702 -0.06339212276321883 0.9939682127821702 -0.06339212276321883 0.006031787217829649 0.06339212276321883
8.173E9 0.006185337396720329 0.06444111966100903 0.9938146626032796 -0.06444111966100903 0.9938146626032796 -0.06444111966100903 0.006185337396720329 0.06444111966100903
8.24775E9 0.006341578072489892 0.06548811921103083 0.99365842192751 -0.06548811921103083 0.99365842192751 -0.06548811921103083 0.006341578072489892 0.06548811921103083
8.3225E9 0.006500574177101662 0.06653331983399925 0.9934994258228984 -0.06653331983399925 0.9934994258228984 -0.06653331983399925 0.006500574177101662 0.06653331983399925
8.39725E9 0.006662397739695177 0.06757692304933423 0.9933376022603049 -0.06757692304933423 0.9933376022603049 -0.06757692304933423 0.006662397739695177 0.06757692304933423
8.472E9 0.0068271286775365946 0.06861913428243677 0.9931728713224633 -0.06861913428243677 0.9931728713224633 -0.06861913428243677 0.0068271286775365946 0.06861913428243677
