!Murata Part Number: GJM0225C1E7R5BB01
!These Parameters are Measured in Series Mode Connection
!       o--ll--o
!Port1            Port2
!       o------o
!Operation Temp=25[degC], DC Bias Voltage=0[V]
!Freq. Start=100[MHz] Stop=30[GHz], 401[Steps]
!Data Generated on Feb 1, 2023
# Hz S RI R 50
!Freq.(Hz) S11(Real) S11(Imag) S21(Real) S21(Imag) S12(Real) S12(Imag) S22(Real) S22(Imag)
1.0E8 0.818024994704684 -0.38559987691313086 0.18197500529531602 0.38559987691313086 0.18197500529531602 0.38559987691313086 0.818024994704684 -0.38559987691313086
1.7475E8 0.5950770852629367 -0.4904846928549065 0.4049229147370633 0.4904846928549065 0.4049229147370633 0.4904846928549065 0.5950770852629367 -0.4904846928549065
2.495E8 0.41829710547529636 -0.4927171718179062 0.5817028945247036 0.4927171718179062 0.5817028945247036 0.4927171718179062 0.41829710547529636 -0.4927171718179062
3.2425E8 0.29789646888206295 -0.4565994510090057 0.7021035311179371 0.4565994510090057 0.7021035311179371 0.4565994510090057 0.29789646888206295 -0.4565994510090057
3.99E8 0.21813316755491627 -0.41206923480240976 0.7818668324450838 0.41206923480240976 0.7818668324450838 0.41206923480240976 0.21813316755491627 -0.41206923480240976
4.7375E8 0.16448099899504895 -0.36962420151680075 0.835519001004951 0.36962420151680075 0.835519001004951 0.36962420151680075 0.16448099899504895 -0.36962420151680075
5.485E8 0.12737132449296112 -0.332118925994833 0.8726286755070388 0.332118925994833 0.8726286755070388 0.332118925994833 0.12737132449296112 -0.332118925994833
6.2325E8 0.10092966409453545 -0.299779037602471 0.8990703359054646 0.299779037602471 0.8990703359054646 0.299779037602471 0.10092966409453545 -0.299779037602471
6.98E8 0.08155759858887514 -0.2720406235352899 0.918442401411125 0.2720406235352899 0.918442401411125 0.2720406235352899 0.08155759858887514 -0.2720406235352899
7.7275E8 0.06700693899797962 -0.24818668703984925 0.9329930610020203 0.24818668703984925 0.9329930610020203 0.24818668703984925 0.06700693899797962 -0.24818668703984925
8.475E8 0.05583541513728215 -0.2275511316830779 0.9441645848627177 0.2275511316830779 0.9441645848627177 0.2275511316830779 0.05583541513728215 -0.2275511316830779
9.2225E8 0.04709202053196961 -0.2095706313986709 0.9529079794680303 0.2095706313986709 0.9529079794680303 0.2095706313986709 0.04709202053196961 -0.2095706313986709
9.97E8 0.040132997325189906 -0.19378532317713695 0.9598670026748102 0.19378532317713695 0.9598670026748102 0.19378532317713695 0.040132997325189906 -0.19378532317713695
1.07175E9 0.03451185899453381 -0.17982453058898934 0.9654881410054662 0.17982453058898934 0.9654881410054662 0.17982453058898934 0.03451185899453381 -0.17982453058898934
1.1465E9 0.029912007165556868 -0.16739017770859715 0.9700879928344431 0.16739017770859715 0.9700879928344431 0.16739017770859715 0.029912007165556868 -0.16739017770859715
1.22125E9 0.026104396278544408 -0.1562419359864277 0.9738956037214556 0.1562419359864277 0.9738956037214556 0.1562419359864277 0.026104396278544408 -0.1562419359864277
1.296E9 0.022920286263812536 -0.1461850374350436 0.9770797137361875 0.1461850374350436 0.9770797137361875 0.1461850374350436 0.022920286263812536 -0.1461850374350436
1.37075E9 0.020233304830518363 -0.13706063209988695 0.9797666951694814 0.13706063209988695 0.9797666951694814 0.13706063209988695 0.020233304830518363 -0.13706063209988695
1.4455E9 0.01794738818008633 -0.1287382732218594 0.9820526118199138 0.1287382732218594 0.9820526118199138 0.1287382732218594 0.01794738818008633 -0.1287382732218594
1.52025E9 0.015988515237174036 -0.12111008919101666 0.984011484762826 0.12111008919101666 0.984011484762826 0.12111008919101666 0.015988515237174036 -0.12111008919101666
1.595E9 0.01429894017391678 -0.11408626148820604 0.9857010598260831 0.11408626148820604 0.9857010598260831 0.11408626148820604 0.01429894017391678 -0.11408626148820604
1.66975E9 0.012833101557582407 -0.10759150392600435 0.9871668984424177 0.10759150392600435 0.9871668984424177 0.10759150392600435 0.012833101557582407 -0.10759150392600435
1.7445E9 0.011554676531295929 -0.10156230761058462 0.9884453234687042 0.10156230761058462 0.9884453234687042 0.10156230761058462 0.011554676531295929 -0.10156230761058462
1.81925E9 0.010434429745943259 -0.09594477230449801 0.9895655702540566 0.09594477230449801 0.9895655702540566 0.09594477230449801 0.010434429745943259 -0.09594477230449801
1.894E9 0.009448622255489572 -0.09069288852962634 0.9905513777445105 0.09069288852962634 0.9905513777445105 0.09069288852962634 0.009448622255489572 -0.09069288852962634
1.96875E9 0.008577820478907304 -0.08576716787227906 0.9914221795210929 0.08576716787227906 0.9914221795210929 0.08576716787227906 0.008577820478907304 -0.08576716787227906
2.0435E9 0.007805994709701315 -0.08113354382366593 0.9921940052902988 0.08113354382366593 0.9921940052902988 0.08113354382366593 0.007805994709701315 -0.08113354382366593
2.11825E9 0.007119829721358693 -0.07676248409742482 0.9928801702786413 0.07676248409742482 0.9928801702786413 0.07676248409742482 0.007119829721358693 -0.07676248409742482
2.193E9 0.006508192486675796 -0.07262826929270749 0.9934918075133243 0.07262826929270749 0.9934918075133243 0.07262826929270749 0.006508192486675796 -0.07262826929270749
2.26775E9 0.005961717506992403 -0.06870840322179111 0.9940382824930075 0.06870840322179111 0.9940382824930075 0.06870840322179111 0.005961717506992403 -0.06870840322179111
2.3425E9 0.005472481046510554 -0.06498312809482115 0.9945275189534895 0.06498312809482115 0.9945275189534895 0.06498312809482115 0.005472481046510554 -0.06498312809482115
2.41725E9 0.005033743192395368 -0.06143502371562419 0.9949662568076048 0.06143502371562419 0.9949662568076048 0.06143502371562419 0.005033743192395368 -0.06143502371562419
2.492E9 0.004639742106889654 -0.058048674380444476 0.9953602578931103 0.058048674380444476 0.9953602578931103 0.058048674380444476 0.004639742106889654 -0.058048674380444476
2.56675E9 0.0042855287678451445 -0.05481039064546106 0.9957144712321548 0.05481039064546106 0.9957144712321548 0.05481039064546106 0.0042855287678451445 -0.05481039064546106
2.6415E9 0.0039668333590057205 -0.0517079758038922 0.9960331666409943 0.0517079758038922 0.9960331666409943 0.0517079758038922 0.0039668333590057205 -0.0517079758038922
2.71625E9 0.0036799565795318998 -0.04873052898515465 0.9963200434204678 0.04873052898515465 0.9963200434204678 0.04873052898515465 0.0036799565795318998 -0.04873052898515465
2.791E9 0.003421680707375257 -0.04586827840221198 0.9965783192926249 0.04586827840221198 0.9965783192926249 0.04586827840221198 0.003421680707375257 -0.04586827840221198
2.86575E9 0.0031891964228741277 -0.043112439537284074 0.9968108035771258 0.043112439537284074 0.9968108035771258 0.043112439537284074 0.0031891964228741277 -0.043112439537284074
2.9405E9 0.0029800422832109204 -0.040455094051723255 0.997019957716789 0.040455094051723255 0.997019957716789 0.040455094051723255 0.0029800422832109204 -0.040455094051723255
3.01525E9 0.002792054410730903 -0.03788908599430068 0.9972079455892692 0.03788908599430068 0.9972079455892692 0.03788908599430068 0.002792054410730903 -0.03788908599430068
3.09E9 0.0026233244730240724 -0.03540793250976494 0.9973766755269757 0.03540793250976494 0.9973766755269757 0.03540793250976494 0.0026233244730240724 -0.03540793250976494
3.16475E9 0.0024721644296785976 -0.03300574675166197 0.9975278355703215 0.03300574675166197 0.9975278355703215 0.03300574675166197 0.0024721644296785976 -0.03300574675166197
3.2395E9 0.0023370768287045082 -0.0306771711070902 0.9976629231712955 0.0306771711070902 0.9976629231712955 0.0306771711070902 0.0023370768287045082 -0.0306771711070902
3.31425E9 0.0022167296761904627 -0.028417319167142616 0.9977832703238098 0.028417319167142616 0.9977832703238098 0.028417319167142616 0.0022167296761904627 -0.028417319167142616
3.389E9 0.0021099350916995527 -0.026221725141372124 0.9978900649083005 0.026221725141372124 0.9978900649083005 0.026221725141372124 0.0021099350916995527 -0.026221725141372124
3.46375E9 0.002015631111142442 -0.02408629963024917 0.9979843688888578 0.02408629963024917 0.9979843688888578 0.02408629963024917 0.002015631111142442 -0.02408629963024917
3.5385E9 0.0019328661173657511 -0.022007290846062344 0.9980671338826341 0.022007290846062344 0.9980671338826341 0.022007290846062344 0.0019328661173657511 -0.022007290846062344
3.61325E9 0.001860785473271956 -0.019981250517739194 0.998139214526728 0.019981250517739194 0.998139214526728 0.019981250517739194 0.001860785473271956 -0.019981250517739194
3.688E9 0.001798620008143499 -0.01800500383471343 0.9982013799918565 0.01800500383471343 0.9982013799918565 0.01800500383471343 0.001798620008143499 -0.01800500383471343
3.76275E9 0.0017456760689702844 -0.016075622884050508 0.9982543239310295 0.016075622884050508 0.9982543239310295 0.016075622884050508 0.0017456760689702844 -0.016075622884050508
3.8375E9 0.0017013268980585895 -0.014190403117400392 0.9982986731019415 0.014190403117400392 0.9982986731019415 0.014190403117400392 0.0017013268980585895 -0.014190403117400392
3.91225E9 0.0016650051384233546 -0.012346842453040427 0.9983349948615766 0.012346842453040427 0.9983349948615766 0.012346842453040427 0.0016650051384233546 -0.012346842453040427
3.987E9 0.0016361963013019217 -0.010542622675765419 0.9983638036986981 0.010542622675765419 0.9983638036986981 0.010542622675765419 0.0016361963013019217 -0.010542622675765419
4.06175E9 0.0016144330570395105 -0.008775592845659317 0.9983855669429603 0.008775592845659317 0.9983855669429603 0.008775592845659317 0.0016144330570395105 -0.008775592845659317
4.1365E9 0.0015992902327387065 -0.00704375446745021 0.9984007097672614 0.00704375446745021 0.9984007097672614 0.00704375446745021 0.0015992902327387065 -0.00704375446745021
4.21125E9 0.0015903804183500288 -0.005345248206513209 0.99840961958165 0.005345248206513209 0.99840961958165 0.005345248206513209 0.0015903804183500288 -0.005345248206513209
4.286E9 0.00158735009803405 -0.0036783419667064587 0.9984126499019658 0.0036783419667064587 0.9984126499019658 0.0036783419667064587 0.00158735009803405 -0.0036783419667064587
4.36075E9 0.0015898762362272277 -0.0020414201699749178 0.9984101237637729 0.0020414201699749178 0.9984101237637729 0.0020414201699749178 0.0015898762362272277 -0.0020414201699749178
4.4355E9 0.001597663258358134 -4.329740987504074E-4 0.9984023367416419 4.329740987504074E-4 0.9984023367416419 4.329740987504074E-4 0.001597663258358134 -4.329740987504074E-4
4.51025E9 0.0016104403749620199 0.001148406819799573 0.998389559625038 -0.001148406819799573 0.998389559625038 -0.001148406819799573 0.0016104403749620199 0.001148406819799573
4.585E9 0.0016279592053318004 0.002704042893177319 0.9983720407946685 -0.002704042893177319 0.9983720407946685 -0.002704042893177319 0.0016279592053318004 0.002704042893177319
4.65975E9 0.0016499916630675108 0.0042351712988543165 0.9983500083369324 -0.0042351712988543165 0.9983500083369324 -0.0042351712988543165 0.0016499916630675108 0.0042351712988543165
4.7345E9 0.0016763280711434238 0.0057429525562820915 0.9983236719288565 -0.0057429525562820915 0.9983236719288565 -0.0057429525562820915 0.0016763280711434238 0.0057429525562820915
4.80925E9 0.0017067754785650463 0.007228476406575465 0.998293224521435 -0.007228476406575465 0.998293224521435 -0.007228476406575465 0.0017067754785650463 0.007228476406575465
4.884E9 0.0017411561544706132 0.008692767162302044 0.9982588438455294 -0.008692767162302044 0.9982588438455294 -0.008692767162302044 0.0017411561544706132 0.008692767162302044
4.95875E9 0.0017793062387529074 0.010136788582419294 0.9982206937612468 -0.010136788582419294 0.9982206937612468 -0.010136788582419294 0.0017793062387529074 0.010136788582419294
5.0335E9 0.001821074531027759 0.01156144832097787 0.9981789254689724 -0.01156144832097787 0.9981789254689724 -0.01156144832097787 0.001821074531027759 0.01156144832097787
5.10825E9 0.0018663214021300595 0.012967601992617327 0.9981336785978697 -0.012967601992617327 0.9981336785978697 -0.012967601992617327 0.0018663214021300595 0.012967601992617327
5.183E9 0.0019149178143386685 0.014356056893002069 0.9980850821856614 -0.014356056893002069 0.9980850821856614 -0.014356056893002069 0.0019149178143386685 0.014356056893002069
5.25775E9 0.001966744438269504 0.015727575408080167 0.9980332555617304 -0.015727575408080167 0.9980332555617304 -0.015727575408080167 0.001966744438269504 0.015727575408080167
5.3325E9 0.0020216908558748003 0.017082878142312925 0.9979783091441253 -0.017082878142312925 0.9979783091441253 -0.017082878142312925 0.0020216908558748003 0.017082878142312925
5.40725E9 0.002079654840281485 0.018422646792745283 0.9979203451597186 -0.018422646792745283 0.9979203451597186 -0.018422646792745283 0.002079654840281485 0.018422646792745283
5.482E9 0.002140541704323457 0.019747526792906433 0.9978594582956763 -0.019747526792906433 0.9978594582956763 -0.019747526792906433 0.002140541704323457 0.019747526792906433
5.55675E9 0.0022042637105963306 0.021058129747993173 0.9977957362894038 -0.021058129747993173 0.9977957362894038 -0.021058129747993173 0.0022042637105963306 0.021058129747993173
5.6315E9 0.0022707395367103853 0.022355035680550472 0.9977292604632896 -0.022355035680550472 0.9977292604632896 -0.022355035680550472 0.0022707395367103853 0.022355035680550472
5.70625E9 0.0023398937901562807 0.023638795103887902 0.9976601062098436 -0.023638795103887902 0.9976601062098436 -0.023638795103887902 0.0023398937901562807 0.023638795103887902
5.781E9 0.0024116565678434848 0.024909930938720105 0.9975883434321565 -0.024909930938720105 0.9975883434321565 -0.024909930938720105 0.0024116565678434848 0.024909930938720105
5.85575E9 0.00248596305593671 0.026168940286969568 0.9975140369440634 -0.026168940286969568 0.9975140369440634 -0.026168940286969568 0.00248596305593671 0.026168940286969568
5.9305E9 0.0025627531661118635 0.02741629607529516 0.997437246833888 -0.02741629607529516 0.997437246833888 -0.02741629607529516 0.0025627531661118635 0.02741629607529516
6.00525E9 0.0026419712047893737 0.02865244857968545 0.9973580287952107 -0.02865244857968545 0.9973580287952107 -0.02865244857968545 0.0026419712047893737 0.02865244857968545
6.08E9 0.002723565572287726 0.029877826841369654 0.9972764344277121 -0.029877826841369654 0.9972764344277121 -0.029877826841369654 0.002723565572287726 0.029877826841369654
6.15475E9 0.002807488489180135 0.031092839983327878 0.9971925115108199 -0.031092839983327878 0.9971925115108199 -0.031092839983327878 0.002807488489180135 0.031092839983327878
6.2295E9 0.002893695747438834 0.03229787843581941 0.9971063042525611 -0.03229787843581941 0.9971063042525611 -0.03229787843581941 0.002893695747438834 0.03229787843581941
6.30425E9 0.0029821464842193133 0.03349331507857412 0.9970178535157805 -0.03349331507857412 0.9970178535157805 -0.03349331507857412 0.0029821464842193133 0.03349331507857412
6.379E9 0.0030728029763757323 0.034679506306603484 0.9969271970236243 -0.034679506306603484 0.9969271970236243 -0.034679506306603484 0.0030728029763757323 0.034679506306603484
6.45375E9 0.003165630454012245 0.03585679302596922 0.9968343695459877 -0.03585679302596922 0.9968343695459877 -0.03585679302596922 0.003165630454012245 0.03585679302596922
6.5285E9 0.0032605969315668425 0.03702550158529663 0.9967394030684332 -0.03702550158529663 0.9967394030684332 -0.03702550158529663 0.0032605969315668425 0.03702550158529663
6.60325E9 0.0033576730550970765 0.03818594464832386 0.9966423269449027 -0.03818594464832386 0.9966423269449027 -0.03818594464832386 0.0033576730550970765 0.03818594464832386
6.678E9 0.003456831964593713 0.03933842201233636 0.9965431680354062 -0.03933842201233636 0.9965431680354062 -0.03933842201233636 0.003456831964593713 0.03933842201233636
6.75275E9 0.0035580491702909994 0.04048322137693906 0.9964419508297091 -0.04048322137693906 0.9964419508297091 -0.04048322137693906 0.0035580491702909994 0.04048322137693906
6.8275E9 0.0036613024420729485 0.04162061906726292 0.9963386975579271 -0.04162061906726292 0.9963386975579271 -0.04162061906726292 0.0036613024420729485 0.04162061906726292
6.90225E9 0.0037665717111959336 0.042750880715386956 0.9962334282888039 -0.042750880715386956 0.9962334282888039 -0.042750880715386956 0.0037665717111959336 0.042750880715386956
6.977E9 0.0038738389836601764 0.043874261903470685 0.99612616101634 -0.043874261903470685 0.99612616101634 -0.043874261903470685 0.0038738389836601764 0.043874261903470685
7.05175E9 0.0039830882646686334 0.04499100877184202 0.9960169117353312 -0.04499100877184202 0.9960169117353312 -0.04499100877184202 0.0039830882646686334 0.04499100877184202
7.1265E9 0.004094305493712135 0.046101358595058324 0.9959056945062877 -0.046101358595058324 0.9959056945062877 -0.046101358595058324 0.004094305493712135 0.046101358595058324
7.20125E9 0.004207478489916433 0.04720554032876211 0.9957925215100835 -0.04720554032876211 0.9957925215100835 -0.04720554032876211 0.004207478489916433 0.04720554032876211
7.276E9 0.00432259690738093 0.048303775129975676 0.9956774030926192 -0.048303775129975676 0.9956774030926192 -0.048303775129975676 0.00432259690738093 0.048303775129975676
7.35075E9 0.00443965220033215 0.04939627685332834 0.9955603477996681 -0.04939627685332834 0.9955603477996681 -0.04939627685332834 0.00443965220033215 0.04939627685332834
7.4255E9 0.004558637598008351 0.05048325252557599 0.9954413624019917 -0.05048325252557599 0.9954413624019917 -0.05048325252557599 0.004558637598008351 0.05048325252557599
7.50025E9 0.004679548089287119 0.05156490280066237 0.9953204519107127 -0.05156490280066237 0.9953204519107127 -0.05156490280066237 0.004679548089287119 0.05156490280066237
7.575E9 0.004802380417166134 0.0526414223974767 0.9951976195828338 -0.0526414223974767 0.9951976195828338 -0.0526414223974767 0.004802380417166134 0.0526414223974767
7.64975E9 0.004927133083310971 0.05371300052238731 0.995072866916689 -0.05371300052238731 0.995072866916689 -0.05371300052238731 0.004927133083310971 0.05371300052238731
7.7245E9 0.005053806362994089 0.054779821278574926 0.9949461936370059 -0.054779821278574926 0.9949461936370059 -0.054779821278574926 0.005053806362994089 0.054779821278574926
7.79925E9 0.005182402330868223 0.05584206406414744 0.9948175976691317 -0.05584206406414744 0.9948175976691317 -0.05584206406414744 0.005182402330868223 0.05584206406414744
7.874E9 0.005312924898147812 0.05689990396099847 0.9946870751018521 -0.05689990396099847 0.9946870751018521 -0.05689990396099847 0.005312924898147812 0.05689990396099847
7.94875E9 0.005445379861916156 0.05795351211636702 0.9945546201380839 -0.05795351211636702 0.9945546201380839 -0.05795351211636702 0.005445379861916156 0.05795351211636702
8.0235E9 0.005579774967437036 0.059003056119071945 0.9944202250325629 -0.059003056119071945 0.9944202250325629 -0.059003056119071945 0.005579774967437036 0.059003056119071945
8.09825E9 0.005716119984531092 0.060048700372429355 0.994283880015469 -0.060048700372429355 0.994283880015469 -0.060048700372429355 0.005716119984531092 0.060048700372429355
8.173E9 0.005854426799283618 0.061090606465918025 0.9941455732007165 -0.061090606465918025 0.9941455732007165 -0.061090606465918025 0.005854426799283618 0.061090606465918025
8.24775E9 0.005994709522586541 0.06212893354773656 0.9940052904774137 -0.06212893354773656 0.9940052904774137 -0.06212893354773656 0.005994709522586541 0.06212893354773656
8.3225E9 0.006136984617289493 0.06316383870050006 0.9938630153827106 -0.06316383870050006 0.9938630153827106 -0.06316383870050006 0.006136984617289493 0.06316383870050006
8.39725E9 0.006281271046049965 0.06419547732245416 0.9937187289539501 -0.06419547732245416 0.9937187289539501 -0.06419547732245416 0.006281271046049965 0.06419547732245416
8.472E9 0.006427590442339479 0.06522400351674602 0.9935724095576605 -0.06522400351674602 0.9935724095576605 -0.06522400351674602 0.006427590442339479 0.06522400351674602
