!Murata Part Number: GJM0225C1E1R2BB01
!These Parameters are Measured in Series Mode Connection
!       o--ll--o
!Port1            Port2
!       o------o
!Operation Temp=25[degC], DC Bias Voltage=0[V]
!Freq. Start=100[MHz] Stop=30[GHz], 401[Steps]
!Data Generated on Feb 1, 2023
# Hz S RI R 50
!Freq.(Hz) S11(Real) S11(Imag) S21(Real) S21(Imag) S12(Real) S12(Imag) S22(Real) S22(Imag)
1.0E8 0.9943300744043374 -0.07497580233885513 0.005669925595662624 0.07497580233885513 0.005669925595662624 0.07497580233885513 0.9943300744043374 -0.07497580233885513
1.7475E8 0.9828794936311535 -0.129529432698678 0.017120506368846537 0.129529432698678 0.017120506368846537 0.129529432698678 0.9828794936311535 -0.129529432698678
2.495E8 0.9656938519890764 -0.18174161476202247 0.0343061480109237 0.18174161476202247 0.0343061480109237 0.18174161476202247 0.9656938519890764 -0.18174161476202247
3.2425E8 0.9433613553056324 -0.23079622657789814 0.05663864469436762 0.23079622657789814 0.05663864469436762 0.23079622657789814 0.9433613553056324 -0.23079622657789814
3.99E8 0.9166014446592827 -0.27604714751657483 0.08339855534071726 0.27604714751657483 0.08339855534071726 0.27604714751657483 0.9166014446592827 -0.27604714751657483
4.7375E8 0.8862112463585443 -0.3170358961500284 0.11378875364145562 0.3170358961500284 0.11378875364145562 0.3170358961500284 0.8862112463585443 -0.3170358961500284
5.485E8 0.8530132357268672 -0.3534918748917595 0.14698676427313298 0.3534918748917595 0.14698676427313298 0.3534918748917595 0.8530132357268672 -0.3534918748917595
6.2325E8 0.8178095110099781 -0.38531819957800634 0.1821904889900219 0.38531819957800634 0.1821904889900219 0.38531819957800634 0.8178095110099781 -0.38531819957800634
6.98E8 0.7813460457054717 -0.41256744142008184 0.2186539542945283 0.41256744142008184 0.2186539542945283 0.41256744142008184 0.7813460457054717 -0.41256744142008184
7.7275E8 0.7442881911081359 -0.4354119023526426 0.2557118088918642 0.4354119023526426 0.2557118088918642 0.4354119023526426 0.7442881911081359 -0.4354119023526426
8.475E8 0.7072069733640031 -0.45411252078448217 0.2927930266359968 0.45411252078448217 0.2927930266359968 0.45411252078448217 0.7072069733640031 -0.45411252078448217
9.2225E8 0.6705745842268825 -0.4689895151685397 0.3294254157731173 0.4689895151685397 0.3294254157731173 0.4689895151685397 0.6705745842268825 -0.4689895151685397
9.97E8 0.6347669138819793 -0.4803967507257585 0.3652330861180208 0.4803967507257585 0.3652330861180208 0.4803967507257585 0.6347669138819793 -0.4803967507257585
1.07175E9 0.6000709013720334 -0.4887007981397524 0.39992909862796666 0.4887007981397524 0.39992909862796666 0.4887007981397524 0.6000709013720334 -0.4887007981397524
1.1465E9 0.5666947179156209 -0.4942648669632257 0.4333052820843791 0.4942648669632257 0.4333052820843791 0.4942648669632257 0.5666947179156209 -0.4942648669632257
1.22125E9 0.5347791939054345 -0.49743727221273903 0.4652208060945655 0.49743727221273903 0.4652208060945655 0.49743727221273903 0.5347791939054345 -0.49743727221273903
1.296E9 0.5044093328303335 -0.4985438022228273 0.4955906671696665 0.4985438022228273 0.4955906671696665 0.4985438022228273 0.5044093328303335 -0.4985438022228273
1.37075E9 0.4756251507419235 -0.49788324426929376 0.5243748492580763 0.49788324426929376 0.5243748492580763 0.49788324426929376 0.4756251507419235 -0.49788324426929376
1.4455E9 0.4484314023623629 -0.49572533254131285 0.5515685976376371 0.49572533254131285 0.5515685976376371 0.49572533254131285 0.4484314023623629 -0.49572533254131285
1.52025E9 0.42280599545861625 -0.4923104599097166 0.5771940045413836 0.4923104599097166 0.5771940045413836 0.4923104599097166 0.42280599545861625 -0.4923104599097166
1.595E9 0.3987070602833009 -0.4878506028120548 0.6012929397166991 0.4878506028120548 0.6012929397166991 0.4878506028120548 0.3987070602833009 -0.4878506028120548
1.66975E9 0.37607874441355515 -0.48253102254995767 0.623921255586445 0.48253102254995767 0.623921255586445 0.48253102254995767 0.37607874441355515 -0.48253102254995767
1.7445E9 0.35485586053192303 -0.4765124119625276 0.6451441394680767 0.4765124119625276 0.6451441394680767 0.4765124119625276 0.35485586053192303 -0.4765124119625276
1.81925E9 0.3349675395391771 -0.4699332469177721 0.665032460460823 0.4699332469177721 0.665032460460823 0.4699332469177721 0.3349675395391771 -0.4699332469177721
1.894E9 0.3163400451986806 -0.4629121753159177 0.6836599548013195 0.4629121753159177 0.6836599548013195 0.4629121753159177 0.3163400451986806 -0.4629121753159177
1.96875E9 0.2988988977816468 -0.45555033307047993 0.7011011022183532 0.45555033307047993 0.7011011022183532 0.45555033307047993 0.2988988977816468 -0.45555033307047993
2.0435E9 0.282570438882897 -0.4479335189308992 0.7174295611171031 0.4479335189308992 0.7174295611171031 0.4479335189308992 0.282570438882897 -0.4479335189308992
2.11825E9 0.26728295165494587 -0.44013419060488657 0.7327170483450541 0.44013419060488657 0.7327170483450541 0.44013419060488657 0.26728295165494587 -0.44013419060488657
2.193E9 0.25296743260614973 -0.43221326595787446 0.7470325673938502 0.43221326595787446 0.7470325673938502 0.43221326595787446 0.25296743260614973 -0.43221326595787446
2.26775E9 0.23955809421047705 -0.4242217273489091 0.7604419057895229 0.4242217273489091 0.7604419057895229 0.4242217273489091 0.23955809421047705 -0.4242217273489091
2.3425E9 0.22699266256183093 -0.4162020362630705 0.7730073374381692 0.4162020362630705 0.7730073374381692 0.4162020362630705 0.22699266256183093 -0.4162020362630705
2.41725E9 0.215212521409718 -0.4081893707917864 0.7847874785902819 0.4081893707917864 0.7847874785902819 0.4081893707917864 0.215212521409718 -0.4081893707917864
2.492E9 0.20416274310749688 -0.40021270132194037 0.7958372568925031 0.40021270132194037 0.7958372568925031 0.40021270132194037 0.20416274310749688 -0.40021270132194037
2.56675E9 0.19379203812021695 -0.39229572086284814 0.8062079618797828 0.39229572086284814 0.8062079618797828 0.39229572086284814 0.19379203812021695 -0.39229572086284814
2.6415E9 0.1840526475431181 -0.3844576463782445 0.8159473524568819 0.3844576463782445 0.8159473524568819 0.3844576463782445 0.1840526475431181 -0.3844576463782445
2.71625E9 0.17490019732435408 -0.3767139067328322 0.825099802675646 0.3767139067328322 0.825099802675646 0.3767139067328322 0.17490019732435408 -0.3767139067328322
2.791E9 0.16629352832635147 -0.369076731711542 0.8337064716736488 0.369076731711542 0.8337064716736488 0.369076731711542 0.16629352832635147 -0.369076731711542
2.86575E9 0.15819451278256438 -0.36155565522871264 0.8418054872174356 0.36155565522871264 0.8418054872174356 0.36155565522871264 0.15819451278256438 -0.36155565522871264
2.9405E9 0.15056786492197108 -0.3541579444480948 0.8494321350780291 0.3541579444480948 0.8494321350780291 0.3541579444480948 0.15056786492197108 -0.3541579444480948
3.01525E9 0.14338095138346946 -0.346888965167412 0.8566190486165305 0.346888965167412 0.8566190486165305 0.346888965167412 0.14338095138346946 -0.346888965167412
3.09E9 0.13660360539472344 -0.3397524925333401 0.8633963946052766 0.3397524925333401 0.8633963946052766 0.3397524925333401 0.13660360539472344 -0.3397524925333401
3.16475E9 0.1302079474376584 -0.332750974970985 0.8697920525623416 0.332750974970985 0.8697920525623416 0.332750974970985 0.1302079474376584 -0.332750974970985
3.2395E9 0.12416821417921169 -0.3258857581476314 0.8758317858207881 0.3258857581476314 0.8758317858207881 0.3258857581476314 0.12416821417921169 -0.3258857581476314
3.31425E9 0.11846059674206016 -0.3191572748451461 0.8815394032579398 0.3191572748451461 0.8815394032579398 0.3191572748451461 0.11846059674206016 -0.3191572748451461
3.389E9 0.11306308887120481 -0.31256520578441155 0.8869369111287951 0.31256520578441155 0.8869369111287951 0.31256520578441155 0.11306308887120481 -0.31256520578441155
3.46375E9 0.10795534517544642 -0.306108615720517 0.8920446548245536 0.306108615720517 0.8920446548245536 0.306108615720517 0.10795534517544642 -0.306108615720517
3.5385E9 0.103118549354266 -0.2997860684994552 0.896881450645734 0.2997860684994552 0.896881450645734 0.2997860684994552 0.103118549354266 -0.2997860684994552
3.61325E9 0.09853529213420904 -0.2935957242255133 0.901464707865791 0.2935957242255133 0.901464707865791 0.2935957242255133 0.09853529213420904 -0.2935957242255133
3.688E9 0.09418945851423884 -0.2875354212232839 0.9058105414857612 0.2875354212232839 0.9058105414857612 0.2875354212232839 0.09418945851423884 -0.2875354212232839
3.76275E9 0.09006612384098442 -0.281602745079699 0.9099338761590157 0.281602745079699 0.9099338761590157 0.281602745079699 0.09006612384098442 -0.281602745079699
3.8375E9 0.08615145819031633 -0.27579508671092134 0.9138485418096838 0.27579508671092134 0.9138485418096838 0.27579508671092134 0.08615145819031633 -0.27579508671092134
3.91225E9 0.08243263851201071 -0.2701096911083997 0.9175673614879893 0.2701096911083997 0.9175673614879893 0.2701096911083997 0.08243263851201071 -0.2701096911083997
3.987E9 0.07889776799240374 -0.264543698170901 0.9211022320075963 0.264543698170901 0.9211022320075963 0.264543698170901 0.07889776799240374 -0.264543698170901
4.06175E9 0.07553580210056683 -0.25909417681869434 0.9244641978994332 0.25909417681869434 0.9244641978994332 0.25909417681869434 0.07553580210056683 -0.25909417681869434
4.1365E9 0.07233648080265945 -0.2537581534069281 0.9276635191973407 0.2537581534069281 0.9276635191973407 0.2537581534069281 0.07233648080265945 -0.2537581534069281
4.21125E9 0.06929026645375135 -0.24853263530296704 0.9307097335462488 0.24853263530296704 0.9307097335462488 0.24853263530296704 0.06929026645375135 -0.24853263530296704
4.286E9 0.06638828690433454 -0.24341463036305386 0.9336117130956656 0.24341463036305386 0.9336117130956656 0.24341463036305386 0.06638828690433454 -0.24341463036305386
4.36075E9 0.06362228338835607 -0.2384011629336968 0.9363777166116439 0.2384011629336968 0.9363777166116439 0.2384011629336968 0.06362228338835607 -0.2384011629336968
4.4355E9 0.0609845627897212 -0.23348928690975712 0.9390154372102788 0.23348928690975712 0.9390154372102788 0.23348928690975712 0.0609845627897212 -0.23348928690975712
4.51025E9 0.05846795391401958 -0.22867609630179977 0.9415320460859806 0.22867609630179977 0.9415320460859806 0.22867609630179977 0.05846795391401958 -0.22867609630179977
4.585E9 0.056065767421145316 -0.22395873369778158 0.9439342325788548 0.22395873369778158 0.9439342325788548 0.22395873369778158 0.056065767421145316 -0.22395873369778158
4.65975E9 0.05377175910213684 -0.2193343969467652 0.9462282408978632 0.2193343969467652 0.9462282408978632 0.2193343969467652 0.05377175910213684 -0.2193343969467652
4.7345E9 0.05158009620971998 -0.21480034434353706 0.9484199037902801 0.21480034434353706 0.9484199037902801 0.21480034434353706 0.05158009620971998 -0.21480034434353706
4.80925E9 0.04948532657656943 -0.21035389855148573 0.9505146734234304 0.21035389855148573 0.9505146734234304 0.21035389855148573 0.04948532657656943 -0.21035389855148573
4.884E9 0.0474823502781564 -0.20599244946575293 0.9525176497218437 0.20599244946575293 0.9525176497218437 0.20599244946575293 0.0474823502781564 -0.20599244946575293
4.95875E9 0.04556639361822203 -0.20171345618857378 0.954433606381778 0.20171345618857378 0.954433606381778 0.20171345618857378 0.04556639361822203 -0.20171345618857378
5.0335E9 0.043732985234448685 -0.19751444826308986 0.9562670147655514 0.19751444826308986 0.9562670147655514 0.19751444826308986 0.043732985234448685 -0.19751444826308986
5.10825E9 0.04197793413985823 -0.1933930262900746 0.9580220658601418 0.1933930262900746 0.9580220658601418 0.1933930262900746 0.04197793413985823 -0.1933930262900746
5.183E9 0.04029730953192596 -0.18934686203338913 0.9597026904680741 0.18934686203338913 0.9597026904680741 0.18934686203338913 0.04029730953192596 -0.18934686203338913
5.25775E9 0.03868742221645336 -0.1853736981041066 0.9613125777835465 0.1853736981041066 0.9613125777835465 0.1853736981041066 0.03868742221645336 -0.1853736981041066
5.3325E9 0.0371448075069856 -0.18147134729969858 0.9628551924930143 0.18147134729969858 0.9628551924930143 0.18147134729969858 0.0371448075069856 -0.18147134729969858
5.40725E9 0.035666209473085554 -0.17763769166311721 0.9643337905269143 0.17763769166311721 0.9643337905269143 0.17763769166311721 0.035666209473085554 -0.17763769166311721
5.482E9 0.034248566422179806 -0.173870681316742 0.9657514335778203 0.173870681316742 0.9657514335778203 0.173870681316742 0.034248566422179806 -0.173870681316742
5.55675E9 0.03288899751006442 -0.17016833311773888 0.9671110024899354 0.17016833311773888 0.9671110024899354 0.17016833311773888 0.03288899751006442 -0.17016833311773888
5.6315E9 0.031584790384583894 -0.16652872917418965 0.9684152096154159 0.16652872917418965 0.9684152096154159 0.16652872917418965 0.031584790384583894 -0.16652872917418965
5.70625E9 0.03033338977555959 -0.16295001525520855 0.9696666102244405 0.16295001525520855 0.9696666102244405 0.16295001525520855 0.03033338977555959 -0.16295001525520855
5.781E9 0.029132386951818027 -0.15943039912302412 0.9708676130481819 0.15943039912302412 0.9708676130481819 0.15943039912302412 0.029132386951818027 -0.15943039912302412
5.85575E9 0.027979509973226416 -0.1559681488105274 0.9720204900267736 0.1559681488105274 0.9720204900267736 0.1559681488105274 0.027979509973226416 -0.1559681488105274
5.9305E9 0.02687261467204743 -0.15256159086396848 0.9731273853279526 0.15256159086396848 0.9731273853279526 0.15256159086396848 0.02687261467204743 -0.15256159086396848
6.00525E9 0.02580967630373793 -0.1492091085672241 0.9741903236962622 0.1492091085672241 0.9741903236962622 0.1492091085672241 0.02580967630373793 -0.1492091085672241
6.08E9 0.02478878181259113 -0.1459091401612789 0.9752112181874089 0.1459091401612789 0.9752112181874089 0.1459091401612789 0.02478878181259113 -0.1459091401612789
6.15475E9 0.023808122662410364 -0.1426601770701929 0.9761918773375896 0.1426601770701929 0.9761918773375896 0.1426601770701929 0.023808122662410364 -0.1426601770701929
6.2295E9 0.022865988186748263 -0.13946076214280784 0.9771340118132519 0.13946076214280784 0.9771340118132519 0.13946076214280784 0.022865988186748263 -0.13946076214280784
6.30425E9 0.021960759417193398 -0.13630948791773012 0.9780392405828063 0.13630948791773012 0.9780392405828063 0.13630948791773012 0.021960759417193398 -0.13630948791773012
6.379E9 0.0210909033517694 -0.13320499491766258 0.9789090966482307 0.13320499491766258 0.9789090966482307 0.13320499491766258 0.0210909033517694 -0.13320499491766258
6.45375E9 0.02025496762877003 -0.13014596997791983 0.9797450323712299 0.13014596997791983 0.9797450323712299 0.13014596997791983 0.02025496762877003 -0.13014596997791983
6.5285E9 0.019451575574312957 -0.12713114461291128 0.9805484244256872 0.12713114461291128 0.9805484244256872 0.12713114461291128 0.019451575574312957 -0.12713114461291128
6.60325E9 0.01867942159458657 -0.12415929342348227 0.9813205784054135 0.12415929342348227 0.9813205784054135 0.12415929342348227 0.01867942159458657 -0.12415929342348227
6.678E9 0.017937266886212333 -0.12122923254725622 0.9820627331137876 0.12122923254725622 0.9820627331137876 0.12122923254725622 0.017937266886212333 -0.12122923254725622
6.75275E9 0.017223935440373504 -0.11833981815348756 0.9827760645596265 0.11833981815348756 0.9827760645596265 0.11833981815348756 0.017223935440373504 -0.11833981815348756
6.8275E9 0.016538310318388254 -0.11548994498340137 0.9834616896816117 0.11548994498340137 0.9834616896816117 0.11548994498340137 0.016538310318388254 -0.11548994498340137
6.90225E9 0.01587933017825395 -0.11267854493655559 0.9841206698217461 0.11267854493655559 0.9841206698217461 0.11267854493655559 0.01587933017825395 -0.11267854493655559
6.977E9 0.01524598603337218 -0.10990458570338905 0.984754013966628 0.10990458570338905 0.984754013966628 0.10990458570338905 0.01524598603337218 -0.10990458570338905
7.05175E9 0.01463731822619948 -0.10716706944381287 0.9853626817738004 0.10716706944381287 0.9853626817738004 0.10716706944381287 0.01463731822619948 -0.10716706944381287
7.1265E9 0.014052413600969507 -0.10446503151145276 0.9859475863990305 0.10446503151145276 0.9859475863990305 0.10446503151145276 0.014052413600969507 -0.10446503151145276
7.20125E9 0.01349040286091004 -0.1017975392229407 0.9865095971390899 0.1017975392229407 0.9865095971390899 0.1017975392229407 0.01349040286091004 -0.1017975392229407
7.276E9 0.01295045809654606 -0.09916369067149215 0.9870495419034538 0.09916369067149215 0.9870495419034538 0.09916369067149215 0.01295045809654606 -0.09916369067149215
7.35075E9 0.012431790472746597 -0.09656261358386935 0.9875682095272532 0.09656261358386935 0.9875682095272532 0.09656261358386935 0.012431790472746597 -0.09656261358386935
7.4255E9 0.011933648063148124 -0.09399346421972915 0.988066351936852 0.09399346421972915 0.988066351936852 0.09399346421972915 0.011933648063148124 -0.09399346421972915
7.50025E9 0.01145531382147952 -0.0914554263122732 0.9885446861785205 0.0914554263122732 0.9885446861785205 0.0914554263122732 0.01145531382147952 -0.0914554263122732
7.575E9 0.010996103680129854 -0.08894771004905923 0.98900389631987 0.08894771004905923 0.98900389631987 0.08894771004905923 0.010996103680129854 -0.08894771004905923
7.64975E9 0.010555364767048065 -0.0864695510917903 0.9894446352329518 0.0864695510917903 0.9894446352329518 0.0864695510917903 0.010555364767048065 -0.0864695510917903
7.7245E9 0.010132473732748669 -0.08402020963387125 0.9898675262672512 0.08402020963387125 0.9898675262672512 0.08402020963387125 0.010132473732748669 -0.08402020963387125
7.79925E9 0.009726835179825552 -0.08159896949450622 0.9902731648201744 0.08159896949450622 0.9902731648201744 0.08159896949450622 0.009726835179825552 -0.08159896949450622
7.874E9 0.00933788018795233 -0.07920513724810603 0.9906621198120477 0.07920513724810603 0.9906621198120477 0.07920513724810603 0.00933788018795233 -0.07920513724810603
7.94875E9 0.008965064927876442 -0.07683804138777836 0.9910349350721235 0.07683804138777836 0.9910349350721235 0.07683804138777836 0.008965064927876442 -0.07683804138777836
8.0235E9 0.008607869358399564 -0.07449703152168154 0.9913921306416004 0.07449703152168154 0.9913921306416004 0.07449703152168154 0.008607869358399564 -0.07449703152168154
8.09825E9 0.008265796000783683 -0.0721814776010422 0.9917342039992163 0.0721814776010422 0.9917342039992163 0.0721814776010422 0.008265796000783683 -0.0721814776010422
8.173E9 0.007938368785431858 -0.06989076917865387 0.992061631214568 0.06989076917865387 0.992061631214568 0.06989076917865387 0.007938368785431858 -0.06989076917865387
8.24775E9 0.007625131966070528 -0.06762431469670124 0.9923748680339296 0.06762431469670124 0.9923748680339296 0.06762431469670124 0.007625131966070528 -0.06762431469670124
8.3225E9 0.007325649097007323 -0.06538154080277858 0.9926743509029928 0.06538154080277858 0.9926743509029928 0.06538154080277858 0.007325649097007323 -0.06538154080277858
8.39725E9 0.0070395020693583285 -0.0631618916930033 0.9929604979306417 0.0631618916930033 0.9929604979306417 0.0631618916930033 0.0070395020693583285 -0.0631618916930033
8.472E9 0.006766290202433475 -0.06096482848115404 0.9932337097975666 0.06096482848115404 0.9932337097975666 0.06096482848115404 0.006766290202433475 -0.06096482848115404
8.54675E9 0.00650562938674043 -0.05878982859279628 0.9934943706132594 0.05878982859279628 0.9934943706132594 0.05878982859279628 0.00650562938674043 -0.05878982859279628
8.6215E9 0.006257151275318085 -0.056636385183391307 0.9937428487246818 0.056636385183391307 0.9937428487246818 0.056636385183391307 0.006257151275318085 -0.056636385183391307
8.69625E9 0.0060205025203418925 -0.054504006579416606 0.9939794974796583 0.054504006579416606 0.9939794974796583 0.054504006579416606 0.0060205025203418925 -0.054504006579416606
8.771E9 0.005795344052157126 -0.05239221574156071 0.9942046559478429 0.05239221574156071 0.9942046559478429 0.05239221574156071 0.005795344052157126 -0.05239221574156071
