!Murata Part Number: GJM0225C1E8R5BB01
!These Parameters are Measured in Series Mode Connection
!       o--ll--o
!Port1            Port2
!       o------o
!Operation Temp=25[degC], DC Bias Voltage=0[V]
!Freq. Start=100[MHz] Stop=30[GHz], 401[Steps]
!Data Generated on Feb 1, 2023
# Hz S RI R 50
!Freq.(Hz) S11(Real) S11(Imag) S21(Real) S21(Imag) S12(Real) S12(Imag) S22(Real) S22(Imag)
1.0E8 0.7777595523203459 -0.41551114495207764 0.22224044767965415 0.41551114495207764 0.22224044767965415 0.41551114495207764 0.7777595523203459 -0.41551114495207764
1.7475E8 0.5335608510812883 -0.4984500871145518 0.4664391489187118 0.4984500871145518 0.4664391489187118 0.4984500871145518 0.5335608510812883 -0.4984500871145518
2.495E8 0.35879581383678777 -0.4790406202868575 0.6412041861632122 0.4790406202868575 0.6412041861632122 0.4790406202868575 0.35879581383678777 -0.4790406202868575
3.2425E8 0.24814512347258233 -0.43114202394184026 0.7518548765274178 0.43114202394184026 0.7518548765274178 0.43114202394184026 0.24814512347258233 -0.43114202394184026
3.99E8 0.17825354649373915 -0.3817388662036007 0.8217464535062609 0.3817388662036007 0.8217464535062609 0.3817388662036007 0.17825354649373915 -0.3817388662036007
4.7375E8 0.13268421101598576 -0.3380474436079251 0.8673157889840144 0.3380474436079251 0.8673157889840144 0.3380474436079251 0.13268421101598576 -0.3380474436079251
5.485E8 0.10181947389068077 -0.30101982563857177 0.8981805261093192 0.30101982563857177 0.8981805261093192 0.30101982563857177 0.10181947389068077 -0.30101982563857177
6.2325E8 0.0801469105538347 -0.2699166532609916 0.9198530894461652 0.2699166532609916 0.9198530894461652 0.2699166532609916 0.0801469105538347 -0.2699166532609916
6.98E8 0.0644358767232155 -0.24370251591576284 0.9355641232767844 0.24370251591576284 0.9355641232767844 0.24370251591576284 0.0644358767232155 -0.24370251591576284
7.7275E8 0.052728031733147634 -0.22143400969718888 0.9472719682668523 0.22143400969718888 0.9472719682668523 0.22143400969718888 0.052728031733147634 -0.22143400969718888
8.475E8 0.043793861793666816 -0.20233936298886243 0.956206138206333 0.20233936298886243 0.956206138206333 0.20233936298886243 0.043793861793666816 -0.20233936298886243
9.2225E8 0.03683545877964901 -0.18580928709127922 0.9631645412203511 0.18580928709127922 0.9631645412203511 0.18580928709127922 0.03683545877964901 -0.18580928709127922
9.97E8 0.031319187008247415 -0.17136752230041988 0.9686808129917527 0.17136752230041988 0.9686808129917527 0.17136752230041988 0.031319187008247415 -0.17136752230041988
1.07175E9 0.026878388582043822 -0.1586414604583828 0.9731216114179562 0.1586414604583828 0.9731216114179562 0.1586414604583828 0.026878388582043822 -0.1586414604583828
1.1465E9 0.023254988986857888 -0.1473379002064069 0.9767450110131423 0.1473379002064069 0.9767450110131423 0.1473379002064069 0.023254988986857888 -0.1473379002064069
1.22125E9 0.020263389664647448 -0.13722428580861626 0.9797366103353528 0.13722428580861626 0.9797366103353528 0.13722428580861626 0.020263389664647448 -0.13722428580861626
1.296E9 0.0177675199709693 -0.12811453576602652 0.9822324800290307 0.12811453576602652 0.9822324800290307 0.12811453576602652 0.0177675199709693 -0.12811453576602652
1.37075E9 0.01566588216760195 -0.11985841563422084 0.9843341178323979 0.11985841563422084 0.9843341178323979 0.11985841563422084 0.01566588216760195 -0.11985841563422084
1.4455E9 0.013881580244476785 -0.11233356226604325 0.9861184197555233 0.11233356226604325 0.9861184197555233 0.11233356226604325 0.013881580244476785 -0.11233356226604325
1.52025E9 0.01235553199962635 -0.1054394688472572 0.9876444680003736 0.1054394688472572 0.9876444680003736 0.1054394688472572 0.01235553199962635 -0.1054394688472572
1.595E9 0.011041759714367548 -0.09909291723930512 0.9889582402856326 0.09909291723930512 0.9889582402856326 0.09909291723930512 0.011041759714367548 -0.09909291723930512
1.66975E9 0.00990406585967481 -0.09322448189330898 0.9900959341403253 0.09322448189330898 0.9900959341403253 0.09322448189330898 0.00990406585967481 -0.09322448189330898
1.7445E9 0.008913648996534358 -0.0877758316768454 0.9910863510034655 0.0877758316768454 0.9910863510034655 0.0877758316768454 0.008913648996534358 -0.0877758316768454
1.81925E9 0.00804736889739982 -0.08269763006026647 0.9919526311026001 0.08269763006026647 0.9919526311026001 0.08269763006026647 0.00804736889739982 -0.08269763006026647
1.894E9 0.007286467075771029 -0.0779478875049469 0.9927135329242289 0.0779478875049469 0.9927135329242289 0.0779478875049469 0.007286467075771029 -0.0779478875049469
1.96875E9 0.006615611444794026 -0.07349065834227733 0.9933843885552058 0.07349065834227733 0.9933843885552058 0.07349065834227733 0.006615611444794026 -0.07349065834227733
2.0435E9 0.006022174791612014 -0.06929500219969152 0.9939778252083881 0.06929500219969152 0.9939778252083881 0.06929500219969152 0.006022174791612014 -0.06929500219969152
2.11825E9 0.005495684035047935 -0.06533415018917 0.9945043159649519 0.06533415018917 0.9945043159649519 0.06533415018917 0.005495684035047935 -0.06533415018917
2.193E9 0.0050273956811674745 -0.0615848308031008 0.9949726043188324 0.0615848308031008 0.9949726043188324 0.0615848308031008 0.0050273956811674745 -0.0615848308031008
2.26775E9 0.004609965543585082 -0.05802672130059469 0.9953900344564149 0.05802672130059469 0.9953900344564149 0.05802672130059469 0.004609965543585082 -0.05802672130059469
2.3425E9 0.004237189589271041 -0.05464199840112118 0.995762810410729 0.05464199840112118 0.995762810410729 0.05464199840112118 0.004237189589271041 -0.05464199840112118
2.41725E9 0.003903798959112417 -0.05141496810175283 0.9960962010408874 0.05141496810175283 0.9960962010408874 0.05141496810175283 0.003903798959112417 -0.05141496810175283
2.492E9 0.0036052966184429414 -0.04833175894776148 0.996394703381557 0.04833175894776148 0.996394703381557 0.04833175894776148 0.0036052966184429414 -0.04833175894776148
2.56675E9 0.0033378262640628045 -0.045380066506587755 0.9966621737359372 0.045380066506587755 0.9966621737359372 0.045380066506587755 0.0033378262640628045 -0.045380066506587755
2.6415E9 0.0030980664204522832 -0.04254893940549566 0.9969019335795476 0.04254893940549566 0.9969019335795476 0.04254893940549566 0.0030980664204522832 -0.04254893940549566
2.71625E9 0.0028831443512371885 -0.03982859929906549 0.9971168556487627 0.03982859929906549 0.9971168556487627 0.03982859929906549 0.0028831443512371885 -0.03982859929906549
2.791E9 0.0026905656667289253 -0.03721028868430575 0.9973094343332709 0.03721028868430575 0.9973094343332709 0.03721028868430575 0.0026905656667289253 -0.03721028868430575
2.86575E9 0.0025181564461785404 -0.03468614168913587 0.9974818435538212 0.03468614168913587 0.9974818435538212 0.03468614168913587 0.0025181564461785404 -0.03468614168913587
2.9405E9 0.002364015400047431 -0.032249073906229185 0.9976359845999527 0.032249073906229185 0.9976359845999527 0.032249073906229185 0.002364015400047431 -0.032249073906229185
3.01525E9 0.0022264741342082374 -0.029892688089823365 0.9977735258657918 0.029892688089823365 0.9977735258657918 0.029892688089823365 0.0022264741342082374 -0.029892688089823365
3.09E9 0.0021040639884633006 -0.027611193123992902 0.9978959360115366 0.027611193123992902 0.9978959360115366 0.027611193123992902 0.0021040639884633006 -0.027611193123992902
3.16475E9 0.001995488237944829 -0.025399334141710025 0.998004511762055 0.025399334141710025 0.998004511762055 0.025399334141710025 0.001995488237944829 -0.025399334141710025
3.2395E9 0.001899598691117529 -0.023252332051165905 0.9981004013088826 0.023252332051165905 0.9981004013088826 0.023252332051165905 0.001899598691117529 -0.023252332051165905
3.31425E9 0.00181537590939217 -0.021165831029452065 0.9981846240906078 0.021165831029452065 0.9981846240906078 0.021165831029452065 0.00181537590939217 -0.021165831029452065
3.389E9 0.0017419124235102115 -0.019135852789328618 0.9982580875764899 0.019135852789328618 0.9982580875764899 0.019135852789328618 0.0017419124235102115 -0.019135852789328618
3.46375E9 0.0016783984403961677 -0.017158756624440705 0.9983216015596039 0.017158756624440705 0.9983216015596039 0.017158756624440705 0.0016783984403961677 -0.017158756624440705
3.5385E9 0.0016241096282633054 -0.015231204401322567 0.9983758903717369 0.015231204401322567 0.9983758903717369 0.015231204401322567 0.0016241096282633054 -0.015231204401322567
3.61325E9 0.0015783966428312359 -0.013350129800157828 0.9984216033571688 0.013350129800157828 0.9984216033571688 0.013350129800157828 0.0015783966428312359 -0.013350129800157828
3.688E9 0.0015406761177126883 -0.011512711216279826 0.9984593238822872 0.011512711216279826 0.9984593238822872 0.011512711216279826 0.0015406761177126883 -0.011512711216279826
3.76275E9 0.0015104228905282447 -0.009716347825333895 0.9984895771094718 0.009716347825333895 0.9984895771094718 0.009716347825333895 0.0015104228905282447 -0.009716347825333895
3.8375E9 0.001487163275563336 -0.00795863839047832 0.9985128367244364 0.00795863839047832 0.9985128367244364 0.00795863839047832 0.001487163275563336 -0.00795863839047832
3.91225E9 0.0014704692256928332 -0.006237362452840888 0.9985295307743073 0.006237362452840888 0.9985295307743073 0.006237362452840888 0.0014704692256928332 -0.006237362452840888
3.987E9 0.0014599532523477618 -0.004550463598967322 0.9985400467476522 0.004550463598967322 0.9985400467476522 0.004550463598967322 0.0014599532523477618 -0.004550463598967322
4.06175E9 0.001455263993648685 -0.0028960345430424266 0.9985447360063514 0.0028960345430424266 0.9985447360063514 0.0028960345430424266 0.001455263993648685 -0.0028960345430424266
4.1365E9 0.0014560823383960397 -0.0012723037987232223 0.9985439176616041 0.0012723037987232223 0.9985439176616041 0.0012723037987232223 0.0014560823383960397 -0.0012723037987232223
4.21125E9 0.0014621180281139718 3.223762532960042E-4 0.9985378819718859 -3.223762532960042E-4 0.9985378819718859 -3.223762532960042E-4 0.0014621180281139718 3.223762532960042E-4
4.286E9 0.0014731066713664577 0.0018895400693837727 0.9985268933286336 -0.0018895400693837727 0.9985268933286336 -0.0018895400693837727 0.0014731066713664577 0.0018895400693837727
4.36075E9 0.0014888071145624496 0.003430618563644251 0.9985111928854377 -0.003430618563644251 0.9985111928854377 -0.003430618563644251 0.0014888071145624496 0.003430618563644251
4.4355E9 0.0015089991218088788 0.004946947770919168 0.9984910008781912 -0.004946947770919168 0.9984910008781912 -0.004946947770919168 0.0015089991218088788 0.004946947770919168
4.51025E9 0.0015334813233530745 0.006439776661521174 0.9984665186766469 -0.006439776661521174 0.9984665186766469 -0.006439776661521174 0.0015334813233530745 0.006439776661521174
4.585E9 0.0015620693980191315 0.007910274203097494 0.9984379306019808 -0.007910274203097494 0.9984379306019808 -0.007910274203097494 0.0015620693980191315 0.007910274203097494
4.65975E9 0.0015945944599802461 0.009359535753003358 0.9984054055400199 -0.009359535753003358 0.9984054055400199 -0.009359535753003358 0.0015945944599802461 0.009359535753003358
4.7345E9 0.001630901624379209 0.010788588854219641 0.9983690983756207 -0.010788588854219641 0.9983690983756207 -0.010788588854219641 0.001630901624379209 0.010788588854219641
4.80925E9 0.0016708487298412 0.012198398498926533 0.9983291512701588 -0.012198398498926533 0.9983291512701588 -0.012198398498926533 0.0016708487298412 0.012198398498926533
4.884E9 0.0017143051989226682 0.01358987191612921 0.9982856948010771 -0.01358987191612921 0.9982856948010771 -0.01358987191612921 0.0017143051989226682 0.01358987191612921
4.95875E9 0.001761151020094359 0.014963862933045838 0.9982388489799058 -0.014963862933045838 0.9982388489799058 -0.014963862933045838 0.001761151020094359 0.014963862933045838
5.0335E9 0.0018112758370373077 0.01632117595416164 0.9981887241629626 -0.01632117595416164 0.9981887241629626 -0.01632117595416164 0.0018112758370373077 0.01632117595416164
5.10825E9 0.001864578132897211 0.01766256959679955 0.9981354218671029 -0.01766256959679955 0.9981354218671029 -0.01766256959679955 0.001864578132897211 0.01766256959679955
5.183E9 0.0019209644987441957 0.018988760017651162 0.9980790355012559 -0.018988760017651162 0.9980790355012559 -0.018988760017651162 0.0019209644987441957 0.018988760017651162
5.25775E9 0.001980348976862867 0.02030042396086161 0.9980196510231369 -0.02030042396086161 0.9980196510231369 -0.02030042396086161 0.001980348976862867 0.02030042396086161
5.3325E9 0.002042652470685578 0.021598201554891564 0.9979573475293144 -0.021598201554891564 0.9979573475293144 -0.021598201554891564 0.002042652470685578 0.021598201554891564
5.40725E9 0.0021078022142090036 0.022882698882423644 0.997892197785791 -0.022882698882423644 0.997892197785791 -0.022882698882423644 0.0021078022142090036 0.022882698882423644
5.482E9 0.0021757312946242757 0.024154490344984476 0.9978242687053758 -0.024154490344984476 0.9978242687053758 -0.024154490344984476 0.0021757312946242757 0.024154490344984476
5.55675E9 0.0022463782226643464 0.025414120841668705 0.9977536217773354 -0.025414120841668705 0.9977536217773354 -0.025414120841668705 0.0022463782226643464 0.025414120841668705
5.6315E9 0.0023196865458461435 0.026662107779337915 0.9976803134541539 -0.026662107779337915 0.9976803134541539 -0.026662107779337915 0.0023196865458461435 0.026662107779337915
5.70625E9 0.0023956045003737285 0.027898942929891066 0.9976043954996263 -0.027898942929891066 0.9976043954996263 -0.027898942929891066 0.0023956045003737285 0.027898942929891066
5.781E9 0.0024740846979845847 0.0291250941486321 0.9975259153020154 -0.0291250941486321 0.9975259153020154 -0.0291250941486321 0.0024740846979845847 0.0291250941486321
5.85575E9 0.00255508384447461 0.030341006966371528 0.9974449161555256 -0.030341006966371528 0.9974449161555256 -0.030341006966371528 0.00255508384447461 0.030341006966371528
5.9305E9 0.0026385624870375285 0.0315471060666678 0.9973614375129625 -0.0315471060666678 0.9973614375129625 -0.0315471060666678 0.0026385624870375285 0.0315471060666678
6.00525E9 0.002724484787908836 0.03274379665852331 0.997275515212091 -0.03274379665852331 0.997275515212091 -0.03274379665852331 0.002724484787908836 0.03274379665852331
6.08E9 0.0028128183221196924 0.03393146575388117 0.99718718167788 -0.03393146575388117 0.99718718167788 -0.03393146575388117 0.0028128183221196924 0.03393146575388117
6.15475E9 0.002903533897448284 0.03511048335841016 0.9970964661025518 -0.03511048335841016 0.9970964661025518 -0.03511048335841016 0.002903533897448284 0.03511048335841016
6.2295E9 0.0029966053949099306 0.03628120358330137 0.9970033946050901 -0.03628120358330137 0.9970033946050901 -0.03628120358330137 0.0029966053949099306 0.03628120358330137
6.30425E9 0.003092009628357127 0.037443965685122156 0.996907990371643 -0.037443965685122156 0.996907990371643 -0.037443965685122156 0.003092009628357127 0.037443965685122156
6.379E9 0.003189726221970797 0.03859909504017224 0.9968102737780291 -0.03859909504017224 0.9968102737780291 -0.03859909504017224 0.003189726221970797 0.03859909504017224
6.45375E9 0.003289737504617632 0.03974690405925256 0.9967102624953823 -0.03974690405925256 0.9967102624953823 -0.03974690405925256 0.003289737504617632 0.03974690405925256
6.5285E9 0.0033920284202289042 0.040887693048286086 0.996607971579771 -0.040887693048286086 0.996607971579771 -0.040887693048286086 0.0033920284202289042 0.040887693048286086
6.60325E9 0.003496586453526382 0.04202175101981208 0.9965034135464735 -0.04202175101981208 0.9965034135464735 -0.04202175101981208 0.003496586453526382 0.04202175101981208
6.678E9 0.0036034015705838965 0.04314935646000949 0.9963965984294162 -0.04314935646000949 0.9963965984294162 -0.04314935646000949 0.0036034015705838965 0.04314935646000949
6.75275E9 0.003712466173871225 0.044270778055583104 0.9962875338261288 -0.044270778055583104 0.9962875338261288 -0.044270778055583104 0.003712466173871225 0.044270778055583104
6.8275E9 0.0038237750715830266 0.04538627538456733 0.996176224928417 -0.04538627538456733 0.996176224928417 -0.04538627538456733 0.0038237750715830266 0.04538627538456733
6.90225E9 0.003937325461212352 0.046496099574862795 0.9960626745387876 -0.046496099574862795 0.9960626745387876 -0.046496099574862795 0.003937325461212352 0.046496099574862795
6.977E9 0.004053116927488146 0.047600493934115924 0.995946883072512 -0.047600493934115924 0.995946883072512 -0.047600493934115924 0.004053116927488146 0.047600493934115924
7.05175E9 0.004171151454962582 0.04869969455438355 0.9958288485450374 -0.04869969455438355 0.9958288485450374 -0.04869969455438355 0.004171151454962582 0.04869969455438355
7.1265E9 0.004291433455709778 0.04979393089488738 0.9957085665442901 -0.04979393089488738 0.9957085665442901 -0.04979393089488738 0.004291433455709778 0.04979393089488738
7.20125E9 0.004413969812786 0.050883426346058504 0.995586030187214 -0.050883426346058504 0.995586030187214 -0.050883426346058504 0.004413969812786 0.050883426346058504
7.276E9 0.004538769940306967 0.05196839877799867 0.995461230059693 -0.05196839877799867 0.995461230059693 -0.05196839877799867 0.004538769940306967 0.05196839877799867
7.35075E9 0.004665845861224554 0.053049061076443964 0.9953341541387754 -0.053049061076443964 0.9953341541387754 -0.053049061076443964 0.004665845861224554 0.053049061076443964
7.4255E9 0.004795212304138244 0.05412562166930404 0.995204787695862 -0.05412562166930404 0.995204787695862 -0.05412562166930404 0.004795212304138244 0.05412562166930404
7.50025E9 0.004926886820762247 0.055198285046873935 0.9950731131792379 -0.055198285046873935 0.9950731131792379 -0.055198285046873935 0.004926886820762247 0.055198285046873935
7.575E9 0.005060889925994389 0.056267252278870694 0.9949391100740056 -0.056267252278870694 0.9949391100740056 -0.056267252278870694 0.005060889925994389 0.056267252278870694
7.64975E9 0.005197245262905633 0.057332721531537165 0.9948027547370945 -0.057332721531537165 0.9948027547370945 -0.057332721531537165 0.005197245262905633 0.057332721531537165
7.7245E9 0.005335979795400569 0.05839488858818802 0.9946640202045993 -0.05839488858818802 0.9946640202045993 -0.05839488858818802 0.005335979795400569 0.05839488858818802
7.79925E9 0.005477124031800227 0.05945394737674184 0.9945228759681998 -0.05945394737674184 0.9945228759681998 -0.05945394737674184 0.005477124031800227 0.05945394737674184
7.874E9 0.005620712283184869 0.06051009050800054 0.9943792877168152 -0.06051009050800054 0.9943792877168152 -0.06051009050800054 0.005620712283184869 0.06051009050800054
7.94875E9 0.0057667829610235375 0.0615635098287049 0.9942332170389766 -0.0615635098287049 0.9942332170389766 -0.0615635098287049 0.0057667829610235375 0.0615635098287049
8.0235E9 0.005915378919430476 0.06261439699371504 0.9940846210805694 -0.06261439699371504 0.9940846210805694 -0.06261439699371504 0.005915378919430476 0.06261439699371504
8.09825E9 0.006066547848353553 0.0636629440620493 0.9939334521516463 -0.0636629440620493 0.9939334521516463 -0.0636629440620493 0.006066547848353553 0.0636629440620493
8.173E9 0.006220342725148893 0.06470934412196679 0.993779657274851 -0.06470934412196679 0.993779657274851 -0.06470934412196679 0.006220342725148893 0.06470934412196679
8.24775E9 0.006376822333369932 0.0657537919508083 0.9936231776666302 -0.0657537919508083 0.9936231776666302 -0.0657537919508083 0.006376822333369932 0.0657537919508083
8.3225E9 0.006536051859248612 0.06679648471592572 0.9934639481407515 -0.06679648471592572 0.9934639481407515 -0.06679648471592572 0.006536051859248612 0.06679648471592572
8.39725E9 0.006698103578334125 0.0678376227237414 0.9933018964216658 -0.0678376227237414 0.9933018964216658 -0.0678376227237414 0.006698103578334125 0.0678376227237414
8.472E9 0.006863057647159598 0.06887741022479804 0.9931369423528402 -0.06887741022479804 0.9931369423528402 -0.06887741022479804 0.006863057647159598 0.06887741022479804
