!Murata Part Number: GJM0225C1E3R4BB01
!These Parameters are Measured in Series Mode Connection
!       o--ll--o
!Port1            Port2
!       o------o
!Operation Temp=25[degC], DC Bias Voltage=0[V]
!Freq. Start=100[MHz] Stop=30[GHz], 401[Steps]
!Data Generated on Feb 1, 2023
# Hz S RI R 50
!Freq.(Hz) S11(Real) S11(Imag) S21(Real) S21(Imag) S12(Real) S12(Imag) S22(Real) S22(Imag)
1.0E8 0.9562569677503796 -0.20431208510833032 0.043743032249620374 0.20431208510833032 0.043743032249620374 0.20431208510833032 0.9562569677503796 -0.20431208510833032
1.7475E8 0.8773490967317956 -0.3276676862439637 0.12265090326820434 0.3276676862439637 0.12265090326820434 0.3276676862439637 0.8773490967317956 -0.3276676862439637
2.495E8 0.7780234931329881 -0.4150491216801546 0.22197650686701187 0.4150491216801546 0.22197650686701187 0.4150491216801546 0.7780234931329881 -0.4150491216801546
3.2425E8 0.6744731761412919 -0.46788672548347404 0.325526823858708 0.46788672548347404 0.325526823858708 0.46788672548347404 0.6744731761412919 -0.46788672548347404
3.99E8 0.5772741484610324 -0.4931491699158376 0.4227258515389676 0.4931491699158376 0.4227258515389676 0.4931491699158376 0.5772741484610324 -0.4931491699158376
4.7375E8 0.4914362514134001 -0.49892376542281436 0.5085637485865999 0.49892376542281436 0.5085637485865999 0.49892376542281436 0.4914362514134001 -0.49892376542281436
5.485E8 0.41821537837579215 -0.4921028513695487 0.5817846216242077 0.4921028513695487 0.5817846216242077 0.4921028513695487 0.41821537837579215 -0.4921028513695487
6.2325E8 0.35689393667276814 -0.47775901577632446 0.6431060633272319 0.47775901577632446 0.6431060633272319 0.47775901577632446 0.35689393667276814 -0.47775901577632446
6.98E8 0.3059596190211358 -0.45932652896805604 0.6940403809788642 0.45932652896805604 0.6940403809788642 0.45932652896805604 0.3059596190211358 -0.45932652896805604
7.7275E8 0.2637377771554687 -0.4390094841202766 0.7362622228445314 0.4390094841202766 0.7362622228445314 0.4390094841202766 0.2637377771554687 -0.4390094841202766
8.475E8 0.2286761788954696 -0.4181665420496276 0.7713238211045303 0.4181665420496276 0.7713238211045303 0.4181665420496276 0.2286761788954696 -0.4181665420496276
9.2225E8 0.19944414027231575 -0.3976030785887868 0.8005558597276843 0.3976030785887868 0.8005558597276843 0.3976030785887868 0.19944414027231575 -0.3976030785887868
9.97E8 0.17494450014925259 -0.3777729574912034 0.8250554998507473 0.3777729574912034 0.8250554998507473 0.3777729574912034 0.17494450014925259 -0.3777729574912034
1.07175E9 0.1542903548825872 -0.35891130567085805 0.845709645117413 0.35891130567085805 0.845709645117413 0.35891130567085805 0.1542903548825872 -0.35891130567085805
1.1465E9 0.13677137018198257 -0.34111961667946833 0.8632286298180175 0.34111961667946833 0.8632286298180175 0.34111961667946833 0.13677137018198257 -0.34111961667946833
1.22125E9 0.12182040246900715 -0.32441948121800074 0.878179597530993 0.32441948121800074 0.878179597530993 0.32441948121800074 0.12182040246900715 -0.32441948121800074
1.296E9 0.10898437596091196 -0.30878618153120907 0.891015624039088 0.30878618153120907 0.891015624039088 0.30878618153120907 0.10898437596091196 -0.30878618153120907
1.37075E9 0.09790031804725492 -0.29416952697731286 0.9020996819527449 0.29416952697731286 0.9020996819527449 0.29416952697731286 0.09790031804725492 -0.29416952697731286
1.4455E9 0.0882762210132002 -0.28050665710987316 0.9117237789867997 0.28050665710987316 0.9117237789867997 0.28050665710987316 0.0882762210132002 -0.28050665710987316
1.52025E9 0.07987599315448893 -0.2677298045665491 0.9201240068455111 0.2677298045665491 0.9201240068455111 0.2677298045665491 0.07987599315448893 -0.2677298045665491
1.595E9 0.07250771266626833 -0.2557709028035684 0.9274922873337317 0.2557709028035684 0.9274922873337317 0.2557709028035684 0.07250771266626833 -0.2557709028035684
1.66975E9 0.06601448282726027 -0.244564224669784 0.9339855171727398 0.244564224669784 0.9339855171727398 0.244564224669784 0.06601448282726027 -0.244564224669784
1.7445E9 0.06026730918334415 -0.23404779837876646 0.939732690816656 0.23404779837876646 0.939732690816656 0.23404779837876646 0.06026730918334415 -0.23404779837876646
1.81925E9 0.05515953857871707 -0.2241640712873294 0.9448404614212831 0.2241640712873294 0.9448404614212831 0.2241640712873294 0.05515953857871707 -0.2241640712873294
1.894E9 0.05060250206678702 -0.2148601180321544 0.9493974979332128 0.2148601180321544 0.9493974979332128 0.2148601180321544 0.05060250206678702 -0.2148601180321544
1.96875E9 0.04652208628513005 -0.2060875798109899 0.95347791371487 0.2060875798109899 0.95347791371487 0.2060875798109899 0.04652208628513005 -0.2060875798109899
2.0435E9 0.042856022503460864 -0.1978024520853525 0.957143977496539 0.1978024520853525 0.957143977496539 0.1978024520853525 0.042856022503460864 -0.1978024520853525
2.11825E9 0.039551732279243586 -0.1899647938507676 0.9604482677207563 0.1899647938507676 0.9604482677207563 0.1899647938507676 0.039551732279243586 -0.1899647938507676
2.193E9 0.03656460656711428 -0.1825384035573486 0.9634353934328859 0.1825384035573486 0.9634353934328859 0.1825384035573486 0.03656460656711428 -0.1825384035573486
2.26775E9 0.03385662390827613 -0.1754904889162532 0.9661433760917242 0.1754904889162532 0.9661433760917242 0.1754904889162532 0.03385662390827613 -0.1754904889162532
2.3425E9 0.031395235147600675 -0.16879134650069344 0.9686047648523993 0.16879134650069344 0.9686047648523993 0.16879134650069344 0.031395235147600675 -0.16879134650069344
2.41725E9 0.02915245868544942 -0.1624140598979265 0.9708475413145506 0.1624140598979265 0.9708475413145506 0.1624140598979265 0.02915245868544942 -0.1624140598979265
2.492E9 0.027104142864715935 -0.15633422069449143 0.9728958571352841 0.15633422069449143 0.9728958571352841 0.15633422069449143 0.027104142864715935 -0.15633422069449143
2.56675E9 0.025229361700760886 -0.1505296738217834 0.974770638299239 0.1505296738217834 0.974770638299239 0.1505296738217834 0.025229361700760886 -0.1505296738217834
2.6415E9 0.02350991751814468 -0.14498028713571584 0.9764900824818555 0.14498028713571584 0.9764900824818555 0.14498028713571584 0.02350991751814468 -0.14498028713571584
2.71625E9 0.021929929713929448 -0.13966774415429717 0.9780700702860706 0.13966774415429717 0.9780700702860706 0.13966774415429717 0.021929929713929448 -0.13966774415429717
2.791E9 0.02047549323487199 -0.13457535837275308 0.9795245067651279 0.13457535837275308 0.9795245067651279 0.13457535837275308 0.02047549323487199 -0.13457535837275308
2.86575E9 0.019134393743764605 -0.129687907350489 0.9808656062562355 0.129687907350489 0.9808656062562355 0.129687907350489 0.019134393743764605 -0.129687907350489
2.9405E9 0.017895869090300026 -0.12499148470982771 0.9821041309097 0.12499148470982771 0.9821041309097 0.12499148470982771 0.017895869090300026 -0.12499148470982771
3.01525E9 0.01675040876869428 -0.12047336823349275 0.9832495912313057 0.12047336823349275 0.9832495912313057 0.12047336823349275 0.01675040876869428 -0.12047336823349275
3.09E9 0.015689584669800104 -0.11612190235167098 0.9843104153301999 0.11612190235167098 0.9843104153301999 0.11612190235167098 0.015689584669800104 -0.11612190235167098
3.16475E9 0.014705907719638983 -0.11192639344191352 0.9852940922803612 0.11192639344191352 0.9852940922803612 0.11192639344191352 0.014705907719638983 -0.11192639344191352
3.2395E9 0.013792706015367771 -0.1078770165084815 0.9862072939846322 0.1078770165084815 0.9862072939846322 0.1078770165084815 0.013792706015367771 -0.1078770165084815
3.31425E9 0.012944020881951792 -0.1039647319512987 0.9870559791180482 0.1039647319512987 0.9870559791180482 0.1039647319512987 0.012944020881951792 -0.1039647319512987
3.389E9 0.012154517922993928 -0.10018121127218496 0.9878454820770063 0.10018121127218496 0.9878454820770063 0.10018121127218496 0.012154517922993928 -0.10018121127218496
3.46375E9 0.011419410661789508 -0.0965187706941428 0.9885805893382105 0.0965187706941428 0.9885805893382105 0.0965187706941428 0.011419410661789508 -0.0965187706941428
3.5385E9 0.010734394790477957 -0.09297031178658866 0.9892656052095218 0.09297031178658866 0.9892656052095218 0.09297031178658866 0.010734394790477957 -0.09297031178658866
3.61325E9 0.01009559138694615 -0.08952926829513336 0.9899044086130538 0.08952926829513336 0.9899044086130538 0.08952926829513336 0.01009559138694615 -0.08952926829513336
3.688E9 0.009499497737154064 -0.08618955846906516 0.9905005022628461 0.08618955846906516 0.9905005022628461 0.08618955846906516 0.009499497737154064 -0.08618955846906516
3.76275E9 0.008942944627546651 -0.082945542263697 0.9910570553724535 0.082945542263697 0.9910570553724535 0.082945542263697 0.008942944627546651 -0.082945542263697
3.8375E9 0.008423059158227227 -0.0797919828690395 0.9915769408417725 0.0797919828690395 0.9915769408417725 0.0797919828690395 0.008423059158227227 -0.0797919828690395
3.91225E9 0.007937232280534405 -0.07672401208174498 0.9920627677194658 0.07672401208174498 0.9920627677194658 0.07672401208174498 0.007937232280534405 -0.07672401208174498
3.987E9 0.007483090388890599 -0.07373709909485626 0.9925169096111095 0.07373709909485626 0.9925169096111095 0.07373709909485626 0.007483090388890599 -0.07373709909485626
4.06175E9 0.007058470401296465 -0.07082702233045292 0.9929415295987035 0.07082702233045292 0.9929415295987035 0.07082702233045292 0.007058470401296465 -0.07082702233045292
4.1365E9 0.006661397849650095 -0.0679898439846321 0.9933386021503496 0.0679898439846321 0.9933386021503496 0.0679898439846321 0.006661397849650095 -0.0679898439846321
4.21125E9 0.006290067573397306 -0.06522188699313713 0.9937099324266029 0.06522188699313713 0.9937099324266029 0.06522188699313713 0.006290067573397306 -0.06522188699313713
4.286E9 0.005942826670468138 -0.06251971416002261 0.9940571733295318 0.06251971416002261 0.9940571733295318 0.06251971416002261 0.005942826670468138 -0.06251971416002261
4.36075E9 0.005618159410125065 -0.0598801092216148 0.9943818405898752 0.0598801092216148 0.9943818405898752 0.0598801092216148 0.005618159410125065 -0.0598801092216148
4.4355E9 0.005314673854944171 -0.05730005964422123 0.9946853261450558 0.05730005964422123 0.9946853261450558 0.05730005964422123 0.005314673854944171 -0.05730005964422123
4.51025E9 0.0050310899750587645 -0.054776740977028046 0.9949689100249414 0.054776740977028046 0.9949689100249414 0.054776740977028046 0.0050310899750587645 -0.054776740977028046
4.585E9 0.004766229068146746 -0.052307502601802704 0.9952337709318534 0.052307502601802704 0.9952337709318534 0.052307502601802704 0.004766229068146746 -0.052307502601802704
4.65975E9 0.004519004324366949 -0.04988985473875591 0.995480995675633 0.04988985473875591 0.995480995675633 0.04988985473875591 0.004519004324366949 -0.04988985473875591
4.7345E9 0.004288412397305672 -0.04752145658351017 0.9957115876026944 0.04752145658351017 0.9957115876026944 0.04752145658351017 0.004288412397305672 -0.04752145658351017
4.80925E9 0.004073525860611776 -0.04520010546385673 0.9959264741393883 0.04520010546385673 0.9959264741393883 0.04520010546385673 0.004073525860611776 -0.04520010546385673
4.884E9 0.003873486445894448 -0.04292372691708325 0.9961265135541053 0.04292372691708325 0.9961265135541053 0.04292372691708325 0.003873486445894448 -0.04292372691708325
4.95875E9 0.003687498971061953 -0.040690365599331625 0.996312501028938 0.040690365599331625 0.996312501028938 0.040690365599331625 0.003687498971061953 -0.040690365599331625
5.0335E9 0.0035148258799495 -0.038498176947875135 0.9964851741200504 0.038498176947875135 0.9964851741200504 0.038498176947875135 0.0035148258799495 -0.038498176947875135
5.10825E9 0.003354782324116863 -0.036345419525544154 0.996645217675883 0.036345419525544154 0.996645217675883 0.036345419525544154 0.003354782324116863 -0.036345419525544154
5.183E9 0.0032067317263400536 -0.0342304479839107 0.9967932682736598 0.0342304479839107 0.9967932682736598 0.0342304479839107 0.0032067317263400536 -0.0342304479839107
5.25775E9 0.003070081772784063 -0.03215170658838624 0.9969299182272162 0.03215170658838624 0.9969299182272162 0.03215170658838624 0.003070081772784063 -0.03215170658838624
5.3325E9 0.0029442807872999857 -0.03010772325419219 0.9970557192127 0.03010772325419219 0.9970557192127 0.03010772325419219 0.0029442807872999857 -0.03010772325419219
5.40725E9 0.002828814446886818 -0.028097104047323067 0.9971711855531132 0.028097104047323067 0.9971711855531132 0.028097104047323067 0.002828814446886818 -0.028097104047323067
5.482E9 0.002723202802219173 -0.02611852810920845 0.9972767971977808 0.02611852810920845 0.9972767971977808 0.02611852810920845 0.002723202802219173 -0.02611852810920845
5.55675E9 0.0026269975713725194 -0.02417074296786783 0.9973730024286275 0.02417074296786783 0.9973730024286275 0.02417074296786783 0.0026269975713725194 -0.02417074296786783
5.6315E9 0.0025397796785653877 -0.02225256020199534 0.9974602203214347 0.02225256020199534 0.9974602203214347 0.02225256020199534 0.0025397796785653877 -0.02225256020199534
5.70625E9 0.0024611570129589263 -0.020362851427662833 0.9975388429870409 0.020362851427662833 0.9975388429870409 0.020362851427662833 0.0024611570129589263 -0.020362851427662833
5.781E9 0.002390762385372257 -0.018500544580237276 0.9976092376146279 0.018500544580237276 0.9976092376146279 0.018500544580237276 0.002390762385372257 -0.018500544580237276
5.85575E9 0.0023282516632418173 -0.016664620466708597 0.9976717483367583 0.016664620466708597 0.9976717483367583 0.016664620466708597 0.0023282516632418173 -0.016664620466708597
5.9305E9 0.002273302066320969 -0.01485410956595284 0.9977266979336793 0.01485410956595284 0.9977266979336793 0.01485410956595284 0.002273302066320969 -0.01485410956595284
6.00525E9 0.0022256106075226227 -0.013068089056545397 0.9977743893924772 0.013068089056545397 0.9977743893924772 0.013068089056545397 0.0022256106075226227 -0.013068089056545397
6.08E9 0.002184892664986598 -0.011305680053613466 0.9978151073350133 0.011305680053613466 0.9978151073350133 0.011305680053613466 0.002184892664986598 -0.011305680053613466
6.15475E9 0.002150880672934438 -0.009566045037902733 0.9978491193270657 0.009566045037902733 0.9978491193270657 0.009566045037902733 0.002150880672934438 -0.009566045037902733
6.2295E9 0.002123322920182725 -0.007848385461749883 0.9978766770798172 0.007848385461749883 0.9978766770798172 0.007848385461749883 0.002123322920182725 -0.007848385461749883
6.30425E9 0.0021019824463434336 -0.006151939518017963 0.9978980175536566 0.006151939518017963 0.9978980175536566 0.006151939518017963 0.0021019824463434336 -0.006151939518017963
6.379E9 0.002086636026765365 -0.004475980059282836 0.9979133639732347 0.004475980059282836 0.9979133639732347 0.004475980059282836 0.002086636026765365 -0.004475980059282836
6.45375E9 0.0020770732381806822 -0.0028198126556717527 0.9979229267618193 0.0028198126556717527 0.9979229267618193 0.0028198126556717527 0.0020770732381806822 -0.0028198126556717527
6.5285E9 0.0020730955978289357 -0.0011827737807576786 0.9979269044021709 0.0011827737807576786 0.9979269044021709 0.0011827737807576786 0.0020730955978289357 -0.0011827737807576786
6.60325E9 0.0020745157695502754 4.3577088417732775E-4 0.99792548423045 -4.3577088417732775E-4 0.99792548423045 -4.3577088417732775E-4 0.0020745157695502754 4.3577088417732775E-4
6.678E9 0.002081156830980267 0.0020364280363750816 0.9979188431690197 -0.0020364280363750816 0.9979188431690197 -0.0020364280363750816 0.002081156830980267 0.0020364280363750816
6.75275E9 0.0020928515965503336 0.003619778236450063 0.9979071484034497 -0.003619778236450063 0.9979071484034497 -0.003619778236450063 0.0020928515965503336 0.003619778236450063
6.8275E9 0.0021094419915082875 0.005186377299297731 0.9978905580084917 -0.005186377299297731 0.9978905580084917 -0.005186377299297731 0.0021094419915082875 0.005186377299297731
6.90225E9 0.0021307784726299884 0.006736757597893099 0.9978692215273699 -0.006736757597893099 0.9978692215273699 -0.006736757597893099 0.0021307784726299884 0.006736757597893099
6.977E9 0.002156719491701839 0.008271429286250827 0.9978432805082983 -0.008271429286250827 0.9978432805082983 -0.008271429286250827 0.002156719491701839 0.008271429286250827
7.05175E9 0.0021871309982202727 0.009790881447313056 0.9978128690017797 -0.009790881447313056 0.9978128690017797 -0.009790881447313056 0.0021871309982202727 0.009790881447313056
7.1265E9 0.0022218859780831638 0.01129558317106667 0.9977781140219167 -0.01129558317106667 0.9977781140219167 -0.01129558317106667 0.0022218859780831638 0.01129558317106667
7.20125E9 0.0022608640253435714 0.012785984567773167 0.9977391359746567 -0.012785984567773167 0.9977391359746567 -0.012785984567773167 0.0022608640253435714 0.012785984567773167
7.276E9 0.0023039509443619406 0.014262517720808441 0.997696049055638 -0.014262517720808441 0.997696049055638 -0.014262517720808441 0.0023039509443619406 0.014262517720808441
7.35075E9 0.002351038379932207 0.015725597583260767 0.997648961620068 -0.015725597583260767 0.997648961620068 -0.015725597583260767 0.002351038379932207 0.015725597583260767
7.4255E9 0.0024020234731729198 0.017175622822113556 0.997597976526827 -0.017175622822113556 0.997597976526827 -0.017175622822113556 0.0024020234731729198 0.017175622822113556
7.50025E9 0.0024568085411692336 0.018612976613548552 0.9975431914588305 -0.018612976613548552 0.9975431914588305 -0.018612976613548552 0.0024568085411692336 0.018612976613548552
7.575E9 0.002515300778527381 0.020038027392635226 0.9974846992214726 -0.020038027392635226 0.9974846992214726 -0.020038027392635226 0.002515300778527381 0.020038027392635226
7.64975E9 0.002577411979162289 0.021451129560428 0.9974225880208376 -0.021451129560428 0.9974225880208376 -0.021451129560428 0.002577411979162289 0.021451129560428
7.7245E9 0.0026430582767829535 0.022852624151267698 0.997356941723217 -0.022852624151267698 0.997356941723217 -0.022852624151267698 0.0026430582767829535 0.022852624151267698
7.79925E9 0.0027121599026705377 0.024242839462876843 0.9972878400973295 -0.024242839462876843 0.9972878400973295 -0.024242839462876843 0.0027121599026705377 0.024242839462876843
7.874E9 0.002784640959462486 0.025622091651649706 0.9972153590405377 -0.025622091651649706 0.9972153590405377 -0.025622091651649706 0.002784640959462486 0.025622091651649706
7.94875E9 0.0028604292097632864 0.026990685295363116 0.9971395707902369 -0.026990685295363116 0.9971395707902369 -0.026990685295363116 0.0028604292097632864 0.026990685295363116
8.0235E9 0.0029394558785001143 0.028348913925375367 0.9970605441214999 -0.028348913925375367 0.9970605441214999 -0.028348913925375367 0.0029394558785001143 0.028348913925375367
8.09825E9 0.003021655468030249 0.02969706053023114 0.9969783445319698 -0.02969706053023114 0.9969783445319698 -0.02969706053023114 0.003021655468030249 0.02969706053023114
8.173E9 0.003106965585088058 0.031035398032457865 0.9968930344149118 -0.031035398032457865 0.9968930344149118 -0.031035398032457865 0.003106965585088058 0.031035398032457865
8.24775E9 0.003195326778732805 0.03236418974021079 0.9968046732212672 -0.03236418974021079 0.9968046732212672 -0.03236418974021079 0.003195326778732805 0.03236418974021079
8.3225E9 0.0032866823885258052 0.03368368977531182 0.9967133176114741 -0.03368368977531182 0.9967133176114741 -0.03368368977531182 0.0032866823885258052 0.03368368977531182
8.39725E9 0.0033809784022266164 0.03499414347911885 0.9966190215977735 -0.03499414347911885 0.9966190215977735 -0.03499414347911885 0.0033809784022266164 0.03499414347911885
8.472E9 0.0034781633223539624 0.03629578779756502 0.996521836677646 -0.03629578779756502 0.996521836677646 -0.03629578779756502 0.0034781633223539624 0.03629578779756502
8.54675E9 0.0035781880410083846 0.037588851646617696 0.9964218119589916 -0.037588851646617696 0.9964218119589916 -0.037588851646617696 0.0035781880410083846 0.037588851646617696
