!Murata Part Number: GJM0225C1E9R6BB01
!These Parameters are Measured in Series Mode Connection
!       o--ll--o
!Port1            Port2
!       o------o
!Operation Temp=25[degC], DC Bias Voltage=0[V]
!Freq. Start=100[MHz] Stop=30[GHz], 401[Steps]
!Data Generated on Feb 1, 2023
# Hz S RI R 50
!Freq.(Hz) S11(Real) S11(Imag) S21(Real) S21(Imag) S12(Real) S12(Imag) S22(Real) S22(Imag)
1.0E8 0.7328682136710643 -0.4422044009626257 0.26713178632893575 0.4422044009626257 0.26713178632893575 0.4422044009626257 0.7328682136710643 -0.4422044009626257
1.7475E8 0.4727353336241768 -0.4988027157159813 0.5272646663758233 0.4988027157159813 0.5272646663758233 0.4988027157159813 0.4727353336241768 -0.4988027157159813
2.495E8 0.3048159819055556 -0.45967421999336505 0.6951840180944443 0.45967421999336505 0.6951840180944443 0.45967421999336505 0.3048159819055556 -0.45967421999336505
3.2425E8 0.20542441666778632 -0.4031463398374259 0.7945755833322139 0.4031463398374259 0.7945755833322139 0.4031463398374259 0.20542441666778632 -0.4031463398374259
3.99E8 0.14519497648031868 -0.35121252717452917 0.8548050235196814 0.35121252717452917 0.8548050235196814 0.35121252717452917 0.14519497648031868 -0.35121252717452917
4.7375E8 0.10693927307610515 -0.30772015870811603 0.8930607269238949 0.30772015870811603 0.8930607269238949 0.30772015870811603 0.10693927307610515 -0.30772015870811603
5.485E8 0.08147146547983893 -0.27199828217558947 0.9185285345201611 0.27199828217558947 0.9185285345201611 0.27199828217558947 0.08147146547983893 -0.27199828217558947
6.2325E8 0.0638006499976936 -0.24258089450819117 0.9361993500023066 0.24258089450819117 0.9361993500023066 0.24258089450819117 0.0638006499976936 -0.24258089450819117
6.98E8 0.05110062038945257 -0.21811528584131173 0.9488993796105476 0.21811528584131173 0.9488993796105476 0.21811528584131173 0.05110062038945257 -0.21811528584131173
7.7275E8 0.04169781205914331 -0.19752454883453496 0.9583021879408568 0.19752454883453496 0.9583021879408568 0.19752454883453496 0.04169781205914331 -0.19752454883453496
8.475E8 0.0345588407592853 -0.17998627553043595 0.9654411592407146 0.17998627553043595 0.9654411592407146 0.17998627553043595 0.0345588407592853 -0.17998627553043595
9.2225E8 0.029021247322284602 -0.16487786142714153 0.9709787526777155 0.16487786142714153 0.9709787526777155 0.16487786142714153 0.029021247322284602 -0.16487786142714153
9.97E8 0.024646085094680026 -0.15172614050855476 0.9753539149053198 0.15172614050855476 0.9753539149053198 0.15172614050855476 0.024646085094680026 -0.15172614050855476
1.07175E9 0.021133935928036897 -0.14016827967910123 0.9788660640719632 0.14016827967910123 0.9788660640719632 0.14016827967910123 0.021133935928036897 -0.14016827967910123
1.1465E9 0.018275271698984248 -0.12992300203282667 0.9817247283010158 0.12992300203282667 0.9817247283010158 0.12992300203282667 0.018275271698984248 -0.12992300203282667
1.22125E9 0.015920122193621447 -0.12076975599766802 0.9840798778063784 0.12076975599766802 0.9840798778063784 0.12076975599766802 0.015920122193621447 -0.12076975599766802
1.296E9 0.013958976367454173 -0.11253365521541779 0.9860410236325458 0.11253365521541779 0.9860410236325458 0.11253365521541779 0.013958976367454173 -0.11253365521541779
1.37075E9 0.012310428352611216 -0.10507452923391163 0.9876895716473887 0.10507452923391163 0.9876895716473887 0.10507452923391163 0.012310428352611216 -0.10507452923391163
1.4455E9 0.010912990207214729 -0.09827889263028153 0.9890870097927854 0.09827889263028153 0.9890870097927854 0.09827889263028153 0.010912990207214729 -0.09827889263028153
1.52025E9 0.009719546118523366 -0.0920539944341195 0.9902804538814767 0.0920539944341195 0.9902804538814767 0.0920539944341195 0.009719546118523366 -0.0920539944341195
1.595E9 0.008693520819119184 -0.08632336182005512 0.991306479180881 0.08632336182005512 0.991306479180881 0.08632336182005512 0.008693520819119184 -0.08632336182005512
1.66975E9 0.007806184418644721 -0.08102342724566118 0.9921938155813551 0.08102342724566118 0.9921938155813551 0.08102342724566118 0.007806184418644721 -0.08102342724566118
1.7445E9 0.007034725375397005 -0.0761009491387943 0.992965274624603 0.0761009491387943 0.992965274624603 0.0761009491387943 0.007034725375397005 -0.0761009491387943
1.81925E9 0.006360851971185236 -0.07151101981083113 0.9936391480288149 0.07151101981083113 0.9936391480288149 0.07151101981083113 0.006360851971185236 -0.07151101981083113
1.894E9 0.005769763371578071 -0.06721551234849009 0.9942302366284219 0.06721551234849009 0.9942302366284219 0.06721551234849009 0.005769763371578071 -0.06721551234849009
1.96875E9 0.005249383028818612 -0.06318185890980421 0.9947506169711814 0.06318185890980421 0.9947506169711814 0.06318185890980421 0.005249383028818612 -0.06318185890980421
2.0435E9 0.004789780883893585 -0.05938208158905721 0.9952102191161065 0.05938208158905721 0.9952102191161065 0.05938208158905721 0.004789780883893585 -0.05938208158905721
2.11825E9 0.0043827331795174744 -0.055792017514376964 0.9956172668204823 0.055792017514376964 0.9956172668204823 0.055792017514376964 0.0043827331795174744 -0.055792017514376964
2.193E9 0.0040213837623841835 -0.05239069460314579 0.9959786162376159 0.05239069460314579 0.9959786162376159 0.05239069460314579 0.0040213837623841835 -0.05239069460314579
2.26775E9 0.0036999810576269295 -0.04915982513131594 0.9963000189423731 0.04915982513131594 0.9963000189423731 0.04915982513131594 0.0036999810576269295 -0.04915982513131594
2.3425E9 0.003413672043066927 -0.04608339214609797 0.9965863279569331 0.04608339214609797 0.9965863279569331 0.04608339214609797 0.003413672043066927 -0.04608339214609797
2.41725E9 0.0031583395680128442 -0.04314730958023712 0.9968416604319872 0.04314730958023712 0.9968416604319872 0.04314730958023712 0.0031583395680128442 -0.04314730958023712
2.492E9 0.002930472926724315 -0.04033914127856204 0.9970695270732756 0.04033914127856204 0.9970695270732756 0.04033914127856204 0.002930472926724315 -0.04033914127856204
2.56675E9 0.0027270641586266096 -0.03764786742459646 0.9972729358413733 0.03764786742459646 0.9972729358413733 0.03764786742459646 0.0027270641586266096 -0.03764786742459646
2.6415E9 0.0025455244076229497 -0.03506368934207525 0.997454475592377 0.03506368934207525 0.997454475592377 0.03506368934207525 0.0025455244076229497 -0.03506368934207525
2.71625E9 0.002383616036875725 -0.03257786554801009 0.9976163839631241 0.03257786554801009 0.9976163839631241 0.03257786554801009 0.002383616036875725 -0.03257786554801009
2.791E9 0.0022393972048391736 -0.030182573398766024 0.9977606027951608 0.030182573398766024 0.9977606027951608 0.030182573398766024 0.0022393972048391736 -0.030182573398766024
2.86575E9 0.002111176361820696 -0.027870791806654763 0.9978888236381792 0.027870791806654763 0.9978888236381792 0.027870791806654763 0.002111176361820696 -0.027870791806654763
2.9405E9 0.001997474693430373 -0.025636201391425993 0.9980025253065694 0.025636201391425993 0.9980025253065694 0.025636201391425993 0.001997474693430373 -0.025636201391425993
3.01525E9 0.0018969949673803377 -0.023473099127753264 0.9981030050326196 0.023473099127753264 0.9981030050326196 0.023473099127753264 0.0018969949673803377 -0.023473099127753264
3.09E9 0.001808595568703063 -0.021376325100428497 0.998191404431297 0.021376325100428497 0.998191404431297 0.021376325100428497 0.001808595568703063 -0.021376325100428497
3.16475E9 0.0017312687612700936 -0.019341199416630803 0.9982687312387301 0.019341199416630803 0.9982687312387301 0.019341199416630803 0.0017312687612700936 -0.019341199416630803
3.2395E9 0.001664122409279071 -0.017363467674402885 0.998335877590721 0.017363467674402885 0.998335877590721 0.017363467674402885 0.001664122409279071 -0.017363467674402885
3.31425E9 0.001606364544953758 -0.015439253667465392 0.9983936354550464 0.015439253667465392 0.9983936354550464 0.015439253667465392 0.001606364544953758 -0.015439253667465392
3.389E9 0.0015572902883168491 -0.01356501823337778 0.998442709711683 0.01356501823337778 0.998442709711683 0.01356501823337778 0.0015572902883168491 -0.01356501823337778
3.46375E9 0.001516270719204556 -0.011737523336115547 0.9984837292807954 0.011737523336115547 0.9984837292807954 0.011737523336115547 0.001516270719204556 -0.011737523336115547
3.5385E9 0.001482743376453719 -0.009953800624144886 0.9985172566235462 0.009953800624144886 0.9985172566235462 0.009953800624144886 0.001482743376453719 -0.009953800624144886
3.61325E9 0.001456204118766442 -0.008211123827874 0.9985437958812333 0.008211123827874 0.9985437958812333 0.008211123827874 0.001456204118766442 -0.008211123827874
3.688E9 0.001436200129465408 -0.006506984461306303 0.9985637998705347 0.006506984461306303 0.9985637998705347 0.006506984461306303 0.001436200129465408 -0.006506984461306303
3.76275E9 0.0014223238857406716 -0.004839070376040679 0.9985776761142592 0.004839070376040679 0.9985776761142592 0.004839070376040679 0.0014223238857406716 -0.004839070376040679
3.8375E9 0.0014142079440179218 -0.00320524678480212 0.998585792055982 0.00320524678480212 0.998585792055982 0.00320524678480212 0.0014142079440179218 -0.00320524678480212
3.91225E9 0.0014115204182694086 -0.001603539429104479 0.9985884795817306 0.001603539429104479 0.9985884795817306 0.001603539429104479 0.0014115204182694086 -0.001603539429104479
3.987E9 0.0014139610486266527 -3.2119613574467705E-5 0.9985860389513732 3.2119613574467705E-5 0.9985860389513732 3.2119613574467705E-5 0.0014139610486266527 -3.2119613574467705E-5
4.06175E9 0.0014212577744660577 0.001510709130392109 0.9985787422255339 -0.001510709130392109 0.9985787422255339 -0.001510709130392109 0.0014212577744660577 0.001510709130392109
4.1365E9 0.0014331637399544873 0.0030265229552365893 0.9985668362600455 -0.0030265229552365893 0.9985668362600455 -0.0030265229552365893 0.0014331637399544873 0.0030265229552365893
4.21125E9 0.001449454671438479 0.004516788357261515 0.9985505453285615 -0.004516788357261515 0.9985505453285615 -0.004516788357261515 0.001449454671438479 0.004516788357261515
4.286E9 0.0014699265754960257 0.005982871737177184 0.9985300734245041 -0.005982871737177184 0.9985300734245041 -0.005982871737177184 0.0014699265754960257 0.005982871737177184
4.36075E9 0.0014943937143089806 0.007426047991877299 0.9985056062856911 -0.007426047991877299 0.9985056062856911 -0.007426047991877299 0.0014943937143089806 0.007426047991877299
4.4355E9 0.0015226868215495106 0.00884750825079914 0.9984773131784503 -0.00884750825079914 0.9984773131784503 -0.00884750825079914 0.0015226868215495106 0.00884750825079914
4.51025E9 0.0015546515274408096 0.010248366855425045 0.9984453484725591 -0.010248366855425045 0.9984453484725591 -0.010248366855425045 0.0015546515274408096 0.010248366855425045
4.585E9 0.0015901469662401634 0.011629667667825585 0.99840985303376 -0.011629667667825585 0.99840985303376 -0.011629667667825585 0.0015901469662401634 0.011629667667825585
4.65975E9 0.0016290445432552685 0.012992389783295045 0.9983709554567449 -0.012992389783295045 0.9983709554567449 -0.012992389783295045 0.0016290445432552685 0.012992389783295045
4.7345E9 0.0016712268417674561 0.014337452712803888 0.9983287731582328 -0.014337452712803888 0.9983287731582328 -0.014337452712803888 0.0016712268417674561 0.014337452712803888
4.80925E9 0.0017165866530001771 0.015665721092960248 0.9982834133469995 -0.015665721092960248 0.9982834133469995 -0.015665721092960248 0.0017165866530001771 0.015665721092960248
4.884E9 0.0017650261146214827 0.016978008974237145 0.9982349738853787 -0.016978008974237145 0.9982349738853787 -0.016978008974237145 0.0017650261146214827 0.016978008974237145
4.95875E9 0.0018164559452739132 0.018275083732222325 0.998183544054726 -0.018275083732222325 0.998183544054726 -0.018275083732222325 0.0018164559452739132 0.018275083732222325
5.0335E9 0.0018707947643410512 0.01955766964144696 0.998129205235659 -0.01955766964144696 0.998129205235659 -0.01955766964144696 0.0018707947643410512 0.01955766964144696
5.10825E9 0.0019279684876338061 0.020826451146832667 0.9980720315123663 -0.020826451146832667 0.9980720315123663 -0.020826451146832667 0.0019279684876338061 0.020826451146832667
5.183E9 0.001987909790950633 0.022082075863868365 0.9980120902090492 -0.022082075863868365 0.9980120902090492 -0.022082075863868365 0.001987909790950633 0.022082075863868365
5.25775E9 0.002050557634566703 0.02332515733520569 0.9979494423654334 -0.02332515733520569 0.9979494423654334 -0.02332515733520569 0.002050557634566703 0.02332515733520569
5.3325E9 0.002115856842665156 0.024556277568377343 0.9978841431573349 -0.024556277568377343 0.9978841431573349 -0.024556277568377343 0.002115856842665156 0.024556277568377343
5.40725E9 0.0021837577325619717 0.025775989376736166 0.9978162422674379 -0.025775989376736166 0.9978162422674379 -0.025775989376736166 0.0021837577325619717 0.025775989376736166
5.482E9 0.0022542157893144115 0.02698481854343658 0.9977457842106855 -0.02698481854343658 0.9977457842106855 -0.02698481854343658 0.0022542157893144115 0.02698481854343658
5.55675E9 0.0023271913819580994 0.02818326582628978 0.9976728086180422 -0.02818326582628978 0.9976728086180422 -0.02818326582628978 0.0023271913819580994 0.02818326582628978
5.6315E9 0.002402649518204227 0.029371808819585694 0.9975973504817959 -0.029371808819585694 0.9975973504817959 -0.029371808819585694 0.002402649518204227 0.029371808819585694
5.70625E9 0.0024805596349587924 0.030550903687457973 0.9975194403650414 -0.030550903687457973 0.9975194403650414 -0.030550903687457973 0.0024805596349587924 0.030550903687457973
5.781E9 0.0025608954225111555 0.03172098678204419 0.9974391045774889 -0.03172098678204419 0.9974391045774889 -0.03172098678204419 0.0025608954225111555 0.03172098678204419
5.85575E9 0.002643634680690105 0.032882476158545476 0.9973563653193099 -0.032882476158545476 0.9973563653193099 -0.032882476158545476 0.002643634680690105 0.032882476158545476
5.9305E9 0.0027287592057108675 0.03403577299829431 0.9972712407942889 -0.03403577299829431 0.9972712407942889 -0.03403577299829431 0.0027287592057108675 0.03403577299829431
6.00525E9 0.002816254706845179 0.03518126295008428 0.9971837452931547 -0.03518126295008428 0.9971837452931547 -0.03518126295008428 0.002816254706845179 0.03518126295008428
6.08E9 0.0029061107524469575 0.03631931739928666 0.9970938892475532 -0.03631931739928666 0.9970938892475532 -0.03631931739928666 0.0029061107524469575 0.03631931739928666
6.15475E9 0.002998320745266787 0.03745029467366605 0.9970016792547332 -0.03745029467366605 0.9970016792547332 -0.03745029467366605 0.002998320745266787 0.03745029467366605
6.2295E9 0.0030928819273980074 0.03857454119430312 0.9969071180726018 -0.03857454119430312 0.9969071180726018 -0.03857454119430312 0.0030928819273980074 0.03857454119430312
6.30425E9 0.0031897954156248063 0.03969239257962848 0.9968102045843751 -0.03969239257962848 0.9968102045843751 -0.03969239257962848 0.0031897954156248063 0.03969239257962848
6.379E9 0.003289066268398519 0.040804174710267246 0.9967109337316015 -0.040804174710267246 0.9967109337316015 -0.040804174710267246 0.003289066268398519 0.040804174710267246
6.45375E9 0.003390703586163105 0.041910204762181075 0.9966092964138371 -0.041910204762181075 0.9966092964138371 -0.041910204762181075 0.003390703586163105 0.041910204762181075
6.5285E9 0.0034947206472977573 0.043010792215479175 0.9965052793527023 -0.043010792215479175 0.9965052793527023 -0.043010792215479175 0.0034947206472977573 0.043010792215479175
6.60325E9 0.003601135082557731 0.044106239846244864 0.9963988649174422 -0.044106239846244864 0.9963988649174422 -0.044106239846244864 0.003601135082557731 0.044106239846244864
6.678E9 0.003709969091592012 0.04519684470880093 0.996290030908408 -0.04519684470880093 0.996290030908408 -0.04519684470880093 0.003709969091592012 0.04519684470880093
6.75275E9 0.0038212497059182493 0.046282899116014145 0.9961787502940816 -0.046282899116014145 0.9961787502940816 -0.046282899116014145 0.0038212497059182493 0.046282899116014145
6.8275E9 0.003935009103666852 0.047364691625525195 0.9960649908963332 -0.047364691625525195 0.9960649908963332 -0.047364691625525195 0.003935009103666852 0.047364691625525195
6.90225E9 0.0040512849824974875 0.048442508040196695 0.9959487150175025 -0.048442508040196695 0.9959487150175025 -0.048442508040196695 0.0040512849824974875 0.048442508040196695
6.977E9 0.004170120998379282 0.04951663243160671 0.9958298790016207 -0.04951663243160671 0.9958298790016207 -0.04951663243160671 0.004170120998379282 0.04951663243160671
7.05175E9 0.004291567279456904 0.05058734819609677 0.9957084327205432 -0.05058734819609677 0.9957084327205432 -0.05058734819609677 0.004291567279456904 0.05058734819609677
7.1265E9 0.004415681026054626 0.051654939153727895 0.9955843189739454 -0.051654939153727895 0.9955843189739454 -0.051654939153727895 0.004415681026054626 0.051654939153727895
7.20125E9 0.004542527210070267 0.052719690701526704 0.9954574727899297 -0.052719690701526704 0.9954574727899297 -0.052719690701526704 0.004542527210070267 0.052719690701526704
7.276E9 0.004672179389668789 0.05378189103364535 0.9953278206103312 -0.05378189103364535 0.9953278206103312 -0.05378189103364535 0.004672179389668789 0.05378189103364535
7.35075E9 0.004804720658412734 0.05484183244254102 0.9951952793415874 -0.05484183244254102 0.9951952793415874 -0.05484183244254102 0.004804720658412734 0.05484183244254102
7.4255E9 0.004940244751903907 0.055899812717040705 0.9950597552480962 -0.055899812717040705 0.9950597552480962 -0.055899812717040705 0.004940244751903907 0.055899812717040705
7.50025E9 0.005078857339837105 0.05695613665523776 0.9949211426601628 -0.05695613665523776 0.9949211426601628 -0.05695613665523776 0.005078857339837105 0.05695613665523776
7.575E9 0.005220677537309763 0.05801111771261073 0.9947793224626901 -0.05801111771261073 0.9947793224626901 -0.05801111771261073 0.005220677537309763 0.05801111771261073
7.64975E9 0.005365839676585021 0.05906507980862146 0.9946341603234151 -0.05906507980862146 0.9946341603234151 -0.05906507980862146 0.005365839676585021 0.05906507980862146
7.7245E9 0.005514495389647239 0.060118359318391025 0.9944855046103528 -0.060118359318391025 0.9944855046103528 -0.060118359318391025 0.005514495389647239 0.060118359318391025
7.79925E9 0.005666816063308541 0.061171307279928526 0.9943331839366915 -0.061171307279928526 0.9943331839366915 -0.061171307279928526 0.005666816063308541 0.061171307279928526
7.874E9 0.005822995742962018 0.06222429185186168 0.9941770042570378 -0.06222429185186168 0.9941770042570378 -0.06222429185186168 0.005822995742962018 0.06222429185186168
7.94875E9 0.0059832545791681045 0.0632777010617314 0.9940167454208317 -0.0632777010617314 0.9940167454208317 -0.0632777010617314 0.0059832545791681045 0.0632777010617314
8.0235E9 0.0061478429342100805 0.06433194589069652 0.9938521570657899 -0.06433194589069652 0.9938521570657899 -0.06433194589069652 0.0061478429342100805 0.06433194589069652
8.09825E9 0.006317046295025016 0.06538746374692667 0.993682953704975 -0.06538746374692667 0.993682953704975 -0.06538746374692667 0.006317046295025016 0.06538746374692667
8.173E9 0.0064911911764594776 0.06644472238694381 0.9935088088235405 -0.06644472238694381 0.9935088088235405 -0.06644472238694381 0.0064911911764594776 0.06644472238694381
8.24775E9 0.006670652247232067 0.06750422435145934 0.9933293477527679 -0.06750422435145934 0.9933293477527679 -0.06750422435145934 0.006670652247232067 0.06750422435145934
8.3225E9 0.006855860973841774 0.0685665119893727 0.9931441390261584 -0.0685665119893727 0.9931441390261584 -0.0685665119893727 0.006855860973841774 0.0685665119893727
8.39725E9 0.007047316159740889 0.06963217314966329 0.992952683840259 -0.06963217314966329 0.992952683840259 -0.06963217314966329 0.007047316159740889 0.06963217314966329
8.472E9 0.007245596864955394 0.07070184762440089 0.9927544031350447 -0.07070184762440089 0.9927544031350447 -0.07070184762440089 0.007245596864955394 0.07070184762440089
