!Murata Part Number: GJM0225C1E4R8BB01
!These Parameters are Measured in Series Mode Connection
!       o--ll--o
!Port1            Port2
!       o------o
!Operation Temp=25[degC], DC Bias Voltage=0[V]
!Freq. Start=100[MHz] Stop=30[GHz], 401[Steps]
!Data Generated on Feb 1, 2023
# Hz S RI R 50
!Freq.(Hz) S11(Real) S11(Imag) S21(Real) S21(Imag) S12(Real) S12(Imag) S22(Real) S22(Imag)
1.0E8 0.9164775284773128 -0.27644863688805044 0.08352247152268728 0.27644863688805044 0.08352247152268728 0.27644863688805044 0.9164775284773128 -0.27644863688805044
1.7475E8 0.7821257496819473 -0.4124138082725308 0.2178742503180527 0.4124138082725308 0.2178742503180527 0.4124138082725308 0.7821257496819473 -0.4124138082725308
2.495E8 0.6374751489168308 -0.4801750840379905 0.3625248510831694 0.4801750840379905 0.3625248510831694 0.4801750840379905 0.6374751489168308 -0.4801750840379905
3.2425E8 0.5095793564903329 -0.4991869417351932 0.49042064350966696 0.4991869417351932 0.49042064350966696 0.4991869417351932 0.5095793564903329 -0.4991869417351932
3.99E8 0.40634936105794045 -0.49026193261830825 0.5936506389420595 0.49026193261830825 0.5936506389420595 0.49026193261830825 0.40634936105794045 -0.49026193261830825
4.7375E8 0.32617432484671316 -0.46775347746959944 0.6738256751532868 0.46775347746959944 0.6738256751532868 0.46775347746959944 0.32617432484671316 -0.46775347746959944
5.485E8 0.26461891028539886 -0.43990116710203647 0.7353810897146011 0.43990116710203647 0.7353810897146011 0.43990116710203647 0.26461891028539886 -0.43990116710203647
6.2325E8 0.21726415437819666 -0.4109829785508454 0.7827358456218031 0.4109829785508454 0.7827358456218031 0.4109829785508454 0.21726415437819666 -0.4109829785508454
6.98E8 0.18052341945132425 -0.3830482441695432 0.8194765805486759 0.3830482441695432 0.8194765805486759 0.3830482441695432 0.18052341945132425 -0.3830482441695432
7.7275E8 0.15169370312296981 -0.35697350649274584 0.8483062968770303 0.35697350649274584 0.8483062968770303 0.35697350649274584 0.15169370312296981 -0.35697350649274584
8.475E8 0.12879356843820502 -0.33304324520776735 0.8712064315617949 0.33304324520776735 0.8712064315617949 0.33304324520776735 0.12879356843820502 -0.33304324520776735
9.2225E8 0.1103808001628413 -0.31125549267584635 0.8896191998371588 0.31125549267584635 0.8896191998371588 0.31125549267584635 0.1103808001628413 -0.31125549267584635
9.97E8 0.09540266365827306 -0.29147910600533855 0.9045973363417269 0.29147910600533855 0.9045973363417269 0.29147910600533855 0.09540266365827306 -0.29147910600533855
1.07175E9 0.08308472394171662 -0.2735332734484037 0.9169152760582834 0.2735332734484037 0.9169152760582834 0.2735332734484037 0.08308472394171662 -0.2735332734484037
1.1465E9 0.07285147601613895 -0.25722670189875635 0.9271485239838609 0.25722670189875635 0.9271485239838609 0.25722670189875635 0.07285147601613895 -0.25722670189875635
1.22125E9 0.06427047072973929 -0.2423760221686998 0.9357295292702608 0.2423760221686998 0.9357295292702608 0.2423760221686998 0.06427047072973929 -0.2423760221686998
1.296E9 0.05701305283544861 -0.22881356697331123 0.9429869471645513 0.22881356697331123 0.9429869471645513 0.22881356697331123 0.05701305283544861 -0.22881356697331123
1.37075E9 0.0508266502353091 -0.21638980477936234 0.949173349764691 0.21638980477936234 0.949173349764691 0.21638980477936234 0.0508266502353091 -0.21638980477936234
1.4455E9 0.0455150650365225 -0.20497317966928164 0.9544849349634777 0.20497317966928164 0.9544849349634777 0.20497317966928164 0.0455150650365225 -0.20497317966928164
1.52025E9 0.04092432399220504 -0.1944487837113336 0.9590756760077951 0.1944487837113336 0.9590756760077951 0.1944487837113336 0.04092432399220504 -0.1944487837113336
1.595E9 0.03693241679918591 -0.18471659295582082 0.9630675832008143 0.18471659295582082 0.9630675832008143 0.18471659295582082 0.03693241679918591 -0.18471659295582082
1.66975E9 0.03344177646447653 -0.1756896317458655 0.9665582235355235 0.1756896317458655 0.9665582235355235 0.1756896317458655 0.03344177646447653 -0.1756896317458655
1.7445E9 0.03037371200493776 -0.1672922372215574 0.9696262879950625 0.1672922372215574 0.9696262879950625 0.1672922372215574 0.03037371200493776 -0.1672922372215574
1.81925E9 0.02766424497764166 -0.15945849535163178 0.9723357550223581 0.15945849535163178 0.9723357550223581 0.15945849535163178 0.02766424497764166 -0.15945849535163178
1.894E9 0.025260965518988165 -0.15213086850951782 0.9747390344810117 0.15213086850951782 0.9747390344810117 0.15213086850951782 0.025260965518988165 -0.15213086850951782
1.96875E9 0.0231206360781392 -0.14525900954767448 0.9768793639218608 0.14525900954767448 0.9768793639218608 0.14525900954767448 0.0231206360781392 -0.14525900954767448
2.0435E9 0.02120734875895216 -0.13879874616571514 0.9787926512410481 0.13879874616571514 0.9787926512410481 0.13879874616571514 0.02120734875895216 -0.13879874616571514
2.11825E9 0.01949109636174588 -0.13271121544655673 0.980508903638254 0.13271121544655673 0.980508903638254 0.13271121544655673 0.01949109636174588 -0.13271121544655673
2.193E9 0.017946655324272715 -0.12696212815051422 0.9820533446757275 0.12696212815051422 0.9820533446757275 0.12696212815051422 0.017946655324272715 -0.12696212815051422
2.26775E9 0.016552705813759505 -0.12152114377669804 0.9834472941862404 0.12152114377669804 0.9834472941862404 0.12152114377669804 0.016552705813759505 -0.12152114377669804
2.3425E9 0.015291133601564954 -0.11636133950090155 0.984708866398435 0.11636133950090155 0.984708866398435 0.11636133950090155 0.015291133601564954 -0.11636133950090155
2.41725E9 0.014146472359230574 -0.11145875835286129 0.9858535276407694 0.11145875835286129 0.9858535276407694 0.11145875835286129 0.014146472359230574 -0.11145875835286129
2.492E9 0.013105455226822287 -0.10679202414694378 0.9868945447731778 0.10679202414694378 0.9868945447731778 0.10679202414694378 0.013105455226822287 -0.10679202414694378
2.56675E9 0.012156652012288638 -0.10234201261762678 0.9878433479877111 0.10234201261762678 0.9878433479877111 0.10234201261762678 0.012156652012288638 -0.10234201261762678
2.6415E9 0.011290173944949609 -0.09809156989945718 0.9887098260550505 0.09809156989945718 0.9887098260550505 0.09809156989945718 0.011290173944949609 -0.09809156989945718
2.71625E9 0.010497432062376098 -0.09402527093353906 0.9895025679376239 0.09402527093353906 0.9895025679376239 0.09402527093353906 0.010497432062376098 -0.09402527093353906
2.791E9 0.009770938437451537 -0.09012921159973639 0.9902290615625484 0.09012921159973639 0.9902290615625484 0.09012921159973639 0.009770938437451537 -0.09012921159973639
2.86575E9 0.009104141822786831 -0.08639082939293541 0.9908958581772134 0.08639082939293541 0.9908958581772134 0.08639082939293541 0.009104141822786831 -0.08639082939293541
2.9405E9 0.008491291098552355 -0.0827987483111385 0.9915087089014476 0.0827987483111385 0.9915087089014476 0.0827987483111385 0.008491291098552355 -0.0827987483111385
3.01525E9 0.007927321299301624 -0.07934264432926705 0.9920726787006986 0.07934264432926705 0.9920726787006986 0.07934264432926705 0.007927321299301624 -0.07934264432926705
3.09E9 0.007407758069468669 -0.07601312841883082 0.9925922419305314 0.07601312841883082 0.9925922419305314 0.07601312841883082 0.007407758069468669 -0.07601312841883082
3.16475E9 0.006928637232548979 -0.07280164456034185 0.993071362767451 0.07280164456034185 0.993071362767451 0.07280164456034185 0.006928637232548979 -0.07280164456034185
3.2395E9 0.006486436812375714 -0.06970038059964123 0.9935135631876245 0.06970038059964123 0.9935135631876245 0.06970038059964123 0.006486436812375714 -0.06970038059964123
3.31425E9 0.006078019358848815 -0.06670219013551791 0.9939219806411511 0.06670219013551791 0.9939219806411511 0.06670219013551791 0.006078019358848815 -0.06670219013551791
3.389E9 0.005700582836887753 -0.06380052390600435 0.9942994171631123 0.06380052390600435 0.9942994171631123 0.06380052390600435 0.005700582836887753 -0.06380052390600435
3.46375E9 0.005351618660406932 -0.06098936937435395 0.9946483813395929 0.06098936937435395 0.9946483813395929 0.06098936937435395 0.005351618660406932 -0.06098936937435395
3.5385E9 0.005028875711128828 -0.05826319741101294 0.9949711242888709 0.05826319741101294 0.9949711242888709 0.05826319741101294 0.005028875711128828 -0.05826319741101294
3.61325E9 0.004730329389113087 -0.055616915131527625 0.995269670610887 0.055616915131527625 0.995269670610887 0.055616915131527625 0.004730329389113087 -0.055616915131527625
3.688E9 0.004454154908807964 -0.053045824087721405 0.9955458450911919 0.053045824087721405 0.9955458450911919 0.053045824087721405 0.004454154908807964 -0.053045824087721405
3.76275E9 0.004198704189591914 -0.05054558312511353 0.9958012958104081 0.05054558312511353 0.9958012958104081 0.05054558312511353 0.004198704189591914 -0.05054558312511353
3.8375E9 0.003962485799672942 -0.04811217531709694 0.9960375142003269 0.04811217531709694 0.9960375142003269 0.04811217531709694 0.003962485799672942 -0.04811217531709694
3.91225E9 0.00374414750193627 -0.04574187846888577 0.9962558524980637 0.04574187846888577 0.9962558524980637 0.04574187846888577 0.00374414750193627 -0.04574187846888577
3.987E9 0.0035424610238658154 -0.04343123875415767 0.9964575389761342 0.04343123875415767 0.9964575389761342 0.04343123875415767 0.0035424610238658154 -0.04343123875415767
4.06175E9 0.0033563087341604864 -0.041177047106722695 0.9966436912658395 0.041177047106722695 0.9966436912658395 0.041177047106722695 0.0033563087341604864 -0.041177047106722695
4.1365E9 0.0031846719586145385 -0.03897631804013975 0.9968153280413854 0.03897631804013975 0.9968153280413854 0.03897631804013975 0.0031846719586145385 -0.03897631804013975
4.21125E9 0.0030266207092155863 -0.0368262706113853 0.9969733792907844 0.0368262706113853 0.9969733792907844 0.0368262706113853 0.0030266207092155863 -0.0368262706113853
4.286E9 0.0028813046348187175 -0.03472431128162528 0.9971186953651814 0.03472431128162528 0.9971186953651814 0.03472431128162528 0.0028813046348187175 -0.03472431128162528
4.36075E9 0.002747945030450715 -0.03266801845882257 0.9972520549695493 0.03266801845882257 0.9972520549695493 0.03266801845882257 0.002747945030450715 -0.03266801845882257
4.4355E9 0.0026258277663078625 -0.03065512853413908 0.9973741722336921 0.03065512853413908 0.9973741722336921 0.03065512853413908 0.0026258277663078625 -0.03065512853413908
4.51025E9 0.0025142970176604456 -0.02868352324754107 0.9974857029823396 0.02868352324754107 0.9974857029823396 0.02868352324754107 0.0025142970176604456 -0.02868352324754107
4.585E9 0.0024127496938376024 -0.026751218238257053 0.9975872503061625 0.026751218238257053 0.9975872503061625 0.026751218238257053 0.0024127496938376024 -0.026751218238257053
4.65975E9 0.0023206304787827914 -0.024856352653242788 0.9976793695212173 0.024856352653242788 0.9976793695212173 0.024856352653242788 0.0023206304787827914 -0.024856352653242788
4.7345E9 0.002237427407788726 -0.02299717970198129 0.9977625725922116 0.02299717970198129 0.9977625725922116 0.02299717970198129 0.002237427407788726 -0.02299717970198129
4.80925E9 0.0021626679153059014 -0.02117205805912205 0.997837332084694 0.02117205805912205 0.997837332084694 0.02117205805912205 0.0021626679153059014 -0.02117205805912205
4.884E9 0.0020959152974709527 -0.019379444027929415 0.9979040847025289 0.019379444027929415 0.9979040847025289 0.019379444027929415 0.0020959152974709527 -0.019379444027929415
4.95875E9 0.0020367655404672784 -0.0176178843875062 0.9979632344595328 0.0176178843875062 0.9979632344595328 0.0176178843875062 0.0020367655404672784 -0.0176178843875062
5.0335E9 0.001984844472215148 -0.015886009855490227 0.9980151555277849 0.015886009855490227 0.9980151555277849 0.015886009855490227 0.001984844472215148 -0.015886009855490227
5.10825E9 0.0019398052003614915 -0.01418252910556117 0.9980601947996385 0.01418252910556117 0.9980601947996385 0.01418252910556117 0.0019398052003614915 -0.01418252910556117
5.183E9 0.0019013258042417285 -0.012506223285794123 0.9980986741957582 0.012506223285794123 0.9980986741957582 0.012506223285794123 0.0019013258042417285 -0.012506223285794123
5.25775E9 0.0018691072525349902 -0.010855940989777334 0.9981308927474649 0.010855940989777334 0.9981308927474649 0.010855940989777334 0.0018691072525349902 -0.010855940989777334
5.3325E9 0.0018428715218281795 -0.009230593637586602 0.9981571284781716 0.009230593637586602 0.9981571284781716 0.009230593637586602 0.0018428715218281795 -0.009230593637586602
5.40725E9 0.001822359894325965 -0.0076291512282677856 0.998177640105674 0.0076291512282677856 0.998177640105674 0.0076291512282677856 0.001822359894325965 -0.0076291512282677856
5.482E9 0.0018073314155622987 -0.006050638429503542 0.9981926685844376 0.006050638429503542 0.9981926685844376 0.006050638429503542 0.0018073314155622987 -0.006050638429503542
5.55675E9 0.0017975614952426382 -0.004494130973697 0.9982024385047574 0.004494130973697 0.9982024385047574 0.004494130973697 0.0017975614952426382 -0.004494130973697
5.6315E9 0.0017928406363241266 -0.002958752332855544 0.9982071593636759 0.002958752332855544 0.9982071593636759 0.002958752332855544 0.0017928406363241266 -0.002958752332855544
5.70625E9 0.0017929732791651795 -0.0014436706474503405 0.9982070267208347 0.0014436706474503405 0.9982070267208347 0.0014436706474503405 0.0017929732791651795 -0.0014436706474503405
5.781E9 0.0017977767490815763 5.190411309237159E-5 0.9982022232509183 -5.190411309237159E-5 0.9982022232509183 -5.190411309237159E-5 0.0017977767490815763 5.190411309237159E-5
5.85575E9 0.0018070802969634724 0.0015287227784061058 0.9981929197030366 -0.0015287227784061058 0.9981929197030366 -0.0015287227784061058 0.0018070802969634724 0.0015287227784061058
5.9305E9 0.0018207242237621441 0.002987499411878824 0.9981792757762378 -0.002987499411878824 0.9981792757762378 -0.002987499411878824 0.0018207242237621441 0.002987499411878824
6.00525E9 0.0018385590806688393 0.004428913568448483 0.998161440919331 -0.004428913568448483 0.998161440919331 -0.004428913568448483 0.0018385590806688393 0.004428913568448483
6.08E9 0.0018604449376993931 0.0058536123903567185 0.9981395550623007 -0.0058536123903567185 0.9981395550623007 -0.0058536123903567185 0.0018604449376993931 0.0058536123903567185
6.15475E9 0.0018862507141833855 0.007262212554317007 0.9981137492858165 -0.007262212554317007 0.9981137492858165 -0.007262212554317007 0.0018862507141833855 0.007262212554317007
6.2295E9 0.0019158535653493443 0.008655302082303024 0.9980841464346506 -0.008655302082303024 0.9980841464346506 -0.008655302082303024 0.0019158535653493443 0.008655302082303024
6.30425E9 0.0019491383198096232 0.010033442027037409 0.9980508616801905 -0.010033442027037409 0.9980508616801905 -0.010033442027037409 0.0019491383198096232 0.010033442027037409
6.379E9 0.0019859969632904447 0.011397168042254545 0.9980140030367096 -0.011397168042254545 0.9980140030367096 -0.011397168042254545 0.0019859969632904447 0.011397168042254545
6.45375E9 0.0020263281644328913 0.012746991846903928 0.997973671835567 -0.012746991846903928 0.997973671835567 -0.012746991846903928 0.0020263281644328913 0.012746991846903928
6.5285E9 0.0020700368389170807 0.014083402591646232 0.9979299631610828 -0.014083402591646232 0.9979299631610828 -0.014083402591646232 0.0020700368389170807 0.014083402591646232
6.60325E9 0.002117033748540933 0.015406868135258727 0.9978829662514591 -0.015406868135258727 0.9978829662514591 -0.015406868135258727 0.002117033748540933 0.015406868135258727
6.678E9 0.002167235132222662 0.016717836237905816 0.9978327648677772 -0.016717836237905816 0.9978327648677772 -0.016717836237905816 0.002167235132222662 0.016717836237905816
6.75275E9 0.002220562366197252 0.018016735677631953 0.9977794376338025 -0.018016735677631953 0.9977794376338025 -0.018016735677631953 0.002220562366197252 0.018016735677631953
6.8275E9 0.0022769416509462316 0.01930397729589374 0.9977230583490535 -0.01930397729589374 0.9977230583490535 -0.01930397729589374 0.0022769416509462316 0.01930397729589374
6.90225E9 0.0023363037226407568 0.020579954977460665 0.9976636962773593 -0.020579954977460665 0.9976636962773593 -0.020579954977460665 0.0023363037226407568 0.020579954977460665
6.977E9 0.0023985835870935935 0.02184504656957011 0.9976014164129064 -0.02184504656957011 0.9976014164129064 -0.02184504656957011 0.0023985835870935935 0.02184504656957011
7.05175E9 0.0024637202744092245 0.023099614744822663 0.9975362797255908 -0.023099614744822663 0.9975362797255908 -0.023099614744822663 0.0024637202744092245 0.023099614744822663
7.1265E9 0.002531656612695181 0.024344007811939333 0.9974683433873047 -0.024344007811939333 0.9974683433873047 -0.024344007811939333 0.002531656612695181 0.024344007811939333
7.20125E9 0.0026023390193544407 0.02557856047817282 0.9973976609806455 -0.02557856047817282 0.9973976609806455 -0.02557856047817282 0.0026023390193544407 0.02557856047817282
7.276E9 0.002675717308619992 0.026803594566864618 0.99732428269138 -0.026803594566864618 0.99732428269138 -0.026803594566864618 0.002675717308619992 0.026803594566864618
7.35075E9 0.0027517445141204597 0.02801941969336817 0.9972482554858795 -0.02801941969336817 0.9972482554858795 -0.02801941969336817 0.0027517445141204597 0.02801941969336817
7.4255E9 0.0028303767253813027 0.029226333902309214 0.9971696232746187 -0.029226333902309214 0.9971696232746187 -0.029226333902309214 0.0028303767253813027 0.029226333902309214
7.50025E9 0.0029115729372711434 0.030424624268929574 0.9970884270627289 -0.030424624268929574 0.9970884270627289 -0.030424624268929574 0.0029115729372711434 0.030424624268929574
7.575E9 0.002995294911498328 0.03161456746705555 0.9970047050885016 -0.03161456746705555 0.9970047050885016 -0.03161456746705555 0.002995294911498328 0.03161456746705555
7.64975E9 0.0030815070493499467 0.03279643030604376 0.9969184929506502 -0.03279643030604376 0.9969184929506502 -0.03279643030604376 0.0030815070493499467 0.03279643030604376
7.7245E9 0.00317017627494531 0.03397047023888801 0.9968298237250546 -0.03397047023888801 0.9968298237250546 -0.03397047023888801 0.00317017627494531 0.03397047023888801
7.79925E9 0.0032612719283491255 0.035136935843515044 0.9967387280716511 -0.035136935843515044 0.9967387280716511 -0.035136935843515044 0.0032612719283491255 0.035136935843515044
7.874E9 0.003354765667957015 0.03629606727915504 0.9966452343320431 -0.03629606727915504 0.9966452343320431 -0.03629606727915504 0.003354765667957015 0.03629606727915504
7.94875E9 0.003450631381628492 0.03744809671954463 0.9965493686183715 -0.03744809671954463 0.9965493686183715 -0.03744809671954463 0.003450631381628492 0.03744809671954463
8.0235E9 0.0035488451061005235 0.038593248764602385 0.9964511548938993 -0.038593248764602385 0.9964511548938993 -0.038593248764602385 0.0035488451061005235 0.038593248764602385
8.09825E9 0.003649384954268993 0.039731740832109744 0.9963506150457311 -0.039731740832109744 0.9963506150457311 -0.039731740832109744 0.003649384954268993 0.039731740832109744
8.173E9 0.0037522310499764453 0.04086378353083425 0.9962477689500235 -0.04086378353083425 0.9962477689500235 -0.04086378353083425 0.0037522310499764453 0.04086378353083425
8.24775E9 0.003857365469992647 0.04198958101644307 0.9961426345300074 -0.04198958101644307 0.9961426345300074 -0.04198958101644307 0.003857365469992647 0.04198958101644307
8.3225E9 0.003964772192920547 0.04310933133147549 0.9960352278070793 -0.04310933133147549 0.9960352278070793 -0.04310933133147549 0.003964772192920547 0.04310933133147549
8.39725E9 0.004074437054804418 0.04422322673057159 0.9959255629451955 -0.04422322673057159 0.9959255629451955 -0.04422322673057159 0.004074437054804418 0.04422322673057159
8.472E9 0.004186347711259781 0.04533145399208871 0.9958136522887404 -0.04533145399208871 0.9958136522887404 -0.04533145399208871 0.004186347711259781 0.04533145399208871
8.54675E9 0.004300493605986759 0.046434194717180896 0.9956995063940132 -0.046434194717180896 0.9956995063940132 -0.046434194717180896 0.004300493605986759 0.046434194717180896
