!Murata Part Number: GJM0225C1E110GB01
!These Parameters are Measured in Series Mode Connection
!       o--ll--o
!Port1            Port2
!       o------o
!Operation Temp=25[degC], DC Bias Voltage=0[V]
!Freq. Start=100[MHz] Stop=30[GHz], 401[Steps]
!Data Generated on Feb 1, 2023
# Hz S RI R 50
!Freq.(Hz) S11(Real) S11(Imag) S21(Real) S21(Imag) S12(Real) S12(Imag) S22(Real) S22(Imag)
1.0E8 0.6762903774992461 -0.467601152747928 0.32370962250075386 0.467601152747928 0.32370962250075386 0.467601152747928 0.6762903774992461 -0.467601152747928
1.7475E8 0.40564050835650406 -0.49050159956751027 0.5943594916434958 0.49050159956751027 0.5943594916434958 0.49050159956751027 0.40564050835650406 -0.49050159956751027
2.495E8 0.25013273385860313 -0.43233833147932044 0.749867266141397 0.43233833147932044 0.749867266141397 0.43233833147932044 0.25013273385860313 -0.43233833147932044
3.2425E8 0.1642560664895823 -0.36950276148670935 0.8357439335104176 0.36950276148670935 0.8357439335104176 0.36950276148670935 0.1642560664895823 -0.36950276148670935
3.99E8 0.11427637093771739 -0.31686696072542886 0.8857236290622826 0.31686696072542886 0.8857236290622826 0.31686696072542886 0.11427637093771739 -0.31686696072542886
4.7375E8 0.08330657530621051 -0.2747673875331458 0.9166934246937896 0.2747673875331458 0.9166934246937896 0.2747673875331458 0.08330657530621051 -0.2747673875331458
5.485E8 0.0630195099089134 -0.2410972096705407 0.9369804900910869 0.2410972096705407 0.9369804900910869 0.2410972096705407 0.0630195099089134 -0.2410972096705407
6.2325E8 0.04910065295232333 -0.2138278965787607 0.9508993470476765 0.2138278965787607 0.9508993470476765 0.2138278965787607 0.04910065295232333 -0.2138278965787607
6.98E8 0.03917990571724603 -0.19139629204852399 0.9608200942827542 0.19139629204852399 0.9608200942827542 0.19139629204852399 0.03917990571724603 -0.19139629204852399
7.7275E8 0.03188237243526393 -0.17265736821115613 0.968117627564736 0.17265736821115613 0.968117627564736 0.17265736821115613 0.03188237243526393 -0.17265736821115613
8.475E8 0.02637137295662516 -0.15677790060989472 0.973628627043375 0.15677790060989472 0.973628627043375 0.15677790060989472 0.02637137295662516 -0.15677790060989472
9.2225E8 0.022116263803605634 -0.14314656812502752 0.9778837361963943 0.14314656812502752 0.9778837361963943 0.14314656812502752 0.022116263803605634 -0.14314656812502752
9.97E8 0.0187682910933012 -0.13130881345472553 0.9812317089066985 0.13130881345472553 0.9812317089066985 0.13130881345472553 0.0187682910933012 -0.13130881345472553
1.07175E9 0.016091072718345218 -0.12092158672084538 0.9839089272816547 0.12092158672084538 0.9839089272816547 0.12092158672084538 0.016091072718345218 -0.12092158672084538
1.1465E9 0.013920041397573135 -0.11172213672852623 0.9860799586024267 0.11172213672852623 0.9860799586024267 0.11172213672852623 0.013920041397573135 -0.11172213672852623
1.22125E9 0.012137909507957456 -0.10350636336105945 0.9878620904920423 0.10350636336105945 0.9878620904920423 0.10350636336105945 0.012137909507957456 -0.10350636336105945
1.296E9 0.01065934200562261 -0.09611363108110557 0.9893406579943773 0.09611363108110557 0.9893406579943773 0.09611363108110557 0.01065934200562261 -0.09611363108110557
1.37075E9 0.009421104727482798 -0.08941597097749394 0.9905788952725171 0.08941597097749394 0.9905788952725171 0.08941597097749394 0.009421104727482798 -0.08941597097749394
1.4455E9 0.008375569137362716 -0.08331029489726902 0.9916244308626373 0.08331029489726902 0.9916244308626373 0.08331029489726902 0.008375569137362716 -0.08331029489726902
1.52025E9 0.007486331520628093 -0.07771270331969758 0.9925136684793722 0.07771270331969758 0.9925136684793722 0.07771270331969758 0.007486331520628093 -0.07771270331969758
1.595E9 0.006725197314601183 -0.07255426831385786 0.993274802685399 0.07255426831385786 0.993274802685399 0.07255426831385786 0.006725197314601183 -0.07255426831385786
1.66975E9 0.006070066548506571 -0.0677778697888101 0.9939299334514935 0.0677778697888101 0.9939299334514935 0.0677778697888101 0.006070066548506571 -0.0677778697888101
1.7445E9 0.00550342615403245 -0.06333579374424544 0.9944965738459675 0.06333579374424544 0.9944965738459675 0.06333579374424544 0.00550342615403245 -0.06333579374424544
1.81925E9 0.005011258510730962 -0.059187888719160885 0.9949887414892692 0.059187888719160885 0.9949887414892692 0.059187888719160885 0.005011258510730962 -0.059187888719160885
1.894E9 0.004582240265809806 -0.05530013601660246 0.9954177597341902 0.05530013601660246 0.9954177597341902 0.05530013601660246 0.004582240265809806 -0.05530013601660246
1.96875E9 0.004207146693166726 -0.051643530093833934 0.9957928533068333 0.051643530093833934 0.9957928533068333 0.051643530093833934 0.004207146693166726 -0.051643530093833934
2.0435E9 0.0038784036421957314 -0.04819319390667092 0.9961215963578043 0.04819319390667092 0.9961215963578043 0.04819319390667092 0.0038784036421957314 -0.04819319390667092
2.11825E9 0.003589746839821041 -0.04492767399889363 0.996410253160179 0.04492767399889363 0.996410253160179 0.04492767399889363 0.003589746839821041 -0.04492767399889363
2.193E9 0.003335960214314122 -0.04182837437990598 0.996664039785686 0.04182837437990598 0.996664039785686 0.04182837437990598 0.003335960214314122 -0.04182837437990598
2.26775E9 0.003112673032122039 -0.03887909850220514 0.996887326967878 0.03887909850220514 0.996887326967878 0.03887909850220514 0.003112673032122039 -0.03887909850220514
2.3425E9 0.0029162012586094023 -0.03606567612675195 0.9970837987413905 0.03606567612675195 0.9970837987413905 0.03606567612675195 0.0029162012586094023 -0.03606567612675195
2.41725E9 0.002743422492205892 -0.033375657362808626 0.9972565775077941 0.033375657362808626 0.9972565775077941 0.033375657362808626 0.002743422492205892 -0.033375657362808626
2.492E9 0.0025916766152914842 -0.030798060251086074 0.9974083233847084 0.030798060251086074 0.9974083233847084 0.030798060251086074 0.0025916766152914842 -0.030798060251086074
2.56675E9 0.0024586863093705924 -0.028323161317224392 0.9975413136906293 0.028323161317224392 0.9975413136906293 0.028323161317224392 0.0024586863093705924 -0.028323161317224392
2.6415E9 0.0023424930350550693 -0.025942320833192055 0.9976575069649447 0.025942320833192055 0.9976575069649447 0.025942320833192055 0.0023424930350550693 -0.025942320833192055
2.71625E9 0.0022414051411500458 -0.02364783628402317 0.99775859485885 0.02364783628402317 0.99775859485885 0.02364783628402317 0.0022414051411500458 -0.02364783628402317
2.791E9 0.0021539555532132165 -0.021432818887961884 0.9978460444467868 0.021432818887961884 0.9978460444467868 0.021432818887961884 0.0021539555532132165 -0.021432818887961884
2.86575E9 0.0020788670779163135 -0.019291089062224997 0.9979211329220837 0.019291089062224997 0.9979211329220837 0.019291089062224997 0.0020788670779163135 -0.019291089062224997
2.9405E9 0.0020150237999290274 -0.017217087539355354 0.997984976200071 0.017217087539355354 0.997984976200071 0.017217087539355354 0.0020150237999290274 -0.017217087539355354
3.01525E9 0.0019614473816138693 -0.015205799475940685 0.9980385526183863 0.015205799475940685 0.9980385526183863 0.015205799475940685 0.0019614473816138693 -0.015205799475940685
3.09E9 0.0019172773303409668 -0.013252689397518676 0.9980827226696591 0.013252689397518676 0.9980827226696591 0.013252689397518676 0.0019172773303409668 -0.013252689397518676
3.16475E9 0.0018817544937950873 -0.011353645221644284 0.9981182455062051 0.011353645221644284 0.9981182455062051 0.011353645221644284 0.0018817544937950873 -0.011353645221644284
3.2395E9 0.001854207194907441 -0.009504929918643172 0.9981457928050925 0.009504929918643172 0.9981457928050925 0.009504929918643172 0.001854207194907441 -0.009504929918643172
3.31425E9 0.001834039535776748 -0.007703139624198965 0.9981659604642232 0.007703139624198965 0.9981659604642232 0.007703139624198965 0.001834039535776748 -0.007703139624198965
3.389E9 0.0018207214921299622 -0.005945167223142 0.99817927850787 0.005945167223142 0.99817927850787 0.005945167223142 0.0018207214921299622 -0.005945167223142
3.46375E9 0.0018137804924694308 -0.004228170590021365 0.9981862195075306 0.004228170590021365 0.9981862195075306 0.004228170590021365 0.0018137804924694308 -0.004228170590021365
3.5385E9 0.001812794233535431 -0.0025495448072975235 0.9981872057664645 0.0025495448072975235 0.9981872057664645 0.0025495448072975235 0.001812794233535431 -0.0025495448072975235
3.61325E9 0.0018173845294654554 -9.068977925505796E-4 0.9981826154705344 9.068977925505796E-4 0.9981826154705344 9.068977925505796E-4 0.0018173845294654554 -9.068977925505796E-4
3.688E9 0.0018272120286300533 7.019711431418171E-4 0.99817278797137 -7.019711431418171E-4 0.99817278797137 -7.019711431418171E-4 0.0018272120286300533 7.019711431418171E-4
3.76275E9 0.0018419716615412595 0.002279090208687751 0.9981580283384589 -0.002279090208687751 0.9981580283384589 -0.002279090208687751 0.0018419716615412595 0.002279090208687751
3.8375E9 0.0018613887069819316 0.00382633185944286 0.998138611293018 -0.00382633185944286 0.998138611293018 -0.00382633185944286 0.0018613887069819316 0.00382633185944286
3.91225E9 0.0018852153827679959 0.005345427626332895 0.9981147846172319 -0.005345427626332895 0.9981147846172319 -0.005345427626332895 0.0018852153827679959 0.005345427626332895
3.987E9 0.0019132278832455164 0.006837981294436702 0.9980867721167545 -0.006837981294436702 0.9980867721167545 -0.006837981294436702 0.0019132278832455164 0.006837981294436702
4.06175E9 0.0019452237984561498 0.00830548064194908 0.998054776201544 -0.00830548064194908 0.998054776201544 -0.00830548064194908 0.0019452237984561498 0.00830548064194908
4.1365E9 0.001981019860440312 0.009749307920322003 0.9980189801395599 -0.009749307920322003 0.9980189801395599 -0.009749307920322003 0.001981019860440312 0.009749307920322003
4.21125E9 0.0020204499708315164 0.011170749231014522 0.9979795500291685 -0.011170749231014522 0.9979795500291685 -0.011170749231014522 0.0020204499708315164 0.011170749231014522
4.286E9 0.0020633634710800833 0.012571002932849568 0.9979366365289198 -0.012571002932849568 0.9979366365289198 -0.012571002932849568 0.0020633634710800833 0.012571002932849568
4.36075E9 0.0021096236226105956 0.013951187195815512 0.9978903763773893 -0.013951187195815512 0.9978903763773893 -0.013951187195815512 0.0021096236226105956 0.013951187195815512
4.4355E9 0.002159106269189697 0.015312346801717471 0.9978408937308105 -0.015312346801717471 0.9978408937308105 -0.015312346801717471 0.002159106269189697 0.015312346801717471
4.51025E9 0.0022116986579395893 0.016655459278934182 0.9977883013420604 -0.016655459278934182 0.9977883013420604 -0.016655459278934182 0.0022116986579395893 0.016655459278934182
4.585E9 0.0022672983989236333 0.01798144044730044 0.9977327016010763 -0.01798144044730044 0.9977327016010763 -0.01798144044730044 0.0022672983989236333 0.01798144044730044
4.65975E9 0.0023258125461716457 0.019291149439513964 0.9976741874538284 -0.019291149439513964 0.9976741874538284 -0.019291149439513964 0.0023258125461716457 0.019291149439513964
4.7345E9 0.0023871567854999946 0.02058539325720488 0.9976128432145001 -0.02058539325720488 0.9976128432145001 -0.02058539325720488 0.0023871567854999946 0.02058539325720488
4.80925E9 0.002451254716593687 0.02186493091269836 0.9975487452834063 -0.02186493091269836 0.9975487452834063 -0.02186493091269836 0.002451254716593687 0.02186493091269836
4.884E9 0.00251803721861881 0.023130477201373945 0.9974819627813811 -0.023130477201373945 0.9974819627813811 -0.023130477201373945 0.00251803721861881 0.023130477201373945
4.95875E9 0.0025874418901769224 0.024382706144231887 0.9974125581098231 -0.024382706144231887 0.9974125581098231 -0.024382706144231887 0.0025874418901769224 0.024382706144231887
5.0335E9 0.002659412555742367 0.02562225413569697 0.9973405874442577 -0.02562225413569697 0.9973405874442577 -0.02562225413569697 0.002659412555742367 0.02562225413569697
5.10825E9 0.002733898831875683 0.026849722827722466 0.9972661011681243 -0.026849722827722466 0.9972661011681243 -0.026849722827722466 0.002733898831875683 0.026849722827722466
5.183E9 0.002810855747512091 0.0280656817778139 0.9971891442524878 -0.0280656817778139 0.9971891442524878 -0.0280656817778139 0.002810855747512091 0.0280656817778139
5.25775E9 0.0028902434135098594 0.029270670885604425 0.99710975658649 -0.029270670885604425 0.99710975658649 -0.029270670885604425 0.0028902434135098594 0.029270670885604425
5.3325E9 0.0029720267374312953 0.03046520264001738 0.9970279732625686 -0.03046520264001738 0.9970279732625686 -0.03046520264001738 0.0029720267374312953 0.03046520264001738
5.40725E9 0.0030561751802390875 0.03164976419679897 0.9969438248197612 -0.03164976419679897 0.9969438248197612 -0.03164976419679897 0.0030561751802390875 0.03164976419679897
5.482E9 0.003142662552239745 0.032824819304248194 0.9968573374477604 -0.032824819304248194 0.9968573374477604 -0.032824819304248194 0.003142662552239745 0.032824819304248194
5.55675E9 0.0032314668462099733 0.03399081009328106 0.9967685331537901 -0.03399081009328106 0.9967685331537901 -0.03399081009328106 0.0032314668462099733 0.03399081009328106
5.6315E9 0.0033225701062152067 0.03514815874650397 0.9966774298937848 -0.03514815874650397 0.9966774298937848 -0.03514815874650397 0.0033225701062152067 0.03514815874650397
5.70625E9 0.003415958331186785 0.03629726905972093 0.9965840416688131 -0.03629726905972093 0.9965840416688131 -0.03629726905972093 0.003415958331186785 0.03629726905972093
5.781E9 0.0035116214128789055 0.037438527908230594 0.996488378587121 -0.037438527908230594 0.996488378587121 -0.037438527908230594 0.0035116214128789055 0.037438527908230594
5.85575E9 0.00360955310839334 0.038572306629372645 0.9963904468916067 -0.038572306629372645 0.9963904468916067 -0.038572306629372645 0.00360955310839334 0.038572306629372645
5.9305E9 0.0037097510480543112 0.03969896233204042 0.9962902489519455 -0.03969896233204042 0.9962902489519455 -0.03969896233204042 0.0037097510480543112 0.03969896233204042
6.00525E9 0.0038122167800550407 0.040818839143279405 0.996187783219945 -0.040818839143279405 0.996187783219945 -0.040818839143279405 0.0038122167800550407 0.040818839143279405
6.08E9 0.003916955854000877 0.041932269401632125 0.996083044145999 -0.041932269401632125 0.996083044145999 -0.041932269401632125 0.003916955854000877 0.041932269401632125
6.15475E9 0.004023977946264469 0.04303957480656251 0.9959760220537358 -0.04303957480656251 0.9959760220537358 -0.04303957480656251 0.004023977946264469 0.04303957480656251
6.2295E9 0.0041332970309733525 0.04414106753309697 0.9958667029690264 -0.04414106753309697 0.9958667029690264 -0.04414106753309697 0.0041332970309733525 0.04414106753309697
6.30425E9 0.0042449316015027785 0.0452370513207542 0.9957550683984975 -0.0452370513207542 0.9957550683984975 -0.0452370513207542 0.0042449316015027785 0.0452370513207542
6.379E9 0.004358904948587122 0.04632782254590335 0.9956410950514126 -0.04632782254590335 0.9956410950514126 -0.04632782254590335 0.004358904948587122 0.04632782254590335
6.45375E9 0.00447524550264264 0.04741367128689898 0.9955247544973574 -0.04741367128689898 0.9955247544973574 -0.04741367128689898 0.00447524550264264 0.04741367128689898
6.5285E9 0.0045939872496757635 0.048494882391694506 0.9954060127503241 -0.048494882391694506 0.9954060127503241 -0.048494882391694506 0.0045939872496757635 0.048494882391694506
6.60325E9 0.004715170232315211 0.049571736558146826 0.9952848297676848 -0.049571736558146826 0.9952848297676848 -0.049571736558146826 0.004715170232315211 0.049571736558146826
6.678E9 0.0048388411501548954 0.05064451143790482 0.9951611588498451 -0.05064451143790482 0.9951611588498451 -0.05064451143790482 0.0048388411501548954 0.05064451143790482
6.75275E9 0.004965054076859075 0.05171348277563428 0.995034945923141 -0.05171348277563428 0.995034945923141 -0.05171348277563428 0.004965054076859075 0.05171348277563428
6.8275E9 0.005093871315530496 0.05277892559638867 0.9949061286844697 -0.05277892559638867 0.9949061286844697 -0.05277892559638867 0.005093871315530496 0.05277892559638867
6.90225E9 0.005225364418895528 0.053841115455196736 0.9947746355811043 -0.053841115455196736 0.9947746355811043 -0.053841115455196736 0.005225364418895528 0.053841115455196736
6.977E9 0.005359615407203731 0.05490032976441535 0.9946403845927961 -0.05490032976441535 0.9946403845927961 -0.05490032976441535 0.005359615407203731 0.05490032976441535
7.05175E9 0.005496718224748212 0.055956849216082724 0.9945032817752517 -0.055956849216082724 0.9945032817752517 -0.055956849216082724 0.005496718224748212 0.055956849216082724
7.1265E9 0.005636780486082887 0.0570109593183844 0.9943632195139173 -0.0570109593183844 0.9943632195139173 -0.0570109593183844 0.005636780486082887 0.0570109593183844
7.20125E9 0.005779925576001374 0.05806295206735945 0.9942200744239986 -0.05806295206735945 0.9942200744239986 -0.05806295206735945 0.005779925576001374 0.05806295206735945
7.276E9 0.005926295184027297 0.0591131277770179 0.9940737048159727 -0.0591131277770179 0.9940737048159727 -0.0591131277770179 0.005926295184027297 0.0591131277770179
7.35075E9 0.006076052375727269 0.06016179709292101 0.9939239476242727 -0.06016179709292101 0.9939239476242727 -0.06016179709292101 0.006076052375727269 0.06016179709292101
7.4255E9 0.006229385331189107 0.06120928321565354 0.9937706146688108 -0.06120928321565354 0.9937706146688108 -0.06120928321565354 0.006229385331189107 0.06120928321565354
7.50025E9 0.006386511917674367 0.06225592436091753 0.9936134880823257 -0.06225592436091753 0.9936134880823257 -0.06225592436091753 0.006386511917674367 0.06225592436091753
7.575E9 0.0065476853117177325 0.0633020764812569 0.9934523146882823 -0.0633020764812569 0.9934523146882823 -0.0633020764812569 0.0065476853117177325 0.0633020764812569
7.64975E9 0.006713200949875431 0.06434811626911802 0.9932867990501247 -0.06434811626911802 0.9932867990501247 -0.06434811626911802 0.006713200949875431 0.06434811626911802
7.7245E9 0.006883405172548912 0.06539444444953475 0.993116594827451 -0.06539444444953475 0.993116594827451 -0.06539444444953475 0.006883405172548912 0.06539444444953475
7.79925E9 0.00705870603964094 0.066441489349045 0.9929412939603591 -0.066441489349045 0.9929412939603591 -0.066441489349045 0.00705870603964094 0.066441489349045
7.874E9 0.0072395869511409265 0.06748971068877589 0.9927604130488589 -0.06748971068877589 0.9927604130488589 -0.06748971068877589 0.0072395869511409265 0.06748971068877589
7.94875E9 0.007426623915324783 0.06853960348292863 0.9925733760846752 -0.06853960348292863 0.9925733760846752 -0.06853960348292863 0.007426623915324783 0.06853960348292863
8.0235E9 0.007620507593433561 0.0695917018110522 0.9923794924065664 -0.0695917018110522 0.9923794924065664 -0.0695917018110522 0.007620507593433561 0.0695917018110522
8.09825E9 0.007822071642274202 0.07064658204355903 0.9921779283577256 -0.07064658204355903 0.9921779283577256 -0.07064658204355903 0.007822071642274202 0.07064658204355903
8.173E9 0.008032329416530702 0.07170486478505769 0.9919676705834694 -0.07170486478505769 0.9919676705834694 -0.07170486478505769 0.008032329416530702 0.07170486478505769
8.24775E9 0.00825252183722618 0.07276721427558772 0.9917474781627739 -0.07276721427558772 0.9917474781627739 -0.07276721427558772 0.00825252183722618 0.07276721427558772
8.3225E9 0.008484180256777024 0.07383433311414958 0.9915158197432232 -0.07383433311414958 0.9915158197432232 -0.07383433311414958 0.008484180256777024 0.07383433311414958
8.39725E9 0.00872920954828387 0.07490694870033729 0.9912707904517162 -0.07490694870033729 0.9912707904517162 -0.07490694870033729 0.00872920954828387 0.07490694870033729
8.472E9 0.008989998519812834 0.0759857853125824 0.9910100014801869 -0.0759857853125824 0.9910100014801869 -0.0759857853125824 0.008989998519812834 0.0759857853125824
8.54675E9 0.009269567176245561 0.07707151153540225 0.9907304328237544 -0.07707151153540225 0.9907304328237544 -0.07707151153540225 0.009269567176245561 0.07707151153540225
