!Murata Part Number: GJM0225C1E3R8BB01
!These Parameters are Measured in Series Mode Connection
!       o--ll--o
!Port1            Port2
!       o------o
!Operation Temp=25[degC], DC Bias Voltage=0[V]
!Freq. Start=100[MHz] Stop=30[GHz], 401[Steps]
!Data Generated on Feb 1, 2023
# Hz S RI R 50
!Freq.(Hz) S11(Real) S11(Imag) S21(Real) S21(Imag) S12(Real) S12(Imag) S22(Real) S22(Imag)
1.0E8 0.945956388712796 -0.22588886871193423 0.054043611287204106 0.22588886871193423 0.054043611287204106 0.22588886871193423 0.945956388712796 -0.22588886871193423
1.7475E8 0.8513528754984614 -0.3553646305576183 0.14864712450153866 0.3553646305576183 0.14864712450153866 0.3553646305576183 0.8513528754984614 -0.3553646305576183
2.495E8 0.737272423073153 -0.43957885843331673 0.2627275769268471 0.43957885843331673 0.2627275769268471 0.43957885843331673 0.737272423073153 -0.43957885843331673
3.2425E8 0.6238908050741953 -0.4837095226945669 0.37610919492580464 0.4837095226945669 0.37610919492580464 0.4837095226945669 0.6238908050741953 -0.4837095226945669
3.99E8 0.5222714542139455 -0.49864303994122366 0.4777285457860544 0.49864303994122366 0.4777285457860544 0.49864303994122366 0.5222714542139455 -0.49864303994122366
4.7375E8 0.43615646546375947 -0.4948835132107488 0.5638435345362406 0.4948835132107488 0.5638435345362406 0.4948835132107488 0.43615646546375947 -0.4948835132107488
5.485E8 0.36523797597260615 -0.48030911688921435 0.6347620240273937 0.48030911688921435 0.6347620240273937 0.48030911688921435 0.36523797597260615 -0.48030911688921435
6.2325E8 0.30755839758616904 -0.4601298757754734 0.692441602413831 0.4601298757754734 0.692441602413831 0.4601298757754734 0.30755839758616904 -0.4601298757754734
6.98E8 0.2607901258542021 -0.43754658453908296 0.7392098741457979 0.43754658453908296 0.7392098741457979 0.43754658453908296 0.2607901258542021 -0.43754658453908296
7.7275E8 0.2227813709623657 -0.414426030824448 0.7772186290376344 0.414426030824448 0.7772186290376344 0.414426030824448 0.2227813709623657 -0.414426030824448
8.475E8 0.19172791674944054 -0.3918042056537885 0.8082720832505594 0.3918042056537885 0.8082720832505594 0.3918042056537885 0.19172791674944054 -0.3918042056537885
9.2225E8 0.16618340914507468 -0.3702183072404226 0.8338165908549253 0.3702183072404226 0.8338165908549253 0.3702183072404226 0.16618340914507468 -0.3702183072404226
9.97E8 0.14501229226656906 -0.34991354528568175 0.8549877077334309 0.34991354528568175 0.8549877077334309 0.34991354528568175 0.14501229226656906 -0.34991354528568175
1.07175E9 0.12733042701016942 -0.3309682283305488 0.8726695729898307 0.3309682283305488 0.8726695729898307 0.3309682283305488 0.12733042701016942 -0.3309682283305488
1.1465E9 0.11245039156510572 -0.3133682035549264 0.8875496084348945 0.3133682035549264 0.8875496084348945 0.3133682035549264 0.11245039156510572 -0.3133682035549264
1.22125E9 0.09983634169650867 -0.29705067222465875 0.9001636583034912 0.29705067222465875 0.9001636583034912 0.29705067222465875 0.09983634169650867 -0.29705067222465875
1.296E9 0.08906856285645187 -0.2819297023500996 0.9109314371435483 0.2819297023500996 0.9109314371435483 0.2819297023500996 0.08906856285645187 -0.2819297023500996
1.37075E9 0.07981628826749056 -0.2679108619304775 0.9201837117325092 0.2679108619304775 0.9201837117325092 0.2679108619304775 0.07981628826749056 -0.2679108619304775
1.4455E9 0.07181707849636158 -0.25489940605498146 0.9281829215036385 0.25489940605498146 0.9281829215036385 0.25489940605498146 0.07181707849636158 -0.25489940605498146
1.52025E9 0.06486123350874229 -0.24280465881460933 0.9351387664912578 0.24280465881460933 0.9351387664912578 0.24280465881460933 0.06486123350874229 -0.24280465881460933
1.595E9 0.058780000555653626 -0.23154216386919227 0.9412199994443463 0.23154216386919227 0.9412199994443463 0.23154216386919227 0.058780000555653626 -0.23154216386919227
1.66975E9 0.05343662449350841 -0.2210345426380481 0.9465633755064917 0.2210345426380481 0.9465633755064917 0.2210345426380481 0.05343662449350841 -0.2210345426380481
1.7445E9 0.04871952283784438 -0.21121162048559042 0.9512804771621556 0.21121162048559042 0.9512804771621556 0.21121162048559042 0.04871952283784438 -0.21121162048559042
1.81925E9 0.044537051473278744 -0.20201015469781702 0.9554629485267212 0.20201015469781702 0.9554629485267212 0.20201015469781702 0.044537051473278744 -0.20201015469781702
1.894E9 0.040813465401783364 -0.19337336196151905 0.9591865345982168 0.19337336196151905 0.9591865345982168 0.19337336196151905 0.040813465401783364 -0.19337336196151905
1.96875E9 0.03748578160118196 -0.1852503611041497 0.962514218398818 0.1852503611041497 0.962514218398818 0.1852503611041497 0.03748578160118196 -0.1852503611041497
2.0435E9 0.034501326636768304 -0.17759559745061704 0.9654986733632316 0.17759559745061704 0.9654986733632316 0.17759559745061704 0.034501326636768304 -0.17759559745061704
2.11825E9 0.031815807138421394 -0.17036828542574234 0.9681841928615788 0.17036828542574234 0.9681841928615788 0.17036828542574234 0.031815807138421394 -0.17036828542574234
2.193E9 0.029391781994521596 -0.16353188824336692 0.9706082180054787 0.16353188824336692 0.9706082180054787 0.16353188824336692 0.029391781994521596 -0.16353188824336692
2.26775E9 0.027197445112445862 -0.15705364300076333 0.9728025548875542 0.15705364300076333 0.9728025548875542 0.15705364300076333 0.027197445112445862 -0.15705364300076333
2.3425E9 0.025205649771469038 -0.1509041333986641 0.9747943502285311 0.1509041333986641 0.9747943502285311 0.1509041333986641 0.025205649771469038 -0.1509041333986641
2.41725E9 0.023393122064997746 -0.14505690889703526 0.9766068779350023 0.14505690889703526 0.9766068779350023 0.14505690889703526 0.023393122064997746 -0.14505690889703526
2.492E9 0.02173982322712482 -0.1394881473302355 0.978260176772875 0.1394881473302355 0.978260176772875 0.1394881473302355 0.02173982322712482 -0.1394881473302355
2.56675E9 0.020228429871807892 -0.1341763571882817 0.979771570128192 0.1341763571882817 0.979771570128192 0.1341763571882817 0.020228429871807892 -0.1341763571882817
2.6415E9 0.01884390814490748 -0.12910211552151607 0.9811560918550927 0.12910211552151607 0.9811560918550927 0.12910211552151607 0.01884390814490748 -0.12910211552151607
2.71625E9 0.017573163084092232 -0.1242478374975618 0.9824268369159079 0.1242478374975618 0.9824268369159079 0.1242478374975618 0.017573163084092232 -0.1242478374975618
2.791E9 0.01640474852583176 -0.1195975738819202 0.9835952514741683 0.1195975738819202 0.9835952514741683 0.1195975738819202 0.01640474852583176 -0.1195975738819202
2.86575E9 0.015328626005295193 -0.11513683303647092 0.9846713739947047 0.11513683303647092 0.9846713739947047 0.11513683303647092 0.015328626005295193 -0.11513683303647092
2.9405E9 0.014335963494684922 -0.11085242438010746 0.985664036505315 0.11085242438010746 0.985664036505315 0.11085242438010746 0.014335963494684922 -0.11085242438010746
3.01525E9 0.013418966689350127 -0.10673232060224229 0.9865810333106497 0.10673232060224229 0.9865810333106497 0.10673232060224229 0.013418966689350127 -0.10673232060224229
3.09E9 0.012570737006344888 -0.10276553624648757 0.9874292629936553 0.10276553624648757 0.9874292629936553 0.10276553624648757 0.012570737006344888 -0.10276553624648757
3.16475E9 0.011785151602349858 -0.09894202058049965 0.98821484839765 0.09894202058049965 0.98821484839765 0.09894202058049965 0.011785151602349858 -0.09894202058049965
3.2395E9 0.011056761618930344 -0.09525256293589271 0.9889432383810697 0.09525256293589271 0.9889432383810697 0.09525256293589271 0.011056761618930344 -0.09525256293589271
3.31425E9 0.01038070557736362 -0.0916887089393224 0.9896192944226364 0.0916887089393224 0.9896192944226364 0.0916887089393224 0.01038070557736362 -0.0916887089393224
3.389E9 0.009752635414138643 -0.08824268626396638 0.9902473645858613 0.08824268626396638 0.9902473645858613 0.08824268626396638 0.009752635414138643 -0.08824268626396638
3.46375E9 0.009168653103383497 -0.08490733871211194 0.9908313468966166 0.08490733871211194 0.9908313468966166 0.08490733871211194 0.009168653103383497 -0.08490733871211194
3.5385E9 0.008625256178256773 -0.0816760675971466 0.9913747438217432 0.0816760675971466 0.9913747438217432 0.0816760675971466 0.008625256178256773 -0.0816760675971466
3.61325E9 0.008119290758559427 -0.07854277952969346 0.9918807092414408 0.07854277952969346 0.9918807092414408 0.07854277952969346 0.008119290758559427 -0.07854277952969346
3.688E9 0.0076479109310817195 -0.07550183983055553 0.9923520890689183 0.07550183983055553 0.9923520890689183 0.07550183983055553 0.0076479109310817195 -0.07550183983055553
3.76275E9 0.007208543523883738 -0.07254803089495326 0.9927914564761164 0.07254803089495326 0.9927914564761164 0.07254803089495326 0.007208543523883738 -0.07254803089495326
3.8375E9 0.006798857474734701 -0.0696765149204023 0.9932011425252653 0.0696765149204023 0.9932011425252653 0.0696765149204023 0.006798857474734701 -0.0696765149204023
3.91225E9 0.006416737124325831 -0.06688280048641476 0.993583262875674 0.06688280048641476 0.993583262875674 0.06688280048641476 0.006416737124325831 -0.06688280048641476
3.987E9 0.006060258872167481 -0.06416271253967173 0.9939397411278323 0.06416271253967173 0.9939397411278323 0.06416271253967173 0.006060258872167481 -0.06416271253967173
4.06175E9 0.005727670721684729 -0.06151236539487389 0.9942723292783153 0.06151236539487389 0.9942723292783153 0.06151236539487389 0.005727670721684729 -0.06151236539487389
4.1365E9 0.005417374314441482 -0.058928138410376606 0.9945826256855584 0.058928138410376606 0.9945826256855584 0.058928138410376606 0.005417374314441482 -0.058928138410376606
4.21125E9 0.00512790911445473 -0.05640665404003938 0.9948720908855453 0.05640665404003938 0.9948720908855453 0.05640665404003938 0.00512790911445473 -0.05640665404003938
4.286E9 0.004857938454458801 -0.05394475799939159 0.9951420615455413 0.05394475799939159 0.9951420615455413 0.05394475799939159 0.004857938454458801 -0.05394475799939159
4.36075E9 0.004606237198557674 -0.05153950131603364 0.9953937628014425 0.05153950131603364 0.9953937628014425 0.05153950131603364 0.004606237198557674 -0.05153950131603364
4.4355E9 0.004371680811428021 -0.04918812406183173 0.995628319188572 0.04918812406183173 0.995628319188572 0.04918812406183173 0.004371680811428021 -0.04918812406183173
4.51025E9 0.004153235654296624 -0.046888040588506597 0.9958467643457036 0.046888040588506597 0.9958467643457036 0.046888040588506597 0.004153235654296624 -0.046888040588506597
4.585E9 0.0039499503532824986 -0.04463682610916553 0.9960500496467174 0.04463682610916553 0.9960500496467174 0.04463682610916553 0.0039499503532824986 -0.04463682610916553
4.65975E9 0.0037609481071570936 -0.04243220448659705 0.9962390518928429 0.04243220448659705 0.9962390518928429 0.04243220448659705 0.0037609481071570936 -0.04243220448659705
4.7345E9 0.0035854198197847456 -0.04027203710511539 0.9964145801802151 0.04027203710511539 0.9964145801802151 0.04027203710511539 0.0035854198197847456 -0.04027203710511539
4.80925E9 0.0034226179579926754 -0.03815431271671053 0.9965773820420072 0.03815431271671053 0.9965773820420072 0.03815431271671053 0.0034226179579926754 -0.03815431271671053
4.884E9 0.003271851048825099 -0.03607713816450115 0.9967281489511748 0.03607713816450115 0.9967281489511748 0.03607713816450115 0.003271851048825099 -0.03607713816450115
4.95875E9 0.003132478741422711 -0.03403872989723141 0.9968675212585775 0.03403872989723141 0.9968675212585775 0.03403872989723141 0.003132478741422711 -0.03403872989723141
5.0335E9 0.0030039073684384717 -0.032037406197993626 0.9969960926315615 0.032037406197993626 0.9969960926315615 0.032037406197993626 0.0030039073684384717 -0.032037406197993626
5.10825E9 0.0028855859502037754 -0.03007158005867117 0.9971144140497962 0.03007158005867117 0.9971144140497962 0.03007158005867117 0.0028855859502037754 -0.03007158005867117
5.183E9 0.0027770025920045164 -0.028139752638919987 0.9972229974079954 0.028139752638919987 0.9972229974079954 0.028139752638919987 0.0027770025920045164 -0.028139752638919987
5.25775E9 0.0026776812309892957 -0.026240507254975537 0.9973223187690109 0.026240507254975537 0.9973223187690109 0.026240507254975537 0.0026776812309892957 -0.026240507254975537
5.3325E9 0.0025871786945579492 -0.024372503849287595 0.997412821305442 0.024372503849287595 0.997412821305442 0.024372503849287595 0.0025871786945579492 -0.024372503849287595
5.40725E9 0.0025050820366911124 -0.022534473897047384 0.9974949179633089 0.022534473897047384 0.9974949179633089 0.022534473897047384 0.0025050820366911124 -0.022534473897047384
5.482E9 0.0024310061226838356 -0.020725215710156487 0.9975689938773162 0.020725215710156487 0.9975689938773162 0.020725215710156487 0.0024310061226838356 -0.020725215710156487
5.55675E9 0.002364591436226122 -0.018943590103171558 0.997635408563774 0.018943590103171558 0.997635408563774 0.018943590103171558 0.002364591436226122 -0.018943590103171558
5.6315E9 0.0023055020858042496 -0.017188516389297543 0.9976944979141958 0.017188516389297543 0.9976944979141958 0.017188516389297543 0.0023055020858042496 -0.017188516389297543
5.70625E9 0.002253423990041851 -0.015458968677654322 0.9977465760099581 0.015458968677654322 0.9977465760099581 0.015458968677654322 0.002253423990041851 -0.015458968677654322
5.781E9 0.0022080632239121567 -0.013753972445850022 0.9977919367760879 0.013753972445850022 0.9977919367760879 0.013753972445850022 0.0022080632239121567 -0.013753972445850022
5.85575E9 0.0021691445097778393 -0.012072601364401298 0.9978308554902219 0.012072601364401298 0.9978308554902219 0.012072601364401298 0.0021691445097778393 -0.012072601364401298
5.9305E9 0.0021364098389914147 -0.010413974351779412 0.9978635901610086 0.010413974351779412 0.9978635901610086 0.010413974351779412 0.0021364098389914147 -0.010413974351779412
6.00525E9 0.00210961721135013 -0.008777252840866405 0.9978903827886499 0.008777252840866405 0.9978903827886499 0.008777252840866405 0.00210961721135013 -0.008777252840866405
6.08E9 0.002088539481073157 -0.007161638239398931 0.9979114605189269 0.007161638239398931 0.9979114605189269 0.007161638239398931 0.002088539481073157 -0.007161638239398931
6.15475E9 0.002072963299180015 -0.005566369568588847 0.9979270367008201 0.005566369568588847 0.9979270367008201 0.005566369568588847 0.002072963299180015 -0.005566369568588847
6.2295E9 0.002062688143218367 -0.003990721265553249 0.9979373118567815 0.003990721265553249 0.9979373118567815 0.003990721265553249 0.002062688143218367 -0.003990721265553249
6.30425E9 0.0020575254262348492 -0.0024340011364882455 0.9979424745737652 0.0024340011364882455 0.9979424745737652 0.0024340011364882455 0.0020575254262348492 -0.0024340011364882455
6.379E9 0.002057297677719794 -8.955484486876529E-4 0.9979427023222801 8.955484486876529E-4 0.9979427023222801 8.955484486876529E-4 0.002057297677719794 -8.955484486876529E-4
6.45375E9 0.0020618377899991663 6.252678494357414E-4 0.9979381622100009 -6.252678494357414E-4 0.9979381622100009 -6.252678494357414E-4 0.0020618377899991663 6.252678494357414E-4
6.5285E9 0.0020709883242064193 0.0021290507902211775 0.9979290116757936 -0.0021290507902211775 0.9979290116757936 -0.0021290507902211775 0.0020709883242064193 0.0021290507902211775
6.60325E9 0.0020846008705533063 0.003616376939557345 0.9979153991294466 -0.003616376939557345 0.9979153991294466 -0.003616376939557345 0.0020846008705533063 0.003616376939557345
6.678E9 0.002102535458140866 0.005087797848866843 0.9978974645418591 -0.005087797848866843 0.9978974645418591 -0.005087797848866843 0.002102535458140866 0.005087797848866843
6.75275E9 0.0021246600100173715 0.006543841413834798 0.9978753399899828 -0.006543841413834798 0.9978753399899828 -0.006543841413834798 0.0021246600100173715 0.006543841413834798
6.8275E9 0.0021508498396057727 0.007985013146804162 0.9978491501603941 -0.007985013146804162 0.9978491501603941 -0.007985013146804162 0.0021508498396057727 0.007985013146804162
6.90225E9 0.0021809871849947813 0.009411797369183494 0.9978190128150051 -0.009411797369183494 0.9978190128150051 -0.009411797369183494 0.0021809871849947813 0.009411797369183494
6.977E9 0.002214960777920403 0.010824658329689556 0.9977850392220796 -0.010824658329689556 0.9977850392220796 -0.010824658329689556 0.002214960777920403 0.010824658329689556
7.05175E9 0.0022526654445628866 0.012224041253772881 0.9977473345554371 -0.012224041253772881 0.9977473345554371 -0.012224041253772881 0.0022526654445628866 0.012224041253772881
7.1265E9 0.002294001735551579 0.013610373329141242 0.9977059982644486 -0.013610373329141242 0.9977059982644486 -0.013610373329141242 0.002294001735551579 0.013610373329141242
7.20125E9 0.002338875582810476 0.014984064631903719 0.9976611244171897 -0.014984064631903719 0.9976611244171897 -0.014984064631903719 0.002338875582810476 0.014984064631903719
7.276E9 0.0023871979810935217 0.01634550899749934 0.9976128020189065 -0.01634550899749934 0.9976128020189065 -0.01634550899749934 0.0023871979810935217 0.01634550899749934
7.35075E9 0.002438884692253305 0.01769508484024808 0.9975611153077467 -0.01769508484024808 0.9975611153077467 -0.01769508484024808 0.002438884692253305 0.01769508484024808
7.4255E9 0.0024938559704623256 0.019033155925063504 0.9975061440295377 -0.019033155925063504 0.9975061440295377 -0.019033155925063504 0.0024938559704623256 0.019033155925063504
7.50025E9 0.002552036306764492 0.020360072094595075 0.9974479636932355 -0.020360072094595075 0.9974479636932355 -0.020360072094595075 0.002552036306764492 0.020360072094595075
7.575E9 0.0026133541914775417 0.021676169954818546 0.9973866458085225 -0.021676169954818546 0.9973866458085225 -0.021676169954818546 0.0026133541914775417 0.021676169954818546
7.64975E9 0.002677741893096693 0.022981773521865964 0.9973222581069033 -0.022981773521865964 0.9973222581069033 -0.022981773521865964 0.002677741893096693 0.022981773521865964
7.7245E9 0.0027451352524670873 0.0242771948326784 0.9972548647475331 -0.0242771948326784 0.9972548647475331 -0.0242771948326784 0.0027451352524670873 0.0242771948326784
7.79925E9 0.0028154734910989243 0.025562734521873284 0.997184526508901 -0.025562734521873284 0.997184526508901 -0.025562734521873284 0.0028154734910989243 0.025562734521873284
7.874E9 0.0028886990325958464 0.026838682367044685 0.9971113009674042 -0.026838682367044685 0.9971113009674042 -0.026838682367044685 0.0028886990325958464 0.026838682367044685
7.94875E9 0.0029647573362547646 0.0281053178045522 0.9970352426637453 -0.0281053178045522 0.9970352426637453 -0.0281053178045522 0.0029647573362547646 0.0281053178045522
8.0235E9 0.00304359674197537 0.029362910417709585 0.9969564032580247 -0.029362910417709585 0.9969564032580247 -0.029362910417709585 0.00304359674197537 0.029362910417709585
8.09825E9 0.003125168325690167 0.030611720399146072 0.9968748316743099 -0.030611720399146072 0.9968748316743099 -0.030611720399146072 0.003125168325690167 0.030611720399146072
8.173E9 0.003209425764592497 0.03185199898899196 0.9967905742354074 -0.03185199898899196 0.9967905742354074 -0.03185199898899196 0.003209425764592497 0.03185199898899196
8.24775E9 0.003296325211500463 0.03308398889042262 0.9967036747884994 -0.03308398889042262 0.9967036747884994 -0.03308398889042262 0.003296325211500463 0.03308398889042262
8.3225E9 0.003385825177750414 0.03430792466399282 0.9966141748222496 -0.03430792466399282 0.9966141748222496 -0.03430792466399282 0.003385825177750414 0.03430792466399282
8.39725E9 0.0034778864240643773 0.03552403310209426 0.9965221135759357 -0.03552403310209426 0.9965221135759357 -0.03552403310209426 0.0034778864240643773 0.03552403310209426
8.472E9 0.0035724718588825907 0.03673253358478107 0.9964275281411176 -0.03673253358478107 0.9964275281411176 -0.03673253358478107 0.0035724718588825907 0.03673253358478107
8.54675E9 0.0036695464436952287 0.03793363841812558 0.9963304535563048 -0.03793363841812558 0.9963304535563048 -0.03793363841812558 0.0036695464436952287 0.03793363841812558
