!Murata Part Number: GJM0225C1E5R0BB01
!These Parameters are Measured in Series Mode Connection
!       o--ll--o
!Port1            Port2
!       o------o
!Operation Temp=25[degC], DC Bias Voltage=0[V]
!Freq. Start=100[MHz] Stop=30[GHz], 401[Steps]
!Data Generated on Feb 1, 2023
# Hz S RI R 50
!Freq.(Hz) S11(Real) S11(Imag) S21(Real) S21(Imag) S12(Real) S12(Imag) S22(Real) S22(Imag)
1.0E8 0.9100108305582039 -0.28593532627601864 0.08998916944179622 0.28593532627601864 0.08998916944179622 0.28593532627601864 0.9100108305582039 -0.28593532627601864
1.7475E8 0.7678874645017513 -0.42177662703113356 0.23211253549824887 0.42177662703113356 0.23211253549824887 0.42177662703113356 0.7678874645017513 -0.42177662703113356
2.495E8 0.6183880103620517 -0.48520499668951267 0.38161198963794835 0.48520499668951267 0.38161198963794835 0.48520499668951267 0.6183880103620517 -0.48520499668951267
3.2425E8 0.48914311937836635 -0.49913097339869616 0.5108568806216336 0.49913097339869616 0.5108568806216336 0.49913097339869616 0.48914311937836635 -0.49913097339869616
3.99E8 0.38677418498135624 -0.48608519445845205 0.6132258150186439 0.48608519445845205 0.6132258150186439 0.48608519445845205 0.38677418498135624 -0.48608519445845205
4.7375E8 0.30843965405418483 -0.4607471965707113 0.6915603459458153 0.4607471965707113 0.6915603459458153 0.4607471965707113 0.30843965405418483 -0.4607471965707113
5.485E8 0.24897893633885113 -0.43114242257657825 0.7510210636611488 0.43114242257657825 0.7510210636611488 0.43114242257657825 0.24897893633885113 -0.43114242257657825
6.2325E8 0.20363255263782792 -0.4012409625589554 0.7963674473621719 0.4012409625589554 0.7963674473621719 0.4012409625589554 0.20363255263782792 -0.4012409625589554
6.98E8 0.16868511162176636 -0.3728353173827166 0.8313148883782338 0.3728353173827166 0.8313148883782338 0.3728353173827166 0.16868511162176636 -0.3728353173827166
7.7275E8 0.14140513558077655 -0.3466184447916705 0.8585948644192234 0.3466184447916705 0.8585948644192234 0.3466184447916705 0.14140513558077655 -0.3466184447916705
8.475E8 0.1198247607485357 -0.3227515415631093 0.8801752392514643 0.3227515415631093 0.8801752392514643 0.3227515415631093 0.1198247607485357 -0.3227515415631093
9.2225E8 0.10252986468988308 -0.30115210226523315 0.8974701353101168 0.30115210226523315 0.8974701353101168 0.30115210226523315 0.10252986468988308 -0.30115210226523315
9.97E8 0.08849824890756096 -0.28163702670042523 0.9115017510924392 0.28163702670042523 0.9115017510924392 0.28163702670042523 0.08849824890756096 -0.28163702670042523
1.07175E9 0.07698366434336973 -0.2639922023569383 0.9230163356566302 0.2639922023569383 0.9230163356566302 0.2639922023569383 0.07698366434336973 -0.2639922023569383
1.1465E9 0.0674349216074897 -0.2480051097327676 0.9325650783925102 0.2480051097327676 0.9325650783925102 0.2480051097327676 0.0674349216074897 -0.2480051097327676
1.22125E9 0.059439885320622596 -0.23347895672167218 0.9405601146793773 0.23347895672167218 0.9405601146793773 0.23347895672167218 0.059439885320622596 -0.23347895672167218
1.296E9 0.052686609184805396 -0.22023770459828992 0.9473133908151947 0.22023770459828992 0.9473133908151947 0.22023770459828992 0.052686609184805396 -0.22023770459828992
1.37075E9 0.04693617181064778 -0.208126727876285 0.9530638281893524 0.208126727876285 0.9530638281893524 0.208126727876285 0.04693617181064778 -0.208126727876285
1.4455E9 0.04200350675202979 -0.19701150609282897 0.9579964932479702 0.19701150609282897 0.9579964932479702 0.19701150609282897 0.04200350675202979 -0.19701150609282897
1.52025E9 0.03774372726150598 -0.18677554912470612 0.9622562727384938 0.18677554912470612 0.9622562727384938 0.18677554912470612 0.03774372726150598 -0.18677554912470612
1.595E9 0.03404226078555492 -0.17731814431214915 0.9659577392144453 0.17731814431214915 0.9659577392144453 0.17731814431214915 0.03404226078555492 -0.17731814431214915
1.66975E9 0.030807651628496142 -0.16855219921711104 0.9691923483715039 0.16855219921711104 0.9691923483715039 0.16855219921711104 0.030807651628496142 -0.16855219921711104
1.7445E9 0.027966252284035997 -0.16040229380131005 0.9720337477159641 0.16040229380131005 0.9720337477159641 0.16040229380131005 0.027966252284035997 -0.16040229380131005
1.81925E9 0.025458266165134 -0.1528029759535605 0.9745417338348659 0.1528029759535605 0.9745417338348659 0.1528029759535605 0.025458266165134 -0.1528029759535605
1.894E9 0.023234767668383158 -0.14569729610851537 0.9767652323316169 0.14569729610851537 0.9767652323316169 0.14569729610851537 0.023234767668383158 -0.14569729610851537
1.96875E9 0.021255436429653527 -0.1390355600284064 0.9787445635703467 0.1390355600284064 0.9787445635703467 0.1390355600284064 0.021255436429653527 -0.1390355600284064
2.0435E9 0.019486818735463388 -0.1327742730687951 0.9805131812645366 0.1327742730687951 0.9805131812645366 0.1327742730687951 0.019486818735463388 -0.1327742730687951
2.11825E9 0.017900981795010897 -0.12687524884243534 0.982099018204989 0.12687524884243534 0.982099018204989 0.12687524884243534 0.017900981795010897 -0.12687524884243534
2.193E9 0.016474463491694555 -0.12130485721430817 0.9835255365083053 0.12130485721430817 0.9835255365083053 0.12130485721430817 0.016474463491694555 -0.12130485721430817
2.26775E9 0.015187446325686426 -0.1160333895023587 0.9848125536743136 0.1160333895023587 0.9848125536743136 0.1160333895023587 0.015187446325686426 -0.1160333895023587
2.3425E9 0.014023102881617074 -0.11103452187195045 0.9859768971183829 0.11103452187195045 0.9859768971183829 0.11103452187195045 0.014023102881617074 -0.11103452187195045
2.41725E9 0.012967073571350338 -0.10628486084578873 0.9870329264286498 0.10628486084578873 0.9870329264286498 0.10628486084578873 0.012967073571350338 -0.10628486084578873
2.492E9 0.012007047154566039 -0.10176355746148595 0.9879929528454341 0.10176355746148595 0.9879929528454341 0.10176355746148595 0.012007047154566039 -0.10176355746148595
2.56675E9 0.011132421691542538 -0.09745197885827746 0.9888675783084574 0.09745197885827746 0.9888675783084574 0.09745197885827746 0.011132421691542538 -0.09745197885827746
2.6415E9 0.010334028870784042 -0.09333342797578215 0.9896659711292158 0.09333342797578215 0.9896659711292158 0.09333342797578215 0.010334028870784042 -0.09333342797578215
2.71625E9 0.009603908595891253 -0.0893929036362202 0.9903960914041087 0.0893929036362202 0.9903960914041087 0.0893929036362202 0.009603908595891253 -0.0893929036362202
2.791E9 0.008935123676758933 -0.08561689459919425 0.9910648763232413 0.08561689459919425 0.9910648763232413 0.08561689459919425 0.008935123676758933 -0.08561689459919425
2.86575E9 0.008321606710335308 -0.0819932022666648 0.9916783932896647 0.0819932022666648 0.9916783932896647 0.0819932022666648 0.008321606710335308 -0.0819932022666648
2.9405E9 0.007758032943077038 -0.07851078761305841 0.9922419670569228 0.07851078761305841 0.9922419670569228 0.07851078761305841 0.007758032943077038 -0.07851078761305841
3.01525E9 0.007239714216571363 -0.07515963865458732 0.9927602857834287 0.07515963865458732 0.9927602857834287 0.07515963865458732 0.007239714216571363 -0.07515963865458732
3.09E9 0.006762510108641691 -0.07193065538088089 0.9932374898913584 0.07193065538088089 0.9932374898913584 0.07193065538088089 0.006762510108641691 -0.07193065538088089
3.16475E9 0.006322753167462924 -0.06881554957431395 0.993677246832537 0.06881554957431395 0.993677246832537 0.06881554957431395 0.006322753167462924 -0.06881554957431395
3.2395E9 0.005917185749754665 -0.0658067573572935 0.9940828142502454 0.0658067573572935 0.9940828142502454 0.0658067573572935 0.005917185749754665 -0.0658067573572935
3.31425E9 0.005542906456235684 -0.06289736265106842 0.9944570935437643 0.06289736265106842 0.9944570935437643 0.06289736265106842 0.005542906456235684 -0.06289736265106842
3.389E9 0.005197324538418259 -0.060081030014305016 0.9948026754615819 0.060081030014305016 0.9948026754615819 0.060081030014305016 0.005197324538418259 -0.060081030014305016
3.46375E9 0.004878120953311184 -0.057351945566274765 0.9951218790466888 0.057351945566274765 0.9951218790466888 0.057351945566274765 0.004878120953311184 -0.057351945566274765
3.5385E9 0.004583214984022717 -0.05470476489662389 0.9954167850159773 0.05470476489662389 0.9954167850159773 0.05470476489662389 0.004583214984022717 -0.05470476489662389
3.61325E9 0.004310735537860457 -0.05213456702833437 0.9956892644621397 0.05213456702833437 0.9956892644621397 0.05213456702833437 0.004310735537860457 -0.05213456702833437
3.688E9 0.004058996389498883 -0.0496368136383471 0.9959410036105011 0.0496368136383471 0.9959410036105011 0.0496368136383471 0.004058996389498883 -0.0496368136383471
3.76275E9 0.003826474762997293 -0.04720731285605235 0.9961735252370028 0.04720731285605235 0.9961735252370028 0.04720731285605235 0.003826474762997293 -0.04720731285605235
3.8375E9 0.0036117927490141675 -0.04484218705726367 0.9963882072509858 0.04484218705726367 0.9963882072509858 0.04484218705726367 0.0036117927490141675 -0.04484218705726367
3.91225E9 0.003413701137250634 -0.04253784415348827 0.9965862988627493 0.04253784415348827 0.9965862988627493 0.04253784415348827 0.003413701137250634 -0.04253784415348827
3.987E9 0.003231065312709083 -0.040290951945847316 0.996768934687291 0.040290951945847316 0.996768934687291 0.040290951945847316 0.003231065312709083 -0.040290951945847316
4.06175E9 0.0030628529207226887 -0.03809841517197601 0.9969371470792773 0.03809841517197601 0.9969371470792773 0.03809841517197601 0.0030628529207226887 -0.03809841517197601
4.1365E9 0.0029081230522324765 -0.035957354924378473 0.9970918769477676 0.035957354924378473 0.9970918769477676 0.035957354924378473 0.0029081230522324765 -0.035957354924378473
4.21125E9 0.0027660167393171687 -0.03386509016145212 0.9972339832606827 0.03386509016145212 0.9972339832606827 0.03386509016145212 0.0027660167393171687 -0.03386509016145212
4.286E9 0.0026357485829987047 -0.03181912106891119 0.9973642514170011 0.03181912106891119 0.9973642514170011 0.03181912106891119 0.0026357485829987047 -0.03181912106891119
4.36075E9 0.002516599362041174 -0.02981711406061021 0.9974834006379588 0.02981711406061021 0.9974834006379588 0.02981711406061021 0.002516599362041174 -0.02981711406061021
4.4355E9 0.0024079094937882878 -0.027856888234610435 0.9975920905062118 0.027856888234610435 0.9975920905062118 0.027856888234610435 0.0024079094937882878 -0.027856888234610435
4.51025E9 0.002309073236816472 -0.025936403123424667 0.9976909267631838 0.025936403123424667 0.9976909267631838 0.025936403123424667 0.002309073236816472 -0.025936403123424667
4.585E9 0.002219533540942766 -0.02405374759728669 0.9977804664590572 0.02405374759728669 0.9977804664590572 0.02405374759728669 0.002219533540942766 -0.02405374759728669
4.65975E9 0.002138777463427953 -0.02220712979649613 0.9978612225365721 0.02220712979649613 0.9978612225365721 0.02220712979649613 0.002138777463427953 -0.02220712979649613
4.7345E9 0.0020663320814711217 -0.02039486798378665 0.9979336679185289 0.02039486798378665 0.9979336679185289 0.02039486798378665 0.0020663320814711217 -0.02039486798378665
4.80925E9 0.0020017608406424493 -0.018615382220592846 0.9979982391593576 0.018615382220592846 0.9979982391593576 0.018615382220592846 0.0020017608406424493 -0.018615382220592846
4.884E9 0.0019446602870257668 -0.016867186782329156 0.9980553397129744 0.016867186782329156 0.9980553397129744 0.016867186782329156 0.0019446602870257668 -0.016867186782329156
4.95875E9 0.0018946571377718698 -0.015148883237586352 0.9981053428622281 0.015148883237586352 0.9981053428622281 0.015148883237586352 0.0018946571377718698 -0.015148883237586352
5.0335E9 0.0018514056506879558 -0.013459154124696305 0.9981485943493122 0.013459154124696305 0.9981485943493122 0.013459154124696305 0.0018514056506879558 -0.013459154124696305
5.10825E9 0.0018145852585656752 -0.011796757166589678 0.9981854147414343 0.011796757166589678 0.9981854147414343 0.011796757166589678 0.0018145852585656752 -0.011796757166589678
5.183E9 0.0017838984383115723 -0.010160519971418203 0.9982161015616886 0.010160519971418203 0.9982161015616886 0.010160519971418203 0.0017838984383115723 -0.010160519971418203
5.25775E9 0.0017590687886982338 -0.008549335172159597 0.9982409312113016 0.008549335172159597 0.9982409312113016 0.008549335172159597 0.0017590687886982338 -0.008549335172159597
5.3325E9 0.0017398392937939518 -0.006962155963475268 0.9982601607062062 0.006962155963475268 0.9982601607062062 0.006962155963475268 0.0017398392937939518 -0.006962155963475268
5.40725E9 0.0017259707519295517 -0.00539799199853992 0.9982740292480704 0.00539799199853992 0.9982740292480704 0.00539799199853992 0.0017259707519295517 -0.00539799199853992
5.482E9 0.0017172403524877908 -0.003855905612487524 0.998282759647512 0.003855905612487524 0.998282759647512 0.003855905612487524 0.0017172403524877908 -0.003855905612487524
5.55675E9 0.0017134403849074398 -0.0023350083425856065 0.9982865596150926 0.0023350083425856065 0.9982865596150926 0.0023350083425856065 0.0017134403849074398 -0.0023350083425856065
5.6315E9 0.0017143770661267187 -8.344577183192622E-4 0.9982856229338734 8.344577183192622E-4 0.9982856229338734 8.344577183192622E-4 0.0017143770661267187 -8.344577183192622E-4
5.70625E9 0.0017198694742878596 6.46545702713555E-4 0.9982801305257122 -6.46545702713555E-4 0.9982801305257122 -6.46545702713555E-4 0.0017198694742878596 6.46545702713555E-4
5.781E9 0.0017297485779189817 0.002108761074779265 0.9982702514220811 -0.002108761074779265 0.9982702514220811 -0.002108761074779265 0.0017297485779189817 0.002108761074779265
5.85575E9 0.0017438563510292497 0.003552909799394973 0.9982561436489709 -0.003552909799394973 0.9982561436489709 -0.003552909799394973 0.0017438563510292497 0.003552909799394973
5.9305E9 0.0017620449656220937 0.004979677873750127 0.9982379550343778 -0.004979677873750127 0.9982379550343778 -0.004979677873750127 0.0017620449656220937 0.004979677873750127
6.00525E9 0.0017841760540694774 0.006389718068084617 0.9982158239459302 -0.006389718068084617 0.9982158239459302 -0.006389718068084617 0.0017841760540694774 0.006389718068084617
6.08E9 0.0018101200346151219 0.007783651946424914 0.9981898799653849 -0.007783651946424914 0.9981898799653849 -0.007783651946424914 0.0018101200346151219 0.007783651946424914
6.15475E9 0.001839755494001164 0.009162071743718473 0.9981602445059988 -0.009162071743718473 0.9981602445059988 -0.009162071743718473 0.001839755494001164 0.009162071743718473
6.2295E9 0.0018729686218536548 0.010525542111190347 0.9981270313781461 -0.010525542111190347 0.9981270313781461 -0.010525542111190347 0.0018729686218536548 0.010525542111190347
6.30425E9 0.001909652692028652 0.01187460174065519 0.9980903473079713 -0.01187460174065519 0.9980903473079713 -0.01187460174065519 0.001909652692028652 0.01187460174065519
6.379E9 0.0019497075866218491 0.013209764877538388 0.9980502924133782 -0.013209764877538388 0.9980502924133782 -0.013209764877538388 0.0019497075866218491 0.013209764877538388
6.45375E9 0.0019930393587889307 0.014531522731480666 0.9980069606412107 -0.014531522731480666 0.9980069606412107 -0.014531522731480666 0.0019930393587889307 0.014531522731480666
6.5285E9 0.0020395598309182555 0.01584034479261062 0.9979604401690818 -0.01584034479261062 0.9979604401690818 -0.01584034479261062 0.0020395598309182555 0.01584034479261062
6.60325E9 0.002089186225048041 0.017136680060854934 0.9979108137749522 -0.017136680060854934 0.9979108137749522 -0.017136680060854934 0.002089186225048041 0.017136680060854934
6.678E9 0.0021418408227325413 0.018420958195016695 0.9978581591772675 -0.018420958195016695 0.9978581591772675 -0.018420958195016695 0.0021418408227325413 0.018420958195016695
6.75275E9 0.002197450651840128 0.019693590587770596 0.9978025493481602 -0.019693590587770596 0.9978025493481602 -0.019693590587770596 0.002197450651840128 0.019693590587770596
6.8275E9 0.0022559471980149056 0.020954971372200835 0.997744052801985 -0.020954971372200835 0.997744052801985 -0.020954971372200835 0.0022559471980149056 0.020954971372200835
6.90225E9 0.002317266138756058 0.022205478365035072 0.9976827338612437 -0.022205478365035072 0.9976827338612437 -0.022205478365035072 0.002317266138756058 0.022205478365035072
6.977E9 0.0023813470982684544 0.023445473951297646 0.9976186529017312 -0.023445473951297646 0.9976186529017312 -0.023445473951297646 0.0023813470982684544 0.023445473951297646
7.05175E9 0.0024481334214170565 0.024675305914718757 0.9975518665785829 -0.024675305914718757 0.9975518665785829 -0.024675305914718757 0.0024481334214170565 0.024675305914718757
7.1265E9 0.0025175719652784975 0.025895308217882725 0.9974824280347216 -0.025895308217882725 0.9974824280347216 -0.025895308217882725 0.0025175719652784975 0.025895308217882725
7.20125E9 0.0025896129069282047 0.02710580173578075 0.997410387093072 -0.02710580173578075 0.997410387093072 -0.02710580173578075 0.0025896129069282047 0.02710580173578075
7.276E9 0.002664209566232104 0.02830709494614189 0.9973357904337679 -0.02830709494614189 0.9973357904337679 -0.02830709494614189 0.002664209566232104 0.02830709494614189
7.35075E9 0.00274131824253028 0.029499484579653495 0.9972586817574696 -0.029499484579653495 0.9972586817574696 -0.029499484579653495 0.00274131824253028 0.029499484579653495
7.4255E9 0.0028208980642070555 0.030683256232942383 0.9971791019357931 -0.030683256232942383 0.9971791019357931 -0.030683256232942383 0.0028208980642070555 0.030683256232942383
7.50025E9 0.0029029108502393107 0.03185868494696966 0.9970970891497606 -0.03185868494696966 0.9970970891497606 -0.03185868494696966 0.0029029108502393107 0.03185868494696966
7.575E9 0.002987320982903529 0.0330260357532945 0.9970126790170963 -0.0330260357532945 0.9970126790170963 -0.0330260357532945 0.002987320982903529 0.0330260357532945
7.64975E9 0.0030740952909029512 0.03418556419048025 0.9969259047090969 -0.03418556419048025 0.9969259047090969 -0.03418556419048025 0.0030740952909029512 0.03418556419048025
7.7245E9 0.0031632029422505154 0.03533751679275314 0.9968367970577493 -0.03533751679275314 0.9968367970577493 -0.03533751679275314 0.0031632029422505154 0.03533751679275314
7.79925E9 0.003254615346311404 0.03648213155287291 0.9967453846536887 -0.03648213155287291 0.9967453846536887 -0.03648213155287291 0.003254615346311404 0.03648213155287291
7.874E9 0.0033483060644721434 0.037619638361039556 0.9966516939355278 -0.037619638361039556 0.9966516939355278 -0.037619638361039556 0.0033483060644721434 0.037619638361039556
7.94875E9 0.0034442507289615372 0.03875025942153458 0.9965557492710384 -0.03875025942153458 0.9965557492710384 -0.03875025942153458 0.0034442507289615372 0.03875025942153458
8.0235E9 0.003542426969403421 0.03987420964868445 0.9964575730305966 -0.03987420964868445 0.9964575730305966 -0.03987420964868445 0.003542426969403421 0.03987420964868445
8.09825E9 0.003642814346732209 0.04099169704362926 0.9963571856532677 -0.04099169704362926 0.9963571856532677 -0.04099169704362926 0.003642814346732209 0.04099169704362926
8.173E9 0.0037453942941507337 0.04210292305328885 0.9962546057058493 -0.04210292305328885 0.9962546057058493 -0.04210292305328885 0.0037453942941507337 0.04210292305328885
8.24775E9 0.0038501500648556422 0.04320808291283216 0.9961498499351445 -0.04320808291283216 0.9961498499351445 -0.04320808291283216 0.0038501500648556422 0.04320808291283216
8.3225E9 0.003957066686299933 0.0443073659728816 0.9960429333137002 -0.0443073659728816 0.9960429333137002 -0.0443073659728816 0.003957066686299933 0.0443073659728816
8.39725E9 0.004066130920804772 0.04540095601261457 0.9959338690791953 -0.04540095601261457 0.9959338690791953 -0.04540095601261457 0.004066130920804772 0.04540095601261457
8.472E9 0.004177331232374518 0.046489031539863376 0.9958226687676256 -0.046489031539863376 0.9958226687676256 -0.046489031539863376 0.004177331232374518 0.046489031539863376
8.54675E9 0.004290657759610081 0.04757176607926028 0.99570934224039 -0.04757176607926028 0.99570934224039 -0.04757176607926028 0.004290657759610081 0.04757176607926028
