!Murata Part Number: GJM0225C1E220GB01
!These Parameters are Measured in Series Mode Connection
!       o--ll--o
!Port1            Port2
!       o------o
!Operation Temp=25[degC], DC Bias Voltage=0[V]
!Freq. Start=100[MHz] Stop=30[GHz], 401[Steps]
!Data Generated on Feb 1, 2023
# Hz S RI R 50
!Freq.(Hz) S11(Real) S11(Imag) S21(Real) S21(Imag) S12(Real) S12(Imag) S22(Real) S22(Imag)
1.0E8 0.34301152486269787 -0.4743283201863839 0.6569884751373022 0.4743283201863839 0.6569884751373022 0.4743283201863839 0.34301152486269787 -0.4743283201863839
1.7475E8 0.1455430093262376 -0.35195537857734394 0.8544569906737625 0.35195537857734394 0.8544569906737625 0.35195537857734394 0.1455430093262376 -0.35195537857734394
2.495E8 0.07672226771395407 -0.2651283178336542 0.923277732286046 0.2651283178336542 0.923277732286046 0.2651283178336542 0.07672226771395407 -0.2651283178336542
3.2425E8 0.04657639344365 -0.20934489825035893 0.9534236065563501 0.20934489825035893 0.9534236065563501 0.20934489825035893 0.04657639344365 -0.20934489825035893
3.99E8 0.03100060148146358 -0.17153197120250951 0.9689993985185364 0.17153197120250951 0.9689993985185364 0.17153197120250951 0.03100060148146358 -0.17153197120250951
4.7375E8 0.02198744276288007 -0.14440875290630642 0.97801255723712 0.14440875290630642 0.97801255723712 0.14440875290630642 0.02198744276288007 -0.14440875290630642
5.485E8 0.01633390493084303 -0.12402946898281832 0.9836660950691568 0.12402946898281832 0.9836660950691568 0.12402946898281832 0.01633390493084303 -0.12402946898281832
6.2325E8 0.012569589599423227 -0.10813993768534293 0.9874304104005768 0.10813993768534293 0.9874304104005768 0.10813993768534293 0.012569589599423227 -0.10813993768534293
6.98E8 0.009946026981055673 -0.0953765062418867 0.9900539730189443 0.0953765062418867 0.9900539730189443 0.0953765062418867 0.009946026981055673 -0.0953765062418867
7.7275E8 0.008050645622273483 -0.08487146411406557 0.9919493543777262 0.08487146411406557 0.9919493543777262 0.08487146411406557 0.008050645622273483 -0.08487146411406557
8.475E8 0.006641242316861939 -0.07604847067172578 0.993358757683138 0.07604847067172578 0.993358757683138 0.07604847067172578 0.006641242316861939 -0.07604847067172578
9.2225E8 0.005568203222504949 -0.06851059739208437 0.994431796777495 0.06851059739208437 0.994431796777495 0.06851059739208437 0.005568203222504949 -0.06851059739208437
9.97E8 0.0047351537055698965 -0.06197595137664394 0.99526484629443 0.06197595137664394 0.99526484629443 0.06197595137664394 0.0047351537055698965 -0.06197595137664394
1.07175E9 0.004077800384583293 -0.05623901186894291 0.9959221996154166 0.05623901186894291 0.9959221996154166 0.05623901186894291 0.004077800384583293 -0.05623901186894291
1.1465E9 0.0035519598699460496 -0.0511465103915923 0.9964480401300543 0.0511465103915923 0.9964480401300543 0.0511465103915923 0.0035519598699460496 -0.0511465103915923
1.22125E9 0.0031264859566070805 -0.04658187600757362 0.9968735140433931 0.04658187600757362 0.9968735140433931 0.04658187600757362 0.0031264859566070805 -0.04658187600757362
1.296E9 0.0027789328930074744 -0.042454907885000066 0.9972210671069925 0.042454907885000066 0.9972210671069925 0.042454907885000066 0.0027789328930074744 -0.042454907885000066
1.37075E9 0.0024928094208716447 -0.03869474025831907 0.9975071905791283 0.03869474025831907 0.9975071905791283 0.03869474025831907 0.0024928094208716447 -0.03869474025831907
1.4455E9 0.002255790566432048 -0.035244939931843265 0.9977442094335679 0.035244939931843265 0.9977442094335679 0.035244939931843265 0.002255790566432048 -0.035244939931843265
1.52025E9 0.0020585240118481847 -0.03206001995443729 0.9979414759881516 0.03206001995443729 0.9979414759881516 0.03206001995443729 0.0020585240118481847 -0.03206001995443729
1.595E9 0.0018938157220607739 -0.029102914982509276 0.9981061842779391 0.029102914982509276 0.9981061842779391 0.029102914982509276 0.0018938157220607739 -0.029102914982509276
1.66975E9 0.0017560633772080111 -0.02634312295517141 0.9982439366227922 0.02634312295517141 0.9982439366227922 0.02634312295517141 0.0017560633772080111 -0.02634312295517141
1.7445E9 0.0016408552446269902 -0.023755316881472546 0.9983591447553731 0.023755316881472546 0.9983591447553731 0.023755316881472546 0.0016408552446269902 -0.023755316881472546
1.81925E9 0.0015446816591989073 -0.021318293814838 0.9984553183408011 0.021318293814838 0.9984553183408011 0.021318293814838 0.0015446816591989073 -0.021318293814838
1.894E9 0.001464724503404165 -0.01901416932432871 0.9985352754965959 0.01901416932432871 0.9985352754965959 0.01901416932432871 0.001464724503404165 -0.01901416932432871
1.96875E9 0.0013987015792498677 -0.01682775316832605 0.99860129842075 0.01682775316832605 0.99860129842075 0.01682775316832605 0.0013987015792498677 -0.01682775316832605
2.0435E9 0.0013447501735055843 -0.014746060403310623 0.9986552498264942 0.014746060403310623 0.9986552498264942 0.014746060403310623 0.0013447501735055843 -0.014746060403310623
2.11825E9 0.001301338981278804 -0.012757924895199198 0.9986986610187212 0.012757924895199198 0.9986986610187212 0.012757924895199198 0.001301338981278804 -0.012757924895199198
2.193E9 0.0012672008006513011 -0.010853691086275732 0.9987327991993487 0.010853691086275732 0.9987327991993487 0.010853691086275732 0.0012672008006513011 -0.010853691086275732
2.26775E9 0.0012412806140853375 -0.009024966156959099 0.9987587193859148 0.009024966156959099 0.9987587193859148 0.009024966156959099 0.0012412806140853375 -0.009024966156959099
2.3425E9 0.0012226951884101679 -0.0072644192262434105 0.9987773048115897 0.0072644192262434105 0.9987773048115897 0.0072644192262434105 0.0012226951884101679 -0.0072644192262434105
2.41725E9 0.001210701382613633 -0.005565617501173628 0.9987892986173864 0.005565617501173628 0.9987892986173864 0.005565617501173628 0.001210701382613633 -0.005565617501173628
2.492E9 0.0012046710993542991 -0.0039228916807945696 0.9987953289006458 0.0039228916807945696 0.9987953289006458 0.0039228916807945696 0.0012046710993542991 -0.0039228916807945696
2.56675E9 0.001204071349496921 -0.0023312246943189468 0.9987959286505029 0.0023312246943189468 0.9987959286505029 0.0023312246943189468 0.001204071349496921 -0.0023312246943189468
2.6415E9 0.0012084482841184596 -7.86159180406481E-4 0.9987915517158814 7.86159180406481E-4 0.9987915517158814 7.86159180406481E-4 0.0012084482841184596 -7.86159180406481E-4
2.71625E9 0.0012174143293619648 7.162798838978902E-4 0.9987825856706379 -7.162798838978902E-4 0.9987825856706379 -7.162798838978902E-4 0.0012174143293619648 7.162798838978902E-4
2.791E9 0.001230637766397293 0.0021796502336249284 0.9987693622336027 -0.0021796502336249284 0.9987693622336027 -0.0021796502336249284 0.001230637766397293 0.0021796502336249284
2.86575E9 0.0012478342524897 0.0036071472899163997 0.9987521657475101 -0.0036071472899163997 0.9987521657475101 -0.0036071472899163997 0.0012478342524897 0.0036071472899163997
2.9405E9 0.0012687598944317183 0.00500165084977787 0.9987312401055682 -0.00500165084977787 0.9987312401055682 -0.00500165084977787 0.0012687598944317183 0.00500165084977787
3.01525E9 0.0012932055727344293 0.006365764931914241 0.9987067944272654 -0.006365764931914241 0.9987067944272654 -0.006365764931914241 0.0012932055727344293 0.006365764931914241
3.09E9 0.0013209922814201728 0.0077018519434914195 0.9986790077185799 -0.0077018519434914195 0.9986790077185799 -0.0077018519434914195 0.0013209922814201728 0.0077018519434914195
3.16475E9 0.0013519672993672542 0.009012062115589952 0.9986480327006328 -0.009012062115589952 0.9986480327006328 -0.009012062115589952 0.0013519672993672542 0.009012062115589952
3.2395E9 0.0013860010488349903 0.010298358983164752 0.998613998951165 -0.010298358983164752 0.998613998951165 -0.010298358983164752 0.0013860010488349903 0.010298358983164752
3.31425E9 0.0014229845279227504 0.011562541548471535 0.9985770154720772 -0.011562541548471535 0.9985770154720772 -0.011562541548471535 0.0014229845279227504 0.011562541548471535
3.389E9 0.0014628272284344269 0.01280626365756875 0.9985371727715657 -0.01280626365756875 0.9985371727715657 -0.01280626365756875 0.0014628272284344269 0.01280626365756875
3.46375E9 0.0015054554705505468 0.014031051031868951 0.9984945445294495 -0.014031051031868951 0.9984945445294495 -0.014031051031868951 0.0015054554705505468 0.014031051031868951
3.5385E9 0.0015508111021000721 0.015238316326373978 0.9984491888978998 -0.015238316326373978 0.9984491888978998 -0.015238316326373978 0.0015508111021000721 0.015238316326373978
3.61325E9 0.0015988505240548023 0.01642937252979599 0.9984011494759452 -0.01642937252979599 0.9984011494759452 -0.01642937252979599 0.0015988505240548023 0.01642937252979599
3.688E9 0.0016495440159415519 0.01760544497665012 0.9983504559840584 -0.01760544497665012 0.9983504559840584 -0.01760544497665012 0.0016495440159415519 0.01760544497665012
3.76275E9 0.0017028753458656223 0.01876768220562976 0.9982971246541341 -0.01876768220562976 0.9982971246541341 -0.01876768220562976 0.0017028753458656223 0.01876768220562976
3.8375E9 0.001758841660387221 0.01991716587066561 0.9982411583396128 -0.01991716587066561 0.9982411583396128 -0.01991716587066561 0.001758841660387221 0.01991716587066561
3.91225E9 0.0018174536602038078 0.02105491988994418 0.9981825463397964 -0.02105491988994418 0.9981825463397964 -0.02105491988994418 0.0018174536602038078 0.02105491988994418
3.987E9 0.0018787360791209062 0.022181919003089096 0.9981212639208792 -0.022181919003089096 0.9981212639208792 -0.022181919003089096 0.0018787360791209062 0.022181919003089096
4.06175E9 0.0019427284968968432 0.023299096897254096 0.9980572715031031 -0.023299096897254096 0.9980572715031031 -0.023299096897254096 0.0019427284968968432 0.023299096897254096
4.1365E9 0.002009486532152471 0.02440735405890314 0.9979905134678474 -0.02440735405890314 0.9979905134678474 -0.02440735405890314 0.002009486532152471 0.02440735405890314
4.21125E9 0.0020790834808458404 0.025507565509708355 0.997920916519154 -0.025507565509708355 0.997920916519154 -0.025507565509708355 0.0020790834808458404 0.025507565509708355
4.286E9 0.0021516124904333977 0.026600588592759426 0.9978483875095666 -0.026600588592759426 0.9978483875095666 -0.026600588592759426 0.0021516124904333977 0.026600588592759426
4.36075E9 0.002227189391987821 0.027687270989990388 0.9977728106080123 -0.027687270989990388 0.9977728106080123 -0.027687270989990388 0.002227189391987821 0.027687270989990388
4.4355E9 0.0023059563553278974 0.028768459174697367 0.9976940436446721 -0.028768459174697367 0.9976940436446721 -0.028768459174697367 0.0023059563553278974 0.028768459174697367
4.51025E9 0.002388086590077077 0.02984500753610864 0.9976119134099228 -0.02984500753610864 0.9976119134099228 -0.02984500753610864 0.002388086590077077 0.02984500753610864
4.585E9 0.00247379039493539 0.030917788458780304 0.9975262096050646 -0.030917788458780304 0.9975262096050646 -0.030917788458780304 0.00247379039493539 0.030917788458780304
4.65975E9 0.002563322967767403 0.031987703701659057 0.9974366770322327 -0.031987703701659057 0.9974366770322327 -0.031987703701659057 0.002563322967767403 0.031987703701659057
4.7345E9 0.002656994544431557 0.03305569750471252 0.9973430054555685 -0.03305569750471252 0.9973430054555685 -0.03305569750471252 0.002656994544431557 0.03305569750471252
4.80925E9 0.002755183655808199 0.03412277196128806 0.9972448163441918 -0.03412277196128806 0.9972448163441918 -0.03412277196128806 0.002755183655808199 0.03412277196128806
4.884E9 0.0028583546126726895 0.03519000533977839 0.9971416453873273 -0.03519000533977839 0.9971416453873273 -0.03519000533977839 0.0028583546126726895 0.03519000533977839
4.95875E9 0.002967080797293217 0.03625857422847171 0.9970329192027066 -0.03625857422847171 0.9970329192027066 -0.03625857422847171 0.002967080797293217 0.03625857422847171
5.0335E9 0.0030820760383760103 0.03732978062354168 0.9969179239616239 -0.03732978062354168 0.9969179239616239 -0.03732978062354168 0.0030820760383760103 0.03732978062354168
5.10825E9 0.0032042373996088174 0.038405085391744906 0.996795762600391 -0.038405085391744906 0.996795762600391 -0.038405085391744906 0.0032042373996088174 0.038405085391744906
5.183E9 0.0033347043292437273 0.03948614991879865 0.9966652956707562 -0.03948614991879865 0.9966652956707562 -0.03948614991879865 0.0033347043292437273 0.03948614991879865
5.25775E9 0.0034749416435809356 0.04057488818045391 0.9965250583564188 -0.04057488818045391 0.9965250583564188 -0.04057488818045391 0.0034749416435809356 0.04057488818045391
5.3325E9 0.0036268578334701838 0.04167353186323788 0.9963731421665298 -0.04167353186323788 0.9963731421665298 -0.04167353186323788 0.0036268578334701838 0.04167353186323788
5.40725E9 0.003792976693300969 0.04278471128124903 0.9962070233066991 -0.04278471128124903 0.9962070233066991 -0.04278471128124903 0.003792976693300969 0.04278471128124903
5.482E9 0.0039766910358230625 0.04391155408466322 0.996023308964177 -0.04391155408466322 0.996023308964177 -0.04391155408466322 0.0039766910358230625 0.04391155408466322
5.55675E9 0.004182645410892037 0.045057800659322474 0.9958173545891081 -0.045057800659322474 0.9958173545891081 -0.045057800659322474 0.004182645410892037 0.045057800659322474
5.6315E9 0.004417325958770513 0.046227926078748656 0.9955826740412295 -0.046227926078748656 0.9955826740412295 -0.046227926078748656 0.004417325958770513 0.046227926078748656
5.70625E9 0.004689990079073147 0.04742723466668789 0.9953100099209268 -0.04742723466668789 0.9953100099209268 -0.04742723466668789 0.004689990079073147 0.04742723466668789
5.781E9 0.005014164855320403 0.04866183265064964 0.9949858351446799 -0.04866183265064964 0.9949858351446799 -0.04866183265064964 0.005014164855320403 0.04866183265064964
5.85575E9 0.00541011193103477 0.04993823091171839 0.9945898880689652 -0.04993823091171839 0.9945898880689652 -0.04993823091171839 0.00541011193103477 0.04993823091171839
5.9305E9 0.005908938683757263 0.051261937085146383 0.9940910613162427 -0.051261937085146383 0.9940910613162427 -0.051261937085146383 0.005908938683757263 0.051261937085146383
6.00525E9 0.006559429803743766 0.05263337707712157 0.9934405701962562 -0.05263337707712157 0.9934405701962562 -0.05263337707712157 0.006559429803743766 0.05263337707712157
6.08E9 0.007438821911213476 0.05403683298212973 0.9925611780887866 -0.05403683298212973 0.9925611780887866 -0.05403683298212973 0.007438821911213476 0.05403683298212973
6.15475E9 0.008666406918084029 0.0554114635512498 0.991333593081916 -0.0554114635512498 0.991333593081916 -0.0554114635512498 0.008666406918084029 0.0554114635512498
6.2295E9 0.010403583766565826 0.056580085267151026 0.989596416233434 -0.056580085267151026 0.989596416233434 -0.056580085267151026 0.010403583766565826 0.056580085267151026
6.30425E9 0.01275997149297083 0.05710872019773612 0.9872400285070294 -0.05710872019773612 0.9872400285070294 -0.05710872019773612 0.01275997149297083 0.05710872019773612
6.379E9 0.015387179372207821 0.056233192926672365 0.9846128206277921 -0.056233192926672365 0.9846128206277921 -0.056233192926672365 0.015387179372207821 0.056233192926672365
6.45375E9 0.016876139209964724 0.05360079815647854 0.9831238607900353 -0.05360079815647854 0.9831238607900353 -0.05360079815647854 0.016876139209964724 0.05360079815647854
6.5285E9 0.01587220850172161 0.05075486562214638 0.9841277914982784 -0.05075486562214638 0.9841277914982784 -0.05075486562214638 0.01587220850172161 0.05075486562214638
6.60325E9 0.01335499499555389 0.04962829510659424 0.9866450050044462 -0.04962829510659424 0.9866450050044462 -0.04962829510659424 0.01335499499555389 0.04962829510659424
6.678E9 0.011005334562995532 0.05015304589514765 0.9889946654370046 -0.05015304589514765 0.9889946654370046 -0.05015304589514765 0.011005334562995532 0.05015304589514765
6.75275E9 0.009367685751264124 0.05145743688823056 0.9906323142487358 -0.05145743688823056 0.9906323142487358 -0.05145743688823056 0.009367685751264124 0.05145743688823056
6.8275E9 0.00833698297693823 0.05299548988052981 0.9916630170230618 -0.05299548988052981 0.9916630170230618 -0.05299548988052981 0.00833698297693823 0.05299548988052981
6.90225E9 0.007714748727837534 0.05454895178719693 0.9922852512721625 -0.05454895178719693 0.9922852512721625 -0.05454895178719693 0.007714748727837534 0.05454895178719693
6.977E9 0.0073540841483462896 0.05605000151689374 0.9926459158516536 -0.05605000151689374 0.9926459158516536 -0.05605000151689374 0.0073540841483462896 0.05605000151689374
7.05175E9 0.0071625412044189 0.05748628972214587 0.992837458795581 -0.05748628972214587 0.992837458795581 -0.05748628972214587 0.0071625412044189 0.05748628972214587
7.1265E9 0.007083852881707111 0.05886344847898689 0.9929161471182931 -0.05886344847898689 0.9929161471182931 -0.05886344847898689 0.007083852881707111 0.05886344847898689
7.20125E9 0.007083600597078118 0.06019166957779814 0.9929163994029218 -0.06019166957779814 0.9929163994029218 -0.06019166957779814 0.007083600597078118 0.06019166957779814
7.276E9 0.007140395184403195 0.06148122356648108 0.9928596048155971 -0.06148122356648108 0.9928596048155971 -0.06148122356648108 0.007140395184403195 0.06148122356648108
7.35075E9 0.007240743044428646 0.06274117338235471 0.9927592569555714 -0.06274117338235471 0.9927592569555714 -0.06274117338235471 0.007240743044428646 0.06274117338235471
7.4255E9 0.007376069937228363 0.06397918865716658 0.9926239300627716 -0.06397918865716658 0.9926239300627716 -0.06397918865716658 0.007376069937228363 0.06397918865716658
7.50025E9 0.007540973418993564 0.06520170567071086 0.9924590265810065 -0.06520170567071086 0.9924590265810065 -0.06520170567071086 0.007540973418993564 0.06520170567071086
7.575E9 0.007732179600523133 0.06641416566868617 0.9922678203994766 -0.06641416566868617 0.9922678203994766 -0.06641416566868617 0.007732179600523133 0.06641416566868617
7.64975E9 0.007947912298278534 0.0676212425481515 0.9920520877017213 -0.0676212425481515 0.9920520877017213 -0.0676212425481515 0.007947912298278534 0.0676212425481515
7.7245E9 0.008187510861532923 0.06882703553345808 0.9918124891384668 -0.06882703553345808 0.9918124891384668 -0.06882703553345808 0.008187510861532923 0.06882703553345808
7.79925E9 0.008451203660093911 0.07003522485328345 0.9915487963399061 -0.07003522485328345 0.9915487963399061 -0.07003522485328345 0.008451203660093911 0.07003522485328345
7.874E9 0.008739983864937292 0.07124919510501129 0.9912600161350626 -0.07124919510501129 0.9912600161350626 -0.07124919510501129 0.008739983864937292 0.07124919510501129
7.94875E9 0.009055557014463044 0.07247213192316335 0.9909444429855371 -0.07247213192316335 0.9909444429855371 -0.07247213192316335 0.009055557014463044 0.07247213192316335
8.0235E9 0.00940034357611012 0.07370709647788905 0.9905996564238898 -0.07370709647788905 0.9905996564238898 -0.07370709647788905 0.00940034357611012 0.07370709647788905
8.09825E9 0.009777528439646589 0.0749570805301578 0.9902224715603535 -0.0749570805301578 0.9902224715603535 -0.0749570805301578 0.009777528439646589 0.0749570805301578
8.173E9 0.010191155333003176 0.07622504260903233 0.9898088446669969 -0.07622504260903233 0.9898088446669969 -0.07622504260903233 0.010191155333003176 0.07622504260903233
8.24775E9 0.010646268882106407 0.07751392327194229 0.9893537311178936 -0.07751392327194229 0.9893537311178936 -0.07751392327194229 0.010646268882106407 0.07751392327194229
8.3225E9 0.011149111269525112 0.07882663402537209 0.9888508887304748 -0.07882663402537209 0.9888508887304748 -0.07882663402537209 0.011149111269525112 0.07882663402537209
8.39725E9 0.01170738471351683 0.08016600973839302 0.9882926152864832 -0.08016600973839302 0.9882926152864832 -0.08016600973839302 0.01170738471351683 0.08016600973839302
8.472E9 0.012330595611355105 0.08153470735242425 0.987669404388645 -0.08153470735242425 0.987669404388645 -0.08153470735242425 0.012330595611355105 0.08153470735242425
