!Murata Part Number: GJM0225C1E5R6BB01
!These Parameters are Measured in Series Mode Connection
!       o--ll--o
!Port1            Port2
!       o------o
!Operation Temp=25[degC], DC Bias Voltage=0[V]
!Freq. Start=100[MHz] Stop=30[GHz], 401[Steps]
!Data Generated on Feb 1, 2023
# Hz S RI R 50
!Freq.(Hz) S11(Real) S11(Imag) S21(Real) S21(Imag) S12(Real) S12(Imag) S22(Real) S22(Imag)
1.0E8 0.8896393308598245 -0.3130801482780021 0.11036066914017567 0.3130801482780021 0.11036066914017567 0.3130801482780021 0.8896393308598245 -0.3130801482780021
1.7475E8 0.725043446647819 -0.4460400860286229 0.2749565533521811 0.4460400860286229 0.2749565533521811 0.4460400860286229 0.725043446647819 -0.4460400860286229
2.495E8 0.5635934506676273 -0.4952928473420197 0.4364065493323726 0.4952928473420197 0.4364065493323726 0.4952928473420197 0.5635934506676273 -0.4952928473420197
3.2425E8 0.43276214739393176 -0.49461684355506114 0.5672378526060683 0.49461684355506114 0.5672378526060683 0.49461684355506114 0.43276214739393176 -0.49461684355506114
3.99E8 0.33441043596761866 -0.4707462111050028 0.6655895640323815 0.4707462111050028 0.6655895640323815 0.4707462111050028 0.33441043596761866 -0.4707462111050028
4.7375E8 0.26208801449414965 -0.438535063045699 0.7379119855058502 0.438535063045699 0.7379119855058502 0.438535063045699 0.26208801449414965 -0.438535063045699
5.485E8 0.20880471822902866 -0.40502030933275734 0.7911952817709711 0.40502030933275734 0.7911952817709711 0.40502030933275734 0.20880471822902866 -0.40502030933275734
6.2325E8 0.16906968402456996 -0.3731783178061659 0.8309303159754301 0.3731783178061659 0.8309303159754301 0.3731783178061659 0.16906968402456996 -0.3731783178061659
6.98E8 0.13896311845878123 -0.3440699035506084 0.8610368815412189 0.3440699035506084 0.8610368815412189 0.3440699035506084 0.13896311845878123 -0.3440699035506084
7.7275E8 0.11576764869449235 -0.3179025797636506 0.8842323513055076 0.3179025797636506 0.8842323513055076 0.3179025797636506 0.11576764869449235 -0.3179025797636506
8.475E8 0.09760535017080851 -0.29452875537463136 0.9023946498291915 0.29452875537463136 0.9023946498291915 0.29452875537463136 0.09760535017080851 -0.29452875537463136
9.2225E8 0.08316767956271008 -0.27367298419754343 0.9168323204372897 0.27367298419754343 0.9168323204372897 0.27367298419754343 0.08316767956271008 -0.27367298419754343
9.97E8 0.07153076103361944 -0.25503262174301666 0.9284692389663806 0.25503262174301666 0.9284692389663806 0.25503262174301666 0.07153076103361944 -0.25503262174301666
1.07175E9 0.06203243034462667 -0.23831996026542349 0.9379675696553733 0.23831996026542349 0.9379675696553733 0.23831996026542349 0.06203243034462667 -0.23831996026542349
1.1465E9 0.054190732290140306 -0.22327759095746155 0.9458092677098598 0.22327759095746155 0.9458092677098598 0.22327759095746155 0.054190732290140306 -0.22327759095746155
1.22125E9 0.04764956091759803 -0.20968179913615168 0.9523504390824019 0.20968179913615168 0.9523504390824019 0.20968179913615168 0.04764956091759803 -0.20968179913615168
1.296E9 0.042142000178011056 -0.19734089751720077 0.9578579998219892 0.19734089751720077 0.9578579998219892 0.19734089751720077 0.042142000178011056 -0.19734089751720077
1.37075E9 0.03746527212753096 -0.18609169485119215 0.962534727872469 0.18609169485119215 0.962534727872469 0.18609169485119215 0.03746527212753096 -0.18609169485119215
1.4455E9 0.033463375645900593 -0.1757955460990378 0.9665366243540993 0.1757955460990378 0.9665366243540993 0.1757955460990378 0.033463375645900593 -0.1757955460990378
1.52025E9 0.030014884370687903 -0.16633460204589748 0.969985115629312 0.16633460204589748 0.969985115629312 0.16633460204589748 0.030014884370687903 -0.16633460204589748
1.595E9 0.027024252242342065 -0.15760848762400978 0.9729757477576578 0.15760848762400978 0.9729757477576578 0.15760848762400978 0.027024252242342065 -0.15760848762400978
1.66975E9 0.024415536258128603 -0.14953146045139043 0.9755844637418712 0.14953146045139043 0.9755844637418712 0.14953146045139043 0.024415536258128603 -0.14953146045139043
1.7445E9 0.022127807317785426 -0.1420300244972837 0.9778721926822145 0.1420300244972837 0.9778721926822145 0.1420300244972837 0.022127807317785426 -0.1420300244972837
1.81925E9 0.020111755243775342 -0.1350409452383166 0.9798882447562244 0.1350409452383166 0.9798882447562244 0.1350409452383166 0.020111755243775342 -0.1350409452383166
1.894E9 0.018327149050505663 -0.12850960631459996 0.9816728509494944 0.12850960631459996 0.9816728509494944 0.12850960631459996 0.018327149050505663 -0.12850960631459996
1.96875E9 0.01674091695715342 -0.12238865096680533 0.9832590830428467 0.12238865096680533 0.9832590830428467 0.12238865096680533 0.01674091695715342 -0.12238865096680533
2.0435E9 0.015325680512207012 -0.11663685840196213 0.984674319487793 0.11663685840196213 0.984674319487793 0.11663685840196213 0.015325680512207012 -0.11663685840196213
2.11825E9 0.014058624985368947 -0.11121821288893556 0.9859413750146312 0.11121821288893556 0.9859413750146312 0.11121821288893556 0.014058624985368947 -0.11121821288893556
2.193E9 0.012920621253310926 -0.10610113059983856 0.9870793787466889 0.10610113059983856 0.9870793787466889 0.10610113059983856 0.012920621253310926 -0.10610113059983856
2.26775E9 0.0118955375534937 -0.10125781553376637 0.9881044624465063 0.10125781553376637 0.9881044624465063 0.10125781553376637 0.0118955375534937 -0.10125781553376637
2.3425E9 0.010969695859502124 -0.09666372118659786 0.9890303041404978 0.09666372118659786 0.9890303041404978 0.09666372118659786 0.010969695859502124 -0.09666372118659786
2.41725E9 0.010131439342193809 -0.09229709902493693 0.9898685606578062 0.09229709902493693 0.9898685606578062 0.09229709902493693 0.010131439342193809 -0.09229709902493693
2.492E9 0.009370785837267564 -0.08813861840196527 0.9906292141627324 0.08813861840196527 0.9906292141627324 0.08813861840196527 0.009370785837267564 -0.08813861840196527
2.56675E9 0.00867914840390278 -0.08417104544859699 0.9913208515960974 0.08417104544859699 0.9913208515960974 0.08417104544859699 0.00867914840390278 -0.08417104544859699
2.6415E9 0.00804910859274733 -0.08037897080713262 0.9919508914072528 0.08037897080713262 0.9919508914072528 0.08037897080713262 0.00804910859274733 -0.08037897080713262
2.71625E9 0.007474231404575955 -0.076748577953042 0.992525768595424 0.076748577953042 0.992525768595424 0.076748577953042 0.007474231404575955 -0.076748577953042
2.791E9 0.006948913435995546 -0.07326744536262246 0.9930510865640045 0.07326744536262246 0.9930510865640045 0.07326744536262246 0.006948913435995546 -0.07326744536262246
2.86575E9 0.006468257604064221 -0.06992437700294683 0.9935317423959358 0.06992437700294683 0.9935317423959358 0.06992437700294683 0.006468257604064221 -0.06992437700294683
2.9405E9 0.00602796928080703 -0.06670925660454166 0.993972030719193 0.06670925660454166 0.993972030719193 0.06670925660454166 0.00602796928080703 -0.06670925660454166
3.01525E9 0.005624269768933056 -0.06361292197368285 0.994375730231067 0.06361292197368285 0.994375730231067 0.06361292197368285 0.005624269768933056 -0.06361292197368285
3.09E9 0.005253823896999851 -0.06062705624758369 0.9947461761030002 0.06062705624758369 0.9947461761030002 0.06062705624758369 0.005253823896999851 -0.06062705624758369
3.16475E9 0.0049136791683593315 -0.05774409352189108 0.9950863208316406 0.05774409352189108 0.9950863208316406 0.05774409352189108 0.0049136791683593315 -0.05774409352189108
3.2395E9 0.004601214409575836 -0.05495713670950068 0.9953987855904242 0.05495713670950068 0.9953987855904242 0.05495713670950068 0.004601214409575836 -0.05495713670950068
3.31425E9 0.004314096264890803 -0.05225988584157752 0.9956859037351092 0.05225988584157752 0.9956859037351092 0.05225988584157752 0.004314096264890803 -0.05225988584157752
3.389E9 0.004050242199346179 -0.04964657531082349 0.9959497578006538 0.04964657531082349 0.9959497578006538 0.04964657531082349 0.004050242199346179 -0.04964657531082349
3.46375E9 0.0038077889236613183 -0.04711191879540845 0.9961922110763388 0.04711191879540845 0.9961922110763388 0.04711191879540845 0.0038077889236613183 -0.04711191879540845
3.5385E9 0.0035850653535030256 -0.0446510607991369 0.9964149346464971 0.0446510607991369 0.9964149346464971 0.0446510607991369 0.0035850653535030256 -0.0446510607991369
3.61325E9 0.0033805693755358346 -0.04225953390700353 0.9966194306244642 0.04225953390700353 0.9966194306244642 0.04225953390700353 0.0033805693755358346 -0.04225953390700353
3.688E9 0.0031929478211295843 -0.03993322099144149 0.9968070521788704 0.03993322099144149 0.9968070521788704 0.03993322099144149 0.0031929478211295843 -0.03993322099144149
3.76275E9 0.003020979152418964 -0.03766832171824741 0.996979020847581 0.03766832171824741 0.996979020847581 0.03766832171824741 0.003020979152418964 -0.03766832171824741
3.8375E9 0.002863558449656164 -0.03546132279636344 0.997136441550344 0.03546132279636344 0.997136441550344 0.03546132279636344 0.002863558449656164 -0.03546132279636344
3.91225E9 0.0027196843574492572 -0.033308971495661914 0.9972803156425506 0.033308971495661914 0.9972803156425506 0.033308971495661914 0.0027196843574492572 -0.033308971495661914
3.987E9 0.002588447703646761 -0.031208252024239776 0.9974115522963533 0.031208252024239776 0.9974115522963533 0.031208252024239776 0.002588447703646761 -0.031208252024239776
4.06175E9 0.0024690215507610423 -0.029156364413638176 0.9975309784492391 0.029156364413638176 0.9975309784492391 0.029156364413638176 0.0024690215507610423 -0.029156364413638176
4.1365E9 0.0023606524778541364 -0.027150705608612588 0.9976393475221454 0.027150705608612588 0.9976393475221454 0.027150705608612588 0.0023606524778541364 -0.027150705608612588
4.21125E9 0.0022626529222744916 -0.025188852499031668 0.9977373470777253 0.025188852499031668 0.9977373470777253 0.025188852499031668 0.0022626529222744916 -0.025188852499031668
4.286E9 0.0021743944367558386 -0.023268546666361384 0.9978256055632441 0.023268546666361384 0.9978256055632441 0.023268546666361384 0.0021743944367558386 -0.023268546666361384
4.36075E9 0.002095301739149504 -0.02138768064697488 0.9979046982608505 0.02138768064697488 0.9979046982608505 0.02138768064697488 0.002095301739149504 -0.02138768064697488
4.4355E9 0.0020248474502457927 -0.019544285540022473 0.9979751525497543 0.019544285540022473 0.9979751525497543 0.019544285540022473 0.0020248474502457927 -0.019544285540022473
4.51025E9 0.001962547430383973 -0.017736519809474674 0.998037452569616 0.017736519809474674 0.998037452569616 0.017736519809474674 0.001962547430383973 -0.017736519809474674
4.585E9 0.0019079566383674463 -0.015962659148769348 0.9980920433616325 0.015962659148769348 0.9980920433616325 0.015962659148769348 0.0019079566383674463 -0.015962659148769348
4.65975E9 0.0018606654470089017 -0.014221087292717557 0.998139334552991 0.014221087292717557 0.998139334552991 0.014221087292717557 0.0018606654470089017 -0.014221087292717557
4.7345E9 0.0018202963587701404 -0.012510287675342359 0.9981797036412299 0.012510287675342359 0.9981797036412299 0.012510287675342359 0.0018202963587701404 -0.012510287675342359
4.80925E9 0.001786501072711313 -0.010828835844464247 0.9982134989272885 0.010828835844464247 0.9982134989272885 0.010828835844464247 0.001786501072711313 -0.010828835844464247
4.884E9 0.0017589578605534712 -0.009175392554382693 0.9982410421394466 0.009175392554382693 0.9982410421394466 0.009175392554382693 0.0017589578605534712 -0.009175392554382693
4.95875E9 0.0017373692152745685 -0.0075486974671647115 0.9982626307847254 0.0075486974671647115 0.9982626307847254 0.0075486974671647115 0.0017373692152745685 -0.0075486974671647115
5.0335E9 0.0017214597404582067 -0.00594756340103514 0.9982785402595418 0.00594756340103514 0.9982785402595418 0.00594756340103514 0.0017214597404582067 -0.00594756340103514
5.10825E9 0.0017109742527250283 -0.004370871071333209 0.998289025747275 0.004370871071333209 0.998289025747275 0.004370871071333209 0.0017109742527250283 -0.004370871071333209
5.183E9 0.00170567607310588 -0.0028175642755974514 0.998294323926894 0.0028175642755974514 0.998294323926894 0.0028175642755974514 0.00170567607310588 -0.0028175642755974514
5.25775E9 0.0017053454862527872 -0.0012866454796848937 0.9982946545137472 0.0012866454796848937 0.9982946545137472 0.0012866454796848937 0.0017053454862527872 -0.0012866454796848937
5.3325E9 0.0017097783490028177 2.228282334786461E-4 0.9982902216509972 -2.228282334786461E-4 0.9982902216509972 -2.228282334786461E-4 0.0017097783490028177 2.228282334786461E-4
5.40725E9 0.0017187848320734855 0.0017117488867926856 0.9982812151679266 -0.0017117488867926856 0.9982812151679266 -0.0017117488867926856 0.0017187848320734855 0.0017117488867926856
5.482E9 0.0017321882806287455 0.003180961034161464 0.9982678117193713 -0.003180961034161464 0.9982678117193713 -0.003180961034161464 0.0017321882806287455 0.003180961034161464
5.55675E9 0.0017498241811559133 0.00463126491539046 0.9982501758188441 -0.00463126491539046 0.9982501758188441 -0.00463126491539046 0.0017498241811559133 0.00463126491539046
5.6315E9 0.0017715392235733013 0.006063419365395265 0.9982284607764266 -0.006063419365395265 0.9982284607764266 -0.006063419365395265 0.0017715392235733013 0.006063419365395265
5.70625E9 0.0017971904487772226 0.007478144499807441 0.9982028095512229 -0.007478144499807441 0.9982028095512229 -0.007478144499807441 0.0017971904487772226 0.007478144499807441
5.781E9 0.0018266444729621988 0.008876124196834619 0.9981733555270379 -0.008876124196834619 0.9981733555270379 -0.008876124196834619 0.0018266444729621988 0.008876124196834619
5.85575E9 0.001859776781032091 0.010258008393254595 0.9981402232189679 -0.010258008393254595 0.9981402232189679 -0.010258008393254595 0.001859776781032091 0.010258008393254595
5.9305E9 0.0018964710822819667 0.011624415210664261 0.9981035289177181 -0.011624415210664261 0.9981035289177181 -0.011624415210664261 0.0018964710822819667 0.011624415210664261
6.00525E9 0.0019366187222870845 0.012975932926537424 0.998063381277713 -0.012975932926537424 0.998063381277713 -0.012975932926537424 0.0019366187222870845 0.012975932926537424
6.08E9 0.0019801181456006608 0.01431312180324901 0.9980198818543994 -0.01431312180324901 0.9980198818543994 -0.01431312180324901 0.0019801181456006608 0.01431312180324901
6.15475E9 0.00202687440444791 0.015636515786973535 0.997973125595552 -0.015636515786973535 0.997973125595552 -0.015636515786973535 0.00202687440444791 0.015636515786973535
6.2295E9 0.0020767987091208683 0.01694662408725183 0.9979232012908792 -0.01694662408725183 0.9979232012908792 -0.01694662408725183 0.0020767987091208683 0.01694662408725183
6.30425E9 0.002129808016235273 0.018243932647018922 0.9978701919837645 -0.018243932647018922 0.9978701919837645 -0.018243932647018922 0.002129808016235273 0.018243932647018922
6.379E9 0.002185824651415302 0.01952890551199118 0.9978141753485844 -0.01952890551199118 0.9978141753485844 -0.01952890551199118 0.002185824651415302 0.01952890551199118
6.45375E9 0.0022447759633305395 0.020801986107505888 0.9977552240366695 -0.020801986107505888 0.9977552240366695 -0.020801986107505888 0.0022447759633305395 0.020801986107505888
6.5285E9 0.0023065940063282577 0.022063598430184423 0.9976934059936716 -0.022063598430184423 0.9976934059936716 -0.022063598430184423 0.0023065940063282577 0.022063598430184423
6.60325E9 0.002371215249187568 0.023314148161139678 0.9976287847508127 -0.023314148161139678 0.9976287847508127 -0.023314148161139678 0.002371215249187568 0.023314148161139678
6.678E9 0.0024385803077747836 0.02455402370686283 0.9975614196922253 -0.02455402370686283 0.9975614196922253 -0.02455402370686283 0.0024385803077747836 0.02455402370686283
6.75275E9 0.002508633699605188 0.025783597173397614 0.9974913663003949 -0.025783597173397614 0.9974913663003949 -0.025783597173397614 0.002508633699605188 0.025783597173397614
6.8275E9 0.002581323618518346 0.02700322527893248 0.9974186763814815 -0.02700322527893248 0.9974186763814815 -0.02700322527893248 0.002581323618518346 0.02700322527893248
6.90225E9 0.002656601727855408 0.028213250209512833 0.9973433982721446 -0.028213250209512833 0.9973433982721446 -0.028213250209512833 0.002656601727855408 0.028213250209512833
6.977E9 0.00273442297068965 0.02941400042218504 0.9972655770293105 -0.02941400042218504 0.9972655770293105 -0.02941400042218504 0.00273442297068965 0.02941400042218504
7.05175E9 0.0028147453958082716 0.030605791399533854 0.9971852546041916 -0.030605791399533854 0.9971852546041916 -0.030605791399533854 0.0028147453958082716 0.030605791399533854
7.1265E9 0.002897529998275942 0.03178892635925515 0.997102470001724 -0.03178892635925515 0.997102470001724 -0.03178892635925515 0.002897529998275942 0.03178892635925515
7.20125E9 0.0029827405735307275 0.03296369692211916 0.9970172594264695 -0.03296369692211916 0.9970172594264695 -0.03296369692211916 0.0029827405735307275 0.03296369692211916
7.276E9 0.003070343584072058 0.034130383741417025 0.9969296564159278 -0.034130383741417025 0.9969296564159278 -0.034130383741417025 0.003070343584072058 0.034130383741417025
7.35075E9 0.0031603080378999784 0.035289257096747684 0.9968396919621 -0.035289257096747684 0.9968396919621 -0.035289257096747684 0.0031603080378999784 0.035289257096747684
7.4255E9 0.003252605377955989 0.036440577454787085 0.9967473946220442 -0.036440577454787085 0.9967473946220442 -0.036440577454787085 0.003252605377955989 0.036440577454787085
7.50025E9 0.003347209381899698 0.037584595999487956 0.9966527906181004 -0.037584595999487956 0.9966527906181004 -0.037584595999487956 0.003347209381899698 0.037584595999487956
7.575E9 0.003444096071632978 0.03872155513398165 0.996555903928367 -0.03872155513398165 0.996555903928367 -0.03872155513398165 0.003444096071632978 0.03872155513398165
7.64975E9 0.003543243632055469 0.03985168895629412 0.9964567563679447 -0.03985168895629412 0.9964567563679447 -0.03985168895629412 0.003543243632055469 0.03985168895629412
7.7245E9 0.0036446323386028446 0.040975223710844604 0.9963553676613971 -0.040975223710844604 0.9963553676613971 -0.040975223710844604 0.0036446323386028446 0.040975223710844604
7.79925E9 0.003748244493182996 0.04209237821756404 0.996251755506817 -0.04209237821756404 0.996251755506817 -0.04209237821756404 0.003748244493182996 0.04209237821756404
7.874E9 0.003854064368185931 0.04320336428035384 0.996145935631814 -0.04320336428035384 0.996145935631814 -0.04320336428035384 0.003854064368185931 0.04320336428035384
7.94875E9 0.003962078158301453 0.044308387076498715 0.9960379218416987 -0.044308387076498715 0.9960379218416987 -0.044308387076498715 0.003962078158301453 0.044308387076498715
8.0235E9 0.004072273939935282 0.04540764552855377 0.9959277260600646 -0.04540764552855377 0.9959277260600646 -0.04540764552855377 0.004072273939935282 0.04540764552855377
8.09825E9 0.004184641638069636 0.046501332660140206 0.9958153583619302 -0.046501332660140206 0.9958153583619302 -0.046501332660140206 0.004184641638069636 0.046501332660140206
8.173E9 0.004299173000469429 0.04758963593700984 0.9957008269995307 -0.04758963593700984 0.9957008269995307 -0.04758963593700984 0.004299173000469429 0.04758963593700984
8.24775E9 0.004415861579190424 0.0486727375946718 0.9955841384208096 -0.0486727375946718 0.9955841384208096 -0.0486727375946718 0.004415861579190424 0.0486727375946718
8.3225E9 0.00453470271940195 0.04975081495381763 0.9954652972805981 -0.04975081495381763 0.9954652972805981 -0.04975081495381763 0.00453470271940195 0.04975081495381763
8.39725E9 0.0046556935555946 0.050824040724731546 0.9953443064444052 -0.050824040724731546 0.9953443064444052 -0.050824040724731546 0.0046556935555946 0.050824040724731546
8.472E9 0.004778833015303536 0.05189258330183019 0.9952211669846966 -0.05189258330183019 0.9952211669846966 -0.05189258330183019 0.004778833015303536 0.05189258330183019
8.54675E9 0.004904121830541637 0.052956607049443306 0.9950958781694584 -0.052956607049443306 0.9950958781694584 -0.052956607049443306 0.004904121830541637 0.052956607049443306
