!Murata Part Number: GJM0225C1E2R1BB01
!These Parameters are Measured in Series Mode Connection
!       o--ll--o
!Port1            Port2
!       o------o
!Operation Temp=25[degC], DC Bias Voltage=0[V]
!Freq. Start=100[MHz] Stop=30[GHz], 401[Steps]
!Data Generated on Feb 1, 2023
# Hz S RI R 50
!Freq.(Hz) S11(Real) S11(Imag) S21(Real) S21(Imag) S12(Real) S12(Imag) S22(Real) S22(Imag)
1.0E8 0.9828527682580366 -0.1296970007392268 0.017147231741963476 0.1296970007392268 0.017147231741963476 0.1296970007392268 0.9828527682580366 -0.1296970007392268
1.7475E8 0.9493954175269805 -0.2189740581396079 0.05060458247301955 0.2189740581396079 0.05060458247301955 0.2189740581396079 0.9493954175269805 -0.2189740581396079
2.495E8 0.901930103091088 -0.2971022353085186 0.09806989690891205 0.2971022353085186 0.09806989690891205 0.2971022353085186 0.901930103091088 -0.2971022353085186
3.2425E8 0.8447191271204865 -0.361773004616779 0.15528087287951353 0.361773004616779 0.15528087287951353 0.361773004616779 0.8447191271204865 -0.361773004616779
3.99E8 0.7820485815168632 -0.41236235286141243 0.21795141848313693 0.41236235286141243 0.21795141848313693 0.41236235286141243 0.7820485815168632 -0.41236235286141243
4.7375E8 0.7176272877716398 -0.4495688501909177 0.28237271222836013 0.4495688501909177 0.28237271222836013 0.4495688501909177 0.7176272877716398 -0.4495688501909177
5.485E8 0.654293731333714 -0.47491967795329554 0.3457062686662859 0.47491967795329554 0.3457062686662859 0.47491967795329554 0.654293731333714 -0.47491967795329554
6.2325E8 0.5939816993068474 -0.4903157502940358 0.4060183006931524 0.4903157502940358 0.4060183006931524 0.4903157502940358 0.5939816993068474 -0.4903157502940358
6.98E8 0.5378415664751827 -0.4976991555427769 0.4621584335248173 0.4976991555427769 0.4621584335248173 0.4976991555427769 0.5378415664751827 -0.4976991555427769
7.7275E8 0.4864223987106063 -0.49885362648083936 0.5135776012893938 0.49885362648083936 0.5135776012893938 0.49885362648083936 0.4864223987106063 -0.49885362648083936
8.475E8 0.4398532786488199 -0.49531130187468453 0.5601467213511802 0.49531130187468453 0.5601467213511802 0.49531130187468453 0.4398532786488199 -0.49531130187468453
9.2225E8 0.3979945026224791 -0.488329730665814 0.6020054973775207 0.488329730665814 0.6020054973775207 0.488329730665814 0.3979945026224791 -0.488329730665814
9.97E8 0.36055084136879617 -0.4789082224525643 0.6394491586312039 0.4789082224525643 0.6394491586312039 0.4789082224525643 0.36055084136879617 -0.4789082224525643
1.07175E9 0.32715009213076857 -0.46782203924296323 0.6728499078692315 0.46782203924296323 0.6728499078692315 0.46782203924296323 0.32715009213076857 -0.46782203924296323
1.1465E9 0.29739415362727456 -0.4556614784513077 0.7026058463727255 0.4556614784513077 0.7026058463727255 0.4556614784513077 0.29739415362727456 -0.4556614784513077
1.22125E9 0.27089015516339254 -0.442869051145454 0.7291098448366076 0.442869051145454 0.7291098448366076 0.442869051145454 0.27089015516339254 -0.442869051145454
1.296E9 0.24726795939032617 -0.4297718080067429 0.7527320406096738 0.4297718080067429 0.7527320406096738 0.4297718080067429 0.24726795939032617 -0.4297718080067429
1.37075E9 0.2261887985217623 -0.41660801860589713 0.7738112014782377 0.41660801860589713 0.7738112014782377 0.41660801860589713 0.2261887985217623 -0.41660801860589713
1.4455E9 0.20734839865507895 -0.40354847915747893 0.7926516013449211 0.40354847915747893 0.7926516013449211 0.40354847915747893 0.20734839865507895 -0.40354847915747893
1.52025E9 0.19047684897048825 -0.39071316610794166 0.8095231510295117 0.39071316610794166 0.8095231510295117 0.39071316610794166 0.19047684897048825 -0.39071316610794166
1.595E9 0.17533667913211695 -0.3781840631198839 0.8246633208678829 0.3781840631198839 0.8246633208678829 0.3781840631198839 0.17533667913211695 -0.3781840631198839
1.66975E9 0.16172006255169738 -0.3660149417127608 0.8382799374483025 0.3660149417127608 0.8382799374483025 0.3660149417127608 0.16172006255169738 -0.3660149417127608
1.7445E9 0.14944570090427414 -0.3542387666336973 0.8505542990957259 0.3542387666336973 0.8505542990957259 0.3542387666336973 0.14944570090427414 -0.3542387666336973
1.81925E9 0.1383557113670815 -0.34287327444749266 0.8616442886329184 0.34287327444749266 0.8616442886329184 0.34287327444749266 0.1383557113670815 -0.34287327444749266
1.894E9 0.12831269072234802 -0.3319251599474426 0.871687309277652 0.3319251599474426 0.871687309277652 0.3319251599474426 0.12831269072234802 -0.3319251599474426
1.96875E9 0.119197040019767 -0.3213932079952576 0.8808029599802331 0.3213932079952576 0.8808029599802331 0.3213932079952576 0.119197040019767 -0.3213932079952576
2.0435E9 0.11090457964420604 -0.3112706296873789 0.8890954203557941 0.3112706296873789 0.8890954203557941 0.3112706296873789 0.11090457964420604 -0.3112706296873789
2.11825E9 0.10334445389010077 -0.30154679971835824 0.8966555461098992 0.30154679971835824 0.8966555461098992 0.30154679971835824 0.10334445389010077 -0.30154679971835824
2.193E9 0.09643730771535378 -0.2922085438379102 0.9035626922846463 0.2922085438379102 0.9035626922846463 0.2922085438379102 0.09643730771535378 -0.2922085438379102
2.26775E9 0.09011371059584053 -0.2832410886398502 0.9098862894041593 0.2832410886398502 0.9098862894041593 0.2832410886398502 0.09011371059584053 -0.2832410886398502
2.3425E9 0.0843127997606581 -0.2746287581278854 0.915687200239342 0.2746287581278854 0.915687200239342 0.2746287581278854 0.0843127997606581 -0.2746287581278854
2.41725E9 0.07898111533427461 -0.26635548053486563 0.9210188846657253 0.26635548053486563 0.9210188846657253 0.26635548053486563 0.07898111533427461 -0.26635548053486563
2.492E9 0.07407160168028441 -0.25840515309879597 0.9259283983197154 0.25840515309879597 0.9259283983197154 0.25840515309879597 0.07407160168028441 -0.25840515309879597
2.56675E9 0.06954275171220506 -0.2507619006512974 0.9304572482877949 0.2507619006512974 0.9304572482877949 0.2507619006512974 0.06954275171220506 -0.2507619006512974
2.6415E9 0.06535787363034043 -0.24341025497971475 0.9346421263696596 0.24341025497971475 0.9346421263696596 0.24341025497971475 0.06535787363034043 -0.24341025497971475
2.71625E9 0.06148446219191189 -0.23633527524527517 0.938515537808088 0.23633527524527517 0.938515537808088 0.23633527524527517 0.06148446219191189 -0.23633527524527517
2.791E9 0.05789365908494757 -0.22952262472127755 0.9421063409150524 0.22952262472127755 0.9421063409150524 0.22952262472127755 0.05789365908494757 -0.22952262472127755
2.86575E9 0.054559789192271585 -0.2229586153407918 0.9454402108077284 0.2229586153407918 0.9454402108077284 0.2229586153407918 0.054559789192271585 -0.2229586153407918
2.9405E9 0.05145996148249129 -0.21663022870116883 0.9485400385175086 0.21663022870116883 0.9485400385175086 0.21663022870116883 0.05145996148249129 -0.21663022870116883
3.01525E9 0.04857372495704346 -0.2105251200299475 0.9514262750429564 0.2105251200299475 0.9514262750429564 0.2105251200299475 0.04857372495704346 -0.2105251200299475
3.09E9 0.04588277153570286 -0.20463160999944036 0.9541172284642971 0.20463160999944036 0.9541172284642971 0.20463160999944036 0.04588277153570286 -0.20463160999944036
3.16475E9 0.04337067900255556 -0.19893866805526866 0.9566293209974446 0.19893866805526866 0.9566293209974446 0.19893866805526866 0.04337067900255556 -0.19893866805526866
3.2395E9 0.04102268818668193 -0.19343588999995373 0.9589773118133181 0.19343588999995373 0.9589773118133181 0.19343588999995373 0.04102268818668193 -0.19343588999995373
3.31425E9 0.03882550944214902 -0.18811347187334132 0.9611744905578509 0.18811347187334132 0.9611744905578509 0.18811347187334132 0.03882550944214902 -0.18811347187334132
3.389E9 0.03676715424374883 -0.18296218164228276 0.9632328457562511 0.18296218164228276 0.9632328457562511 0.18296218164228276 0.03676715424374883 -0.18296218164228276
3.46375E9 0.034836788349047965 -0.17797332981135433 0.9651632116509521 0.17797332981135433 0.9651632116509521 0.17797332981135433 0.034836788349047965 -0.17797332981135433
3.5385E9 0.03302460351190672 -0.1731387397633745 0.9669753964880932 0.1731387397633745 0.9669753964880932 0.1731387397633745 0.03302460351190672 -0.1731387397633745
3.61325E9 0.031321705183314216 -0.16845071840957032 0.9686782948166859 0.16845071840957032 0.9686782948166859 0.16845071840957032 0.031321705183314216 -0.16845071840957032
3.688E9 0.029720014015502456 -0.1639020275566763 0.9702799859844978 0.1639020275566763 0.9702799859844978 0.1639020275566763 0.029720014015502456 -0.1639020275566763
3.76275E9 0.02821217930613988 -0.15948585626855008 0.9717878206938602 0.15948585626855008 0.9717878206938602 0.15948585626855008 0.02821217930613988 -0.15948585626855008
3.8375E9 0.026791502790471166 -0.15519579440280304 0.973208497209529 0.15519579440280304 0.973208497209529 0.15519579440280304 0.026791502790471166 -0.15519579440280304
3.91225E9 0.025451871418562977 -0.15102580743069802 0.9745481285814368 0.15102580743069802 0.9745481285814368 0.15102580743069802 0.025451871418562977 -0.15102580743069802
3.987E9 0.024187697949027233 -0.14697021259521303 0.9758123020509728 0.14697021259521303 0.9758123020509728 0.14697021259521303 0.024187697949027233 -0.14697021259521303
4.06175E9 0.022993868355334533 -0.14302365642318537 0.9770061316446654 0.14302365642318537 0.9770061316446654 0.14302365642318537 0.022993868355334533 -0.14302365642318537
4.1365E9 0.021865695180785457 -0.1391810935793707 0.9781343048192148 0.1391810935793707 0.9781343048192148 0.1391810935793707 0.021865695180785457 -0.1391810935793707
4.21125E9 0.020798876097300068 -0.13543776703043414 0.9792011239026999 0.13543776703043414 0.9792011239026999 0.13543776703043414 0.020798876097300068 -0.13543776703043414
4.286E9 0.019789457024693043 -0.13178918947331064 0.9802105429753072 0.13178918947331064 0.9802105429753072 0.13178918947331064 0.019789457024693043 -0.13178918947331064
4.36075E9 0.018833799253768203 -0.1282311259734783 0.9811662007462317 0.1282311259734783 0.9811662007462317 0.1282311259734783 0.018833799253768203 -0.1282311259734783
4.4355E9 0.01792855009068949 -0.12475957775330244 0.9820714499093106 0.12475957775330244 0.9820714499093106 0.12475957775330244 0.01792855009068949 -0.12475957775330244
4.51025E9 0.017070616603589463 -0.12137076706781254 0.9829293833964106 0.12137076706781254 0.9829293833964106 0.12137076706781254 0.017070616603589463 -0.12137076706781254
4.585E9 0.016257142106881596 -0.11806112310439407 0.9837428578931184 0.11806112310439407 0.9837428578931184 0.11806112310439407 0.016257142106881596 -0.11806112310439407
4.65975E9 0.01548548506560109 -0.11482726884336386 0.9845145149343989 0.11482726884336386 0.9845145149343989 0.11482726884336386 0.01548548506560109 -0.11482726884336386
4.7345E9 0.014753200142458078 -0.11166600881786955 0.9852467998575418 0.11166600881786955 0.9852467998575418 0.11166600881786955 0.014753200142458078 -0.11166600881786955
4.80925E9 0.014058021145105473 -0.1085743177136907 0.9859419788548945 0.1085743177136907 0.9859419788548945 0.1085743177136907 0.014058021145105473 -0.1085743177136907
4.884E9 0.013397845661216275 -0.10554932975210478 0.9866021543387838 0.10554932975210478 0.9866021543387838 0.10554932975210478 0.013397845661216275 -0.10554932975210478
4.95875E9 0.012770721195015359 -0.10258832880183143 0.9872292788049847 0.10258832880183143 0.9872292788049847 0.10258832880183143 0.012770721195015359 -0.10258832880183143
5.0335E9 0.012174832641502022 -0.09968873916906554 0.9878251673584978 0.09968873916906554 0.9878251673584978 0.09968873916906554 0.012174832641502022 -0.09968873916906554
5.10825E9 0.011608490954221598 -0.0968481170176518 0.9883915090457781 0.0968481170176518 0.9883915090457781 0.0968481170176518 0.011608490954221598 -0.0968481170176518
5.183E9 0.011070122879517716 -0.09406414237447665 0.9889298771204823 0.09406414237447665 0.9889298771204823 0.09406414237447665 0.011070122879517716 -0.09406414237447665
5.25775E9 0.0105582616450748 -0.09133461167810843 0.9894417383549254 0.09133461167810843 0.9894417383549254 0.09133461167810843 0.0105582616450748 -0.09133461167810843
5.3325E9 0.01007153850354702 -0.08865743083156583 0.9899284614964529 0.08865743083156583 0.9899284614964529 0.08865743083156583 0.01007153850354702 -0.08865743083156583
5.40725E9 0.009608675043423484 -0.08603060872282402 0.9903913249565766 0.08603060872282402 0.9903913249565766 0.08603060872282402 0.009608675043423484 -0.08603060872282402
5.482E9 0.009168476189220353 -0.08345225117925378 0.9908315238107797 0.08345225117925378 0.9908315238107797 0.08345225117925378 0.009168476189220353 -0.08345225117925378
5.55675E9 0.008749823821808063 -0.08092055532463316 0.9912501761781917 0.08092055532463316 0.9912501761781917 0.08092055532463316 0.008749823821808063 -0.08092055532463316
5.6315E9 0.008351670957338207 -0.07843380430966472 0.9916483290426618 0.07843380430966472 0.9916483290426618 0.07843380430966472 0.008351670957338207 -0.07843380430966472
5.70625E9 0.007973036429968256 -0.07599036238907769 0.9920269635700318 0.07599036238907769 0.9920269635700318 0.07599036238907769 0.007973036429968256 -0.07599036238907769
5.781E9 0.007613000029514052 -0.07358867032039895 0.9923869999704859 0.07358867032039895 0.9923869999704859 0.07358867032039895 0.007613000029514052 -0.07358867032039895
5.85575E9 0.007270698050391683 -0.07122724106133786 0.9927293019496083 0.07122724106133786 0.9927293019496083 0.07122724106133786 0.007270698050391683 -0.07122724106133786
5.9305E9 0.006945319212831886 -0.0689046557444624 0.9930546807871682 0.0689046557444624 0.9930546807871682 0.0689046557444624 0.006945319212831886 -0.0689046557444624
6.00525E9 0.006636100921437952 -0.06661955990944768 0.9933638990785622 0.06661955990944768 0.9933638990785622 0.06661955990944768 0.006636100921437952 -0.06661955990944768
6.08E9 0.0063423258297786575 -0.0643706599746631 0.9936576741702212 0.0643706599746631 0.9936576741702212 0.0643706599746631 0.0063423258297786575 -0.0643706599746631
6.15475E9 0.006063318682919052 -0.06215671993123897 0.993936681317081 0.06215671993123897 0.993936681317081 0.06215671993123897 0.006063318682919052 -0.06215671993123897
6.2295E9 0.005798443412643265 -0.05997655824402057 0.9942015565873565 0.05997655824402057 0.9942015565873565 0.05997655824402057 0.005798443412643265 -0.05997655824402057
6.30425E9 0.00554710046265967 -0.05782904494499328 0.9944528995373404 0.05782904494499328 0.9944528995373404 0.05782904494499328 0.00554710046265967 -0.05782904494499328
6.379E9 0.00530872432333562 -0.055713098905838955 0.9946912756766645 0.055713098905838955 0.9946912756766645 0.055713098905838955 0.00530872432333562 -0.055713098905838955
6.45375E9 0.0050827812575219835 -0.05362768527728716 0.9949172187424781 0.05362768527728716 0.9949172187424781 0.05362768527728716 0.0050827812575219835 -0.05362768527728716
6.5285E9 0.004868767200823099 -0.051571813083839825 0.9951312327991769 0.051571813083839825 0.9951312327991769 0.051571813083839825 0.004868767200823099 -0.051571813083839825
6.60325E9 0.004666205821273027 -0.04954453296330055 0.9953337941787271 0.04954453296330055 0.9953337941787271 0.04954453296330055 0.004666205821273027 -0.04954453296330055
6.678E9 0.004474646724814252 -0.047544935041319326 0.9955253532751859 0.047544935041319326 0.9955253532751859 0.047544935041319326 0.004474646724814252 -0.047544935041319326
6.75275E9 0.0042936637942609665 -0.04557214693188615 0.995706336205739 0.04557214693188615 0.995706336205739 0.04557214693188615 0.0042936637942609665 -0.04557214693188615
6.8275E9 0.004122853650581795 -0.043625331855372186 0.995877146349418 0.043625331855372186 0.995877146349418 0.043625331855372186 0.004122853650581795 -0.043625331855372186
6.90225E9 0.003961834226371567 -0.04170368686632895 0.9960381657736282 0.04170368686632895 0.9960381657736282 0.04170368686632895 0.003961834226371567 -0.04170368686632895
6.977E9 0.0038102434423117216 -0.03980644118382401 0.9961897565576884 0.03980644118382401 0.9961897565576884 0.03980644118382401 0.0038102434423117216 -0.03980644118382401
7.05175E9 0.003667737978255127 -0.03793285461761053 0.996332262021745 0.03793285461761053 0.996332262021745 0.03793285461761053 0.003667737978255127 -0.03793285461761053
7.1265E9 0.003533992131324563 -0.036082216083912606 0.9964660078686753 0.036082216083912606 0.9964660078686753 0.036082216083912606 0.003533992131324563 -0.036082216083912606
7.20125E9 0.0034086967540927103 -0.03425384220504957 0.9965913032459072 0.03425384220504957 0.9965913032459072 0.03425384220504957 0.0034086967540927103 -0.03425384220504957
7.276E9 0.003291558266524364 -0.03244707598753505 0.9967084417334755 0.03244707598753505 0.9967084417334755 0.03244707598753505 0.003291558266524364 -0.03244707598753505
7.35075E9 0.003182297735914679 -0.03066128557366365 0.9968177022640854 0.03066128557366365 0.9968177022640854 0.03066128557366365 0.003182297735914679 -0.03066128557366365
7.4255E9 0.0030806500195576314 -0.028895863061949398 0.9969193499804425 0.028895863061949398 0.9969193499804425 0.028895863061949398 0.0030806500195576314 -0.028895863061949398
7.50025E9 0.0029863629653314456 -0.027150223392102414 0.9970136370346686 0.027150223392102414 0.9970136370346686 0.027150223392102414 0.0029863629653314456 -0.027150223392102414
7.575E9 0.0028991966657978463 -0.025423803290529595 0.997100803334202 0.025423803290529595 0.997100803334202 0.025423803290529595 0.0028991966657978463 -0.025423803290529595
7.64975E9 0.002818922761783725 -0.023716060272622096 0.9971810772382164 0.023716060272622096 0.9971810772382164 0.023716060272622096 0.002818922761783725 -0.023716060272622096
7.7245E9 0.002745323791751153 -0.022026471698347077 0.9972546762082487 0.022026471698347077 0.9972546762082487 0.022026471698347077 0.002745323791751153 -0.022026471698347077
7.79925E9 0.0026781925835681194 -0.020354533877899306 0.9973218074164318 0.020354533877899306 0.9973218074164318 0.020354533877899306 0.0026781925835681194 -0.020354533877899306
7.874E9 0.0026173316855708506 -0.018699761224386085 0.9973826683144292 0.018699761224386085 0.9973826683144292 0.018699761224386085 0.0026173316855708506 -0.018699761224386085
7.94875E9 0.0025625528340620825 -0.017061685450723375 0.9974374471659381 0.017061685450723375 0.9974374471659381 0.017061685450723375 0.0025625528340620825 -0.017061685450723375
8.0235E9 0.0025136764546203664 -0.015439854808107695 0.9974863235453799 0.015439854808107695 0.9974863235453799 0.015439854808107695 0.0025136764546203664 -0.015439854808107695
8.09825E9 0.0024705311948058895 -0.013833833363605042 0.997529468805194 0.013833833363605042 0.997529468805194 0.013833833363605042 0.0024705311948058895 -0.013833833363605042
8.173E9 0.002432953486040065 -0.012243200314557182 0.9975670465139599 0.012243200314557182 0.9975670465139599 0.012243200314557182 0.002432953486040065 -0.012243200314557182
8.24775E9 0.0024007871326113613 -0.010667549337658563 0.9975992128673887 0.010667549337658563 0.9975992128673887 0.010667549337658563 0.0024007871326113613 -0.010667549337658563
8.3225E9 0.002373882925919784 -0.00910648797069479 0.9976261170740803 0.00910648797069479 0.9976261170740803 0.00910648797069479 0.002373882925919784 -0.00910648797069479
8.39725E9 0.0023520982822187344 -0.007559637025063661 0.9976479017177812 0.007559637025063661 0.9976479017177812 0.007559637025063661 0.0023520982822187344 -0.007559637025063661
8.472E9 0.0023352969022468403 -0.006026630027320695 0.997664703097753 0.006026630027320695 0.997664703097753 0.006026630027320695 0.0023352969022468403 -0.006026630027320695
8.54675E9 0.0023233484512648977 -0.004507112688101798 0.997676651548735 0.004507112688101798 0.997676651548735 0.004507112688101798 0.0023233484512648977 -0.004507112688101798
8.6215E9 0.0023161282581254257 -0.0030007423968810907 0.9976838717418747 0.0030007423968810907 0.9976838717418747 0.0030007423968810907 0.0023161282581254257 -0.0030007423968810907
