!Murata Part Number: GJM0225C1E6R5BB01
!These Parameters are Measured in Series Mode Connection
!       o--ll--o
!Port1            Port2
!       o------o
!Operation Temp=25[degC], DC Bias Voltage=0[V]
!Freq. Start=100[MHz] Stop=30[GHz], 401[Steps]
!Data Generated on Feb 1, 2023
# Hz S RI R 50
!Freq.(Hz) S11(Real) S11(Imag) S21(Real) S21(Imag) S12(Real) S12(Imag) S22(Real) S22(Imag)
1.0E8 0.8568289916186017 -0.3500222011662627 0.14317100838139832 0.3500222011662627 0.14317100838139832 0.3500222011662627 0.8568289916186017 -0.3500222011662627
1.7475E8 0.6618217921113102 -0.4726950775184524 0.3381782078886898 0.4726950775184524 0.3381782078886898 0.4726950775184524 0.6618217921113102 -0.4726950775184524
2.495E8 0.48926568436981543 -0.4993185999190024 0.5107343156301847 0.4993185999190024 0.5107343156301847 0.4993185999190024 0.48926568436981543 -0.4993185999190024
3.2425E8 0.3612433173277119 -0.47961992859793545 0.638756682672288 0.47961992859793545 0.638756682672288 0.47961992859793545 0.3612433173277119 -0.47961992859793545
3.99E8 0.2712028113145385 -0.4436608306904467 0.7287971886854613 0.4436608306904467 0.7287971886854613 0.4436608306904467 0.2712028113145385 -0.4436608306904467
4.7375E8 0.20810797739370865 -0.40485132362901266 0.7918920226062914 0.40485132362901266 0.7918920226062914 0.40485132362901266 0.20810797739370865 -0.40485132362901266
5.485E8 0.16321269189639442 -0.3682675269569812 0.8367873081036056 0.3682675269569812 0.8367873081036056 0.3682675269569812 0.16321269189639442 -0.3682675269569812
6.2325E8 0.13057445958605887 -0.33544724493444117 0.869425540413941 0.33544724493444117 0.869425540413941 0.33544724493444117 0.13057445958605887 -0.33544724493444117
6.98E8 0.10631061336626176 -0.30654588903578683 0.8936893866337383 0.30654588903578683 0.8936893866337383 0.30654588903578683 0.10631061336626176 -0.30654588903578683
7.7275E8 0.08788596443596354 -0.28123113463354543 0.9121140355640366 0.28123113463354543 0.9121140355640366 0.28123113463354543 0.08788596443596354 -0.28123113463354543
8.475E8 0.07362189804867181 -0.25904004789205914 0.9263781019513283 0.25904004789205914 0.9263781019513283 0.25904004789205914 0.07362189804867181 -0.25904004789205914
9.2225E8 0.062385308293480546 -0.2395147204523627 0.9376146917065195 0.2395147204523627 0.9376146917065195 0.2395147204523627 0.062385308293480546 -0.2395147204523627
9.97E8 0.05339533262223866 -0.2222479158983624 0.9466046673777612 0.2222479158983624 0.9466046673777612 0.2222479158983624 0.05339533262223866 -0.2222479158983624
1.07175E9 0.04610278708960749 -0.20689298110223373 0.9538972129103926 0.20689298110223373 0.9538972129103926 0.20689298110223373 0.04610278708960749 -0.20689298110223373
1.1465E9 0.04011390950085458 -0.19316040445431676 0.9598860904991455 0.19316040445431676 0.9598860904991455 0.19316040445431676 0.04011390950085458 -0.19316040445431676
1.22125E9 0.03514126636381908 -0.18081018459476758 0.9648587336361809 0.18081018459476758 0.9648587336361809 0.18081018459476758 0.03514126636381908 -0.18081018459476758
1.296E9 0.030971544368610028 -0.16964364602099571 0.96902845563139 0.16964364602099571 0.96902845563139 0.16964364602099571 0.030971544368610028 -0.16964364602099571
1.37075E9 0.027444017495977906 -0.15949602335088156 0.9725559825040221 0.15949602335088156 0.9725559825040221 0.15949602335088156 0.027444017495977906 -0.15949602335088156
1.4455E9 0.024435887470369733 -0.1502301809255383 0.9755641125296303 0.1502301809255383 0.9755641125296303 0.1502301809255383 0.024435887470369733 -0.1502301809255383
1.52025E9 0.021852130351191688 -0.14173145871617177 0.9781478696488082 0.14173145871617177 0.9781478696488082 0.14173145871617177 0.021852130351191688 -0.14173145871617177
1.595E9 0.019618349611496715 -0.1339035055131605 0.9803816503885031 0.1339035055131605 0.9803816503885031 0.1339035055131605 0.019618349611496715 -0.1339035055131605
1.66975E9 0.017675668971157434 -0.1266649319101326 0.9823243310288425 0.1266649319101326 0.9823243310288425 0.1266649319101326 0.017675668971157434 -0.1266649319101326
1.7445E9 0.01597703114561489 -0.11994662622654192 0.9840229688543851 0.11994662622654192 0.9840229688543851 0.11994662622654192 0.01597703114561489 -0.11994662622654192
1.81925E9 0.014484480135104326 -0.1136895995799769 0.9855155198648957 0.1136895995799769 0.9855155198648957 0.1136895995799769 0.014484480135104326 -0.1136895995799769
1.894E9 0.01316714122278503 -0.10784325089306408 0.9868328587772149 0.10784325089306408 0.9868328587772149 0.10784325089306408 0.01316714122278503 -0.10784325089306408
1.96875E9 0.011999702415264482 -0.10236396464675558 0.9880002975847353 0.10236396464675558 0.9880002975847353 0.10236396464675558 0.011999702415264482 -0.10236396464675558
2.0435E9 0.010961260696876893 -0.0972139725571604 0.9890387393031229 0.0972139725571604 0.9890387393031229 0.0972139725571604 0.010961260696876893 -0.0972139725571604
2.11825E9 0.010034436749071706 -0.092360425125372 0.9899655632509282 0.092360425125372 0.9899655632509282 0.092360425125372 0.010034436749071706 -0.092360425125372
2.193E9 0.009204689360843933 -0.08777463066984934 0.9907953106391563 0.08777463066984934 0.9907953106391563 0.08777463066984934 0.009204689360843933 -0.08777463066984934
2.26775E9 0.008459779874835779 -0.08343142856524875 0.9915402201251643 0.08343142856524875 0.9915402201251643 0.08343142856524875 0.008459779874835779 -0.08343142856524875
2.3425E9 0.007789350429960357 -0.0793086705044436 0.9922106495700399 0.0793086705044436 0.9922106495700399 0.0793086705044436 0.007789350429960357 -0.0793086705044436
2.41725E9 0.007184589283521721 -0.07538678911361257 0.992815410716478 0.07538678911361257 0.992815410716478 0.07538678911361257 0.007184589283521721 -0.07538678911361257
2.492E9 0.006637963326986387 -0.07164843753930579 0.9933620366730137 0.07164843753930579 0.9933620366730137 0.07164843753930579 0.006637963326986387 -0.07164843753930579
2.56675E9 0.006143002860195264 -0.06807818697050058 0.9938569971398047 0.06807818697050058 0.9938569971398047 0.06807818697050058 0.006143002860195264 -0.06807818697050058
2.6415E9 0.005694127311150508 -0.06466227167406197 0.9943058726888497 0.06466227167406197 0.9943058726888497 0.06466227167406197 0.005694127311150508 -0.06466227167406197
2.71625E9 0.005286503263123735 -0.061388373174987236 0.9947134967368761 0.061388373174987236 0.9947134967368761 0.061388373174987236 0.005286503263123735 -0.061388373174987236
2.791E9 0.004915928142724204 -0.05824543683075722 0.9950840718572758 0.05824543683075722 0.9950840718572758 0.05824543683075722 0.004915928142724204 -0.05824543683075722
2.86575E9 0.004578734418152365 -0.05522351532960261 0.9954212655818476 0.05522351532960261 0.9954212655818476 0.05522351532960261 0.004578734418152365 -0.05522351532960261
2.9405E9 0.0042717102885296565 -0.05231363466031179 0.9957282897114703 0.05231363466031179 0.9957282897114703 0.05231363466031179 0.0042717102885296565 -0.05231363466031179
3.01525E9 0.003992033707809258 -0.049507678913778934 0.9960079662921908 0.049507678913778934 0.9960079662921908 0.049507678913778934 0.003992033707809258 -0.049507678913778934
3.09E9 0.0037372172489126506 -0.04679829092805035 0.9962627827510874 0.04679829092805035 0.9962627827510874 0.04679829092805035 0.0037372172489126506 -0.04679829092805035
3.16475E9 0.0035050618253853606 -0.044178786313343384 0.9964949381746147 0.044178786313343384 0.9964949381746147 0.044178786313343384 0.0035050618253853606 -0.044178786313343384
3.2395E9 0.0032936176857379863 -0.04164307881788347 0.9967063823142619 0.04164307881788347 0.9967063823142619 0.04164307881788347 0.0032936176857379863 -0.04164307881788347
3.31425E9 0.003101151406909941 -0.03918561534005754 0.9968988485930899 0.03918561534005754 0.9968988485930899 0.03918561534005754 0.003101151406909941 -0.03918561534005754
3.389E9 0.002926117858220257 -0.03680131917343912 0.9970738821417798 0.03680131917343912 0.9970738821417798 0.03680131917343912 0.002926117858220257 -0.03680131917343912
3.46375E9 0.002767136300955774 -0.03448554030134685 0.9972328636990442 0.03448554030134685 0.9972328636990442 0.03448554030134685 0.002767136300955774 -0.03448554030134685
3.5385E9 0.002622969942879108 -0.03223401174672737 0.9973770300571208 0.03223401174672737 0.9973770300571208 0.03223401174672737 0.002622969942879108 -0.03223401174672737
3.61325E9 0.002492508390148896 -0.030042811139182696 0.9975074916098512 0.030042811139182696 0.9975074916098512 0.030042811139182696 0.002492508390148896 -0.030042811139182696
3.688E9 0.002374752538112293 -0.027908326790161746 0.9976252474618876 0.027908326790161746 0.9976252474618876 0.027908326790161746 0.002374752538112293 -0.027908326790161746
3.76275E9 0.0022688015222917164 -0.025827227674694083 0.9977311984777082 0.025827227674694083 0.9977311984777082 0.025827227674694083 0.0022688015222917164 -0.025827227674694083
3.8375E9 0.0021738414156185345 -0.02379643680756432 0.9978261585843816 0.02379643680756432 0.9978261585843816 0.02379643680756432 0.0021738414156185345 -0.02379643680756432
3.91225E9 0.002089135410655732 -0.021813107576717124 0.9979108645893444 0.021813107576717124 0.9979108645893444 0.021813107576717124 0.002089135410655732 -0.021813107576717124
3.987E9 0.002014015268614819 -0.019874602659543245 0.9979859847313852 0.019874602659543245 0.9979859847313852 0.019874602659543245 0.002014015268614819 -0.019874602659543245
4.06175E9 0.0019478738523059714 -0.017978475200619144 0.998052126147694 0.017978475200619144 0.998052126147694 0.017978475200619144 0.0019478738523059714 -0.017978475200619144
4.1365E9 0.0018901585892616732 -0.016122451974167448 0.9981098414107383 0.016122451974167448 0.9981098414107383 0.016122451974167448 0.0018901585892616732 -0.016122451974167448
4.21125E9 0.0018403657353291557 -0.014304418292360158 0.9981596342646708 0.014304418292360158 0.9981596342646708 0.014304418292360158 0.0018403657353291557 -0.014304418292360158
4.286E9 0.0017980353289804051 -0.012522404452739444 0.9982019646710197 0.012522404452739444 0.9982019646710197 0.012522404452739444 0.0017980353289804051 -0.012522404452739444
4.36075E9 0.0017627467431956642 -0.01077457354541814 0.9982372532568045 0.01077457354541814 0.9982372532568045 0.01077457354541814 0.0017627467431956642 -0.01077457354541814
4.4355E9 0.001734114755643118 -0.009059210464109416 0.9982658852443569 0.009059210464109416 0.9982658852443569 0.009059210464109416 0.001734114755643118 -0.009059210464109416
4.51025E9 0.0017117860694926582 -0.007374711985061001 0.9982882139305073 0.007374711985061001 0.9982882139305073 0.007374711985061001 0.0017117860694926582 -0.007374711985061001
4.585E9 0.0016954362269600907 -0.005719577795159123 0.99830456377304 0.005719577795159123 0.99830456377304 0.005719577795159123 0.0016954362269600907 -0.005719577795159123
4.65975E9 0.0016847668659008706 -0.004092402365257908 0.9983152331340992 0.004092402365257908 0.9983152331340992 0.004092402365257908 0.0016847668659008706 -0.004092402365257908
4.7345E9 0.0016795032767206875 -0.0024918675775479487 0.9983204967232793 0.0024918675775479487 0.9983204967232793 0.0024918675775479487 0.0016795032767206875 -0.0024918675775479487
4.80925E9 0.0016793922227575809 -9.16736026805928E-4 0.9983206077772425 9.16736026805928E-4 0.9983206077772425 9.16736026805928E-4 0.0016793922227575809 -9.16736026805928E-4
4.884E9 0.001684199992292015 6.341550750772161E-4 0.9983158000077078 -6.341550750772161E-4 0.9983158000077078 -6.341550750772161E-4 0.001684199992292015 6.341550750772161E-4
4.95875E9 0.0016937106546016133 0.002161899453595429 0.9983062893453984 -0.002161899453595429 0.9983062893453984 -0.002161899453595429 0.0016937106546016133 0.002161899453595429
5.0335E9 0.0017077244961149695 0.003667526840240732 0.9982922755038849 -0.003667526840240732 0.9982922755038849 -0.003667526840240732 0.0017077244961149695 0.003667526840240732
5.10825E9 0.0017260566158326875 0.005152007604023072 0.9982739433841674 -0.005152007604023072 0.9982739433841674 -0.005152007604023072 0.0017260566158326875 0.005152007604023072
5.183E9 0.0017485356618551775 0.006616256989190306 0.9982514643381447 -0.006616256989190306 0.9982514643381447 -0.006616256989190306 0.0017485356618551775 0.006616256989190306
5.25775E9 0.0017750026931539656 0.00806113899762916 0.9982249973068459 -0.00806113899762916 0.9982249973068459 -0.00806113899762916 0.0017750026931539656 0.00806113899762916
5.3325E9 0.0018053101527029695 0.009487469950207026 0.998194689847297 -0.009487469950207026 0.998194689847297 -0.009487469950207026 0.0018053101527029695 0.009487469950207026
5.40725E9 0.0018393209397961068 0.010896021757606173 0.9981606790602039 -0.010896021757606173 0.9981606790602039 -0.010896021757606173 0.0018393209397961068 0.010896021757606173
5.482E9 0.001876907570857461 0.012287524927938592 0.9981230924291427 -0.012287524927938592 0.9981230924291427 -0.012287524927938592 0.001876907570857461 0.012287524927938592
5.55675E9 0.0019179514193336962 0.013662671335552575 0.9980820485806665 -0.013662671335552575 0.9980820485806665 -0.013662671335552575 0.0019179514193336962 0.013662671335552575
5.6315E9 0.0019623420263737337 0.015022116772900896 0.9980376579736263 -0.015022116772900896 0.9980376579736263 -0.015022116772900896 0.0019623420263737337 0.015022116772900896
5.70625E9 0.0020099764749718237 0.016366483305093684 0.9979900235250281 -0.016366483305093684 0.9979900235250281 -0.016366483305093684 0.0020099764749718237 0.016366483305093684
5.781E9 0.0020607588210973427 0.017696361444767352 0.9979392411789026 -0.017696361444767352 0.9979392411789026 -0.017696361444767352 0.0020607588210973427 0.017696361444767352
5.85575E9 0.0021145995760750427 0.019012312163134315 0.9978854004239249 -0.019012312163134315 0.9978854004239249 -0.019012312163134315 0.0021145995760750427 0.019012312163134315
5.9305E9 0.002171415235127882 0.020314868751508782 0.9978285847648721 -0.020314868751508782 0.9978285847648721 -0.020314868751508782 0.002171415235127882 0.020314868751508782
6.00525E9 0.002231127847563275 0.02160453854620596 0.9977688721524367 -0.02160453854620596 0.9977688721524367 -0.02160453854620596 0.002231127847563275 0.02160453854620596
6.08E9 0.002293664624583416 0.02288180452846766 0.9977063353754164 -0.02288180452846766 0.9977063353754164 -0.02288180452846766 0.002293664624583416 0.02288180452846766
6.15475E9 0.002358957581140346 0.024147126809955233 0.9976410424188595 -0.024147126809955233 0.9976410424188595 -0.024147126809955233 0.002358957581140346 0.024147126809955233
6.2295E9 0.0024269432086445196 0.0254009440133588 0.9975730567913554 -0.0254009440133588 0.9975730567913554 -0.0254009440133588 0.0024269432086445196 0.0254009440133588
6.30425E9 0.002497562175678449 0.026643674556782262 0.9975024378243215 -0.026643674556782262 0.9975024378243215 -0.026643674556782262 0.002497562175678449 0.026643674556782262
6.379E9 0.002570759054170534 0.027875717849768902 0.9974292409458295 -0.027875717849768902 0.9974292409458295 -0.027875717849768902 0.002570759054170534 0.027875717849768902
6.45375E9 0.002646482068753224 0.029097455408116875 0.9973535179312468 -0.029097455408116875 0.9973535179312468 -0.029097455408116875 0.002646482068753224 0.029097455408116875
6.5285E9 0.002724682867268761 0.030309251893994707 0.9972753171327312 -0.030309251893994707 0.9972753171327312 -0.030309251893994707 0.002724682867268761 0.030309251893994707
6.60325E9 0.0028053163105985443 0.03151145608728897 0.9971946836894013 -0.03151145608728897 0.9971946836894013 -0.03151145608728897 0.0028053163105985443 0.03151145608728897
6.678E9 0.0028883402801819684 0.03270440179359897 0.997111659719818 -0.03270440179359897 0.997111659719818 -0.03270440179359897 0.0028883402801819684 0.03270440179359897
6.75275E9 0.002973715501760234 0.033888408693825575 0.9970262844982399 -0.033888408693825575 0.9970262844982399 -0.033888408693825575 0.002973715501760234 0.033888408693825575
6.8275E9 0.0030614053840326482 0.035063783139880185 0.9969385946159673 -0.035063783139880185 0.9969385946159673 -0.035063783139880185 0.0030614053840326482 0.035063783139880185
6.90225E9 0.003151375871049462 0.03623081890066027 0.9968486241289507 -0.03623081890066027 0.9968486241289507 -0.03623081890066027 0.003151375871049462 0.03623081890066027
6.977E9 0.003243595307288232 0.03738979786209414 0.9967564046927118 -0.03738979786209414 0.9967564046927118 -0.03738979786209414 0.003243595307288232 0.03738979786209414
7.05175E9 0.0033380343144718055 0.038540990684748255 0.9966619656855283 -0.038540990684748255 0.9966619656855283 -0.038540990684748255 0.0033380343144718055 0.038540990684748255
7.1265E9 0.003434665679286668 0.0396846574222091 0.9965653343207134 -0.0396846574222091 0.9965653343207134 -0.0396846574222091 0.003434665679286668 0.0396846574222091
7.20125E9 0.0035334642512520682 0.04082104810319938 0.9964665357487477 -0.04082104810319938 0.9964665357487477 -0.04082104810319938 0.0035334642512520682 0.04082104810319938
7.276E9 0.003634406850073993 0.04195040328015729 0.9963655931499259 -0.04195040328015729 0.9963655931499259 -0.04195040328015729 0.003634406850073993 0.04195040328015729
7.35075E9 0.003737472181895008 0.043072954546801545 0.9962625278181052 -0.043072954546801545 0.9962625278181052 -0.043072954546801545 0.003737472181895008 0.043072954546801545
7.4255E9 0.003842640763921965 0.044188925027015775 0.996157359236078 -0.044188925027015775 0.996157359236078 -0.044188925027015775 0.003842640763921965 0.044188925027015775
7.50025E9 0.003949894856979615 0.04529852983721728 0.9960501051430205 -0.04529852983721728 0.9960501051430205 -0.04529852983721728 0.003949894856979615 0.04529852983721728
7.575E9 0.004059218405599933 0.04640197652422021 0.9959407815944 -0.04640197652422021 0.9959407815944 -0.04640197652422021 0.004059218405599933 0.04640197652422021
7.64975E9 0.00417059698531536 0.04749946548046608 0.9958294030146847 -0.04749946548046608 0.9958294030146847 -0.04749946548046608 0.00417059698531536 0.04749946548046608
7.7245E9 0.004284017756879722 0.04859119033836842 0.9957159822431202 -0.04859119033836842 0.9957159822431202 -0.04859119033836842 0.004284017756879722 0.04859119033836842
7.79925E9 0.004399469427194107 0.04967733834540687 0.9956005305728058 -0.04967733834540687 0.9956005305728058 -0.04967733834540687 0.004399469427194107 0.04967733834540687
7.874E9 0.004516942216767085 0.05075809072150468 0.9954830577832329 -0.05075809072150468 0.9954830577832329 -0.05075809072150468 0.004516942216767085 0.05075809072150468
7.94875E9 0.0046364278335898745 0.051833623000133736 0.9953635721664102 -0.051833623000133736 0.9953635721664102 -0.051833623000133736 0.0046364278335898745 0.051833623000133736
8.0235E9 0.004757919453358274 0.052904105354511365 0.9952420805466419 -0.052904105354511365 0.9952420805466419 -0.052904105354511365 0.004757919453358274 0.052904105354511365
8.09825E9 0.00488141170602477 0.05396970291018217 0.9951185882939754 -0.05396970291018217 0.9951185882939754 -0.05396970291018217 0.00488141170602477 0.05396970291018217
8.173E9 0.005006900668717138 0.05503057604521662 0.9949930993312829 -0.05503057604521662 0.9949930993312829 -0.05503057604521662 0.005006900668717138 0.05503057604521662
8.24775E9 0.005134383865114593 0.056086880679204365 0.9948656161348854 -0.056086880679204365 0.9948656161348854 -0.056086880679204365 0.005134383865114593 0.056086880679204365
8.3225E9 0.005263860271430202 0.057138768552175576 0.9947361397285697 -0.057138768552175576 0.9947361397285697 -0.057138768552175576 0.005263860271430202 0.057138768552175576
8.39725E9 0.005395330329209186 0.05818638749454469 0.9946046696707908 -0.05818638749454469 0.9946046696707908 -0.05818638749454469 0.005395330329209186 0.05818638749454469
8.472E9 0.005528795965218676 0.059229881689142595 0.9944712040347814 -0.059229881689142595 0.9944712040347814 -0.059229881689142595 0.005528795965218676 0.059229881689142595
