!Murata Part Number: GJM0225C1E8R0BB01
!These Parameters are Measured in Series Mode Connection
!       o--ll--o
!Port1            Port2
!       o------o
!Operation Temp=25[degC], DC Bias Voltage=0[V]
!Freq. Start=100[MHz] Stop=30[GHz], 401[Steps]
!Data Generated on Feb 1, 2023
# Hz S RI R 50
!Freq.(Hz) S11(Real) S11(Imag) S21(Real) S21(Imag) S12(Real) S12(Imag) S22(Real) S22(Imag)
1.0E8 0.7980148271514005 -0.4012547521776465 0.20198517284859954 0.4012547521776465 0.20198517284859954 0.4012547521776465 0.7980148271514005 -0.4012547521776465
1.7475E8 0.5635969905739103 -0.49554211059808867 0.43640300942608967 0.49554211059808867 0.43640300942608967 0.49554211059808867 0.5635969905739103 -0.49554211059808867
2.495E8 0.3871781859503302 -0.48653598613358157 0.6128218140496698 0.48653598613358157 0.6128218140496698 0.48653598613358157 0.3871781859503302 -0.48653598613358157
3.2425E8 0.27149996121364534 -0.44398965695935555 0.7285000387863547 0.44398965695935555 0.7285000387863547 0.44398965695935555 0.27149996121364534 -0.44398965695935555
3.99E8 0.19676981246537914 -0.39663517371956636 0.8032301875346209 0.39663517371956636 0.8032301875346209 0.39663517371956636 0.19676981246537914 -0.39663517371956636
4.7375E8 0.14733103500619946 -0.3533318441133177 0.8526689649938003 0.3533318441133177 0.8526689649938003 0.3533318441133177 0.14733103500619946 -0.3533318441133177
5.485E8 0.11351771726236001 -0.31593391754884403 0.8864822827376402 0.31593391754884403 0.8864822827376402 0.31593391754884403 0.11351771726236001 -0.31593391754884403
6.2325E8 0.0896133402221492 -0.28414382669556776 0.9103866597778507 0.28414382669556776 0.9103866597778507 0.28414382669556776 0.0896133402221492 -0.28414382669556776
6.98E8 0.07219936027541271 -0.2571356826288415 0.9278006397245874 0.2571356826288415 0.9278006397245874 0.2571356826288415 0.07219936027541271 -0.2571356826288415
7.7275E8 0.05917478254774009 -0.23406353499907276 0.9408252174522601 0.23406353499907276 0.9408252174522601 0.23406353499907276 0.05917478254774009 -0.23406353499907276
8.475E8 0.049207506494665806 -0.21419917432430732 0.9507924935053341 0.21419917432430732 0.9507924935053341 0.21419917432430732 0.049207506494665806 -0.21419917432430732
9.2225E8 0.0414267659403626 -0.19695084513121797 0.9585732340596372 0.19695084513121797 0.9585732340596372 0.19695084513121797 0.0414267659403626 -0.19695084513121797
9.97E8 0.03524699664006852 -0.1818472820706445 0.9647530033599315 0.1818472820706445 0.9647530033599315 0.1818472820706445 0.03524699664006852 -0.1818472820706445
1.07175E9 0.030264149959825435 -0.1685149614975254 0.9697358500401746 0.1685149614975254 0.9697358500401746 0.1685149614975254 0.030264149959825435 -0.1685149614975254
1.1465E9 0.0261928801247195 -0.15665715048740028 0.9738071198752803 0.15665715048740028 0.9738071198752803 0.15665715048740028 0.0261928801247195 -0.15665715048740028
1.22125E9 0.022827424049473195 -0.14603678558162936 0.9771725759505269 0.14603678558162936 0.9771725759505269 0.14603678558162936 0.022827424049473195 -0.14603678558162936
1.296E9 0.020016596639272525 -0.13646310707770928 0.9799834033607273 0.13646310707770928 0.9799834033607273 0.13646310707770928 0.020016596639272525 -0.13646310707770928
1.37075E9 0.017647420731521014 -0.12778141176720198 0.982352579268479 0.12778141176720198 0.982352579268479 0.12778141176720198 0.017647420731521014 -0.12778141176720198
1.4455E9 0.015634171641859162 -0.11986523903673262 0.9843658283581409 0.11986523903673262 0.9843658283581409 0.11986523903673262 0.015634171641859162 -0.11986523903673262
1.52025E9 0.013910896233893183 -0.11261040701496822 0.9860891037661069 0.11261040701496822 0.9860891037661069 0.11261040701496822 0.013910896233893183 -0.11261040701496822
1.595E9 0.012426209532674795 -0.10593044133932514 0.9875737904673252 0.10593044133932514 0.9875737904673252 0.10593044133932514 0.012426209532674795 -0.10593044133932514
1.66975E9 0.011139613839364303 -0.09975305021339301 0.9888603861606355 0.09975305021339301 0.9888603861606355 0.09975305021339301 0.011139613839364303 -0.09975305021339301
1.7445E9 0.010018854177524437 -0.09401738744148744 0.9899811458224754 0.09401738744148744 0.9899811458224754 0.09401738744148744 0.010018854177524437 -0.09401738744148744
1.81925E9 0.009037991003103686 -0.08867191173811916 0.9909620089968962 0.08867191173811916 0.9909620089968962 0.08867191173811916 0.009037991003103686 -0.08867191173811916
1.894E9 0.008175977045478502 -0.08367269999440508 0.9918240229545217 0.08367269999440508 0.9918240229545217 0.08367269999440508 0.008175977045478502 -0.08367269999440508
1.96875E9 0.007415593559424154 -0.07898210848915195 0.992584406440576 0.07898210848915195 0.992584406440576 0.07898210848915195 0.007415593559424154 -0.07898210848915195
2.0435E9 0.006742646215911019 -0.074567702673158 0.9932573537840891 0.074567702673158 0.9932573537840891 0.074567702673158 0.006742646215911019 -0.074567702673158
2.11825E9 0.006145350868756089 -0.07040139574006327 0.9938546491312438 0.07040139574006327 0.9938546491312438 0.07040139574006327 0.006145350868756089 -0.07040139574006327
2.193E9 0.005613859771407357 -0.06645875065249233 0.9943861402285926 0.06645875065249233 0.9943861402285926 0.06645875065249233 0.005613859771407357 -0.06645875065249233
2.26775E9 0.0051398927945134456 -0.06271841101817585 0.9948601072054865 0.06271841101817585 0.9948601072054865 0.06271841101817585 0.0051398927945134456 -0.06271841101817585
2.3425E9 0.004716447926094444 -0.05916163421736887 0.9952835520739055 0.05916163421736887 0.9952835520739055 0.05916163421736887 0.004716447926094444 -0.05916163421736887
2.41725E9 0.0043375721948163875 -0.05577190619797295 0.9956624278051837 0.05577190619797295 0.9956624278051837 0.05577190619797295 0.0043375721948163875 -0.05577190619797295
2.492E9 0.003998179046679458 -0.052534621903452795 0.9960018209533203 0.052534621903452795 0.9960018209533203 0.052534621903452795 0.003998179046679458 -0.052534621903452795
2.56675E9 0.0036939017292512044 -0.04943681876116349 0.9963060982707488 0.04943681876116349 0.9963060982707488 0.04943681876116349 0.0036939017292512044 -0.04943681876116349
2.6415E9 0.0034209748028226523 -0.04646695331170214 0.9965790251971773 0.04646695331170214 0.9965790251971773 0.04646695331170214 0.0034209748028226523 -0.04646695331170214
2.71625E9 0.00317613778317222 -0.04361471310569759 0.9968238622168276 0.04361471310569759 0.9968238622168276 0.04361471310569759 0.00317613778317222 -0.04361471310569759
2.791E9 0.0029565563187221554 -0.04087085758191192 0.9970434436812776 0.04087085758191192 0.9970434436812776 0.04087085758191192 0.0029565563187221554 -0.04087085758191192
2.86575E9 0.002759757350510074 -0.03822708287982846 0.99724024264949 0.03822708287982846 0.99724024264949 0.03822708287982846 0.002759757350510074 -0.03822708287982846
2.9405E9 0.002583575491735773 -0.035675906513090244 0.9974164245082642 0.035675906513090244 0.9974164245082642 0.035675906513090244 0.002583575491735773 -0.035675906513090244
3.01525E9 0.0024261084625339796 -0.03321056859871925 0.9975738915374661 0.03321056859871925 0.9975738915374661 0.03321056859871925 0.0024261084625339796 -0.03321056859871925
3.09E9 0.0022856798738886946 -0.030824946947334585 0.9977143201261113 0.030824946947334585 0.9977143201261113 0.030824946947334585 0.0022856798738886946 -0.030824946947334585
3.16475E9 0.002160808007676639 -0.02851348380675152 0.9978391919923233 0.02851348380675152 0.9978391919923233 0.02851348380675152 0.002160808007676639 -0.02851348380675152
3.2395E9 0.0020501795136319 -0.026271122442196083 0.9979498204863679 0.026271122442196083 0.9979498204863679 0.026271122442196083 0.0020501795136319 -0.026271122442196083
3.31425E9 0.0019526271576798405 -0.024093252051485697 0.9980473728423203 0.024093252051485697 0.9980473728423203 0.024093252051485697 0.0019526271576798405 -0.024093252051485697
3.389E9 0.0018671109237984162 -0.021975659768771593 0.9981328890762015 0.021975659768771593 0.9981328890762015 0.021975659768771593 0.0018671109237984162 -0.021975659768771593
3.46375E9 0.0017927019039560331 -0.019914488718127347 0.998207298096044 0.019914488718127347 0.998207298096044 0.019914488718127347 0.0017927019039560331 -0.019914488718127347
3.5385E9 0.0017285685157505254 -0.01790620124799059 0.9982714314842495 0.01790620124799059 0.9982714314842495 0.01790620124799059 0.0017285685157505254 -0.01790620124799059
3.61325E9 0.0016739646712019573 -0.015947546616748746 0.9983260353287979 0.015947546616748746 0.9983260353287979 0.015947546616748746 0.0016739646712019573 -0.015947546616748746
3.688E9 0.0016282195873604927 -0.014035532514516842 0.9983717804126394 0.014035532514516842 0.9983717804126394 0.014035532514516842 0.0016282195873604927 -0.014035532514516842
3.76275E9 0.001590728983531112 -0.012167399901080175 0.998409271016469 0.012167399901080175 0.998409271016469 0.012167399901080175 0.001590728983531112 -0.012167399901080175
3.8375E9 0.0015609474537291303 -0.010340600718780386 0.998439052546271 0.010340600718780386 0.998439052546271 0.010340600718780386 0.0015609474537291303 -0.010340600718780386
3.91225E9 0.0015383818385901592 -0.008552778104789329 0.9984616181614098 0.008552778104789329 0.9984616181614098 0.008552778104789329 0.0015383818385901592 -0.008552778104789329
3.987E9 0.0015225854500229509 -0.006801748782118409 0.9984774145499771 0.006801748782118409 0.9984774145499771 0.006801748782118409 0.0015225854500229509 -0.006801748782118409
4.06175E9 0.0015131530257125071 -0.005085487354771712 0.9984868469742872 0.005085487354771712 0.9984868469742872 0.005085487354771712 0.0015131530257125071 -0.005085487354771712
4.1365E9 0.001509716310177035 -0.0034021122712185217 0.9984902836898228 0.0034021122712185217 0.9984902836898228 0.0034021122712185217 0.001509716310177035 -0.0034021122712185217
4.21125E9 0.0015119401752649569 -0.001749873253090342 0.998488059824735 0.001749873253090342 0.998488059824735 0.001749873253090342 0.0015119401752649569 -0.001749873253090342
4.286E9 0.0015195192063904986 -1.2714001372512488E-4 0.9984804807936095 1.2714001372512488E-4 0.9984804807936095 1.2714001372512488E-4 0.0015195192063904986 -1.2714001372512488E-4
4.36075E9 0.0015321746919614281 0.0014676078852781337 0.9984678253080383 -0.0014676078852781337 0.9984678253080383 -0.0014676078852781337 0.0015321746919614281 0.0014676078852781337
4.4355E9 0.0015496519627616924 0.0030357901712816282 0.9984503480372384 -0.0030357901712816282 0.9984503480372384 -0.0030357901712816282 0.0015496519627616924 0.0030357901712816282
4.51025E9 0.0015717180358457525 0.004578734106271799 0.9984282819641542 -0.004578734106271799 0.9984282819641542 -0.004578734106271799 0.0015717180358457525 0.004578734106271799
4.585E9 0.0015981595240476805 0.0060976819409639 0.9984018404759525 -0.0060976819409639 0.9984018404759525 -0.0060976819409639 0.0015981595240476805 0.0060976819409639
4.65975E9 0.0016287807777230362 0.007593797664761092 0.998371219222277 -0.007593797664761092 0.998371219222277 -0.007593797664761092 0.0016287807777230362 0.007593797664761092
4.7345E9 0.001663402230001586 0.009068173128147538 0.9983365977699982 -0.009068173128147538 0.9983365977699982 -0.009068173128147538 0.001663402230001586 0.009068173128147538
4.80925E9 0.001701858920777763 0.010521833604748392 0.9982981410792223 -0.010521833604748392 0.9982981410792223 -0.010521833604748392 0.001701858920777763 0.010521833604748392
4.884E9 0.0017439991780214693 0.011955742852208389 0.9982560008219787 -0.011955742852208389 0.9982560008219787 -0.011955742852208389 0.0017439991780214693 0.011955742852208389
4.95875E9 0.0017896834378510462 0.013370807724036156 0.998210316562149 -0.013370807724036156 0.998210316562149 -0.013370807724036156 0.0017896834378510462 0.013370807724036156
5.0335E9 0.0018387831872530521 0.014767882378478788 0.9981612168127468 -0.014767882378478788 0.9981612168127468 -0.014767882378478788 0.0018387831872530521 0.014767882378478788
5.10825E9 0.0018911800154258218 0.016147772125195605 0.9981088199845743 -0.016147772125195605 0.9981088199845743 -0.016147772125195605 0.0018911800154258218 0.016147772125195605
5.183E9 0.0019467647615205416 0.01751123694588279 0.9980532352384794 -0.01751123694588279 0.9980532352384794 -0.01751123694588279 0.0019467647615205416 0.01751123694588279
5.25775E9 0.0020054367481002868 0.0188589947209649 0.9979945632518998 -0.0188589947209649 0.9979945632518998 -0.0188589947209649 0.0020054367481002868 0.0188589947209649
5.3325E9 0.002067103090972217 0.02019172419093601 0.9979328969090278 -0.02019172419093601 0.9979328969090278 -0.02019172419093601 0.002067103090972217 0.02019172419093601
5.40725E9 0.0021316780772028514 0.021510067677834352 0.9978683219227972 -0.021510067677834352 0.9978683219227972 -0.021510067677834352 0.0021316780772028514 0.021510067677834352
5.482E9 0.0021990826041275733 0.022814633589611 0.9978009173958726 -0.022814633589611 0.9978009173958726 -0.022814633589611 0.0021990826041275733 0.022814633589611
5.55675E9 0.002269243673035984 0.024105998727756584 0.997730756326964 -0.024105998727756584 0.997730756326964 -0.024105998727756584 0.002269243673035984 0.024105998727756584
5.6315E9 0.0023420939319732745 0.025384710416437053 0.9976579060680266 -0.025384710416437053 0.9976579060680266 -0.025384710416437053 0.0023420939319732745 0.025384710416437053
5.70625E9 0.0024175712627604582 0.026651288469523592 0.9975824287372396 -0.026651288469523592 0.9975824287372396 -0.026651288469523592 0.0024175712627604582 0.026651288469523592
5.781E9 0.002495618407916991 0.027906227010253724 0.9975043815920831 -0.027906227010253724 0.9975043815920831 -0.027906227010253724 0.002495618407916991 0.027906227010253724
5.85575E9 0.0025761826336792143 0.029149996156798072 0.9974238173663208 -0.029149996156798072 0.9974238173663208 -0.029149996156798072 0.0025761826336792143 0.029149996156798072
5.9305E9 0.0026592154257576205 0.030383043585715794 0.9973407845742424 -0.030383043585715794 0.9973407845742424 -0.030383043585715794 0.0026592154257576205 0.030383043585715794
6.00525E9 0.002744672214873141 0.03160579598413051 0.9972553277851269 -0.03160579598413051 0.9972553277851269 -0.03160579598413051 0.002744672214873141 0.03160579598413051
6.08E9 0.002832512129465346 0.0328186604004408 0.9971674878705346 -0.0328186604004408 0.9971674878705346 -0.0328186604004408 0.002832512129465346 0.0328186604004408
6.15475E9 0.0029226977732794827 0.03402202550247109 0.9970773022267205 -0.03402202550247109 0.9970773022267205 -0.03402202550247109 0.0029226977732794827 0.03402202550247109
6.2295E9 0.0030151950258205723 0.03521626275116418 0.9969848049741795 -0.03521626275116418 0.9969848049741795 -0.03521626275116418 0.0030151950258205723 0.03521626275116418
6.30425E9 0.0031099728639158363 0.03640172749719861 0.9968900271360842 -0.03640172749719861 0.9968900271360842 -0.03640172749719861 0.0031099728639158363 0.03640172749719861
6.379E9 0.003207003202856051 0.03757876000727779 0.9967929967971436 -0.03757876000727779 0.9967929967971436 -0.03757876000727779 0.003207003202856051 0.03757876000727779
6.45375E9 0.0033062607557955157 0.03874768642627014 0.9966937392442043 -0.03874768642627014 0.9966937392442043 -0.03874768642627014 0.0033062607557955157 0.03874768642627014
6.5285E9 0.003407722910282892 0.03990881968087796 0.9965922770897169 -0.03990881968087796 0.9965922770897169 -0.03990881968087796 0.003407722910282892 0.03990881968087796
6.60325E9 0.0035113696209739765 0.04106246033006611 0.9964886303790259 -0.04106246033006611 0.9964886303790259 -0.04106246033006611 0.0035113696209739765 0.04106246033006611
6.678E9 0.0036171833177455893 0.04220889736708831 0.9963828166822546 -0.04220889736708831 0.9963828166822546 -0.04220889736708831 0.0036171833177455893 0.04220889736708831
6.75275E9 0.0037251488285898644 0.04334840897760258 0.9962748511714102 -0.04334840897760258 0.9962748511714102 -0.04334840897760258 0.0037251488285898644 0.04334840897760258
6.8275E9 0.0038352533168227038 0.04448126325806338 0.9961647466831771 -0.04448126325806338 0.9961647466831771 -0.04448126325806338 0.0038352533168227038 0.04448126325806338
6.90225E9 0.003947486232291785 0.045607718898315136 0.9960525137677081 -0.045607718898315136 0.9960525137677081 -0.045607718898315136 0.003947486232291785 0.045607718898315136
6.977E9 0.004061839276420661 0.04672802583208494 0.9959381607235795 -0.04672802583208494 0.9959381607235795 -0.04672802583208494 0.004061839276420661 0.04672802583208494
7.05175E9 0.004178306381078933 0.047842425858881966 0.9958216936189209 -0.047842425858881966 0.9958216936189209 -0.047842425858881966 0.004178306381078933 0.047842425858881966
7.1265E9 0.004296883701426712 0.04895115324065114 0.9957031162985731 -0.04895115324065114 0.9957031162985731 -0.04895115324065114 0.004296883701426712 0.04895115324065114
7.20125E9 0.004417569623048082 0.05005443527640472 0.9955824303769518 -0.05005443527640472 0.9955824303769518 -0.05005443527640472 0.004417569623048082 0.05005443527640472
7.276E9 0.004540364783865772 0.051152492857959135 0.9954596352161341 -0.051152492857959135 0.9954596352161341 -0.051152492857959135 0.004540364783865772 0.051152492857959135
7.35075E9 0.004665272111521958 0.052245541009841544 0.9953347278884782 -0.052245541009841544 0.9953347278884782 -0.052245541009841544 0.004665272111521958 0.052245541009841544
7.4255E9 0.004792296877121862 0.053333789416397596 0.995207703122878 -0.053333789416397596 0.995207703122878 -0.053333789416397596 0.004792296877121862 0.053333789416397596
7.50025E9 0.00492144676647304 0.054417442939133434 0.995078553233527 -0.054417442939133434 0.995078553233527 -0.054417442939133434 0.00492144676647304 0.054417442939133434
7.575E9 0.005052731970218874 0.05549670212735567 0.9949472680297811 -0.05549670212735567 0.9949472680297811 -0.05549670212735567 0.005052731970218874 0.05549670212735567
7.64975E9 0.005186165294567663 0.05657176372524372 0.9948138347054324 -0.05657176372524372 0.9948138347054324 -0.05657176372524372 0.005186165294567663 0.05657176372524372
7.7245E9 0.005321762294666052 0.057642821178595066 0.994678237705334 -0.057642821178595066 0.994678237705334 -0.057642821178595066 0.005321762294666052 0.057642821178595066
7.79925E9 0.005459541433067478 0.05871006514463041 0.9945404585669325 -0.05871006514463041 0.9945404585669325 -0.05871006514463041 0.005459541433067478 0.05871006514463041
7.874E9 0.005599524266214765 0.059773684008440145 0.9944004757337853 -0.059773684008440145 0.9944004757337853 -0.059773684008440145 0.005599524266214765 0.059773684008440145
7.94875E9 0.005741735662404863 0.06083386440989542 0.9942582643375951 -0.06083386440989542 0.9942582643375951 -0.06083386440989542 0.005741735662404863 0.06083386440989542
8.0235E9 0.0058862040553508245 0.06189079178514694 0.9941137959446492 -0.06189079178514694 0.9941137959446492 -0.06189079178514694 0.0058862040553508245 0.06189079178514694
8.09825E9 0.006032961738222737 0.06294465092719694 0.9939670382617772 -0.06294465092719694 0.9939670382617772 -0.06294465092719694 0.006032961738222737 0.06294465092719694
8.173E9 0.00618204520396186 0.06399562657046502 0.9938179547960382 -0.06399562657046502 0.9938179547960382 -0.06399562657046502 0.00618204520396186 0.06399562657046502
8.24775E9 0.006333495538753367 0.06504390400478366 0.9936665044612467 -0.06504390400478366 0.9936665044612467 -0.06504390400478366 0.006333495538753367 0.06504390400478366
8.3225E9 0.006487358876853809 0.06608966972487174 0.9935126411231462 -0.06608966972487174 0.9935126411231462 -0.06608966972487174 0.006487358876853809 0.06608966972487174
8.39725E9 0.006643686926549822 0.0671331121220496 0.9933563130734503 -0.0671331121220496 0.9933563130734503 -0.0671331121220496 0.006643686926549822 0.0671331121220496
8.472E9 0.006802537578939308 0.06817442222580244 0.9931974624210607 -0.06817442222580244 0.9931974624210607 -0.06817442222580244 0.006802537578939308 0.06817442222580244
