!Murata Part Number: GJM0225C1E4R1BB01
!These Parameters are Measured in Series Mode Connection
!       o--ll--o
!Port1            Port2
!       o------o
!Operation Temp=25[degC], DC Bias Voltage=0[V]
!Freq. Start=100[MHz] Stop=30[GHz], 401[Steps]
!Data Generated on Feb 1, 2023
# Hz S RI R 50
!Freq.(Hz) S11(Real) S11(Imag) S21(Real) S21(Imag) S12(Real) S12(Imag) S22(Real) S22(Imag)
1.0E8 0.9376496132902964 -0.24158476558260164 0.062350386709703574 0.24158476558260164 0.062350386709703574 0.24158476558260164 0.9376496132902964 -0.24158476558260164
1.7475E8 0.8310936813388072 -0.3743088224127726 0.16890631866119277 0.3743088224127726 0.16890631866119277 0.3743088224127726 0.8310936813388072 -0.3743088224127726
2.495E8 0.7068019904296665 -0.45471350887574996 0.29319800957033343 0.45471350887574996 0.29319800957033343 0.45471350887574996 0.7068019904296665 -0.45471350887574996
3.2425E8 0.5875980166123 -0.49159673378559576 0.41240198338769996 0.49159673378559576 0.41240198338769996 0.49159673378559576 0.5875980166123 -0.49159673378559576
3.99E8 0.4842426693116577 -0.49892581541274245 0.5157573306883424 0.49892581541274245 0.5157573306883424 0.49892581541274245 0.4842426693116577 -0.49892581541274245
4.7375E8 0.39911734155939915 -0.4887345230459082 0.6008826584406007 0.4887345230459082 0.6008826584406007 0.4887345230459082 0.39911734155939915 -0.4887345230459082
5.485E8 0.33064422014972633 -0.4693051359750009 0.6693557798502737 0.4693051359750009 0.6693557798502737 0.4693051359750009 0.33064422014972633 -0.4693051359750009
6.2325E8 0.27600532247611087 -0.4457207532721371 0.7239946775238891 0.4457207532721371 0.7239946775238891 0.4457207532721371 0.27600532247611087 -0.4457207532721371
6.98E8 0.23237764495340116 -0.4208898437677284 0.7676223550465989 0.4208898437677284 0.7676223550465989 0.4208898437677284 0.23237764495340116 -0.4208898437677284
7.7275E8 0.1973575657580991 -0.3963843516810822 0.802642434241901 0.3963843516810822 0.802642434241901 0.3963843516810822 0.1973575657580991 -0.3963843516810822
8.475E8 0.1690315753139155 -0.37299663698592506 0.8309684246860845 0.37299663698592506 0.8309684246860845 0.37299663698592506 0.1690315753139155 -0.37299663698592506
9.2225E8 0.14592080823246562 -0.3510788089988404 0.8540791917675343 0.3510788089988404 0.8540791917675343 0.3510788089988404 0.14592080823246562 -0.3510788089988404
9.97E8 0.12689553291015324 -0.330741134609869 0.8731044670898469 0.330741134609869 0.8731044670898469 0.330741134609869 0.12689553291015324 -0.330741134609869
1.07175E9 0.11109462675659974 -0.3119656078400263 0.8889053732434004 0.3119656078400263 0.8889053732434004 0.3119656078400263 0.11109462675659974 -0.3119656078400263
1.1465E9 0.0978597793164964 -0.29467009409455885 0.9021402206835036 0.29467009409455885 0.9021402206835036 0.29467009409455885 0.0978597793164964 -0.29467009409455885
1.22125E9 0.08668481931584829 -0.27874409943611955 0.9133151806841519 0.27874409943611955 0.9133151806841519 0.27874409943611955 0.08668481931584829 -0.27874409943611955
1.296E9 0.0771777191795263 -0.26406835550124813 0.9228222808204738 0.26406835550124813 0.9228222808204738 0.26406835550124813 0.0771777191795263 -0.26406835550124813
1.37075E9 0.06903242130838486 -0.25052520859483063 0.930967578691615 0.25052520859483063 0.930967578691615 0.25052520859483063 0.06903242130838486 -0.25052520859483063
1.4455E9 0.062008006391216265 -0.2380038091564061 0.9379919936087836 0.2380038091564061 0.9379919936087836 0.2380038091564061 0.062008006391216265 -0.2380038091564061
1.52025E9 0.05591326191743135 -0.22640238820464792 0.9440867380825686 0.22640238820464792 0.9440867380825686 0.22640238820464792 0.05591326191743135 -0.22640238820464792
1.595E9 0.050595198828538676 -0.21562893059785418 0.9494048011714614 0.21562893059785418 0.9494048011714614 0.21562893059785418 0.050595198828538676 -0.21562893059785418
1.66975E9 0.04593045382687949 -0.20560099507003823 0.9540695461731206 0.20560099507003823 0.9540695461731206 0.20560099507003823 0.04593045382687949 -0.20560099507003823
1.7445E9 0.04181880719350918 -0.19624510872433482 0.9581811928064908 0.19624510872433482 0.9581811928064908 0.19624510872433482 0.04181880719350918 -0.19624510872433482
1.81925E9 0.03817825929780915 -0.18749597746008412 0.9618217407021908 0.18749597746008412 0.9618217407021908 0.18749597746008412 0.03817825929780915 -0.18749597746008412
1.894E9 0.03494126264154676 -0.17929564600249098 0.9650587373584533 0.17929564600249098 0.9650587373584533 0.17929564600249098 0.03494126264154676 -0.17929564600249098
1.96875E9 0.032051816412607445 -0.17159267883767818 0.9679481835873927 0.17159267883767818 0.9679481835873927 0.17159267883767818 0.032051816412607445 -0.17159267883767818
2.0435E9 0.029463209439614765 -0.16434139746510354 0.9705367905603852 0.16434139746510354 0.9705367905603852 0.16434139746510354 0.029463209439614765 -0.16434139746510354
2.11825E9 0.02713625413447194 -0.15750118896859475 0.9728637458655278 0.15750118896859475 0.9728637458655278 0.15750118896859475 0.02713625413447194 -0.15750118896859475
2.193E9 0.025037894920719415 -0.1510358895584216 0.9749621050792805 0.1510358895584216 0.9749621050792805 0.1510358895584216 0.025037894920719415 -0.1510358895584216
2.26775E9 0.023140104327995476 -0.14491324068117606 0.9768598956720046 0.14491324068117606 0.9768598956720046 0.14491324068117606 0.023140104327995476 -0.14491324068117606
2.3425E9 0.021419001600651168 -0.13910441230888032 0.9785809983993489 0.13910441230888032 0.9785809983993489 0.13910441230888032 0.021419001600651168 -0.13910441230888032
2.41725E9 0.019854144588570606 -0.13358358678938623 0.9801458554114295 0.13358358678938623 0.9801458554114295 0.13358358678938623 0.019854144588570606 -0.13358358678938623
2.492E9 0.01842795746327775 -0.12832759638980548 0.9815720425367224 0.12832759638980548 0.9815720425367224 0.12832759638980548 0.01842795746327775 -0.12832759638980548
2.56675E9 0.01712526557022373 -0.12331560793583246 0.9828747344297762 0.12331560793583246 0.9828747344297762 0.12331560793583246 0.01712526557022373 -0.12331560793583246
2.6415E9 0.015932915300395707 -0.1185288484752838 0.9840670846996041 0.1185288484752838 0.9840670846996041 0.1185288484752838 0.015932915300395707 -0.1185288484752838
2.71625E9 0.014839461823304501 -0.11395036652058896 0.9851605381766956 0.11395036652058896 0.9851605381766956 0.11395036652058896 0.014839461823304501 -0.11395036652058896
2.791E9 0.013834911289153737 -0.10956482406671736 0.9861650887108462 0.10956482406671736 0.9861650887108462 0.10956482406671736 0.013834911289153737 -0.10956482406671736
2.86575E9 0.012910506985624091 -0.1053583151927018 0.987089493014376 0.1053583151927018 0.987089493014376 0.1053583151927018 0.012910506985624091 -0.1053583151927018
2.9405E9 0.012058551147100171 -0.1013182076146691 0.9879414488528998 0.1013182076146691 0.9879414488528998 0.1013182076146691 0.012058551147100171 -0.1013182076146691
3.01525E9 0.011272255825173369 -0.09743300405785082 0.988727744174827 0.09743300405785082 0.988727744174827 0.09743300405785082 0.011272255825173369 -0.09743300405785082
3.09E9 0.010545617560073503 -0.09369222075371353 0.9894543824399263 0.09369222075371353 0.9894543824399263 0.09369222075371353 0.010545617560073503 -0.09369222075371353
3.16475E9 0.009873311633519026 -0.09008628074941896 0.990126688366481 0.09008628074941896 0.990126688366481 0.09008628074941896 0.009873311633519026 -0.09008628074941896
3.2395E9 0.00925060250186349 -0.08660642004547099 0.9907493974981363 0.08660642004547099 0.9907493974981363 0.08660642004547099 0.00925060250186349 -0.08660642004547099
3.31425E9 0.008673267655214294 -0.08324460485949116 0.9913267323447856 0.08324460485949116 0.9913267323447856 0.08324460485949116 0.008673267655214294 -0.08324460485949116
3.389E9 0.008137532661925531 -0.07999345855542435 0.9918624673380746 0.07999345855542435 0.9918624673380746 0.07999345855542435 0.008137532661925531 -0.07999345855542435
3.46375E9 0.007640015567856611 -0.07684619698361538 0.9923599844321436 0.07684619698361538 0.9923599844321436 0.07684619698361538 0.007640015567856611 -0.07684619698361538
3.5385E9 0.007177679148501243 -0.07379657115307782 0.9928223208514989 0.07379657115307782 0.9928223208514989 0.07379657115307782 0.007177679148501243 -0.07379657115307782
3.61325E9 0.006747789776816781 -0.07083881630730177 0.9932522102231832 0.07083881630730177 0.9932522102231832 0.07083881630730177 0.006747789776816781 -0.07083881630730177
3.688E9 0.006347881883693935 -0.06796760660294336 0.9936521181163062 0.06796760660294336 0.9936521181163062 0.06796760660294336 0.006347881883693935 -0.06796760660294336
3.76275E9 0.0059757271618993005 -0.06517801470001204 0.9940242728381007 0.06517801470001204 0.9940242728381007 0.06517801470001204 0.0059757271618993005 -0.06517801470001204
3.8375E9 0.005629307806116936 -0.06246547566553687 0.994370692193883 0.06246547566553687 0.994370692193883 0.06246547566553687 0.005629307806116936 -0.06246547566553687
3.91225E9 0.00530679319778399 -0.05982575467256717 0.9946932068022161 0.05982575467256717 0.9946932068022161 0.05982575467256717 0.00530679319778399 -0.05982575467256717
3.987E9 0.005006519538780153 -0.05725491804477454 0.9949934804612197 0.05725491804477454 0.9949934804612197 0.05725491804477454 0.005006519538780153 -0.05725491804477454
4.06175E9 0.004726972016668097 -0.054749307255609614 0.995273027983332 0.054749307255609614 0.995273027983332 0.054749307255609614 0.004726972016668097 -0.054749307255609614
4.1365E9 0.004466769149251856 -0.05230551554138109 0.995533230850748 0.05230551554138109 0.995533230850748 0.05230551554138109 0.004466769149251856 -0.05230551554138109
4.21125E9 0.004224649010244906 -0.0499203668310082 0.9957753509897551 0.0499203668310082 0.9957753509897551 0.0499203668310082 0.004224649010244906 -0.0499203668310082
4.286E9 0.0039994570828405 -0.047590896732588296 0.9960005429171598 0.047590896732588296 0.9960005429171598 0.047590896732588296 0.0039994570828405 -0.047590896732588296
4.36075E9 0.003790135525579169 -0.04531433534920457 0.9962098644744208 0.04531433534920457 0.9962098644744208 0.04531433534920457 0.003790135525579169 -0.04531433534920457
4.4355E9 0.0035957136664245795 -0.04308809172431859 0.9964042863335755 0.04308809172431859 0.9964042863335755 0.04308809172431859 0.0035957136664245795 -0.04308809172431859
4.51025E9 0.0034152995674521297 -0.040909739741279975 0.9965847004325477 0.040909739741279975 0.9965847004325477 0.040909739741279975 0.0034152995674521297 -0.040909739741279975
4.585E9 0.003248072524889555 -0.03877700532247912 0.9967519274751104 0.03877700532247912 0.9967519274751104 0.03877700532247912 0.003248072524889555 -0.03877700532247912
4.65975E9 0.0030932763881296706 -0.036687754791916105 0.9969067236118704 0.036687754791916105 0.9969067236118704 0.036687754791916105 0.0030932763881296706 -0.036687754791916105
4.7345E9 0.0029502135973400703 -0.03463998428085314 0.9970497864026598 0.03463998428085314 0.9970497864026598 0.03463998428085314 0.0029502135973400703 -0.03463998428085314
4.80925E9 0.0028182398528960014 -0.03263181007007946 0.997181760147104 0.03263181007007946 0.997181760147104 0.03263181007007946 0.0028182398528960014 -0.03263181007007946
4.884E9 0.0026967593414514 -0.030661459774433346 0.9973032406585486 0.030661459774433346 0.9973032406585486 0.030661459774433346 0.0026967593414514 -0.030661459774433346
4.95875E9 0.0025852204533609374 -0.028727264285827687 0.9974147795466389 0.028727264285827687 0.9974147795466389 0.028727264285827687 0.0025852204533609374 -0.028727264285827687
5.0335E9 0.002483111934639932 -0.026827650400321427 0.99751688806536 0.026827650400321427 0.99751688806536 0.026827650400321427 0.002483111934639932 -0.026827650400321427
5.10825E9 0.0023899594239208395 -0.024961134062942873 0.997610040576079 0.024961134062942873 0.997610040576079 0.024961134062942873 0.0023899594239208395 -0.024961134062942873
5.183E9 0.002305322331119105 -0.0231263141711494 0.9976946776688809 0.0231263141711494 0.9976946776688809 0.0231263141711494 0.002305322331119105 -0.0231263141711494
5.25775E9 0.0022287910199119496 -0.021321866884134205 0.9977712089800882 0.021321866884134205 0.9977712089800882 0.021321866884134205 0.0022287910199119496 -0.021321866884134205
5.3325E9 0.0021599842607900087 -0.019546540390769713 0.9978400157392101 0.019546540390769713 0.9978400157392101 0.019546540390769713 0.0021599842607900087 -0.019546540390769713
5.40725E9 0.002098546925472143 -0.017799150093909574 0.9979014530745279 0.017799150093909574 0.9979014530745279 0.017799150093909574 0.002098546925472143 -0.017799150093909574
5.482E9 0.0020441478969693326 -0.016078574173134123 0.9979558521030306 0.016078574173134123 0.9979558521030306 0.016078574173134123 0.0020441478969693326 -0.016078574173134123
5.55675E9 0.001996478172621285 -0.014383749491891659 0.9980035218273785 0.014383749491891659 0.9980035218273785 0.014383749491891659 0.001996478172621285 -0.014383749491891659
5.6315E9 0.0019552491400742257 -0.012713667818421502 0.9980447508599257 0.012713667818421502 0.9980447508599257 0.012713667818421502 0.0019552491400742257 -0.012713667818421502
5.70625E9 0.001920191008475356 -0.011067372332893774 0.9980798089915248 0.011067372332893774 0.9980798089915248 0.011067372332893774 0.001920191008475356 -0.011067372332893774
5.781E9 0.001891051379175602 -0.009443954395917997 0.9981089486208247 0.009443954395917997 0.9981089486208247 0.009443954395917997 0.001891051379175602 -0.009443954395917997
5.85575E9 0.0018675939419971236 -0.007842550555991866 0.9981324060580027 0.007842550555991866 0.9981324060580027 0.007842550555991866 0.0018675939419971236 -0.007842550555991866
5.9305E9 0.0018495972846697248 -0.0062623397756208996 0.9981504027153303 0.0062623397756208996 0.9981504027153303 0.0062623397756208996 0.0018495972846697248 -0.0062623397756208996
6.00525E9 0.001836853804399787 -0.004702540857770852 0.9981631461956 0.004702540857770852 0.9981631461956 0.004702540857770852 0.001836853804399787 -0.004702540857770852
6.08E9 0.0018291687117314433 -0.003162410056039932 0.9981708312882687 0.003162410056039932 0.9981708312882687 0.003162410056039932 0.0018291687117314433 -0.003162410056039932
6.15475E9 0.0018263591179137593 -0.0016412388534869286 0.9981736408820865 0.0016412388534869286 0.9981736408820865 0.0016412388534869286 0.0018263591179137593 -0.0016412388534869286
6.2295E9 0.001828253197918036 -1.3835189643697526E-4 0.998171746802082 1.3835189643697526E-4 0.998171746802082 1.3835189643697526E-4 0.001828253197918036 -1.3835189643697526E-4
6.30425E9 0.0018346894220716906 0.0013468949291650563 0.9981653105779283 -0.0013468949291650563 0.9981653105779283 -0.0013468949291650563 0.0018346894220716906 0.0013468949291650563
6.379E9 0.001845515850003245 0.002815116290164902 0.9981544841499966 -0.002815116290164902 0.9981544841499966 -0.002815116290164902 0.001845515850003245 0.002815116290164902
6.45375E9 0.0018605894812383863 0.004266899077673839 0.9981394105187616 -0.004266899077673839 0.9981394105187616 -0.004266899077673839 0.0018605894812383863 0.004266899077673839
6.5285E9 0.0018797756573601299 0.0057028039670016075 0.9981202243426399 -0.0057028039670016075 0.9981202243426399 -0.0057028039670016075 0.0018797756573601299 0.0057028039670016075
6.60325E9 0.0019029475111556136 0.007123366874618919 0.9980970524888444 -0.007123366874618919 0.9980970524888444 -0.007123366874618919 0.0019029475111556136 0.007123366874618919
6.678E9 0.0019299854586256454 0.008529100319981905 0.9980700145413743 -0.008529100319981905 0.9980700145413743 -0.008529100319981905 0.0019299854586256454 0.008529100319981905
6.75275E9 0.0019607767301374978 0.009920494699379986 0.9980392232698627 -0.009920494699379986 0.9980392232698627 -0.009920494699379986 0.0019607767301374978 0.009920494699379986
6.8275E9 0.0019952149373624003 0.011298019478362111 0.9980047850626375 -0.011298019478362111 0.9980047850626375 -0.011298019478362111 0.0019952149373624003 0.011298019478362111
6.90225E9 0.0020331996729618406 0.012662124308748685 0.9979668003270382 -0.012662124308748685 0.9979668003270382 -0.012662124308748685 0.0020331996729618406 0.012662124308748685
6.977E9 0.00207463614027544 0.01401324007573559 0.9979253638597244 -0.01401324007573559 0.9979253638597244 -0.01401324007573559 0.00207463614027544 0.01401324007573559
7.05175E9 0.0021194348105219732 0.015351779880147047 0.9978805651894781 -0.015351779880147047 0.9978805651894781 -0.015351779880147047 0.0021194348105219732 0.015351779880147047
7.1265E9 0.0021675111052570956 0.016678139960480717 0.997832488894743 -0.016678139960480717 0.997832488894743 -0.016678139960480717 0.0021675111052570956 0.016678139960480717
7.20125E9 0.00221878510203991 0.01799270055901627 0.9977812148979599 -0.01799270055901627 0.9977812148979599 -0.01799270055901627 0.00221878510203991 0.01799270055901627
7.276E9 0.0022731812614478625 0.019295826735916392 0.9977268187385521 -0.019295826735916392 0.9977268187385521 -0.019295826735916392 0.0022731812614478625 0.019295826735916392
7.35075E9 0.0023306281737483494 0.02058786913494104 0.9976693718262515 -0.02058786913494104 0.9976693718262515 -0.02058786913494104 0.0023306281737483494 0.02058786913494104
7.4255E9 0.0023910583236874438 0.021869164704110218 0.9976089416763126 -0.021869164704110218 0.9976089416763126 -0.021869164704110218 0.0023910583236874438 0.021869164704110218
7.50025E9 0.0024544078719935065 0.02314003737439446 0.9975455921280066 -0.02314003737439446 0.9975455921280066 -0.02314003737439446 0.0024544078719935065 0.02314003737439446
7.575E9 0.002520616452317426 0.02440079869927455 0.9974793835476824 -0.02440079869927455 0.9974793835476824 -0.02440079869927455 0.002520616452317426 0.02440079869927455
7.64975E9 0.002589626982443403 0.02565174845779662 0.9974103730175565 -0.02565174845779662 0.9974103730175565 -0.02565174845779662 0.002589626982443403 0.02565174845779662
7.7245E9 0.002661385488705771 0.02689317522355139 0.9973386145112944 -0.02689317522355139 0.9973386145112944 -0.02689317522355139 0.002661385488705771 0.02689317522355139
7.79925E9 0.002735840942639387 0.028125356901824494 0.9972641590573607 -0.028125356901824494 0.9972641590573607 -0.028125356901824494 0.002735840942639387 0.028125356901824494
7.874E9 0.002812945108974707 0.029348561237000137 0.9971870548910253 -0.029348561237000137 0.9971870548910253 -0.029348561237000137 0.002812945108974707 0.029348561237000137
7.94875E9 0.0028926524041645086 0.030563046292146474 0.9971073475958355 -0.030563046292146474 0.9971073475958355 -0.030563046292146474 0.0028926524041645086 0.030563046292146474
8.0235E9 0.0029749197646983354 0.031769060902572886 0.9970250802353017 -0.031769060902572886 0.9970250802353017 -0.031769060902572886 0.0029749197646983354 0.031769060902572886
8.09825E9 0.003059706524523572 0.03296684510501994 0.9969402934754764 -0.03296684510501994 0.9969402934754764 -0.03296684510501994 0.003059706524523572 0.03296684510501994
8.173E9 0.0031469743009493907 0.03415663054402492 0.9968530256990507 -0.03415663054402492 0.9968530256990507 -0.03415663054402492 0.0031469743009493907 0.03415663054402492
8.24775E9 0.0032366868884621596 0.03533864085689747 0.9967633131115378 -0.03533864085689747 0.9967633131115378 -0.03533864085689747 0.0032366868884621596 0.03533864085689747
8.3225E9 0.003328810159928765 0.03651309203863984 0.9966711898400713 -0.03651309203863984 0.9966711898400713 -0.03651309203863984 0.003328810159928765 0.03651309203863984
8.39725E9 0.003423311974708019 0.037680192788053575 0.9965766880252919 -0.037680192788053575 0.9965766880252919 -0.037680192788053575 0.003423311974708019 0.037680192788053575
8.472E9 0.003520162093230571 0.038840144836190416 0.9964798379067695 -0.038840144836190416 0.9964798379067695 -0.038840144836190416 0.003520162093230571 0.038840144836190416
8.54675E9 0.0036193320976445134 0.03999314325822641 0.9963806679023556 -0.03999314325822641 0.9963806679023556 -0.03999314325822641 0.0036193320976445134 0.03999314325822641
