!Murata Part Number: GJM0225C1E150GB01
!These Parameters are Measured in Series Mode Connection
!       o--ll--o
!Port1            Port2
!       o------o
!Operation Temp=25[degC], DC Bias Voltage=0[V]
!Freq. Start=100[MHz] Stop=30[GHz], 401[Steps]
!Data Generated on Feb 1, 2023
# Hz S RI R 50
!Freq.(Hz) S11(Real) S11(Imag) S21(Real) S21(Imag) S12(Real) S12(Imag) S22(Real) S22(Imag)
1.0E8 0.5290876369047788 -0.49877811603582406 0.4709123630952213 0.49877811603582406 0.4709123630952213 0.49877811603582406 0.5290876369047788 -0.49877811603582406
1.7475E8 0.2684763015737302 -0.4425083529367311 0.7315236984262699 0.4425083529367311 0.7315236984262699 0.4425083529367311 0.2684763015737302 -0.4425083529367311
2.495E8 0.15208053511746045 -0.35815235411982665 0.8479194648825396 0.35815235411982665 0.8479194648825396 0.35815235411982665 0.15208053511746045 -0.35815235411982665
3.2425E8 0.09555751428560467 -0.2927417912830076 0.9044424857143956 0.2927417912830076 0.9044424857143956 0.2927417912830076 0.09555751428560467 -0.2927417912830076
3.99E8 0.06483668818835242 -0.24469173079903378 0.9351633118116475 0.24469173079903378 0.9351633118116475 0.24469173079903378 0.06483668818835242 -0.24469173079903378
4.7375E8 0.046536337828763936 -0.2087826968872387 0.953463662171236 0.2087826968872387 0.953463662171236 0.2087826968872387 0.046536337828763936 -0.2087826968872387
5.485E8 0.03483682173865165 -0.18117725890285039 0.9651631782613482 0.18117725890285039 0.9651631782613482 0.18117725890285039 0.03483682173865165 -0.18117725890285039
6.2325E8 0.026936394258247433 -0.15936507545241604 0.9730636057417525 0.15936507545241604 0.9730636057417525 0.15936507545241604 0.026936394258247433 -0.15936507545241604
6.98E8 0.021366154040926132 -0.14170850816096467 0.9786338459590739 0.14170850816096467 0.9786338459590739 0.14170850816096467 0.021366154040926132 -0.14170850816096467
7.7275E8 0.017300431476585318 -0.12711523967244812 0.9826995685234148 0.12711523967244812 0.9826995685234148 0.12711523967244812 0.017300431476585318 -0.12711523967244812
8.475E8 0.014247848516273877 -0.11483647111274907 0.9857521514837264 0.11483647111274907 0.9857521514837264 0.11483647111274907 0.014247848516273877 -0.11483647111274907
9.2225E8 0.011901802398649665 -0.10434491156055246 0.9880981976013503 0.10434491156055246 0.9880981976013503 0.10434491156055246 0.011901802398649665 -0.10434491156055246
9.97E8 0.0100632332832049 -0.09525995910321267 0.9899367667167953 0.09525995910321267 0.9899367667167953 0.09525995910321267 0.0100632332832049 -0.09525995910321267
1.07175E9 0.008598468581825877 -0.0873007182129535 0.9914015314181741 0.0873007182129535 0.9914015314181741 0.0873007182129535 0.008598468581825877 -0.0873007182129535
1.1465E9 0.007415105305996188 -0.08025572659685917 0.9925848946940038 0.08025572659685917 0.9925848946940038 0.08025572659685917 0.007415105305996188 -0.08025572659685917
1.22125E9 0.006447642348092074 -0.07396295258588577 0.993552357651908 0.07396295258588577 0.993552357651908 0.07396295258588577 0.006447642348092074 -0.07396295258588577
1.296E9 0.005648615107828733 -0.06829626428364746 0.994351384892171 0.06829626428364746 0.994351384892171 0.06829626428364746 0.005648615107828733 -0.06829626428364746
1.37075E9 0.004982954424621724 -0.06315607643788786 0.9950170455753781 0.06315607643788786 0.9950170455753781 0.06315607643788786 0.004982954424621724 -0.06315607643788786
1.4455E9 0.0044242984504664915 -0.05846275611582096 0.9955757015495336 0.05846275611582096 0.9955757015495336 0.05846275611582096 0.0044242984504664915 -0.05846275611582096
1.52025E9 0.003952522549312097 -0.054151888948560725 0.9960474774506879 0.054151888948560725 0.9960474774506879 0.054151888948560725 0.003952522549312097 -0.054151888948560725
1.595E9 0.0035520489411429526 -0.050170824734740244 0.9964479510588569 0.050170824734740244 0.9964479510588569 0.050170824734740244 0.0035520489411429526 -0.050170824734740244
1.66975E9 0.0032106673220029026 -0.04647611856819487 0.9967893326779971 0.04647611856819487 0.9967893326779971 0.04647611856819487 0.0032106673220029026 -0.04647611856819487
1.7445E9 0.0029186974608605464 -0.043031609157407814 0.9970813025391395 0.043031609157407814 0.9970813025391395 0.043031609157407814 0.0029186974608605464 -0.043031609157407814
1.81925E9 0.0026683850765490177 -0.03980695740001666 0.9973316149234508 0.03980695740001666 0.9973316149234508 0.03980695740001666 0.0026683850765490177 -0.03980695740001666
1.894E9 0.00245345963301489 -0.03677652204709479 0.997546540366985 0.03677652204709479 0.997546540366985 0.03677652204709479 0.00245345963301489 -0.03677652204709479
1.96875E9 0.0022688063174860496 -0.03391848542840038 0.997731193682514 0.03391848542840038 0.997731193682514 0.03391848542840038 0.0022688063174860496 -0.03391848542840038
2.0435E9 0.0021102197190126255 -0.031214166884927574 0.9978897802809874 0.031214166884927574 0.9978897802809874 0.031214166884927574 0.0021102197190126255 -0.031214166884927574
2.11825E9 0.001974216753731807 -0.0286474786555696 0.9980257832462682 0.0286474786555696 0.9980257832462682 0.0286474786555696 0.001974216753731807 -0.0286474786555696
2.193E9 0.001857893089240164 -0.0262044909803248 0.9981421069107598 0.0262044909803248 0.9981421069107598 0.0262044909803248 0.001857893089240164 -0.0262044909803248
2.26775E9 0.001758811874769632 -0.023873081734448298 0.9982411881252303 0.023873081734448298 0.9982411881252303 0.023873081734448298 0.001758811874769632 -0.023873081734448298
2.3425E9 0.0016749167216362196 -0.021642652068176758 0.9983250832783638 0.021642652068176758 0.9983250832783638 0.021642652068176758 0.0016749167216362196 -0.021642652068176758
2.41725E9 0.0016044630692780067 -0.019503894014077438 0.9983955369307219 0.019503894014077438 0.9983955369307219 0.019503894014077438 0.0016044630692780067 -0.019503894014077438
2.492E9 0.0015459636209863904 -0.01744859932744482 0.9984540363790136 0.01744859932744482 0.9984540363790136 0.01744859932744482 0.0015459636209863904 -0.01744859932744482
2.56675E9 0.0014981446410732495 -0.015469501280975307 0.9985018553589267 0.015469501280975307 0.9985018553589267 0.015469501280975307 0.0014981446410732495 -0.015469501280975307
2.6415E9 0.0014599107059803619 -0.013560142977617476 0.9985400892940195 0.013560142977617476 0.9985400892940195 0.013560142977617476 0.0014599107059803619 -0.013560142977617476
2.71625E9 0.0014303160866482394 -0.011714767140184957 0.9985696839133518 0.011714767140184957 0.9985696839133518 0.011714767140184957 0.0014303160866482394 -0.011714767140184957
2.791E9 0.0014085413706470087 -0.009928223400627522 0.998591458629353 0.009928223400627522 0.998591458629353 0.009928223400627522 0.0014085413706470087 -0.009928223400627522
2.86575E9 0.00139387425335264 -0.00819588993034815 0.9986061257466473 0.00819588993034815 0.9986061257466473 0.00819588993034815 0.00139387425335264 -0.00819588993034815
2.9405E9 0.001385693668125302 -0.0065136068870202115 0.9986143063318749 0.0065136068870202115 0.9986143063318749 0.0065136068870202115 0.001385693668125302 -0.0065136068870202115
3.01525E9 0.0013834566074689243 -0.00487761964796119 0.9986165433925311 0.00487761964796119 0.9986165433925311 0.00487761964796119 0.0013834566074689243 -0.00487761964796119
3.09E9 0.001386687125863786 -0.0032845301884657984 0.9986133128741363 0.0032845301884657984 0.9986133128741363 0.0032845301884657984 0.001386687125863786 -0.0032845301884657984
3.16475E9 0.0013949671214369568 -0.0017312552703201214 0.9986050328785631 0.0017312552703201214 0.9986050328785631 0.0017312552703201214 0.0013949671214369568 -0.0017312552703201214
3.2395E9 0.0014079285759250482 -2.14990349556307E-4 0.9985920714240748 2.14990349556307E-4 0.9985920714240748 2.14990349556307E-4 0.0014079285759250482 -2.14990349556307E-4
3.31425E9 0.001425246996401416 0.0012668216926166698 0.9985747530035987 -0.0012668216926166698 0.9985747530035987 -0.0012668216926166698 0.001425246996401416 0.0012668216926166698
3.389E9 0.0014466358523567888 0.0027165177351940488 0.9985533641476431 -0.0027165177351940488 0.9985533641476431 -0.0027165177351940488 0.0014466358523567888 0.0027165177351940488
3.46375E9 0.0014718418411944763 0.004136238132110818 0.9985281581588055 -0.004136238132110818 0.9985281581588055 -0.004136238132110818 0.0014718418411944763 0.004136238132110818
3.5385E9 0.001500640846471603 0.005527947466768803 0.9984993591535283 -0.005527947466768803 0.9984993591535283 -0.005527947466768803 0.001500640846471603 0.005527947466768803
3.61325E9 0.001532834478131031 0.006893452773146377 0.9984671655218688 -0.006893452773146377 0.9984671655218688 -0.006893452773146377 0.001532834478131031 0.006893452773146377
3.688E9 0.001568247103927396 0.008234419581795679 0.9984317528960726 -0.008234419581795679 0.9984317528960726 -0.008234419581795679 0.001568247103927396 0.008234419581795679
3.76275E9 0.0016067232973275645 0.009552386092721967 0.9983932767026723 -0.009552386092721967 0.9983932767026723 -0.009552386092721967 0.0016067232973275645 0.009552386092721967
3.8375E9 0.0016481256401867635 0.010848775730661616 0.9983518743598131 -0.010848775730661616 0.9983518743598131 -0.010848775730661616 0.0016481256401867635 0.010848775730661616
3.91225E9 0.0016923328291058076 0.012124908299767997 0.9983076671708944 -0.012124908299767997 0.9983076671708944 -0.012124908299767997 0.0016923328291058076 0.012124908299767997
3.987E9 0.0017392380430603742 0.013382009922701797 0.9982607619569395 -0.013382009922701797 0.9982607619569395 -0.013382009922701797 0.0017392380430603742 0.013382009922701797
4.06175E9 0.001788747537050659 0.01462122192242388 0.9982112524629494 -0.01462122192242388 0.9982112524629494 -0.01462122192242388 0.001788747537050659 0.01462122192242388
4.1365E9 0.0018407794324568616 0.015843608782657576 0.998159220567543 -0.015843608782657576 0.998159220567543 -0.015843608782657576 0.0018407794324568616 0.015843608782657576
4.21125E9 0.00189526267974789 0.017050165304262614 0.9981047373202523 -0.017050165304262614 0.9981047373202523 -0.017050165304262614 0.00189526267974789 0.017050165304262614
4.286E9 0.0019521361733734139 0.0182418230590292 0.9980478638266266 -0.0182418230590292 0.9980478638266266 -0.0182418230590292 0.0019521361733734139 0.0182418230590292
4.36075E9 0.002011348002232021 0.019419456229160137 0.997988651997768 -0.019419456229160137 0.997988651997768 -0.019419456229160137 0.002011348002232021 0.019419456229160137
4.4355E9 0.0020728548221807057 0.02058388690955847 0.9979271451778193 -0.02058388690955847 0.9979271451778193 -0.02058388690955847 0.0020728548221807057 0.02058388690955847
4.51025E9 0.002136621339741818 0.021735889940648175 0.997863378660258 -0.021735889940648175 0.997863378660258 -0.021735889940648175 0.002136621339741818 0.021735889940648175
4.585E9 0.002202619898565147 0.022876197331562292 0.9977973801014349 -0.022876197331562292 0.9977973801014349 -0.022876197331562292 0.002202619898565147 0.022876197331562292
4.65975E9 0.002270830162395483 0.02400550232691833 0.9977291698376045 -0.02400550232691833 0.9977291698376045 -0.02400550232691833 0.002270830162395483 0.02400550232691833
4.7345E9 0.002341238890352863 0.025124463164893664 0.997658761109647 -0.025124463164893664 0.997658761109647 -0.025124463164893664 0.002341238890352863 0.025124463164893664
4.80925E9 0.0024138398023222955 0.0262337065697737 0.9975861601976777 -0.0262337065697737 0.9975861601976777 -0.0262337065697737 0.0024138398023222955 0.0262337065697737
4.884E9 0.0024886335342401227 0.027333831018465808 0.9975113664657597 -0.027333831018465808 0.9975113664657597 -0.027333831018465808 0.0024886335342401227 0.027333831018465808
4.95875E9 0.002565627685125726 0.028425409817570396 0.9974343723148743 -0.028425409817570396 0.9974343723148743 -0.028425409817570396 0.002565627685125726 0.028425409817570396
5.0335E9 0.002644836959916781 0.02950899402541646 0.9973551630400833 -0.02950899402541646 0.9973551630400833 -0.02950899402541646 0.002644836959916781 0.02950899402541646
5.10825E9 0.0027262834146112966 0.030585115251968765 0.9972737165853885 -0.030585115251968765 0.9972737165853885 -0.030585115251968765 0.0027262834146112966 0.030585115251968765
5.183E9 0.002809996813003236 0.03165428836867865 0.9971900031869968 -0.03165428836867865 0.9971900031869968 -0.03165428836867865 0.002809996813003236 0.03165428836867865
5.25775E9 0.00289601510754625 0.03271701416018594 0.9971039848924537 -0.03271701416018594 0.9971039848924537 -0.03271701416018594 0.00289601510754625 0.03271701416018594
5.3325E9 0.0029843850607482003 0.03377378195031265 0.9970156149392521 -0.03377378195031265 0.9970156149392521 -0.03377378195031265 0.0029843850607482003 0.03377378195031265
5.40725E9 0.003075163028185652 0.034825072236067504 0.9969248369718141 -0.034825072236067504 0.9969248369718141 -0.034825072236067504 0.003075163028185652 0.034825072236067504
5.482E9 0.003168415929987357 0.035871359365482025 0.9968315840700125 -0.035871359365482025 0.9968315840700125 -0.035871359365482025 0.003168415929987357 0.035871359365482025
5.55675E9 0.0032642224448001336 0.036913114298125126 0.9967357775551998 -0.036913114298125126 0.9967357775551998 -0.036913114298125126 0.0032642224448001336 0.036913114298125126
5.6315E9 0.0033626744692556105 0.0379508074912356 0.9966373255307444 -0.0379508074912356 0.9966373255307444 -0.0379508074912356 0.0033626744692556105 0.0379508074912356
5.70625E9 0.003463878897379926 0.03898491195974533 0.9965361211026199 -0.03898491195974533 0.9965361211026199 -0.03898491195974533 0.003463878897379926 0.03898491195974533
5.781E9 0.003567959789004041 0.04001590656526485 0.996432040210996 -0.04001590656526485 0.996432040210996 -0.04001590656526485 0.003567959789004041 0.04001590656526485
5.85575E9 0.0036750610150824373 0.041044279597638726 0.9963249389849177 -0.041044279597638726 0.9963249389849177 -0.041044279597638726 0.0036750610150824373 0.041044279597638726
5.9305E9 0.0037853494923300816 0.042070532723283684 0.99621465050767 -0.042070532723283684 0.99621465050767 -0.042070532723283684 0.0037853494923300816 0.042070532723283684
6.00525E9 0.003899019151683036 0.04309518538758046 0.9961009808483169 -0.04309518538758046 0.9961009808483169 -0.04309518538758046 0.003899019151683036 0.04309518538758046
6.08E9 0.004016295827459615 0.04411877977454079 0.9959837041725403 -0.04411877977454079 0.9959837041725403 -0.04411877977454079 0.004016295827459615 0.04411877977454079
6.15475E9 0.004137443310482086 0.04514188644627349 0.9958625566895181 -0.04514188644627349 0.9958625566895181 -0.04514188644627349 0.004137443310482086 0.04514188644627349
6.2295E9 0.00426277088406315 0.04616511080786088 0.9957372291159365 -0.04616511080786088 0.9957372291159365 -0.04616511080786088 0.00426277088406315 0.04616511080786088
6.30425E9 0.004392642764106443 0.04718910057040262 0.9956073572358934 -0.04718910057040262 0.9956073572358934 -0.04718910057040262 0.004392642764106443 0.04718910057040262
6.379E9 0.004527490004260586 0.048214554416085215 0.9954725099957394 -0.048214554416085215 0.9954725099957394 -0.048214554416085215 0.004527490004260586 0.048214554416085215
6.45375E9 0.004667825619471279 0.049242232103239296 0.9953321743805288 -0.049242232103239296 0.9953321743805288 -0.049242232103239296 0.004667825619471279 0.049242232103239296
6.5285E9 0.004814263948807522 0.05027296628384292 0.9951857360511926 -0.05027296628384292 0.9951857360511926 -0.05027296628384292 0.004814263948807522 0.05027296628384292
6.60325E9 0.004967545654094736 0.05130767633495986 0.9950324543459054 -0.05130767633495986 0.9950324543459054 -0.05130767633495986 0.004967545654094736 0.05130767633495986
6.678E9 0.0051285702837421555 0.052347384517211076 0.9948714297162581 -0.052347384517211076 0.9948714297162581 -0.052347384517211076 0.0051285702837421555 0.052347384517211076
6.75275E9 0.00529843909488913 0.05339323474410122 0.994701560905111 -0.05339323474410122 0.994701560905111 -0.05339323474410122 0.00529843909488913 0.05339323474410122
6.8275E9 0.005478511933298913 0.054446514130879566 0.9945214880667009 -0.054446514130879566 0.9945214880667009 -0.054446514130879566 0.005478511933298913 0.054446514130879566
6.90225E9 0.005670483590008746 0.05550867720507362 0.9943295164099911 -0.05550867720507362 0.9943295164099911 -0.05550867720507362 0.005670483590008746 0.05550867720507362
6.977E9 0.0058764874493324425 0.05658137204057271 0.9941235125506677 -0.05658137204057271 0.9941235125506677 -0.05658137204057271 0.0058764874493324425 0.05658137204057271
7.05175E9 0.006099237820377369 0.05766646631379918 0.9939007621796225 -0.05766646631379918 0.9939007621796225 -0.05766646631379918 0.006099237820377369 0.05766646631379918
7.1265E9 0.006342227730419127 0.05876606877990624 0.9936577722695807 -0.05876606877990624 0.9936577722695807 -0.05876606877990624 0.006342227730419127 0.05876606877990624
7.20125E9 0.006610007110556605 0.05988253677548033 0.9933899928894434 -0.05988253677548033 0.9933899928894434 -0.05988253677548033 0.006610007110556605 0.05988253677548033
7.276E9 0.006908578643211723 0.06101845080376718 0.9930914213567885 -0.06101845080376718 0.9930914213567885 -0.06101845080376718 0.006908578643211723 0.06101845080376718
7.35075E9 0.007245967035459694 0.06217651852928199 0.9927540329645402 -0.06217651852928199 0.9927540329645402 -0.06217651852928199 0.007245967035459694 0.06217651852928199
7.4255E9 0.007633044387876881 0.06335933347987485 0.9923669556121231 -0.06335933347987485 0.9923669556121231 -0.06335933347987485 0.007633044387876881 0.06335933347987485
7.50025E9 0.008084730595196123 0.06456883984940599 0.9919152694048037 -0.06456883984940599 0.9919152694048037 -0.06456883984940599 0.008084730595196123 0.06456883984940599
7.575E9 0.008621726897568708 0.06580520615023827 0.9913782731024311 -0.06580520615023827 0.9913782731024311 -0.06580520615023827 0.008621726897568708 0.06580520615023827
7.64975E9 0.009272948669139119 0.06706451131408085 0.9907270513308609 -0.06706451131408085 0.9907270513308609 -0.06706451131408085 0.009272948669139119 0.06706451131408085
7.7245E9 0.010078675190964347 0.06833405504193239 0.9899213248090358 -0.06833405504193239 0.9899213248090358 -0.06833405504193239 0.010078675190964347 0.06833405504193239
7.79925E9 0.011093727661816847 0.06958300286796151 0.9889062723381832 -0.06958300286796151 0.9889062723381832 -0.06958300286796151 0.011093727661816847 0.06958300286796151
7.874E9 0.012387554147369098 0.07074438491446801 0.9876124458526307 -0.07074438491446801 0.9876124458526307 -0.07074438491446801 0.012387554147369098 0.07074438491446801
7.94875E9 0.014031064101247775 0.07168357815854794 0.9859689358987522 -0.07168357815854794 0.9859689358987522 -0.07168357815854794 0.014031064101247775 0.07168357815854794
8.0235E9 0.016044152958432333 0.07215653878614323 0.9839558470415677 -0.07215653878614323 0.9839558470415677 -0.07215653878614323 0.016044152958432333 0.07215653878614323
8.09825E9 0.018261938541346515 0.07180483587910907 0.9817380614586536 -0.07180483587910907 0.9817380614586536 -0.07180483587910907 0.018261938541346515 0.07180483587910907
8.173E9 0.020144847073911207 0.07033586481832409 0.9798551529260887 -0.07033586481832409 0.9798551529260887 -0.07033586481832409 0.020144847073911207 0.07033586481832409
8.24775E9 0.020854063054488742 0.06799066274938353 0.9791459369455112 -0.06799066274938353 0.9791459369455112 -0.06799066274938353 0.020854063054488742 0.06799066274938353
8.3225E9 0.01996450908809354 0.06574902642254817 0.9800354909119064 -0.06574902642254817 0.9800354909119064 -0.06574902642254817 0.01996450908809354 0.06574902642254817
8.39725E9 0.018008103150348096 0.0645510433792821 0.981991896849652 -0.0645510433792821 0.981991896849652 -0.0645510433792821 0.018008103150348096 0.0645510433792821
8.472E9 0.015873079094813735 0.06454553950021429 0.9841269209051864 -0.06454553950021429 0.9841269209051864 -0.06454553950021429 0.015873079094813735 0.06454553950021429
