!Murata Part Number: GJM0225C1E8R7BB01
!These Parameters are Measured in Series Mode Connection
!       o--ll--o
!Port1            Port2
!       o------o
!Operation Temp=25[degC], DC Bias Voltage=0[V]
!Freq. Start=100[MHz] Stop=30[GHz], 401[Steps]
!Data Generated on Feb 1, 2023
# Hz S RI R 50
!Freq.(Hz) S11(Real) S11(Imag) S21(Real) S21(Imag) S12(Real) S12(Imag) S22(Real) S22(Imag)
1.0E8 0.7696140149933433 -0.4208334762852212 0.2303859850066567 0.4208334762852212 0.2303859850066567 0.4208334762852212 0.7696140149933433 -0.4208334762852212
1.7475E8 0.5219606541649359 -0.49908514866942083 0.4780393458350641 0.49908514866942083 0.4780393458350641 0.49908514866942083 0.5219606541649359 -0.49908514866942083
2.495E8 0.3481516233174407 -0.47576329091851177 0.6518483766825592 0.47576329091851177 0.6518483766825592 0.47576329091851177 0.3481516233174407 -0.47576329091851177
3.2425E8 0.23954926837762305 -0.4259946235953976 0.760450731622377 0.4259946235953976 0.760450731622377 0.4259946235953976 0.23954926837762305 -0.4259946235953976
3.99E8 0.1715190128104013 -0.37595028385746565 0.8284809871895986 0.37595028385746565 0.8284809871895986 0.37595028385746565 0.1715190128104013 -0.37595028385746565
4.7375E8 0.12739776770008074 -0.33220250281451363 0.8726022322999192 0.33220250281451363 0.8726022322999192 0.33220250281451363 0.12739776770008074 -0.33220250281451363
5.485E8 0.09761859466119958 -0.29537162187699795 0.9023814053388002 0.29537162187699795 0.9023814053388002 0.29537162187699795 0.09761859466119958 -0.29537162187699795
6.2325E8 0.07675890969364227 -0.26456265074678326 0.923241090306358 0.26456265074678326 0.923241090306358 0.26456265074678326 0.07675890969364227 -0.26456265074678326
6.98E8 0.06166344466313044 -0.2386691312725705 0.9383365553368694 0.2386691312725705 0.9383365553368694 0.2386691312725705 0.06166344466313044 -0.2386691312725705
7.7275E8 0.05042889507302956 -0.21671603541375764 0.9495711049269705 0.21671603541375764 0.9495711049269705 0.21671603541375764 0.05042889507302956 -0.21671603541375764
8.475E8 0.041864464381316885 -0.19791836595655934 0.9581355356186831 0.19791836595655934 0.9581355356186831 0.19791836595655934 0.041864464381316885 -0.19791836595655934
9.2225E8 0.03519935622922345 -0.1816622226782581 0.9648006437707767 0.1816622226782581 0.9648006437707767 0.1816622226782581 0.03519935622922345 -0.1816622226782581
9.97E8 0.029919070761631802 -0.16747072732525867 0.9700809292383683 0.16747072732525867 0.9700809292383683 0.16747072732525867 0.029919070761631802 -0.16747072732525867
1.07175E9 0.02567063139798888 -0.15497243052324147 0.9743293686020112 0.15497243052324147 0.9743293686020112 0.15497243052324147 0.02567063139798888 -0.15497243052324147
1.1465E9 0.022205889039993022 -0.1438759961511871 0.977794110960007 0.1438759961511871 0.977794110960007 0.1438759961511871 0.022205889039993022 -0.1438759961511871
1.22125E9 0.019346553450337183 -0.13395092537367148 0.9806534465496628 0.13395092537367148 0.9806534465496628 0.13395092537367148 0.019346553450337183 -0.13395092537367148
1.296E9 0.016962013396899192 -0.1250131448803957 0.9830379866031009 0.1250131448803957 0.9830379866031009 0.1250131448803957 0.016962013396899192 -0.1250131448803957
1.37075E9 0.014954905550463108 -0.11691427583331904 0.9850450944495367 0.11691427583331904 0.9850450944495367 0.11691427583331904 0.014954905550463108 -0.11691427583331904
1.4455E9 0.013251505297505609 -0.1095336218993778 0.9867484947024945 0.1095336218993778 0.9867484947024945 0.1095336218993778 0.013251505297505609 -0.1095336218993778
1.52025E9 0.011795192386196819 -0.10277215088551574 0.988204807613803 0.10277215088551574 0.988204807613803 0.10277215088551574 0.011795192386196819 -0.10277215088551574
1.595E9 0.010541921660808673 -0.09654793872218287 0.9894580783391914 0.09654793872218287 0.9894580783391914 0.09654793872218287 0.010541921660808673 -0.09654793872218287
1.66975E9 0.009457028335382783 -0.09079269102391654 0.9905429716646172 0.09079269102391654 0.9905429716646172 0.09079269102391654 0.009457028335382783 -0.09079269102391654
1.7445E9 0.008512938317338683 -0.08544906405131675 0.9914870616826614 0.08544906405131675 0.9914870616826614 0.08544906405131675 0.008512938317338683 -0.08544906405131675
1.81925E9 0.007687502972448225 -0.08046858335616458 0.9923124970275516 0.08046858335616458 0.9923124970275516 0.08046858335616458 0.007687502972448225 -0.08046858335616458
1.894E9 0.006962771606920546 -0.07581001300930663 0.9930372283930794 0.07581001300930663 0.9930372283930794 0.07581001300930663 0.006962771606920546 -0.07581001300930663
1.96875E9 0.006324075297220252 -0.07143806738400653 0.9936759247027798 0.07143806738400653 0.9936759247027798 0.07143806738400653 0.006324075297220252 -0.07143806738400653
2.0435E9 0.0057593351966169345 -0.06732238554588979 0.994240664803383 0.06732238554588979 0.994240664803383 0.06732238554588979 0.0057593351966169345 -0.06732238554588979
2.11825E9 0.00525853472791546 -0.06343670860365459 0.9947414652720846 0.06343670860365459 0.9947414652720846 0.06343670860365459 0.00525853472791546 -0.06343670860365459
2.193E9 0.0048133128286128035 -0.05975821516055761 0.9951866871713873 0.05975821516055761 0.9951866871713873 0.05975821516055761 0.0048133128286128035 -0.05975821516055761
2.26775E9 0.004416647585384627 -0.05626698085665742 0.9955833524146153 0.05626698085665742 0.9955833524146153 0.05626698085665742 0.004416647585384627 -0.05626698085665742
2.3425E9 0.004062608048830029 -0.05294553601570864 0.9959373919511698 0.05294553601570864 0.9959373919511698 0.05294553601570864 0.004062608048830029 -0.05294553601570864
2.41725E9 0.0037461579655317947 -0.049778501390831086 0.9962538420344681 0.049778501390831086 0.9962538420344681 0.049778501390831086 0.0037461579655317947 -0.049778501390831086
2.492E9 0.0034629993958712273 -0.046752286494424256 0.9965370006041288 0.046752286494424256 0.9965370006041288 0.046752286494424256 0.0034629993958712273 -0.046752286494424256
2.56675E9 0.003209447230379775 -0.04385483839626112 0.9967905527696204 0.04385483839626112 0.9967905527696204 0.04385483839626112 0.003209447230379775 -0.04385483839626112
2.6415E9 0.0029823278304157586 -0.04107543146394894 0.9970176721695843 0.04107543146394894 0.9970176721695843 0.04107543146394894 0.0029823278304157586 -0.04107543146394894
2.71625E9 0.002778896643333603 -0.03840449050809187 0.9972211033566664 0.03840449050809187 0.9972211033566664 0.03840449050809187 0.002778896643333603 -0.03840449050809187
2.791E9 0.0025967708455965598 -0.035833441330848266 0.9974032291544035 0.035833441330848266 0.9974032291544035 0.035833441330848266 0.0025967708455965598 -0.035833441330848266
2.86575E9 0.002433873966375154 -0.03335458387156004 0.9975661260336248 0.03335458387156004 0.9975661260336248 0.03335458387156004 0.002433873966375154 -0.03335458387156004
2.9405E9 0.002288390121489321 -0.030960984078423407 0.9977116098785105 0.030960984078423407 0.9977116098785105 0.030960984078423407 0.002288390121489321 -0.030960984078423407
3.01525E9 0.0021587260017643484 -0.028646381371613776 0.9978412739982354 0.028646381371613776 0.9978412739982354 0.028646381371613776 0.0021587260017643484 -0.028646381371613776
3.09E9 0.0020434791531337873 -0.026405109146501526 0.9979565208468663 0.026405109146501526 0.9979565208468663 0.026405109146501526 0.0020434791531337873 -0.026405109146501526
3.16475E9 0.001941411388689379 -0.02423202623003545 0.9980585886113107 0.02423202623003545 0.9980585886113107 0.02423202623003545 0.001941411388689379 -0.02423202623003545
3.2395E9 0.0018514264076781796 -0.022122457575190366 0.998148573592322 0.022122457575190366 0.998148573592322 0.022122457575190366 0.0018514264076781796 -0.022122457575190366
3.31425E9 0.0017725508796288209 -0.020072142777561308 0.9982274491203712 0.020072142777561308 0.9982274491203712 0.020072142777561308 0.0017725508796288209 -0.020072142777561308
3.389E9 0.001703918395560487 -0.018077191240110313 0.9982960816044394 0.018077191240110313 0.9982960816044394 0.018077191240110313 0.001703918395560487 -0.018077191240110313
3.46375E9 0.0016447558017158802 -0.01613404300860981 0.9983552441982839 0.01613404300860981 0.9983552441982839 0.01613404300860981 0.0016447558017158802 -0.01613404300860981
3.5385E9 0.0015943715213324835 -0.014239434460717378 0.9984056284786675 0.014239434460717378 0.9984056284786675 0.014239434460717378 0.0015943715213324835 -0.014239434460717378
3.61325E9 0.001552145541829158 -0.012390368163073555 0.9984478544581709 0.012390368163073555 0.9984478544581709 0.012390368163073555 0.001552145541829158 -0.012390368163073555
3.688E9 0.0015175208024054989 -0.010584086319008465 0.9984824791975946 0.010584086319008465 0.9984824791975946 0.010584086319008465 0.0015175208024054989 -0.010584086319008465
3.76275E9 0.0014899957634725172 -0.008818047318847104 0.9985100042365276 0.008818047318847104 0.9985100042365276 0.008818047318847104 0.0014899957634725172 -0.008818047318847104
3.8375E9 0.0014691179769028455 -0.007089904978964163 0.9985308820230971 0.007089904978964163 0.9985308820230971 0.007089904978964163 0.0014691179769028455 -0.007089904978964163
3.91225E9 0.0014544785066275508 -0.005397490117486933 0.9985455214933726 0.005397490117486933 0.9985455214933726 0.005397490117486933 0.0014544785066275508 -0.005397490117486933
3.987E9 0.0014457070740347333 -0.003738794166137554 0.9985542929259651 0.003738794166137554 0.9985542929259651 0.003738794166137554 0.0014457070740347333 -0.003738794166137554
4.06175E9 0.0014424678230551265 -0.002111954560965122 0.998557532176945 0.002111954560965122 0.998557532176945 0.002111954560965122 0.0014424678230551265 -0.002111954560965122
4.1365E9 0.0014444556166282431 -5.152416911069547E-4 0.9985555443833718 5.152416911069547E-4 0.9985555443833718 5.152416911069547E-4 0.0014444556166282431 -5.152416911069547E-4
4.21125E9 0.001451392790122691 0.0010529527845710197 0.9985486072098773 -0.0010529527845710197 0.9985486072098773 -0.0010529527845710197 0.001451392790122691 0.0010529527845710197
4.286E9 0.0014630262987871102 0.002594126417109346 0.998536973701213 -0.002594126417109346 0.998536973701213 -0.002594126417109346 0.0014630262987871102 0.002594126417109346
4.36075E9 0.0014791252058738659 0.004109675385448341 0.9985208747941261 -0.004109675385448341 0.9985208747941261 -0.004109675385448341 0.0014791252058738659 0.004109675385448341
4.4355E9 0.001499478466058565 0.005600902976069521 0.9985005215339413 -0.005600902976069521 0.9985005215339413 -0.005600902976069521 0.001499478466058565 0.005600902976069521
4.51025E9 0.0015238929654587097 0.007069027231529309 0.998476107034541 -0.007069027231529309 0.998476107034541 -0.007069027231529309 0.0015238929654587097 0.007069027231529309
4.585E9 0.0015521917851633728 0.008515187861391478 0.9984478082148365 -0.008515187861391478 0.9984478082148365 -0.008515187861391478 0.0015521917851633728 0.008515187861391478
4.65975E9 0.0015842126599088866 0.009940452497274899 0.998415787340091 -0.009940452497274899 0.998415787340091 -0.009940452497274899 0.0015842126599088866 0.009940452497274899
4.7345E9 0.0016198066075242697 0.011345822363586625 0.9983801933924757 -0.011345822363586625 0.9983801933924757 -0.011345822363586625 0.0016198066075242697 0.011345822363586625
4.80925E9 0.0016588367081482118 0.012732237426760088 0.9983411632918519 -0.012732237426760088 0.9983411632918519 -0.012732237426760088 0.0016588367081482118 0.012732237426760088
4.884E9 0.001701177015088163 0.01410058107825159 0.9982988229849118 -0.01410058107825159 0.9982988229849118 -0.01410058107825159 0.001701177015088163 0.01410058107825159
4.95875E9 0.0017467115816345964 0.015451684399993119 0.9982532884183654 -0.015451684399993119 0.9982532884183654 -0.015451684399993119 0.0017467115816345964 0.015451684399993119
5.0335E9 0.0017953335902286514 0.016786330055305863 0.9982046664097711 -0.016786330055305863 0.9982046664097711 -0.016786330055305863 0.0017953335902286514 0.016786330055305863
5.10825E9 0.0018469445721658116 0.01810525584332486 0.9981530554278343 -0.01810525584332486 0.9981530554278343 -0.01810525584332486 0.0018469445721658116 0.01810525584332486
5.183E9 0.0019014537075492386 0.01940915795066459 0.9980985462924505 -0.01940915795066459 0.9980985462924505 -0.01940915795066459 0.0019014537075492386 0.01940915795066459
5.25775E9 0.001958777196523069 0.020698693930281394 0.9980412228034772 -0.020698693930281394 0.9980412228034772 -0.020698693930281394 0.001958777196523069 0.020698693930281394
5.3325E9 0.0020188376939511646 0.021974485434183667 0.9979811623060489 -0.021974485434183667 0.9979811623060489 -0.021974485434183667 0.0020188376939511646 0.021974485434183667
5.40725E9 0.002081563800687849 0.023237120723743957 0.9979184361993122 -0.023237120723743957 0.9979184361993122 -0.023237120723743957 0.002081563800687849 0.023237120723743957
5.482E9 0.0021468896054371005 0.02448715697882108 0.997853110394563 -0.02448715697882108 0.997853110394563 -0.02448715697882108 0.0021468896054371005 0.02448715697882108
5.55675E9 0.002214754271934845 0.02572512242466088 0.997785245728065 -0.02572512242466088 0.997785245728065 -0.02572512242466088 0.002214754271934845 0.02572512242466088
5.6315E9 0.0022851016668317785 0.02695151829356998 0.9977148983331681 -0.02695151829356998 0.9977148983331681 -0.02695151829356998 0.0022851016668317785 0.02695151829356998
5.70625E9 0.002357880024215304 0.02816682063661481 0.9976421199757847 -0.02816682063661481 0.9976421199757847 -0.02816682063661481 0.002357880024215304 0.02816682063661481
5.781E9 0.0024330416432005353 0.029371481999057727 0.9975669583567996 -0.029371481999057727 0.9975669583567996 -0.029371481999057727 0.0024330416432005353 0.029371481999057727
5.85575E9 0.002510542615451816 0.03056593297187938 0.9974894573845482 -0.03056593297187938 0.9974894573845482 -0.03056593297187938 0.002510542615451816 0.03056593297187938
5.9305E9 0.0025903425798764553 0.0317505836305289 0.9974096574201238 -0.0317505836305289 0.9974096574201238 -0.0317505836305289 0.0025903425798764553 0.0317505836305289
6.00525E9 0.002672404502068649 0.03292582487097194 0.9973275954979315 -0.03292582487097194 0.9973275954979315 -0.03292582487097194 0.002672404502068649 0.03292582487097194
6.08E9 0.002756694476380234 0.03409202965215635 0.9972433055236197 -0.03409202965215635 0.9972433055236197 -0.03409202965215635 0.002756694476380234 0.03409202965215635
6.15475E9 0.0028431815487614453 0.035249554153170125 0.9971568184512387 -0.035249554153170125 0.9971568184512387 -0.035249554153170125 0.0028431815487614453 0.035249554153170125
6.2295E9 0.0029318375587539668 0.03639873885261579 0.9970681624412461 -0.03639873885261579 0.9970681624412461 -0.03639873885261579 0.0029318375587539668 0.03639873885261579
6.30425E9 0.003022636999234576 0.03753990953705873 0.9969773630007656 -0.03753990953705873 0.9969773630007656 -0.03753990953705873 0.003022636999234576 0.03753990953705873
6.379E9 0.0031155568927040945 0.03867337824481324 0.996884443107296 -0.03867337824481324 0.996884443107296 -0.03867337824481324 0.0031155568927040945 0.03867337824481324
6.45375E9 0.003210576683096692 0.03979944415080452 0.9967894233169032 -0.03979944415080452 0.9967894233169032 -0.03979944415080452 0.003210576683096692 0.03979944415080452
6.5285E9 0.0033076781422517474 0.04091839439777748 0.9966923218577485 -0.04091839439777748 0.9966923218577485 -0.04091839439777748 0.0033076781422517474 0.04091839439777748
6.60325E9 0.0034068452903471044 0.04203050487870984 0.9965931547096529 -0.04203050487870984 0.9965931547096529 -0.04203050487870984 0.0034068452903471044 0.04203050487870984
6.678E9 0.0035080643297416086 0.0431360409749231 0.9964919356702583 -0.0431360409749231 0.9964919356702583 -0.0431360409749231 0.0035080643297416086 0.0431360409749231
6.75275E9 0.0036113235918181397 0.04423525825406303 0.9963886764081819 -0.04423525825406303 0.9963886764081819 -0.04423525825406303 0.0036113235918181397 0.04423525825406303
6.8275E9 0.0037166134965590644 0.04532840313184203 0.996283386503441 -0.04532840313184203 0.996283386503441 -0.04532840313184203 0.0037166134965590644 0.04532840313184203
6.90225E9 0.0038239265247260157 0.04641571350119338 0.9961760734752743 -0.04641571350119338 0.9961760734752743 -0.04641571350119338 0.0038239265247260157 0.04641571350119338
6.977E9 0.003933257202657738 0.04749741933227779 0.9960667427973422 -0.04749741933227779 0.9960667427973422 -0.04749741933227779 0.003933257202657738 0.04749741933227779
7.05175E9 0.0040446020998462975 0.04857374324660941 0.9959553979001539 -0.04857374324660941 0.9959553979001539 -0.04857374324660941 0.0040446020998462975 0.04857374324660941
7.1265E9 0.004157959839605506 0.04964490106842232 0.9958420401603945 -0.04964490106842232 0.9958420401603945 -0.04964490106842232 0.004157959839605506 0.04964490106842232
7.20125E9 0.0042733311233096065 0.05071110235628639 0.9957266688766906 -0.05071110235628639 0.9957266688766906 -0.05071110235628639 0.0042733311233096065 0.05071110235628639
7.276E9 0.004390718768858 0.05177255091789457 0.995609281231142 -0.05177255091789457 0.995609281231142 -0.05177255091789457 0.004390718768858 0.05177255091789457
7.35075E9 0.004510127764217386 0.05282944531089039 0.9954898722357827 -0.05282944531089039 0.9954898722357827 -0.05282944531089039 0.004510127764217386 0.05282944531089039
7.4255E9 0.004631565337110241 0.0538819793325751 0.9953684346628897 -0.0538819793325751 0.9953684346628897 -0.0538819793325751 0.004631565337110241 0.0538819793325751
7.50025E9 0.0047550410421639214 0.054930342501340525 0.995244958957836 -0.054930342501340525 0.995244958957836 -0.054930342501340525 0.0047550410421639214 0.054930342501340525
7.575E9 0.004880566867113193 0.05597472053270588 0.9951194331328868 -0.05597472053270588 0.9951194331328868 -0.05597472053270588 0.004880566867113193 0.05597472053270588
7.64975E9 0.005008157359968969 0.05701529581290521 0.994991842640031 -0.05701529581290521 0.994991842640031 -0.05701529581290521 0.005008157359968969 0.05701529581290521
7.7245E9 0.005137829779435745 0.058052247873074884 0.9948621702205643 -0.058052247873074884 0.9948621702205643 -0.058052247873074884 0.005137829779435745 0.058052247873074884
7.79925E9 0.005269604271290241 0.059085753867228745 0.9947303957287097 -0.059085753867228745 0.9947303957287097 -0.059085753867228745 0.005269604271290241 0.059085753867228745
7.874E9 0.005403504073937751 0.060115989057392225 0.9945964959260624 -0.060115989057392225 0.9945964959260624 -0.060115989057392225 0.005403504073937751 0.060115989057392225
7.94875E9 0.005539555756955351 0.061143127309490584 0.9944604442430447 -0.061143127309490584 0.9944604442430447 -0.061143127309490584 0.005539555756955351 0.061143127309490584
8.0235E9 0.005677789497132853 0.06216734160386586 0.994322210502867 -0.06216734160386586 0.994322210502867 -0.06216734160386586 0.005677789497132853 0.06216734160386586
8.09825E9 0.005818239397355825 0.06318880456462779 0.9941817606026442 -0.06318880456462779 0.9941817606026442 -0.06318880456462779 0.005818239397355825 0.06318880456462779
8.173E9 0.0059609438546704375 0.06420768901244127 0.9940390561453294 -0.06420768901244127 0.9940390561453294 -0.06420768901244127 0.0059609438546704375 0.06420768901244127
8.24775E9 0.006105945985062925 0.06522416854581894 0.9938940540149372 -0.06522416854581894 0.9938940540149372 -0.06522416854581894 0.006105945985062925 0.06522416854581894
8.3225E9 0.006253294113922561 0.06623841815653216 0.9937467058860775 -0.06623841815653216 0.9937467058860775 -0.06623841815653216 0.006253294113922561 0.06623841815653216
8.39725E9 0.006403042342893047 0.06725061488538964 0.993596957657107 -0.06725061488538964 0.993596957657107 -0.06725061488538964 0.006403042342893047 0.06725061488538964
8.472E9 0.00655525120592335 0.06826093852536384 0.9934447487940766 -0.06826093852536384 0.9934447487940766 -0.06826093852536384 0.00655525120592335 0.06826093852536384
