!Murata Part Number: GJM0225C1E130GB01
!These Parameters are Measured in Series Mode Connection
!       o--ll--o
!Port1            Port2
!       o------o
!Operation Temp=25[degC], DC Bias Voltage=0[V]
!Freq. Start=100[MHz] Stop=30[GHz], 401[Steps]
!Data Generated on Feb 1, 2023
# Hz S RI R 50
!Freq.(Hz) S11(Real) S11(Imag) S21(Real) S21(Imag) S12(Real) S12(Imag) S22(Real) S22(Imag)
1.0E8 0.599313813248152 -0.4897097542631321 0.400686186751848 0.4897097542631321 0.400686186751848 0.4897097542631321 0.599313813248152 -0.4897097542631321
1.7475E8 0.3281884560112827 -0.4689786994278117 0.6718115439887173 0.4689786994278117 0.6718115439887173 0.4689786994278117 0.3281884560112827 -0.4689786994278117
2.495E8 0.1926883978038293 -0.39358405798697854 0.8073116021961707 0.39358405798697854 0.8073116021961707 0.39358405798697854 0.1926883978038293 -0.39358405798697854
3.2425E8 0.12323041236264563 -0.32761836127944577 0.8767695876373544 0.32761836127944577 0.8767695876373544 0.32761836127944577 0.12323041236264563 -0.32761836127944577
3.99E8 0.08440849378503158 -0.27665231494898956 0.9155915062149684 0.27665231494898956 0.9155915062149684 0.27665231494898956 0.08440849378503158 -0.27665231494898956
4.7375E8 0.06091012132633613 -0.2375453048150369 0.9390898786736638 0.2375453048150369 0.9390898786736638 0.2375453048150369 0.06091012132633613 -0.2375453048150369
5.485E8 0.045737605894566956 -0.20701182892620626 0.954262394105433 0.20701182892620626 0.954262394105433 0.20701182892620626 0.045737605894566956 -0.20701182892620626
6.2325E8 0.035423748878002516 -0.18264871174874744 0.9645762511219976 0.18264871174874744 0.9645762511219976 0.18264871174874744 0.035423748878002516 -0.18264871174874744
6.98E8 0.028117456629437845 -0.16279861821561536 0.971882543370562 0.16279861821561536 0.971882543370562 0.16279861821561536 0.028117456629437845 -0.16279861821561536
7.7275E8 0.022765468137273807 -0.14631902848763786 0.9772345318627262 0.14631902848763786 0.9772345318627262 0.14631902848763786 0.022765468137273807 -0.14631902848763786
8.475E8 0.018735563599456755 -0.13240966138757157 0.9812644364005433 0.13240966138757157 0.9812644364005433 0.13240966138757157 0.018735563599456755 -0.13240966138757157
9.2225E8 0.01563078829945167 -0.12049845244504083 0.9843692117005485 0.12049845244504083 0.9843692117005485 0.12049845244504083 0.01563078829945167 -0.12049845244504083
9.97E8 0.013192213528242808 -0.11016794660077556 0.9868077864717573 0.11016794660077556 0.9868077864717573 0.11016794660077556 0.013192213528242808 -0.11016794660077556
1.07175E9 0.011245340263395494 -0.10110750553584157 0.9887546597366044 0.10110750553584157 0.9887546597366044 0.10110750553584157 0.011245340263395494 -0.10110750553584157
1.1465E9 0.009669207766910512 -0.09308178520280251 0.9903307922330896 0.09308178520280251 0.9903307922330896 0.09308178520280251 0.009669207766910512 -0.09308178520280251
1.22125E9 0.008377883711898022 -0.08590954801102649 0.991622116288102 0.08590954801102649 0.991622116288102 0.08590954801102649 0.008377883711898022 -0.08590954801102649
1.296E9 0.00730899025587888 -0.07944914240138085 0.9926910097441213 0.07944914240138085 0.9926910097441213 0.07944914240138085 0.00730899025587888 -0.07944914240138085
1.37075E9 0.006416375889173351 -0.07358836298971236 0.9935836241108268 0.07358836298971236 0.9935836241108268 0.07358836298971236 0.006416375889173351 -0.07358836298971236
1.4455E9 0.0056653096169983295 -0.06823724316222092 0.9943346903830017 0.06823724316222092 0.9943346903830017 0.06823724316222092 0.0056653096169983295 -0.06823724316222092
1.52025E9 0.005029254106835746 -0.06332284683188076 0.9949707458931644 0.06332284683188076 0.9949707458931644 0.06332284683188076 0.005029254106835746 -0.06332284683188076
1.595E9 0.004487652763074056 -0.05878544691806834 0.9955123472369259 0.05878544691806834 0.9955123472369259 0.05878544691806834 0.004487652763074056 -0.05878544691806834
1.66975E9 0.004024382973680893 -0.054575681506236096 0.9959756170263193 0.054575681506236096 0.9959756170263193 0.054575681506236096 0.004024382973680893 -0.054575681506236096
1.7445E9 0.003626656194086281 -0.05065240984181049 0.9963733438059137 0.05065240984181049 0.9963733438059137 0.05065240984181049 0.003626656194086281 -0.05065240984181049
1.81925E9 0.0032842234271863607 -0.04698107639597374 0.9967157765728137 0.04698107639597374 0.9967157765728137 0.04698107639597374 0.0032842234271863607 -0.04698107639597374
1.894E9 0.002988793030294747 -0.043532448657091945 0.9970112069697051 0.043532448657091945 0.9970112069697051 0.043532448657091945 0.002988793030294747 -0.043532448657091945
1.96875E9 0.002733598470243898 -0.040281633198094476 0.9972664015297563 0.040281633198094476 0.9972664015297563 0.040281633198094476 0.002733598470243898 -0.040281633198094476
2.0435E9 0.0025130735059049 -0.037207301310860356 0.9974869264940953 0.037207301310860356 0.9974869264940953 0.037207301310860356 0.0025130735059049 -0.037207301310860356
2.11825E9 0.002322605360177944 -0.0342910741386174 0.9976773946398221 0.0342910741386174 0.9976773946398221 0.0342910741386174 0.002322605360177944 -0.0342910741386174
2.193E9 0.0021583452069540206 -0.03151703040053117 0.9978416547930462 0.03151703040053117 0.9978416547930462 0.03151703040053117 0.0021583452069540206 -0.03151703040053117
2.26775E9 0.0020170612594724415 -0.0288713092123744 0.9979829387405273 0.0288713092123744 0.9979829387405273 0.0288713092123744 0.0020170612594724415 -0.0288713092123744
2.3425E9 0.0018960238591981843 -0.0263417873112471 0.998103976140802 0.0263417873112471 0.998103976140802 0.0263417873112471 0.0018960238591981843 -0.0263417873112471
2.41725E9 0.0017929148396036126 -0.023917814965549657 0.9982070851603965 0.023917814965549657 0.9982070851603965 0.023917814965549657 0.0017929148396036126 -0.023917814965549657
2.492E9 0.0017057554742680458 -0.02158999852343718 0.998294244525732 0.02158999852343718 0.998294244525732 0.02158999852343718 0.0017057554742680458 -0.02158999852343718
2.56675E9 0.0016328487756822642 -0.019350020290216416 0.9983671512243177 0.019350020290216416 0.9983671512243177 0.019350020290216416 0.0016328487756822642 -0.019350020290216416
2.6415E9 0.0015727329655296075 -0.01719048848396852 0.9984272670344703 0.01719048848396852 0.9984272670344703 0.01719048848396852 0.0015727329655296075 -0.01719048848396852
2.71625E9 0.0015241437079776415 -0.015104811580407346 0.9984758562920225 0.015104811580407346 0.9984758562920225 0.015104811580407346 0.0015241437079776415 -0.015104811580407346
2.791E9 0.001485983266302377 -0.013087092552155236 0.9985140167336977 0.013087092552155236 0.9985140167336977 0.013087092552155236 0.001485983266302377 -0.013087092552155236
2.86575E9 0.0014572951666601704 -0.011132039427675437 0.9985427048333397 0.011132039427675437 0.9985427048333397 0.011132039427675437 0.0014572951666601704 -0.011132039427675437
2.9405E9 0.0014372432707929572 -0.009234889309060662 0.9985627567292069 0.009234889309060662 0.9985627567292069 0.009234889309060662 0.0014372432707929572 -0.009234889309060662
3.01525E9 0.001425094400093152 -0.00739134354567946 0.9985749055999068 0.00739134354567946 0.9985749055999068 0.00739134354567946 0.001425094400093152 -0.00739134354567946
3.09E9 0.0014202038369425022 -0.005597512199300319 0.9985797961630574 0.005597512199300319 0.9985797961630574 0.005597512199300319 0.0014202038369425022 -0.005597512199300319
3.16475E9 0.0014220031701457072 -0.0038498662833257023 0.9985779968298542 0.0038498662833257023 0.9985779968298542 0.0038498662833257023 0.0014220031701457072 -0.0038498662833257023
3.2395E9 0.001429990060219074 -0.0021451965349116725 0.998570009939781 0.0021451965349116725 0.998570009939781 0.0021451965349116725 0.001429990060219074 -0.0021451965349116725
3.31425E9 0.001443719585061024 -4.805776997141599E-4 0.9985562804149392 4.805776997141599E-4 0.9985562804149392 4.805776997141599E-4 0.001443719585061024 -4.805776997141599E-4
3.389E9 0.0014627968928933707 0.0011466625132486627 0.9985372031071066 -0.0011466625132486627 0.9985372031071066 -0.0011466625132486627 0.0014627968928933707 0.0011466625132486627
3.46375E9 0.0014868709416200176 0.0027389705054240523 0.9985131290583797 -0.0027389705054240523 0.9985131290583797 -0.0027389705054240523 0.0014868709416200176 0.0027389705054240523
3.5385E9 0.001515629145131385 0.004298590473308507 0.9984843708548685 -0.004298590473308507 0.9984843708548685 -0.004298590473308507 0.001515629145131385 0.004298590473308507
3.61325E9 0.0015487927800282002 0.00582758519058353 0.9984512072199716 -0.00582758519058353 0.9984512072199716 -0.00582758519058353 0.0015487927800282002 0.00582758519058353
3.688E9 0.0015861130326027362 0.007327854296509858 0.9984138869673974 -0.007327854296509858 0.9984138869673974 -0.007327854296509858 0.0015861130326027362 0.007327854296509858
3.76275E9 0.001627367587119068 0.008801150435008563 0.998372632412881 -0.008801150435008563 0.998372632412881 -0.008801150435008563 0.001627367587119068 0.008801150435008563
3.8375E9 0.0016723576735693084 0.010249093535740656 0.9983276423264306 -0.010249093535740656 0.9983276423264306 -0.010249093535740656 0.0016723576735693084 0.010249093535740656
3.91225E9 0.0017209055069957104 0.011673183484429427 0.9982790944930043 -0.011673183484429427 0.9982790944930043 -0.011673183484429427 0.0017209055069957104 0.011673183484429427
3.987E9 0.0017728520618175072 0.01307481139298153 0.9982271479381825 -0.01307481139298153 0.9982271479381825 -0.01307481139298153 0.0017728520618175072 0.01307481139298153
4.06175E9 0.0018280551339011127 0.014455269649307805 0.9981719448660987 -0.014455269649307805 0.9981719448660987 -0.014455269649307805 0.0018280551339011127 0.014455269649307805
4.1365E9 0.0018863876507677743 0.0158157609010473 0.998113612349232 -0.0158157609010473 0.998113612349232 -0.0158157609010473 0.0018863876507677743 0.0158157609010473
4.21125E9 0.0019477361966640954 0.017157406105789016 0.9980522638033359 -0.017157406105789016 0.9980522638033359 -0.017157406105789016 0.0019477361966640954 0.017157406105789016
4.286E9 0.0020119997244820403 0.018481251762159374 0.9979880002755179 -0.018481251762159374 0.9979880002755179 -0.018481251762159374 0.0020119997244820403 0.018481251762159374
4.36075E9 0.0020790884309092807 0.01978827642072889 0.9979209115690907 -0.01978827642072889 0.9979209115690907 -0.01978827642072889 0.0020790884309092807 0.01978827642072889
4.4355E9 0.002148922774880881 0.021079396560620075 0.9978510772251192 -0.021079396560620075 0.9978510772251192 -0.021079396560620075 0.002148922774880881 0.021079396560620075
4.51025E9 0.002221432622521179 0.02235547190659083 0.9977785673774788 -0.02235547190659083 0.9977785673774788 -0.02235547190659083 0.002221432622521179 0.02235547190659083
4.585E9 0.0022965565044171733 0.02361731025190577 0.9977034434955828 -0.02361731025190577 0.9977034434955828 -0.02361731025190577 0.0022965565044171733 0.02361731025190577
4.65975E9 0.002374240973339711 0.024865671844238303 0.9976257590266605 -0.024865671844238303 0.9976257590266605 -0.024865671844238303 0.002374240973339711 0.024865671844238303
4.7345E9 0.002454440052498916 0.026101273384953046 0.9975455599475012 -0.026101273384953046 0.9975455599475012 -0.026101273384953046 0.002454440052498916 0.026101273384953046
4.80925E9 0.002537114766146297 0.02732479168622601 0.9974628852338536 -0.02732479168622601 0.9974628852338536 -0.02732479168622601 0.002537114766146297 0.02732479168622601
4.884E9 0.0026222327458699747 0.02853686702542464 0.9973777672541299 -0.02853686702542464 0.9973777672541299 -0.02853686702542464 0.0026222327458699747 0.02853686702542464
4.95875E9 0.0027097679073160843 0.02973810623186981 0.997290232092684 -0.02973810623186981 0.997290232092684 -0.02973810623186981 0.0027097679073160843 0.02973810623186981
5.0335E9 0.0027997001933490577 0.030929085537438776 0.9972002998066508 -0.030929085537438776 0.9972002998066508 -0.030929085537438776 0.0027997001933490577 0.030929085537438776
5.10825E9 0.0028920153808728376 0.03211035321935974 0.9971079846191272 -0.03211035321935974 0.9971079846191272 -0.03211035321935974 0.0028920153808728376 0.03211035321935974
5.183E9 0.0029867049497093274 0.03328243206092907 0.9970132950502905 -0.03328243206092907 0.9970132950502905 -0.03328243206092907 0.0029867049497093274 0.03328243206092907
5.25775E9 0.0030837660131047286 0.034445821653697216 0.9969162339868951 -0.034445821653697216 0.9969162339868951 -0.034445821653697216 0.0030837660131047286 0.034445821653697216
5.3325E9 0.0031832013106449565 0.03560100056287558 0.9968167986893552 -0.03560100056287558 0.9968167986893552 -0.03560100056287558 0.0031832013106449565 0.03560100056287558
5.40725E9 0.003285019265647857 0.03674842837628225 0.996714980734352 -0.03674842837628225 0.996714980734352 -0.03674842837628225 0.003285019265647857 0.03674842837628225
5.482E9 0.003389234110506794 0.03788854765604492 0.9966107658894932 -0.03788854765604492 0.9966107658894932 -0.03788854765604492 0.003389234110506794 0.03788854765604492
5.55675E9 0.0034958660850390967 0.039021785811498205 0.9965041339149608 -0.039021785811498205 0.9965041339149608 -0.039021785811498205 0.0034958660850390967 0.039021785811498205
5.6315E9 0.0036049417147062056 0.040148556911242875 0.9963950582852936 -0.040148556911242875 0.9963950582852936 -0.040148556911242875 0.0036049417147062056 0.040148556911242875
5.70625E9 0.0037164941776956237 0.0412692634521747 0.9962835058223043 -0.0412692634521747 0.9962835058223043 -0.0412692634521747 0.0037164941776956237 0.0412692634521747
5.781E9 0.003830563772382934 0.04238429810344836 0.9961694362276171 -0.04238429810344836 0.9961694362276171 -0.04238429810344836 0.003830563772382934 0.04238429810344836
5.85575E9 0.003947198499743797 0.0434940454438293 0.9960528015002562 -0.0434940454438293 0.9960528015002562 -0.0434940454438293 0.003947198499743797 0.0434940454438293
5.9305E9 0.004066454779013967 0.0445988837117293 0.9959335452209861 -0.0445988837117293 0.9959335452209861 -0.0445988837117293 0.004066454779013967 0.0445988837117293
6.00525E9 0.0041883983194948475 0.04569918658844227 0.995811601680505 -0.04569918658844227 0.995811601680505 -0.04569918658844227 0.0041883983194948475 0.04569918658844227
6.08E9 0.004313105177128801 0.04679532503673912 0.995686894822871 -0.04679532503673912 0.995686894822871 -0.04679532503673912 0.004313105177128801 0.04679532503673912
6.15475E9 0.004440663031654072 0.04788766921907549 0.995559336968346 -0.04788766921907549 0.995559336968346 -0.04788766921907549 0.004440663031654072 0.04788766921907549
6.2295E9 0.004571172729234381 0.048976590522269596 0.9954288272707656 -0.048976590522269596 0.9954288272707656 -0.048976590522269596 0.004571172729234381 0.048976590522269596
6.30425E9 0.004704750147024304 0.0500624637186494 0.9952952498529758 -0.0500624637186494 0.9952952498529758 -0.0500624637186494 0.004704750147024304 0.0500624637186494
6.379E9 0.004841528450958324 0.05114566929739005 0.9951584715490419 -0.05114566929739005 0.9951584715490419 -0.05114566929739005 0.004841528450958324 0.05114566929739005
6.45375E9 0.004981660837185287 0.05222659600406156 0.9950183391628147 -0.05222659600406156 0.9950183391628147 -0.05222659600406156 0.004981660837185287 0.05222659600406156
6.5285E9 0.0051253238724300754 0.05330564363123949 0.99487467612757 -0.05330564363123949 0.99487467612757 -0.05330564363123949 0.0051253238724300754 0.05330564363123949
6.60325E9 0.00527272158108417 0.05438322610824596 0.994727278418916 -0.05438322610824596 0.994727278418916 -0.05438322610824596 0.00527272158108417 0.05438322610824596
6.678E9 0.005424090469663071 0.05545977494336464 0.9945759095303369 -0.05545977494336464 0.9945759095303369 -0.05545977494336464 0.005424090469663071 0.05545977494336464
6.75275E9 0.005579705736093493 0.056535743076581005 0.9944202942639065 -0.056535743076581005 0.9944202942639065 -0.056535743076581005 0.005579705736093493 0.056535743076581005
6.8275E9 0.005739888987222468 0.05761160920389265 0.9942601110127778 -0.05761160920389265 0.9942601110127778 -0.05761160920389265 0.005739888987222468 0.05761160920389265
6.90225E9 0.005905017890147599 0.058687882633483686 0.9940949821098526 -0.058687882633483686 0.9940949821098526 -0.058687882633483686 0.005905017890147599 0.058687882633483686
6.977E9 0.006075538321583218 0.05976510872604135 0.9939244616784167 -0.05976510872604135 0.9939244616784167 -0.05976510872604135 0.006075538321583218 0.05976510872604135
7.05175E9 0.006251979768901869 0.060843874950165834 0.9937480202310981 -0.060843874950165834 0.9937480202310981 -0.060843874950165834 0.006251979768901869 0.060843874950165834
7.1265E9 0.006434974997318064 0.06192481753884414 0.9935650250026818 -0.06192481753884414 0.9935650250026818 -0.06192481753884414 0.006434974997318064 0.06192481753884414
7.20125E9 0.006625285359513237 0.06300862864665434 0.9933747146404868 -0.06300862864665434 0.9933747146404868 -0.06300862864665434 0.006625285359513237 0.06300862864665434
7.276E9 0.006823833629540309 0.06409606374942985 0.9931761663704599 -0.06409606374942985 0.9931761663704599 -0.06409606374942985 0.006823833629540309 0.06409606374942985
7.35075E9 0.007031746953771764 0.06518794874634454 0.9929682530462284 -0.06518794874634454 0.9929682530462284 -0.06518794874634454 0.007031746953771764 0.06518794874634454
7.4255E9 0.007250413516808375 0.06628518572816847 0.9927495864831917 -0.06628518572816847 0.9927495864831917 -0.06628518572816847 0.007250413516808375 0.06628518572816847
7.50025E9 0.007481557946422459 0.06738875550624014 0.9925184420535773 -0.06738875550624014 0.9925184420535773 -0.06738875550624014 0.007481557946422459 0.06738875550624014
7.575E9 0.007727342505867807 0.0684997134743728 0.992272657494132 -0.0684997134743728 0.992272657494132 -0.0684997134743728 0.007727342505867807 0.0684997134743728
7.64975E9 0.007990503980834476 0.06961917270058501 0.9920094960191653 -0.06961917270058501 0.9920094960191653 -0.06961917270058501 0.007990503980834476 0.06961917270058501
7.7245E9 0.008274540148135973 0.070748263416494 0.9917254598518642 -0.070748263416494 0.9917254598518642 -0.070748263416494 0.008274540148135973 0.070748263416494
7.79925E9 0.008583965075351759 0.07188804965258197 0.9914160349246481 -0.07188804965258197 0.9914160349246481 -0.07188804965258197 0.008583965075351759 0.07188804965258197
7.874E9 0.008924659220570761 0.07303936866663098 0.9910753407794292 -0.07303936866663098 0.9910753407794292 -0.07303936866663098 0.008924659220570761 0.07303936866663098
7.94875E9 0.009304347298564653 0.07420253157001581 0.9906956527014353 -0.07420253157001581 0.9906956527014353 -0.07420253157001581 0.009304347298564653 0.07420253157001581
8.0235E9 0.009733239911296524 0.07537677433101649 0.9902667600887035 -0.07537677433101649 0.9902667600887035 -0.07537677433101649 0.009733239911296524 0.07537677433101649
8.09825E9 0.010224861076264948 0.07655926005735601 0.9897751389237353 -0.07655926005735601 0.9897751389237353 -0.07655926005735601 0.010224861076264948 0.07655926005735601
8.173E9 0.010797017430238013 0.07774327934113723 0.9892029825697619 -0.07774327934113723 0.9892029825697619 -0.07774327934113723 0.010797017430238013 0.07774327934113723
8.24775E9 0.011472654228608195 0.07891504469829745 0.9885273457713918 -0.07891504469829745 0.9885273457713918 -0.07891504469829745 0.011472654228608195 0.07891504469829745
8.3225E9 0.012279768077484274 0.08004813946147811 0.9877202319225157 -0.08004813946147811 0.9877202319225157 -0.08004813946147811 0.012279768077484274 0.08004813946147811
8.39725E9 0.013248143714929526 0.08109451310636008 0.9867518562850707 -0.08109451310636008 0.9867518562850707 -0.08109451310636008 0.013248143714929526 0.08109451310636008
8.472E9 0.01439777355953392 0.08197204789098639 0.9856022264404661 -0.08197204789098639 0.9856022264404661 -0.08197204789098639 0.01439777355953392 0.08197204789098639
8.54675E9 0.01570975776609921 0.08255459167022941 0.9842902422339008 -0.08255459167022941 0.9842902422339008 -0.08255459167022941 0.01570975776609921 0.08255459167022941
