!Murata Part Number: GJM0225C1E7R0BB01
!These Parameters are Measured in Series Mode Connection
!       o--ll--o
!Port1            Port2
!       o------o
!Operation Temp=25[degC], DC Bias Voltage=0[V]
!Freq. Start=100[MHz] Stop=30[GHz], 401[Steps]
!Data Generated on Feb 1, 2023
# Hz S RI R 50
!Freq.(Hz) S11(Real) S11(Imag) S21(Real) S21(Imag) S12(Real) S12(Imag) S22(Real) S22(Imag)
1.0E8 0.8376424676107411 -0.3684923363587925 0.16235753238925887 0.3684923363587925 0.16235753238925887 0.3684923363587925 0.8376424676107411 -0.3684923363587925
1.7475E8 0.6278561647200244 -0.4828752461764722 0.3721438352799757 0.4828752461764722 0.3721438352799757 0.4828752461764722 0.6278561647200244 -0.4828752461764722
2.495E8 0.4523171035452603 -0.4970029302298925 0.5476828964547397 0.4970029302298925 0.5476828964547397 0.4970029302298925 0.4523171035452603 -0.4970029302298925
3.2425E8 0.3277652801932984 -0.4684608430631116 0.6722347198067015 0.4684608430631116 0.6722347198067015 0.4684608430631116 0.3277652801932984 -0.4684608430631116
3.99E8 0.24290313161452623 -0.4276759882855785 0.7570968683854737 0.4276759882855785 0.7570968683854737 0.4276759882855785 0.24290313161452623 -0.4276759882855785
4.7375E8 0.18473001220477234 -0.3866901488503259 0.8152699877952279 0.3866901488503259 0.8152699877952279 0.3866901488503259 0.18473001220477234 -0.3866901488503259
5.485E8 0.1439671965961012 -0.3494363680402176 0.8560328034038988 0.3494363680402176 0.8560328034038988 0.3494363680402176 0.1439671965961012 -0.3494363680402176
6.2325E8 0.11465546392350212 -0.31674854111095513 0.885344536076498 0.31674854111095513 0.885344536076498 0.31674854111095513 0.11465546392350212 -0.31674854111095513
6.98E8 0.09303761864975528 -0.28838527451437446 0.9069623813502447 0.28838527451437446 0.9069623813502447 0.28838527451437446 0.09303761864975528 -0.28838527451437446
7.7275E8 0.07671944310023489 -0.26379709679920205 0.9232805568997652 0.26379709679920205 0.9232805568997652 0.26379709679920205 0.07671944310023489 -0.26379709679920205
8.475E8 0.06414309782208173 -0.24240374555095695 0.9358569021779183 0.24240374555095695 0.9358569021779183 0.24240374555095695 0.06414309782208173 -0.24240374555095695
9.2225E8 0.054270540284032116 -0.22368477499911985 0.945729459715968 0.22368477499911985 0.945729459715968 0.22368477499911985 0.054270540284032116 -0.22368477499911985
9.97E8 0.04639345846404588 -0.20720052199017927 0.953606541535954 0.20720052199017927 0.953606541535954 0.20720052199017927 0.04639345846404588 -0.20720052199017927
1.07175E9 0.040017526852925756 -0.19258851511893635 0.9599824731470743 0.19258851511893635 0.9599824731470743 0.19258851511893635 0.040017526852925756 -0.19258851511893635
1.1465E9 0.0347904915738413 -0.17955258813736064 0.9652095084261586 0.17955258813736064 0.9652095084261586 0.17955258813736064 0.0347904915738413 -0.17955258813736064
1.22125E9 0.030456499135109463 -0.1678511008750341 0.9695435008648905 0.1678511008750341 0.9695435008648905 0.1678511008750341 0.030456499135109463 -0.1678511008750341
1.296E9 0.026826451505336784 -0.15728642226667303 0.9731735484946633 0.15728642226667303 0.9731735484946633 0.15728642226667303 0.026826451505336784 -0.15728642226667303
1.37075E9 0.023758356130856077 -0.14769619506349005 0.9762416438691437 0.14769619506349005 0.9762416438691437 0.14769619506349005 0.023758356130856077 -0.14769619506349005
1.4455E9 0.021144041320803865 -0.13894630868463337 0.978855958679196 0.13894630868463337 0.978855958679196 0.13894630868463337 0.021144041320803865 -0.13894630868463337
1.52025E9 0.018900008097670735 -0.130925325909495 0.9810999919023291 0.130925325909495 0.9810999919023291 0.130925325909495 0.018900008097670735 -0.130925325909495
1.595E9 0.016961021942998377 -0.12354008570052984 0.9830389780570016 0.12354008570052984 0.9830389780570016 0.12354008570052984 0.016961021942998377 -0.12354008570052984
1.66975E9 0.015275552222756585 -0.11671223517333967 0.9847244477772434 0.11671223517333967 0.9847244477772434 0.11671223517333967 0.015275552222756585 -0.11671223517333967
1.7445E9 0.013802478662957788 -0.11037548775635184 0.9861975213370421 0.11037548775635184 0.9861975213370421 0.11037548775635184 0.013802478662957788 -0.11037548775635184
1.81925E9 0.012508680376552249 -0.10447344676922285 0.9874913196234475 0.10447344676922285 0.9874913196234475 0.10447344676922285 0.012508680376552249 -0.10447344676922285
1.894E9 0.011367248622584206 -0.09895786931455139 0.9886327513774157 0.09895786931455139 0.9886327513774157 0.09895786931455139 0.011367248622584206 -0.09895786931455139
1.96875E9 0.01035614638733706 -0.09378727391357926 0.989643853612663 0.09378727391357926 0.989643853612663 0.09378727391357926 0.01035614638733706 -0.09378727391357926
2.0435E9 0.00945719211724902 -0.08892581753807878 0.9905428078827511 0.08892581753807878 0.9905428078827511 0.08892581753807878 0.00945719211724902 -0.08892581753807878
2.11825E9 0.008655281394207232 -0.08434238476366604 0.9913447186057927 0.08434238476366604 0.9913447186057927 0.08434238476366604 0.008655281394207232 -0.08434238476366604
2.193E9 0.007937785201387082 -0.08000984480861362 0.9920622147986128 0.08000984480861362 0.9920622147986128 0.08000984480861362 0.007937785201387082 -0.08000984480861362
2.26775E9 0.007294080600835356 -0.07590444216358923 0.9927059193991645 0.07590444216358923 0.9927059193991645 0.07590444216358923 0.007294080600835356 -0.07590444216358923
2.3425E9 0.006715181656867322 -0.07200529410498648 0.9932848183431326 0.07200529410498648 0.9932848183431326 0.07200529410498648 0.006715181656867322 -0.07200529410498648
2.41725E9 0.006193446941646645 -0.06829397419044277 0.9938065530583533 0.06829397419044277 0.9938065530583533 0.06829397419044277 0.006193446941646645 -0.06829397419044277
2.492E9 0.0057223460437100795 -0.06475416529440353 0.9942776539562898 0.06475416529440353 0.9942776539562898 0.06475416529440353 0.0057223460437100795 -0.06475416529440353
2.56675E9 0.005296271899791647 -0.06137136918142851 0.9947037281002081 0.06137136918142851 0.9947037281002081 0.06137136918142851 0.005296271899791647 -0.06137136918142851
2.6415E9 0.00491038898297133 -0.058132662280986264 0.9950896110170285 0.058132662280986264 0.9950896110170285 0.058132662280986264 0.00491038898297133 -0.058132662280986264
2.71625E9 0.004560509747948163 -0.05502648940404752 0.9954394902520518 0.05502648940404752 0.9954394902520518 0.05502648940404752 0.004560509747948163 -0.05502648940404752
2.791E9 0.004242993494656211 -0.052042488767399094 0.9957570065053437 0.052042488767399094 0.9957570065053437 0.052042488767399094 0.004242993494656211 -0.052042488767399094
2.86575E9 0.003954663131182369 -0.04917134297064693 0.9960453368688176 0.04917134297064693 0.9960453368688176 0.04917134297064693 0.003954663131182369 -0.04917134297064693
2.9405E9 0.0036927363141158317 -0.04640465158232114 0.9963072636858842 0.04640465158232114 0.9963072636858842 0.04640465158232114 0.0036927363141158317 -0.04640465158232114
3.01525E9 0.0034547682035321477 -0.04373482179529777 0.9965452317964679 0.04373482179529777 0.9965452317964679 0.04373482179529777 0.0034547682035321477 -0.04373482179529777
3.09E9 0.003238603651740708 -0.04115497425364969 0.9967613963482591 0.04115497425364969 0.9967613963482591 0.04115497425364969 0.003238603651740708 -0.04115497425364969
3.16475E9 0.0030423370940528584 -0.038658861668078366 0.9969576629059473 0.038658861668078366 0.9969576629059473 0.038658861668078366 0.0030423370940528584 -0.038658861668078366
3.2395E9 0.0028642787586874927 -0.036240798252240615 0.9971357212413126 0.036240798252240615 0.9971357212413126 0.036240798252240615 0.0028642787586874927 -0.036240798252240615
3.31425E9 0.002702926085563532 -0.033895598348442045 0.9972970739144363 0.033895598348442045 0.9972970739144363 0.033895598348442045 0.002702926085563532 -0.033895598348442045
3.389E9 0.0025569394580312746 -0.031618522884537176 0.9974430605419687 0.031618522884537176 0.9974430605419687 0.031618522884537176 0.0025569394580312746 -0.031618522884537176
3.46375E9 0.002425121520984598 -0.029405232527125708 0.9975748784790156 0.029405232527125708 0.9975748784790156 0.029405232527125708 0.002425121520984598 -0.029405232527125708
3.5385E9 0.0023063994933970847 -0.02725174657919151 0.9976936005066029 0.02725174657919151 0.9976936005066029 0.02725174657919151 0.0023063994933970847 -0.02725174657919151
3.61325E9 0.002199809990826289 -0.025154406821029558 0.9978001900091736 0.025154406821029558 0.9978001900091736 0.025154406821029558 0.002199809990826289 -0.025154406821029558
3.688E9 0.002104485959705166 -0.02310984561783386 0.9978955140402948 0.02310984561783386 0.9978955140402948 0.02310984561783386 0.002104485959705166 -0.02310984561783386
3.76275E9 0.00201964539480241 -0.02111495772060585 0.9979803546051975 0.02111495772060585 0.9979803546051975 0.02111495772060585 0.00201964539480241 -0.02111495772060585
3.8375E9 0.0019445815675718816 -0.01916687527301208 0.9980554184324282 0.01916687527301208 0.9980554184324282 0.01916687527301208 0.0019445815675718816 -0.01916687527301208
3.91225E9 0.001878654538935423 -0.017262945608625728 0.9981213454610645 0.017262945608625728 0.9981213454610645 0.017262945608625728 0.001878654538935423 -0.017262945608625728
3.987E9 0.0018212837674688722 -0.015400711483158911 0.9981787162325312 0.015400711483158911 0.9981787162325312 0.015400711483158911 0.0018212837674688722 -0.015400711483158911
4.06175E9 0.0017719416546485075 -0.013577893436881285 0.9982280583453514 0.013577893436881285 0.9982280583453514 0.013577893436881285 0.0017719416546485075 -0.013577893436881285
4.1365E9 0.0017301478940735015 -0.01179237402508319 0.9982698521059266 0.01179237402508319 0.9982698521059266 0.01179237402508319 0.0017301478940735015 -0.01179237402508319
4.21125E9 0.0016954645124459048 -0.010042183690528153 0.998304535487554 0.010042183690528153 0.998304535487554 0.010042183690528153 0.0016954645124459048 -0.010042183690528153
4.286E9 0.0016674915073881364 -0.008325488082453557 0.998332508492612 0.008325488082453557 0.998332508492612 0.008325488082453557 0.0016674915073881364 -0.008325488082453557
4.36075E9 0.0016458630015676423 -0.006640576652722934 0.9983541369984323 0.006640576652722934 0.9983541369984323 0.006640576652722934 0.0016458630015676423 -0.006640576652722934
4.4355E9 0.0016302438446078283 -0.004985852381950329 0.9983697561553921 0.004985852381950329 0.9983697561553921 0.004985852381950329 0.0016302438446078283 -0.004985852381950329
4.51025E9 0.0016203266043190944 -0.00335982250742024 0.9983796733956809 0.00335982250742024 0.9983796733956809 0.00335982250742024 0.0016203266043190944 -0.00335982250742024
4.585E9 0.001615828897227774 -0.001761090140921913 0.9983841711027722 0.001761090140921913 0.9983841711027722 0.001761090140921913 0.001615828897227774 -0.001761090140921913
4.65975E9 0.001616491015493097 -1.88346678624687E-4 0.9983835089845069 1.88346678624687E-4 0.9983835089845069 1.88346678624687E-4 0.001616491015493097 -1.88346678624687E-4
4.7345E9 0.0016220738133101188 0.001359635082807608 0.9983779261866899 -0.001359635082807608 0.9983779261866899 -0.001359635082807608 0.0016220738133101188 0.001359635082807608
4.80925E9 0.0016323568209854842 0.0028840071992394236 0.9983676431790145 -0.0028840071992394236 0.9983676431790145 -0.0028840071992394236 0.0016323568209854842 0.0028840071992394236
4.884E9 0.001647136559195117 0.004385852267573337 0.9983528634408048 -0.004385852267573337 0.9983528634408048 -0.004385852267573337 0.001647136559195117 0.004385852267573337
4.95875E9 0.001666225029613423 0.005866188608266495 0.9983337749703866 -0.005866188608266495 0.9983337749703866 -0.005866188608266495 0.001666225029613423 0.005866188608266495
5.0335E9 0.0016894483612456864 0.0073259749935646115 0.9983105516387544 -0.0073259749935646115 0.9983105516387544 -0.0073259749935646115 0.0016894483612456864 0.0073259749935646115
5.10825E9 0.0017166455944842643 0.008766114967232305 0.9982833544055156 -0.008766114967232305 0.9982833544055156 -0.008766114967232305 0.0017166455944842643 0.008766114967232305
5.183E9 0.0017476675872158433 0.010187460796379937 0.9982523324127841 -0.010187460796379937 0.9982523324127841 -0.010187460796379937 0.0017476675872158433 0.010187460796379937
5.25775E9 0.0017823760292903189 0.011590817091457789 0.9982176239707097 -0.011590817091457789 0.9982176239707097 -0.011590817091457789 0.0017823760292903189 0.011590817091457789
5.3325E9 0.0018206425533710269 0.012976944126517629 0.9981793574466291 -0.012976944126517629 0.9981793574466291 -0.012976944126517629 0.0018206425533710269 0.012976944126517629
5.40725E9 0.0018623479316620846 0.014346560888356832 0.998137652068338 -0.014346560888356832 0.998137652068338 -0.014346560888356832 0.0018623479316620846 0.014346560888356832
5.482E9 0.0019073813492862359 0.01570034788009402 0.9980926186507137 -0.01570034788009402 0.9980926186507137 -0.01570034788009402 0.0019073813492862359 0.01570034788009402
5.55675E9 0.001955639746194608 0.017038949702024162 0.9980443602538054 -0.017038949702024162 0.9980443602538054 -0.017038949702024162 0.001955639746194608 0.017038949702024162
5.6315E9 0.0020070272204528177 0.018362977430216205 0.9979929727795471 -0.018362977430216205 0.9979929727795471 -0.018362977430216205 0.0020070272204528177 0.018362977430216205
5.70625E9 0.002061454486586518 0.019673010811209528 0.9979385455134134 -0.019673010811209528 0.9979385455134134 -0.019673010811209528 0.002061454486586518 0.019673010811209528
5.781E9 0.002118838383401252 0.020969600289298434 0.9978811616165986 -0.020969600289298434 0.9978811616165986 -0.020969600289298434 0.002118838383401252 0.020969600289298434
5.85575E9 0.0021791014263312443 0.022253268881238335 0.9978208985736686 -0.022253268881238335 0.9978208985736686 -0.022253268881238335 0.0021791014263312443 0.022253268881238335
5.9305E9 0.0022421713999322564 0.02352451391173883 0.9977578286000678 -0.02352451391173883 0.9977578286000678 -0.02352451391173883 0.0022421713999322564 0.02352451391173883
6.00525E9 0.0023079809866254583 0.024783808621799318 0.9976920190133743 -0.024783808621799318 0.9976920190133743 -0.024783808621799318 0.0023079809866254583 0.024783808621799318
6.08E9 0.0023764674282318694 0.0260316036607798 0.9976235325717682 -0.0260316036607798 0.9976235325717682 -0.0260316036607798 0.0023764674282318694 0.0260316036607798
6.15475E9 0.002447572217217992 0.027268328472059455 0.997552427782782 -0.027268328472059455 0.997552427782782 -0.027268328472059455 0.002447572217217992 0.027268328472059455
6.2295E9 0.002521240814909786 0.028494392581209223 0.9974787591850902 -0.028494392581209223 0.9974787591850902 -0.028494392581209223 0.002521240814909786 0.028494392581209223
6.30425E9 0.002597422394229691 0.029710186794773687 0.9974025776057704 -0.029710186794773687 0.9974025776057704 -0.029710186794773687 0.002597422394229691 0.029710186794773687
6.379E9 0.002676069604775361 0.03091608431701612 0.9973239303952245 -0.03091608431701612 0.9973239303952245 -0.03091608431701612 0.002676069604775361 0.03091608431701612
6.45375E9 0.0027571383582931167 0.032112441791314124 0.997242861641707 -0.032112441791314124 0.997242861641707 -0.032112441791314124 0.0027571383582931167 0.032112441791314124
6.5285E9 0.002840587632807955 0.03329960027229678 0.9971594123671921 -0.03329960027229678 0.9971594123671921 -0.03329960027229678 0.002840587632807955 0.03329960027229678
6.60325E9 0.0029263792938582518 0.034477886134277026 0.9970736207061418 -0.034477886134277026 0.9970736207061418 -0.034477886134277026 0.0029263792938582518 0.034477886134277026
6.678E9 0.003014477931450243 0.03564761192105225 0.9969855220685497 -0.03564761192105225 0.9969855220685497 -0.03564761192105225 0.003014477931450243 0.03564761192105225
6.75275E9 0.0031048507114970537 0.03680907714171045 0.9968951492885032 -0.03680907714171045 0.9968951492885032 -0.03680907714171045 0.0031048507114970537 0.03680907714171045
6.8275E9 0.003197467240642117 0.03796256901669089 0.9968025327593578 -0.03796256901669089 0.9968025327593578 -0.03796256901669089 0.003197467240642117 0.03796256901669089
6.90225E9 0.0032922994434888297 0.039108363177995105 0.996707700556511 -0.039108363177995105 0.996707700556511 -0.039108363177995105 0.0032922994434888297 0.039108363177995105
6.977E9 0.0033893214513690518 0.040246724327127094 0.9966106785486308 -0.040246724327127094 0.9966106785486308 -0.040246724327127094 0.0033893214513690518 0.040246724327127094
7.05175E9 0.003488509501884388 0.041377906854057206 0.9965114904981155 -0.041377906854057206 0.9965114904981155 -0.041377906854057206 0.003488509501884388 0.041377906854057206
7.1265E9 0.0035898418485468065 0.04250215542024481 0.9964101581514533 -0.04250215542024481 0.9964101581514533 -0.04250215542024481 0.0035898418485468065 0.04250215542024481
7.20125E9 0.00369329867993101 0.04361970550852414 0.9963067013200693 -0.04361970550852414 0.9963067013200693 -0.04361970550852414 0.00369329867993101 0.04361970550852414
7.276E9 0.0037988620478307013 0.0447307839424482 0.9962011379521692 -0.0447307839424482 0.9962011379521692 -0.0447307839424482 0.0037988620478307013 0.0447307839424482
7.35075E9 0.003906515803985608 0.04583560937749685 0.9960934841960143 -0.04583560937749685 0.9960934841960143 -0.04583560937749685 0.003906515803985608 0.04583560937749685
7.4255E9 0.0040162455450171225 0.04693439276638743 0.9959837544549829 -0.04693439276638743 0.9959837544549829 -0.04693439276638743 0.0040162455450171225 0.04693439276638743
7.50025E9 0.004128038565277945 0.048027337800572625 0.995871961434722 -0.048027337800572625 0.995871961434722 -0.048027337800572625 0.004128038565277945 0.048027337800572625
7.575E9 0.004241883817386961 0.04911464132987702 0.995758116182613 -0.04911464132987702 0.995758116182613 -0.04911464132987702 0.004241883817386961 0.04911464132987702
7.64975E9 0.004357771880284561 0.05019649376210029 0.9956422281197155 -0.05019649376210029 0.9956422281197155 -0.05019649376210029 0.004357771880284561 0.05019649376210029
7.7245E9 0.004475694934707587 0.05127307944430961 0.9955243050652924 -0.05127307944430961 0.9955243050652924 -0.05127307944430961 0.004475694934707587 0.05127307944430961
7.79925E9 0.0045956467460471434 0.052344577027448276 0.9954043532539527 -0.052344577027448276 0.9954043532539527 -0.052344577027448276 0.0045956467460471434 0.052344577027448276
7.874E9 0.0047176226546181005 0.0534111598158057 0.9952823773453819 -0.0534111598158057 0.9952823773453819 -0.0534111598158057 0.0047176226546181005 0.0534111598158057
7.94875E9 0.004841619573436738 0.05447299610282128 0.9951583804265633 -0.05447299610282128 0.9951583804265633 -0.05447299610282128 0.004841619573436738 0.05447299610282128
8.0235E9 0.004967635993674252 0.055530249494636606 0.9950323640063259 -0.055530249494636606 0.9950323640063259 -0.055530249494636606 0.004967635993674252 0.055530249494636606
8.09825E9 0.005095671998029135 0.05658307922275761 0.9949043280019709 -0.05658307922275761 0.9949043280019709 -0.05658307922275761 0.005095671998029135 0.05658307922275761
8.173E9 0.005225729282342806 0.05763164044715049 0.9947742707176571 -0.05763164044715049 0.9947742707176571 -0.05763164044715049 0.005225729282342806 0.05763164044715049
8.24775E9 0.005357811185871035 0.05867608455106373 0.9946421888141287 -0.05867608455106373 0.9946421888141287 -0.05867608455106373 0.005357811185871035 0.05867608455106373
8.3225E9 0.005491922730720848 0.059716559428849326 0.9945080772692794 -0.059716559428849326 0.9945080772692794 -0.059716559428849326 0.005491922730720848 0.059716559428849326
8.39725E9 0.005628070671070001 0.06075320976804486 0.9943719293289301 -0.06075320976804486 0.9943719293289301 -0.06075320976804486 0.005628070671070001 0.06075320976804486
8.472E9 0.005766263552906477 0.06178617732697879 0.9942337364470933 -0.06178617732697879 0.9942337364470933 -0.06178617732697879 0.005766263552906477 0.06178617732697879
