!Murata Part Number: GJM0225C1E5R5BB01
!These Parameters are Measured in Series Mode Connection
!       o--ll--o
!Port1            Port2
!       o------o
!Operation Temp=25[degC], DC Bias Voltage=0[V]
!Freq. Start=100[MHz] Stop=30[GHz], 401[Steps]
!Data Generated on Feb 1, 2023
# Hz S RI R 50
!Freq.(Hz) S11(Real) S11(Imag) S21(Real) S21(Imag) S12(Real) S12(Imag) S22(Real) S22(Imag)
1.0E8 0.8931277800312486 -0.3086967072690388 0.10687221996875128 0.3086967072690388 0.10687221996875128 0.3086967072690388 0.8931277800312486 -0.3086967072690388
1.7475E8 0.7321669114442917 -0.44238591409361966 0.26783308855570837 0.44238591409361966 0.26783308855570837 0.44238591409361966 0.7321669114442917 -0.44238591409361966
2.495E8 0.5724302553971078 -0.4940910579701919 0.4275697446028922 0.4940910579701919 0.4275697446028922 0.4940910579701919 0.5724302553971078 -0.4940910579701919
3.2425E8 0.44161962400176297 -0.4957534762908607 0.558380375998237 0.4957534762908607 0.558380375998237 0.4957534762908607 0.44161962400176297 -0.4957534762908607
3.99E8 0.34246578872986005 -0.47351529718761615 0.6575342112701399 0.47351529718761615 0.6575342112701399 0.47351529718761615 0.34246578872986005 -0.47351529718761615
4.7375E8 0.26910083294000803 -0.44227937221503766 0.7308991670599918 0.44227937221503766 0.7308991670599918 0.44227937221503766 0.26910083294000803 -0.44227937221503766
5.485E8 0.2148019758534024 -0.4092763311303129 0.7851980241465975 0.4092763311303129 0.7851980241465975 0.4092763311303129 0.2148019758534024 -0.4092763311303129
6.2325E8 0.1741720879044929 -0.377651557228971 0.8258279120955072 0.377651557228971 0.8258279120955072 0.377651557228971 0.1741720879044929 -0.377651557228971
6.98E8 0.14330889911916603 -0.348582414380826 0.8566911008808341 0.348582414380826 0.8566911008808341 0.348582414380826 0.14330889911916603 -0.348582414380826
7.7275E8 0.11948409256986506 -0.32235045088141784 0.880515907430135 0.32235045088141784 0.880515907430135 0.32235045088141784 0.11948409256986506 -0.32235045088141784
8.475E8 0.1008007314765444 -0.29885359793517335 0.8991992685234556 0.29885359793517335 0.8991992685234556 0.29885359793517335 0.1008007314765444 -0.29885359793517335
9.2225E8 0.08593107475118979 -0.27784402008916226 0.9140689252488101 0.27784402008916226 0.9140689252488101 0.27784402008916226 0.08593107475118979 -0.27784402008916226
9.97E8 0.07393446957125999 -0.25903569270734444 0.9260655304287398 0.25903569270734444 0.9260655304287398 0.25903569270734444 0.07393446957125999 -0.25903569270734444
1.07175E9 0.06413491550568012 -0.2421508259689968 0.9358650844943202 0.2421508259689968 0.9358650844943202 0.2421508259689968 0.06413491550568012 -0.2421508259689968
1.1465E9 0.05603933328383101 -0.22693783939657888 0.943960666716169 0.22693783939657888 0.943960666716169 0.22693783939657888 0.05603933328383101 -0.22693783939657888
1.22125E9 0.04928276610797497 -0.213176344290439 0.9507172338920251 0.213176344290439 0.9507172338920251 0.213176344290439 0.04928276610797497 -0.213176344290439
1.296E9 0.04359127459903952 -0.20067644544153607 0.9564087254009606 0.20067644544153607 0.9564087254009606 0.20067644544153607 0.04359127459903952 -0.20067644544153607
1.37075E9 0.03875649907481677 -0.18927580465521437 0.9612435009251832 0.18927580465521437 0.9612435009251832 0.18927580465521437 0.03875649907481677 -0.18927580465521437
1.4455E9 0.0346179851038023 -0.17883605897649257 0.9653820148961976 0.17883605897649257 0.9653820148961976 0.17883605897649257 0.0346179851038023 -0.17883605897649257
1.52025E9 0.03105073486322845 -0.1692392994274819 0.9689492651367715 0.1692392994274819 0.9689492651367715 0.1692392994274819 0.03105073486322845 -0.1692392994274819
1.595E9 0.02795632123686746 -0.16038489257114186 0.9720436787631324 0.16038489257114186 0.9720436787631324 0.16038489257114186 0.02795632123686746 -0.16038489257114186
1.66975E9 0.025256462742490948 -0.15218672871539735 0.974743537257509 0.15218672871539735 0.974743537257509 0.15218672871539735 0.025256462742490948 -0.15218672871539735
1.7445E9 0.022888320315913264 -0.14457089154929487 0.9771116796840869 0.14457089154929487 0.9771116796840869 0.14457089154929487 0.022888320315913264 -0.14457089154929487
1.81925E9 0.02080101413881872 -0.1374737079362751 0.9791989858611814 0.1374737079362751 0.9791989858611814 0.1374737079362751 0.02080101413881872 -0.1374737079362751
1.894E9 0.01895301546077413 -0.13084012563536868 0.981046984539226 0.13084012563536868 0.981046984539226 0.13084012563536868 0.01895301546077413 -0.13084012563536868
1.96875E9 0.017310173236202816 -0.12462236714867775 0.9826898267637971 0.12462236714867775 0.9826898267637971 0.12462236714867775 0.017310173236202816 -0.12462236714867775
2.0435E9 0.0158442064037028 -0.11877881298268743 0.9841557935962971 0.11877881298268743 0.9841557935962971 0.11877881298268743 0.0158442064037028 -0.11877881298268743
2.11825E9 0.01453154128748641 -0.11327307414211109 0.9854684587125137 0.11327307414211109 0.9854684587125137 0.11327307414211109 0.01453154128748641 -0.11327307414211109
2.193E9 0.01335240732388462 -0.10807322017541483 0.9866475926761153 0.10807322017541483 0.9866475926761153 0.10807322017541483 0.01335240732388462 -0.10807322017541483
2.26775E9 0.012290127952998645 -0.10315113495209807 0.9877098720470016 0.10315113495209807 0.9877098720470016 0.10315113495209807 0.012290127952998645 -0.10315113495209807
2.3425E9 0.0113305602615282 -0.09848197738204532 0.9886694397384717 0.09848197738204532 0.9886694397384717 0.09848197738204532 0.0113305602615282 -0.09848197738204532
2.41725E9 0.0104616489487308 -0.09404372848820249 0.989538351051269 0.09404372848820249 0.989538351051269 0.09404372848820249 0.0104616489487308 -0.09404372848820249
2.492E9 0.009673068850673148 -0.08981680969706464 0.9903269311493269 0.08981680969706464 0.9903269311493269 0.08981680969706464 0.009673068850673148 -0.08981680969706464
2.56675E9 0.008955936578178093 -0.08578376002413496 0.9910440634218218 0.08578376002413496 0.9910440634218218 0.08578376002413496 0.008955936578178093 -0.08578376002413496
2.6415E9 0.008302576475931517 -0.08192896211085463 0.9916974235240683 0.08192896211085463 0.9916974235240683 0.08192896211085463 0.008302576475931517 -0.08192896211085463
2.71625E9 0.007706329563486142 -0.07823840891220622 0.9922936704365138 0.07823840891220622 0.9922936704365138 0.07823840891220622 0.007706329563486142 -0.07823840891220622
2.791E9 0.007161396703037356 -0.07469950432297313 0.9928386032969625 0.07469950432297313 0.9928386032969625 0.07469950432297313 0.007161396703037356 -0.07469950432297313
2.86575E9 0.006662709187499819 -0.07130089223417954 0.9933372908125003 0.07130089223417954 0.9933372908125003 0.07130089223417954 0.006662709187499819 -0.07130089223417954
2.9405E9 0.006205821422652321 -0.06803230948558714 0.9937941785773476 0.06803230948558714 0.9937941785773476 0.06803230948558714 0.006205821422652321 -0.06803230948558714
3.01525E9 0.00578682150941306 -0.0648844589705274 0.9942131784905871 0.0648844589705274 0.9942131784905871 0.0648844589705274 0.00578682150941306 -0.0648844589705274
3.09E9 0.005402256404231687 -0.06184889979208015 0.9945977435957682 0.06184889979208015 0.9945977435957682 0.06184889979208015 0.005402256404231687 -0.06184889979208015
3.16475E9 0.005049069011293103 -0.0589179518936842 0.9949509309887068 0.0589179518936842 0.9949509309887068 0.0589179518936842 0.005049069011293103 -0.0589179518936842
3.2395E9 0.004724545087066813 -0.05608461301582015 0.995275454912933 0.05608461301582015 0.995275454912933 0.05608461301582015 0.004724545087066813 -0.05608461301582015
3.31425E9 0.004426268250895948 -0.05334248618191199 0.9955737317491042 0.05334248618191199 0.9955737317491042 0.05334248618191199 0.004426268250895948 -0.05334248618191199
3.389E9 0.004152081721135877 -0.05068571620578975 0.9958479182788642 0.05068571620578975 0.9958479182788642 0.05068571620578975 0.004152081721135877 -0.05068571620578975
3.46375E9 0.003900055654659545 -0.04810893395173196 0.9960999443453403 0.04810893395173196 0.9960999443453403 0.04810893395173196 0.003900055654659545 -0.04810893395173196
3.5385E9 0.0036684591733794777 -0.045607207275702825 0.9963315408266203 0.045607207275702825 0.9963315408266203 0.045607207275702825 0.0036684591733794777 -0.045607207275702825
3.61325E9 0.003455736326258185 -0.04317599774049359 0.9965442636737417 0.04317599774049359 0.9965442636737417 0.04317599774049359 0.003455736326258185 -0.04317599774049359
3.688E9 0.003260485367881409 -0.04081112233417108 0.9967395146321184 0.04081112233417108 0.9967395146321184 0.04081112233417108 0.003260485367881409 -0.04081112233417108
3.76275E9 0.0030814408418315792 -0.038508719535450556 0.9969185591581684 0.038508719535450556 0.9969185591581684 0.038508719535450556 0.0030814408418315792 -0.038508719535450556
3.8375E9 0.0029174580440780463 -0.03626521916532324 0.9970825419559218 0.03626521916532324 0.9970825419559218 0.03626521916532324 0.0029174580440780463 -0.03626521916532324
3.91225E9 0.002767499512492224 -0.03407731554471868 0.9972325004875077 0.03407731554471868 0.9972325004875077 0.03407731554471868 0.002767499512492224 -0.03407731554471868
3.987E9 0.0026306232466064548 -0.031941943545789664 0.9973693767533935 0.031941943545789664 0.9973693767533935 0.031941943545789664 0.0026306232466064548 -0.031941943545789664
4.06175E9 0.0025059724093893627 -0.029856257181726197 0.9974940275906107 0.029856257181726197 0.9974940275906107 0.029856257181726197 0.0025059724093893627 -0.029856257181726197
4.1365E9 0.002392766302101847 -0.027817610428585684 0.997607233697898 0.027817610428585684 0.997607233697898 0.027817610428585684 0.002392766302101847 -0.027817610428585684
4.21125E9 0.0022902924358105176 -0.025823540013913543 0.9977097075641895 0.025823540013913543 0.9977097075641895 0.025823540013913543 0.0022902924358105176 -0.025823540013913543
4.286E9 0.0021978995501316287 -0.023871749942107848 0.9978021004498685 0.023871749942107848 0.9978021004498685 0.023871749942107848 0.0021978995501316287 -0.023871749942107848
4.36075E9 0.0021149914522692378 -0.021960097556533234 0.9978850085477305 0.021960097556533234 0.9978850085477305 0.021960097556533234 0.0021149914522692378 -0.021960097556533234
4.4355E9 0.0020410215682086503 -0.02008658096412429 0.9979589784317913 0.02008658096412429 0.9979589784317913 0.02008658096412429 0.0020410215682086503 -0.02008658096412429
4.51025E9 0.0019754881136855324 -0.018249327670309283 0.9980245118863147 0.018249327670309283 0.9980245118863147 0.018249327670309283 0.0019754881136855324 -0.018249327670309283
4.585E9 0.0019179298058033356 -0.016446584291094853 0.9980820701941966 0.016446584291094853 0.9980820701941966 0.016446584291094853 0.0019179298058033356 -0.016446584291094853
4.65975E9 0.0018679220473477804 -0.014676707225544351 0.9981320779526522 0.014676707225544351 0.9981320779526522 0.014676707225544351 0.0018679220473477804 -0.014676707225544351
4.7345E9 0.001825073525299175 -0.012938154186051631 0.998174926474701 0.012938154186051631 0.998174926474701 0.012938154186051631 0.001825073525299175 -0.012938154186051631
4.80925E9 0.001789023173058954 -0.011229476496087066 0.9982109768269413 0.011229476496087066 0.9982109768269413 0.011229476496087066 0.001789023173058954 -0.011229476496087066
4.884E9 0.0017594374527221091 -0.009549312075744975 0.998240562547278 0.009549312075744975 0.998240562547278 0.009549312075744975 0.0017594374527221091 -0.009549312075744975
4.95875E9 0.0017360079195369884 -0.007896379044690273 0.998263992080463 0.007896379044690273 0.998263992080463 0.007896379044690273 0.0017360079195369884 -0.007896379044690273
5.0335E9 0.001718449035658595 -0.006269469880178794 0.9982815509643413 0.006269469880178794 0.9982815509643413 0.006269469880178794 0.001718449035658595 -0.006269469880178794
5.10825E9 0.0017064962045544696 -0.004667446074879731 0.9982935037954455 0.004667446074879731 0.9982935037954455 0.004667446074879731 0.0017064962045544696 -0.004667446074879731
5.183E9 0.001699904001073784 -0.0030892332454003613 0.998300095998926 0.0030892332454003613 0.998300095998926 0.0030892332454003613 0.001699904001073784 -0.0030892332454003613
5.25775E9 0.0016984445753327386 -0.0015338166478230072 0.9983015554246673 0.0015338166478230072 0.9983015554246673 0.0015338166478230072 0.0016984445753327386 -0.0015338166478230072
5.3325E9 0.001701906211279625 -2.3706131478692522E-7 0.9982980937887203 2.3706131478692522E-7 0.9982980937887203 2.3706131478692522E-7 0.001701906211279625 -2.3706131478692522E-7
5.40725E9 0.0017100920231454383 0.001512412994949519 0.9982899079768546 -0.001512412994949519 0.9982899079768546 -0.001512412994949519 0.0017100920231454383 0.001512412994949519
5.482E9 0.0017228187750148616 0.0030049927426291125 0.9982771812249849 -0.0030049927426291125 0.9982771812249849 -0.0030049927426291125 0.0017228187750148616 0.0030049927426291125
5.55675E9 0.0017399158105133523 0.004478316350650147 0.9982600841894866 -0.004478316350650147 0.9982600841894866 -0.004478316350650147 0.0017399158105133523 0.004478316350650147
5.6315E9 0.0017612240811373497 0.005933155892182173 0.9982387759188626 -0.005933155892182173 0.9982387759188626 -0.005933155892182173 0.0017612240811373497 0.005933155892182173
5.70625E9 0.0017865952630888608 0.007370244074566739 0.998213404736911 -0.007370244074566739 0.998213404736911 -0.007370244074566739 0.0017865952630888608 0.007370244074566739
5.781E9 0.0018158909536404126 0.008790276762348349 0.9981841090463597 -0.008790276762348349 0.9981841090463597 -0.008790276762348349 0.0018158909536404126 0.008790276762348349
5.85575E9 0.001848981939074976 0.010193915311554145 0.9981510180609253 -0.010193915311554145 0.9981510180609253 -0.010193915311554145 0.001848981939074976 0.010193915311554145
5.9305E9 0.001885747527138001 0.011581788731585572 0.9981142524728618 -0.011581788731585572 0.9981142524728618 -0.011581788731585572 0.001885747527138001 0.011581788731585572
6.00525E9 0.001926074937722014 0.012954495689495976 0.9980739250622781 -0.012954495689495976 0.9980739250622781 -0.012954495689495976 0.001926074937722014 0.012954495689495976
6.08E9 0.0019698587461931057 0.014312606370012809 0.9980301412538072 -0.014312606370012809 0.9980301412538072 -0.014312606370012809 0.0019698587461931057 0.014312606370012809
6.15475E9 0.0020170003743752575 0.015656664203395534 0.9979829996256248 -0.015656664203395534 0.9979829996256248 -0.015656664203395534 0.0020170003743752575 0.015656664203395534
6.2295E9 0.0020674076247438377 0.016987187472090746 0.9979325923752562 -0.016987187472090746 0.9979325923752562 -0.016987187472090746 0.0020674076247438377 0.016987187472090746
6.30425E9 0.0021209942538526288 0.018304670806130376 0.9978790057461472 -0.018304670806130376 0.9978790057461472 -0.018304670806130376 0.0021209942538526288 0.018304670806130376
6.379E9 0.0021776795814377214 0.019609586576311986 0.9978223204185622 -0.019609586576311986 0.9978223204185622 -0.019609586576311986 0.0021776795814377214 0.019609586576311986
6.45375E9 0.0022373881320129755 0.0209023861933826 0.9977626118679869 -0.0209023861933826 0.9977626118679869 -0.0209023861933826 0.0022373881320129755 0.0209023861933826
6.5285E9 0.002300049306101907 0.02218350132071672 0.9976999506938983 -0.02218350132071672 0.9976999506938983 -0.02218350132071672 0.002300049306101907 0.02218350132071672
6.60325E9 0.0023655970785444393 0.023453345007317095 0.9976344029214556 -0.023453345007317095 0.9976344029214556 -0.023453345007317095 0.0023655970785444393 0.023453345007317095
6.678E9 0.002433969721578962 0.02471231274737544 0.997566030278421 -0.02471231274737544 0.997566030278421 -0.02471231274737544 0.002433969721578962 0.02471231274737544
6.75275E9 0.0025051095506339856 0.02596078347209349 0.9974948904493659 -0.02596078347209349 0.9974948904493659 -0.02596078347209349 0.0025051095506339856 0.02596078347209349
6.8275E9 0.002578962690973072 0.027199120478981965 0.9974210373090271 -0.027199120478981965 0.9974210373090271 -0.027199120478981965 0.002578962690973072 0.027199120478981965
6.90225E9 0.002655478863524543 0.0284276723034192 0.9973445211364753 -0.0284276723034192 0.9973445211364753 -0.0284276723034192 0.002655478863524543 0.0284276723034192
6.977E9 0.0027346111883962353 0.029646773536857126 0.997265388811604 -0.029646773536857126 0.997265388811604 -0.029646773536857126 0.0027346111883962353 0.029646773536857126
7.05175E9 0.0028163160047277036 0.030856745595705132 0.9971836839952722 -0.030856745595705132 0.9971836839952722 -0.030856745595705132 0.0028163160047277036 0.030856745595705132
7.1265E9 0.0029005527056696666 0.03205789744460045 0.9970994472943303 -0.03205789744460045 0.9970994472943303 -0.03205789744460045 0.0029005527056696666 0.03205789744460045
7.20125E9 0.002987283587405073 0.03325052627748166 0.997012716412595 -0.03325052627748166 0.997012716412595 -0.03325052627748166 0.002987283587405073 0.03325052627748166
7.276E9 0.003076473711239261 0.034434918159616724 0.9969235262887609 -0.034434918159616724 0.9969235262887609 -0.034434918159616724 0.003076473711239261 0.034434918159616724
7.35075E9 0.003168090777890063 0.03561134863349864 0.9968319092221098 -0.03561134863349864 0.9968319092221098 -0.03561134863349864 0.003168090777890063 0.03561134863349864
7.4255E9 0.003262105013203259 0.03678008329130369 0.9967378949867967 -0.03678008329130369 0.9967378949867967 -0.03678008329130369 0.003262105013203259 0.03678008329130369
7.50025E9 0.0033584890646058824 0.03794137831641135 0.996641510935394 -0.03794137831641135 0.996641510935394 -0.03794137831641135 0.0033584890646058824 0.03794137831641135
7.575E9 0.0034572179076904977 0.03909548099630752 0.9965427820923096 -0.03909548099630752 0.9965427820923096 -0.03909548099630752 0.0034572179076904977 0.03909548099630752
7.64975E9 0.0035582687623985114 0.04024263020903017 0.9964417312376015 -0.04024263020903017 0.9964417312376015 -0.04024263020903017 0.0035582687623985114 0.04024263020903017
7.7245E9 0.003661621018341041 0.04138305688517435 0.996338378981659 -0.04138305688517435 0.996338378981659 -0.04138305688517435 0.003661621018341041 0.04138305688517435
7.79925E9 0.003767256168862066 0.042516984447338584 0.9962327438311377 -0.042516984447338584 0.9962327438311377 -0.042516984447338584 0.003767256168862066 0.042516984447338584
7.874E9 0.0038751577535120945 0.04364462922878077 0.9961248422464879 -0.04364462922878077 0.9961248422464879 -0.04364462922878077 0.0038751577535120945 0.04364462922878077
7.94875E9 0.0039853113086611245 0.044766200872942384 0.9960146886913387 -0.044766200872942384 0.9960146886913387 -0.044766200872942384 0.0039853113086611245 0.044766200872942384
8.0235E9 0.004097704326039134 0.0458819027154093 0.9959022956739609 -0.0458819027154093 0.9959022956739609 -0.0458819027154093 0.004097704326039134 0.0458819027154093
8.09825E9 0.0042123262190500175 0.046991932149789875 0.9957876737809499 -0.046991932149789875 0.9957876737809499 -0.046991932149789875 0.0042123262190500175 0.046991932149789875
8.173E9 0.004329168296762873 0.04809648097892024 0.995670831703237 -0.04809648097892024 0.995670831703237 -0.04809648097892024 0.004329168296762873 0.04809648097892024
8.24775E9 0.00444822374554241 0.04919573575274062 0.9955517762544573 -0.04919573575274062 0.9955517762544573 -0.04919573575274062 0.00444822374554241 0.04919573575274062
8.3225E9 0.0045694876183394505 0.0502898780941319 0.9954305123816606 -0.0502898780941319 0.9954305123816606 -0.0502898780941319 0.0045694876183394505 0.0502898780941319
8.39725E9 0.004692956831723312 0.05137908501395433 0.995307043168277 -0.05137908501395433 0.995307043168277 -0.05137908501395433 0.004692956831723312 0.05137908501395433
8.472E9 0.004818630170801526 0.05246352921649216 0.9951813698291987 -0.05246352921649216 0.9951813698291987 -0.05246352921649216 0.004818630170801526 0.05246352921649216
8.54675E9 0.0049465083022393755 0.05354337939647801 0.9950534916977607 -0.05354337939647801 0.9950534916977607 -0.05354337939647801 0.0049465083022393755 0.05354337939647801
