!Murata Part Number: GJM0225C1E5R4BB01
!These Parameters are Measured in Series Mode Connection
!       o--ll--o
!Port1            Port2
!       o------o
!Operation Temp=25[degC], DC Bias Voltage=0[V]
!Freq. Start=100[MHz] Stop=30[GHz], 401[Steps]
!Data Generated on Feb 1, 2023
# Hz S RI R 50
!Freq.(Hz) S11(Real) S11(Imag) S21(Real) S21(Imag) S12(Real) S12(Imag) S22(Real) S22(Imag)
1.0E8 0.8965810451797394 -0.3042558993427554 0.10341895482026074 0.3042558993427554 0.10341895482026074 0.3042558993427554 0.8965810451797394 -0.3042558993427554
1.7475E8 0.7393055688751424 -0.43857735584411445 0.2606944311248577 0.43857735584411445 0.2606944311248577 0.43857735584411445 0.7393055688751424 -0.43857735584411445
2.495E8 0.5813971841860686 -0.4927065876973734 0.4186028158139312 0.4927065876973734 0.4186028158139312 0.4927065876973734 0.5813971841860686 -0.4927065876973734
3.2425E8 0.4507041703235914 -0.4967524968680025 0.5492958296764088 0.4967524968680025 0.5492958296764088 0.4967524968680025 0.4507041703235914 -0.4967524968680025
3.99E8 0.3507998844945203 -0.47621984063293027 0.6492001155054797 0.47621984063293027 0.6492001155054797 0.47621984063293027 0.3507998844945203 -0.47621984063293027
4.7375E8 0.2764083364265299 -0.4460302449874266 0.7235916635734703 0.4460302449874266 0.7235916635734703 0.4460302449874266 0.2764083364265299 -0.4460302449874266
5.485E8 0.2210893100809963 -0.4135977555560659 0.7789106899190038 0.4135977555560659 0.7789106899190038 0.4135977555560659 0.2210893100809963 -0.4135977555560659
6.2325E8 0.17955023167210402 -0.38223603776941323 0.8204497683278962 0.38223603776941323 0.8204497683278962 0.38223603776941323 0.17955023167210402 -0.38223603776941323
6.98E8 0.14791252344895287 -0.35324132008145226 0.8520874765510472 0.35324132008145226 0.8520874765510472 0.35324132008145226 0.14791252344895287 -0.35324132008145226
7.7275E8 0.12344005796554447 -0.32697187932742106 0.8765599420344555 0.32697187932742106 0.8765599420344555 0.32697187932742106 0.12344005796554447 -0.32697187932742106
8.475E8 0.1042183239273252 -0.30337342560210967 0.8957816760726749 0.30337342560210967 0.8957816760726749 0.30337342560210967 0.1042183239273252 -0.30337342560210967
9.2225E8 0.08890094062007076 -0.2822274308351654 0.9110990593799291 0.2822274308351654 0.9110990593799291 0.2822274308351654 0.08890094062007076 -0.2822274308351654
9.97E8 0.07653060413072173 -0.263265709868265 0.9234693958692783 0.263265709868265 0.9234693958692783 0.263265709868265 0.07653060413072173 -0.263265709868265
1.07175E9 0.06641740484672196 -0.24622125107290913 0.9335825951532781 0.24622125107290913 0.9335825951532781 0.24622125107290913 0.06641740484672196 -0.24622125107290913
1.1465E9 0.05805698556531281 -0.23084890501895158 0.9419430144346873 0.23084890501895158 0.9419430144346873 0.23084890501895158 0.05805698556531281 -0.23084890501895158
1.22125E9 0.05107536170759441 -0.21693203094895272 0.9489246382924058 0.21693203094895272 0.9489246382924058 0.21693203094895272 0.05107536170759441 -0.21693203094895272
1.296E9 0.04519139751069166 -0.20428282175293647 0.9548086024893082 0.20428282175293647 0.9548086024893082 0.20428282175293647 0.04519139751069166 -0.20428282175293647
1.37075E9 0.040190993762358546 -0.19274000061316737 0.9598090062376413 0.19274000061316737 0.9598090062376413 0.19274000061316737 0.040190993762358546 -0.19274000061316737
1.4455E9 0.035909103887384504 -0.1821656337118107 0.9640908961126156 0.1821656337118107 0.9640908961126156 0.1821656337118107 0.035909103887384504 -0.1821656337118107
1.52025E9 0.03221703878784675 -0.1724418563457518 0.967782961212153 0.1724418563457518 0.967782961212153 0.1724418563457518 0.03221703878784675 -0.1724418563457518
1.595E9 0.02901338796643579 -0.1634678503748132 0.9709866120335642 0.1634678503748132 0.9709866120335642 0.1634678503748132 0.02901338796643579 -0.1634678503748132
1.66975E9 0.026217444538226334 -0.155157190894268 0.9737825554617737 0.155157190894268 0.9737825554617737 0.155157190894268 0.026217444538226334 -0.155157190894268
1.7445E9 0.0237643857944849 -0.1474355780093604 0.9762356142055152 0.1474355780093604 0.9762356142055152 0.1474355780093604 0.0237643857944849 -0.1474355780093604
1.81925E9 0.021601699830550575 -0.14023892561618992 0.9783983001694496 0.14023892561618992 0.9783983001694496 0.14023892561618992 0.021601699830550575 -0.14023892561618992
1.894E9 0.019686507147549916 -0.13351176327763736 0.9803134928524501 0.13351176327763736 0.9803134928524501 0.13351176327763736 0.019686507147549916 -0.13351176327763736
1.96875E9 0.017983532391178433 -0.12720590468994641 0.9820164676088217 0.12720590468994641 0.9820164676088217 0.12720590468994641 0.017983532391178433 -0.12720590468994641
2.0435E9 0.01646355349981495 -0.12127933942830739 0.9835364465001853 0.12127933942830739 0.9835364465001853 0.12127933942830739 0.01646355349981495 -0.12127933942830739
2.11825E9 0.01510220503929161 -0.11569530998842435 0.9848977949607084 0.11569530998842435 0.9848977949607084 0.11569530998842435 0.01510220503929161 -0.11569530998842435
2.193E9 0.013879046874094586 -0.11042154187187919 0.9861209531259055 0.11042154187187919 0.9861209531259055 0.11042154187187919 0.013879046874094586 -0.11042154187187919
2.26775E9 0.012776833452581831 -0.10542959982732493 0.9872231665474182 0.10542959982732493 0.9872231665474182 0.10542959982732493 0.012776833452581831 -0.10542959982732493
2.3425E9 0.011780936099489773 -0.10069434806679912 0.9882190639005103 0.10069434806679912 0.9882190639005103 0.10069434806679912 0.011780936099489773 -0.10069434806679912
2.41725E9 0.010878882973543053 -0.0961934962660144 0.9891211170264571 0.0961934962660144 0.9891211170264571 0.0961934962660144 0.010878882973543053 -0.0961934962660144
2.492E9 0.010059990221542792 -0.09190721647168006 0.9899400097784571 0.09190721647168006 0.9899400097784571 0.09190721647168006 0.010059990221542792 -0.09190721647168006
2.56675E9 0.009315064339857524 -0.08781781875976144 0.9906849356601426 0.08781781875976144 0.9906849356601426 0.08781781875976144 0.009315064339857524 -0.08781781875976144
2.6415E9 0.008636160527419631 -0.08390947570716147 0.9913638394725807 0.08390947570716147 0.9913638394725807 0.08390947570716147 0.008636160527419631 -0.08390947570716147
2.71625E9 0.008016385360088677 -0.08016798754178622 0.9919836146399114 0.08016798754178622 0.9919836146399114 0.08016798754178622 0.008016385360088677 -0.08016798754178622
2.791E9 0.007449734771334712 -0.0765805812981561 0.9925502652286654 0.0765805812981561 0.9925502652286654 0.0765805812981561 0.007449734771334712 -0.0765805812981561
2.86575E9 0.006930960327547848 -0.07313573849179668 0.9930690396724522 0.07313573849179668 0.9930690396724522 0.07313573849179668 0.006930960327547848 -0.07313573849179668
2.9405E9 0.006455458308896072 -0.06982304678861838 0.9935445416911041 0.06982304678861838 0.9935445416911041 0.06982304678861838 0.006455458308896072 -0.06982304678861838
3.01525E9 0.006019177271940438 -0.06663307192859323 0.9939808227280593 0.06663307192859323 0.9939808227280593 0.06663307192859323 0.006019177271940438 -0.06663307192859323
3.09E9 0.005618540667954193 -0.06355724680120038 0.9943814593320457 0.06355724680120038 0.9943814593320457 0.06355724680120038 0.005618540667954193 -0.06355724680120038
3.16475E9 0.005250381786894711 -0.060587775091433704 0.9947496182131054 0.060587775091433704 0.9947496182131054 0.060587775091433704 0.005250381786894711 -0.060587775091433704
3.2395E9 0.004911888839846698 -0.05771754734217752 0.9950881111601532 0.05771754734217752 0.9950881111601532 0.05771754734217752 0.004911888839846698 -0.05771754734217752
3.31425E9 0.00460055841863735 -0.05494006762950952 0.9953994415813626 0.05494006762950952 0.9953994415813626 0.05494006762950952 0.00460055841863735 -0.05494006762950952
3.389E9 0.00431415590728238 -0.052249389336448376 0.9956858440927174 0.052249389336448376 0.9956858440927174 0.052249389336448376 0.00431415590728238 -0.052249389336448376
3.46375E9 0.004050681686350467 -0.04964005874942454 0.9959493183136496 0.04964005874942454 0.9959493183136496 0.04964005874942454 0.004050681686350467 -0.04964005874942454
3.5385E9 0.003808342183697733 -0.04710706539962941 0.9961916578163023 0.04710706539962941 0.9961916578163023 0.04710706539962941 0.003808342183697733 -0.04710706539962941
3.61325E9 0.00358552499512013 -0.04464579823588639 0.9964144750048801 0.04464579823588639 0.9964144750048801 0.04464579823588639 0.00358552499512013 -0.04464579823588639
3.688E9 0.00338077743535092 -0.042252006852827206 0.996619222564649 0.042252006852827206 0.996619222564649 0.042252006852827206 0.00338077743535092 -0.042252006852827206
3.76275E9 0.0031927879904748665 -0.03992176711283917 0.9968072120095253 0.03992176711283917 0.9968072120095253 0.03992176711283917 0.0031927879904748665 -0.03992176711283917
3.8375E9 0.0030203702326545893 -0.037651450596423004 0.9969796297673454 0.037651450596423004 0.9969796297673454 0.037651450596423004 0.0030203702326545893 -0.037651450596423004
3.91225E9 0.00286244883128935 -0.03543769739649471 0.9971375511687108 0.03543769739649471 0.9971375511687108 0.03543769739649471 0.00286244883128935 -0.03543769739649471
3.987E9 0.002718047354657574 -0.033277391840389 0.9972819526453423 0.033277391840389 0.9972819526453423 0.033277391840389 0.002718047354657574 -0.033277391840389
4.06175E9 0.0025862776053346094 -0.031167640781025668 0.9974137223946654 0.031167640781025668 0.9974137223946654 0.031167640781025668 0.0025862776053346094 -0.031167640781025668
4.1365E9 0.00246633027328306 -0.02910575414763431 0.9975336697267171 0.02910575414763431 0.9975336697267171 0.02910575414763431 0.00246633027328306 -0.02910575414763431
4.21125E9 0.0023574667241187345 -0.027089227488040966 0.9976425332758814 0.027089227488040966 0.9976425332758814 0.027089227488040966 0.0023574667241187345 -0.027089227488040966
4.286E9 0.0022590117679629857 -0.025115726269988904 0.997740988232037 0.025115726269988904 0.997740988232037 0.025115726269988904 0.0022590117679629857 -0.025115726269988904
4.36075E9 0.0021703472775456375 -0.02318307173927877 0.9978296527224545 0.02318307173927877 0.9978296527224545 0.02318307173927877 0.0021703472775456375 -0.02318307173927877
4.4355E9 0.002090906543659938 -0.021289228158482196 0.9979090934563403 0.021289228158482196 0.9979090934563403 0.021289228158482196 0.002090906543659938 -0.021289228158482196
4.51025E9 0.002020169272368863 -0.019432291272282683 0.9979798307276311 0.019432291272282683 0.9979798307276311 0.019432291272282683 0.002020169272368863 -0.019432291272282683
4.585E9 0.0019576571420687815 -0.01761047786469445 0.998042342857931 0.01761047786469445 0.998042342857931 0.01761047786469445 0.0019576571420687815 -0.01761047786469445
4.65975E9 0.001902929850077185 -0.01582211628996834 0.998097070149923 0.01582211628996834 0.998097070149923 0.01582211628996834 0.001902929850077185 -0.01582211628996834
4.7345E9 0.0018555815881894496 -0.014065637873312956 0.9981444184118106 0.014065637873312956 0.9981444184118106 0.014065637873312956 0.0018555815881894496 -0.014065637873312956
4.80925E9 0.0018152378949426915 -0.012339569089964565 0.9981847621050575 0.012339569089964565 0.9981847621050575 0.012339569089964565 0.0018152378949426915 -0.012339569089964565
4.884E9 0.0017815528393766939 -0.010642524441911856 0.9982184471606231 0.010642524441911856 0.9982184471606231 0.010642524441911856 0.0017815528393766939 -0.010642524441911856
4.95875E9 0.0017542064970939113 -0.008973199960953885 0.9982457935029061 0.008973199960953885 0.9982457935029061 0.008973199960953885 0.0017542064970939113 -0.008973199960953885
5.0335E9 0.0017329026845585062 -0.007330367274940842 0.9982670973154416 0.007330367274940842 0.9982670973154416 0.007330367274940842 0.0017329026845585062 -0.007330367274940842
5.10825E9 0.0017173669219760748 -0.005712868181184226 0.9982826330780241 0.005712868181184226 0.9982826330780241 0.005712868181184226 0.0017173669219760748 -0.005712868181184226
5.183E9 0.0017073445988753063 -0.0041196096772693445 0.9982926554011247 0.0041196096772693445 0.9982926554011247 0.0041196096772693445 0.0017073445988753063 -0.0041196096772693445
5.25775E9 0.0017025993197657403 -0.0025495594049795103 0.9982974006802342 0.0025495594049795103 0.9982974006802342 0.0025495594049795103 0.0017025993197657403 -0.0025495594049795103
5.3325E9 0.001702911410051445 -0.0010017414678512068 0.9982970885899486 0.0010017414678512068 0.9982970885899486 0.0010017414678512068 0.001702911410051445 -0.0010017414678512068
5.40725E9 0.0017080765648056343 5.247674128882164E-4 0.9982919234351942 -5.247674128882164E-4 0.9982919234351942 -5.247674128882164E-4 0.0017080765648056343 5.247674128882164E-4
5.482E9 0.0017179046251119049 0.002030841435518278 0.9982820953748881 -0.002030841435518278 0.9982820953748881 -0.002030841435518278 0.0017179046251119049 0.002030841435518278
5.55675E9 0.001732218468500986 0.0035173089763843577 0.998267781531499 -0.0035173089763843577 0.998267781531499 -0.0035173089763843577 0.001732218468500986 0.0035173089763843577
5.6315E9 0.0017508530015975512 0.0049849555951302985 0.9982491469984024 -0.0049849555951302985 0.9982491469984024 -0.0049849555951302985 0.0017508530015975512 0.0049849555951302985
5.70625E9 0.0017736542444732211 0.006434526809339766 0.9982263457555268 -0.006434526809339766 0.9982263457555268 -0.006434526809339766 0.0017736542444732211 0.006434526809339766
5.781E9 0.001800478497408071 0.00786673065903257 0.9981995215025918 -0.00786673065903257 0.9981995215025918 -0.00786673065903257 0.001800478497408071 0.00786673065903257
5.85575E9 0.0018311915818178552 0.009282240079430437 0.998168808418182 -0.009282240079430437 0.998168808418182 -0.009282240079430437 0.0018311915818178552 0.009282240079430437
5.9305E9 0.001865668148028498 0.010681695098599607 0.9981343318519714 -0.010681695098599607 0.9981343318519714 -0.010681695098599607 0.001865668148028498 0.010681695098599607
6.00525E9 0.0019037910433907111 0.012065704874965376 0.998096208956609 -0.012065704874965376 0.998096208956609 -0.012065704874965376 0.0019037910433907111 0.012065704874965376
6.08E9 0.001945450734941051 0.013434849588259147 0.998054549265059 -0.013434849588259147 0.998054549265059 -0.013434849588259147 0.001945450734941051 0.013434849588259147
6.15475E9 0.001990544781444065 0.014789682196172318 0.9980094552185558 -0.014789682196172318 0.9980094552185558 -0.014789682196172318 0.001990544781444065 0.014789682196172318
6.2295E9 0.0020389773502046977 0.01613073006784618 0.9979610226497954 -0.01613073006784618 0.9979610226497954 -0.01613073006784618 0.0020389773502046977 0.01613073006784618
6.30425E9 0.002090658774530099 0.01745849650429601 0.9979093412254697 -0.01745849650429601 0.9979093412254697 -0.01745849650429601 0.002090658774530099 0.01745849650429601
6.379E9 0.0021455051481539347 0.018773462154947882 0.9978544948518461 -0.018773462154947882 0.9978544948518461 -0.018773462154947882 0.0021455051481539347 0.018773462154947882
6.45375E9 0.0022034379533209672 0.020076086338637035 0.9977965620466791 -0.020076086338637035 0.9977965620466791 -0.020076086338637035 0.0022034379533209672 0.020076086338637035
6.5285E9 0.0022643837195716436 0.02136680827667494 0.9977356162804285 -0.02136680827667494 0.9977356162804285 -0.02136680827667494 0.0022643837195716436 0.02136680827667494
6.60325E9 0.0023282737105704697 0.022646048244920284 0.9976717262894297 -0.022646048244920284 0.9976717262894297 -0.022646048244920284 0.0023282737105704697 0.022646048244920284
6.678E9 0.002395043636593357 0.023914208651188845 0.9976049563634067 -0.023914208651188845 0.9976049563634067 -0.023914208651188845 0.002395043636593357 0.023914208651188845
6.75275E9 0.002464633390531254 0.02517167504379238 0.9975353666094688 -0.02517167504379238 0.9975353666094688 -0.02517167504379238 0.002464633390531254 0.02517167504379238
6.8275E9 0.002536986805484226 0.026418817056506113 0.9974630131945158 -0.026418817056506113 0.9974630131945158 -0.026418817056506113 0.002536986805484226 0.026418817056506113
6.90225E9 0.002612051432214625 0.027655989294822644 0.9973879485677855 -0.027655989294822644 0.9973879485677855 -0.027655989294822644 0.002612051432214625 0.027655989294822644
6.977E9 0.0026897783349026758 0.028883532167948905 0.9973102216650974 -0.028883532167948905 0.9973102216650974 -0.028883532167948905 0.0026897783349026758 0.028883532167948905
7.05175E9 0.0027701219038053036 0.03010177267064115 0.9972298780961947 -0.03010177267064115 0.9972298780961947 -0.03010177267064115 0.0027701219038053036 0.03010177267064115
7.1265E9 0.0028530396835611867 0.031311025118645155 0.9971469603164388 -0.031311025118645155 0.9971469603164388 -0.031311025118645155 0.0028530396835611867 0.031311025118645155
7.20125E9 0.002938492216013861 0.03251159184121272 0.997061507783986 -0.03251159184121272 0.997061507783986 -0.03251159184121272 0.002938492216013861 0.03251159184121272
7.276E9 0.0030264428965417257 0.03370376383389576 0.996973557103458 -0.03370376383389576 0.996973557103458 -0.03370376383389576 0.0030264428965417257 0.03370376383389576
7.35075E9 0.00311685784299059 0.034887821374577604 0.9968831421570095 -0.034887821374577604 0.9968831421570095 -0.034887821374577604 0.00311685784299059 0.034887821374577604
7.4255E9 0.003209705776402091 0.03606403460547856 0.9967902942235978 -0.03606403460547856 0.9967902942235978 -0.03606403460547856 0.003209705776402091 0.03606403460547856
7.50025E9 0.003304957912821278 0.03723266408367522 0.9966950420871787 -0.03723266408367522 0.9966950420871787 -0.03723266408367522 0.003304957912821278 0.03723266408367522
7.575E9 0.00340258786554975 0.03839396130249053 0.9965974121344503 -0.03839396130249053 0.9965974121344503 -0.03839396130249053 0.00340258786554975 0.03839396130249053
7.64975E9 0.0035025715572880476 0.0395481691859488 0.996497428442712 -0.0395481691859488 0.996497428442712 -0.0395481691859488 0.0035025715572880476 0.0395481691859488
7.7245E9 0.0036048871416834633 0.040695522558342544 0.9963951128583164 -0.040695522558342544 0.9963951128583164 -0.040695522558342544 0.0036048871416834633 0.040695522558342544
7.79925E9 0.003709514933867622 0.04183624859082367 0.9962904850661323 -0.04183624859082367 0.9962904850661323 -0.04183624859082367 0.003709514933867622 0.04183624859082367
7.874E9 0.003816437349633267 0.042970567226812875 0.9961835626503667 -0.042970567226812875 0.9961835626503667 -0.042970567226812875 0.003816437349633267 0.042970567226812875
7.94875E9 0.003925638852961936 0.04409869158791209 0.996074361147038 -0.04409869158791209 0.996074361147038 -0.04409869158791209 0.003925638852961936 0.04409869158791209
8.0235E9 0.004037105911674877 0.045220828361910735 0.9959628940883252 -0.045220828361910735 0.9959628940883252 -0.045220828361910735 0.004037105911674877 0.045220828361910735
8.09825E9 0.00415082696103872 0.046337178174388795 0.9958491730389614 -0.046337178174388795 0.9958491730389614 -0.046337178174388795 0.00415082696103872 0.046337178174388795
8.173E9 0.004266792375216392 0.04744793594534648 0.9957332076247835 -0.04744793594534648 0.9957332076247835 -0.04744793594534648 0.004266792375216392 0.04744793594534648
8.24775E9 0.004384994446512789 0.04855329123222335 0.9956150055534871 -0.04855329123222335 0.9956150055534871 -0.04855329123222335 0.004384994446512789 0.04855329123222335
8.3225E9 0.004505427372424791 0.04965342856061325 0.9954945726275752 -0.04965342856061325 0.9954945726275752 -0.04965342856061325 0.004505427372424791 0.04965342856061325
8.39725E9 0.004628087250566998 0.050748527743934076 0.995371912749433 -0.050748527743934076 0.995371912749433 -0.050748527743934076 0.004628087250566998 0.050748527743934076
8.472E9 0.004752972081608918 0.05183876419327093 0.9952470279183911 -0.05183876419327093 0.9952470279183911 -0.05183876419327093 0.004752972081608918 0.05183876419327093
8.54675E9 0.0048800817804271176 0.052924309218580844 0.9951199182195727 -0.052924309218580844 0.9951199182195727 -0.052924309218580844 0.0048800817804271176 0.052924309218580844
