!Murata Part Number: GJM0225C1E5R7BB01
!These Parameters are Measured in Series Mode Connection
!       o--ll--o
!Port1            Port2
!       o------o
!Operation Temp=25[degC], DC Bias Voltage=0[V]
!Freq. Start=100[MHz] Stop=30[GHz], 401[Steps]
!Data Generated on Feb 1, 2023
# Hz S RI R 50
!Freq.(Hz) S11(Real) S11(Imag) S21(Real) S21(Imag) S12(Real) S12(Imag) S22(Real) S22(Imag)
1.0E8 0.8861149594810327 -0.3174083362251117 0.11388504051896745 0.3174083362251117 0.11388504051896745 0.3174083362251117 0.8861149594810327 -0.3174083362251117
1.7475E8 0.717926802959449 -0.4495484083398795 0.282073197040551 0.4495484083398795 0.282073197040551 0.4495484083398795 0.717926802959449 -0.4495484083398795
2.495E8 0.5548588788800628 -0.4963232901827439 0.4451411211199373 0.4963232901827439 0.4451411211199373 0.4963232901827439 0.5548588788800628 -0.4963232901827439
3.2425E8 0.4240785691890742 -0.49334565106689426 0.5759214308109258 0.49334565106689426 0.5759214308109258 0.49334565106689426 0.4240785691890742 -0.49334565106689426
3.99E8 0.3265571050861587 -0.46789733984760457 0.6734428949138412 0.46789733984760457 0.6734428949138412 0.46789733984760457 0.3265571050861587 -0.46789733984760457
4.7375E8 0.2552743356631818 -0.4347579167035863 0.7447256643368182 0.4347579167035863 0.7447256643368182 0.4347579167035863 0.2552743356631818 -0.4347579167035863
5.485E8 0.2029879094583814 -0.40076352710137675 0.7970120905416186 0.40076352710137675 0.7970120905416186 0.40076352710137675 0.2029879094583814 -0.40076352710137675
6.2325E8 0.16412311587725492 -0.3687226175533395 0.8358768841227451 0.3687226175533395 0.8358768841227451 0.3687226175533395 0.16412311587725492 -0.3687226175533395
6.98E8 0.1347478256714653 -0.33958263885068934 0.8652521743285346 0.33958263885068934 0.8652521743285346 0.33958263885068934 0.1347478256714653 -0.33958263885068934
7.7275E8 0.11215796568261707 -0.31348011965998474 0.8878420343173828 0.31348011965998474 0.8878420343173828 0.31348011965998474 0.11215796568261707 -0.31348011965998474
8.475E8 0.09449549788634748 -0.290224314279807 0.9055045021136526 0.290224314279807 0.9055045021136526 0.290224314279807 0.09449549788634748 -0.290224314279807
9.2225E8 0.08047123930744389 -0.26951386366361374 0.919528760692556 0.26951386366361374 0.919528760692556 0.26951386366361374 0.08047123930744389 -0.26951386366361374
9.97E8 0.06917794090685599 -0.2510306801065898 0.9308220590931439 0.2510306801065898 0.9308220590931439 0.2510306801065898 0.06917794090685599 -0.2510306801065898
1.07175E9 0.059967007839414714 -0.2344779412898312 0.9400329921605853 0.2344779412898312 0.9400329921605853 0.2344779412898312 0.059967007839414714 -0.2344779412898312
1.1465E9 0.05236731750931426 -0.2195929552637238 0.9476326824906857 0.2195929552637238 0.9476326824906857 0.2195929552637238 0.05236731750931426 -0.2195929552637238
1.22125E9 0.04603133885549942 -0.20614905052285323 0.9539686611445006 0.20614905052285323 0.9539686611445006 0.20614905052285323 0.04603133885549942 -0.20614905052285323
1.296E9 0.040698933806963676 -0.19395299735858046 0.9593010661930362 0.19395299735858046 0.9593010661930362 0.19395299735858046 0.040698933806963676 -0.19395299735858046
1.37075E9 0.036172694808943404 -0.18284091992684595 0.9638273051910565 0.18284091992684595 0.9638273051910565 0.18284091992684595 0.036172694808943404 -0.18284091992684595
1.4455E9 0.03230089498612109 -0.1726740042457773 0.967699105013879 0.1726740042457773 0.967699105013879 0.1726740042457773 0.03230089498612109 -0.1726740042457773
1.52025E9 0.028965528991573692 -0.16333453617549812 0.9710344710084263 0.16333453617549812 0.9710344710084263 0.16333453617549812 0.028965528991573692 -0.16333453617549812
1.595E9 0.026073805884820694 -0.15472244837048188 0.9739261941151796 0.15472244837048188 0.9739261941151796 0.15472244837048188 0.026073805884820694 -0.15472244837048188
1.66975E9 0.02355201580011621 -0.1467523972528148 0.9764479841998839 0.1467523972528148 0.9764479841998839 0.1467523972528148 0.02355201580011621 -0.1467523972528148
1.7445E9 0.021341051393749602 -0.13935132626625374 0.9786589486062502 0.13935132626625374 0.9786589486062502 0.13935132626625374 0.021341051393749602 -0.13935132626625374
1.81925E9 0.01939309810831207 -0.13245645023261188 0.9806069018916882 0.13245645023261188 0.9806069018916882 0.13245645023261188 0.01939309810831207 -0.13245645023261188
1.894E9 0.017669160427393145 -0.1260135936053437 0.982330839572607 0.1260135936053437 0.982330839572607 0.1260135936053437 0.017669160427393145 -0.1260135936053437
1.96875E9 0.016137193231994917 -0.11997582135187496 0.9838628067680049 0.11997582135187496 0.9838628067680049 0.11997582135187496 0.016137193231994917 -0.11997582135187496
2.0435E9 0.01477067610253824 -0.11430230972157107 0.9852293238974619 0.11430230972157107 0.9852293238974619 0.11430230972157107 0.01477067610253824 -0.11430230972157107
2.11825E9 0.01354751533618244 -0.10895741285226128 0.9864524846638174 0.10895741285226128 0.9864524846638174 0.10895741285226128 0.01354751533618244 -0.10895741285226128
2.193E9 0.01244919087508905 -0.10390988904519348 0.987550809124911 0.10390988904519348 0.987550809124911 0.10390988904519348 0.01244919087508905 -0.10390988904519348
2.26775E9 0.011460088007952179 -0.09913225728168591 0.9885399119920478 0.09913225728168591 0.9885399119920478 0.09913225728168591 0.011460088007952179 -0.09913225728168591
2.3425E9 0.010566969727622662 -0.09460026015474056 0.9894330302723775 0.09460026015474056 0.9894330302723775 0.09460026015474056 0.010566969727622662 -0.09460026015474056
2.41725E9 0.009758557070429342 -0.09029241395981048 0.9902414429295707 0.09029241395981048 0.9902414429295707 0.09029241395981048 0.009758557070429342 -0.09029241395981048
2.492E9 0.009025193018118757 -0.08618963038347734 0.9909748069818815 0.08618963038347734 0.9909748069818815 0.08618963038347734 0.009025193018118757 -0.08618963038347734
2.56675E9 0.008358571556046312 -0.0822748971992856 0.9916414284439538 0.0822748971992856 0.9916414284439538 0.0822748971992856 0.008358571556046312 -0.0822748971992856
2.6415E9 0.0077515179003955405 -0.07853300776260652 0.9922484820996043 0.07853300776260652 0.9922484820996043 0.07853300776260652 0.0077515179003955405 -0.07853300776260652
2.71625E9 0.007197809183199178 -0.07495033100657554 0.9928021908168007 0.07495033100657554 0.9928021908168007 0.07495033100657554 0.007197809183199178 -0.07495033100657554
2.791E9 0.006692027332458426 -0.07151461517378184 0.9933079726675416 0.07151461517378184 0.9933079726675416 0.07151461517378184 0.006692027332458426 -0.07151461517378184
2.86575E9 0.006229437729024064 -0.06821481975016912 0.9937705622709759 0.06821481975016912 0.9937705622709759 0.06821481975016912 0.006229437729024064 -0.06821481975016912
2.9405E9 0.005805888621527684 -0.06504097105986212 0.9941941113784724 0.06504097105986212 0.9941941113784724 0.06504097105986212 0.005805888621527684 -0.06504097105986212
3.01525E9 0.005417727350306189 -0.06198403778109343 0.9945822726496936 0.06198403778109343 0.9945822726496936 0.06198403778109343 0.005417727350306189 -0.06198403778109343
3.09E9 0.005061730254265756 -0.059035823292695785 0.9949382697457342 0.059035823292695785 0.9949382697457342 0.059035823292695785 0.005061730254265756 -0.059035823292695785
3.16475E9 0.004735043771939056 -0.056188872288292536 0.9952649562280609 0.056188872288292536 0.9952649562280609 0.056188872288292536 0.004735043771939056 -0.056188872288292536
3.2395E9 0.004435134744538407 -0.053436389525557564 0.9955648652554615 0.053436389525557564 0.9955648652554615 0.053436389525557564 0.004435134744538407 -0.053436389525557564
3.31425E9 0.00415974831796029 -0.05077216892988013 0.9958402516820399 0.05077216892988013 0.9958402516820399 0.05077216892988013 0.00415974831796029 -0.05077216892988013
3.389E9 0.003906872147395921 -0.04819053156066877 0.9960931278526041 0.04819053156066877 0.9960931278526041 0.04819053156066877 0.003906872147395921 -0.04819053156066877
3.46375E9 0.0036747058512188687 -0.045686271186456934 0.9963252941487812 0.045686271186456934 0.9963252941487812 0.045686271186456934 0.0036747058512188687 -0.045686271186456934
3.5385E9 0.003461634854368432 -0.043254606411573145 0.9965383651456315 0.043254606411573145 0.9965383651456315 0.043254606411573145 0.003461634854368432 -0.043254606411573145
3.61325E9 0.0032662079163578842 -0.04089113846012653 0.9967337920836422 0.04089113846012653 0.9967337920836422 0.04089113846012653 0.0032662079163578842 -0.04089113846012653
3.688E9 0.003087117763609001 -0.03859181385861087 0.9969128822363909 0.03859181385861087 0.9969128822363909 0.03859181385861087 0.003087117763609001 -0.03859181385861087
3.76275E9 0.0029231843464457984 -0.03635289137153102 0.997076815653554 0.03635289137153102 0.997076815653554 0.03635289137153102 0.0029231843464457984 -0.03635289137153102
3.8375E9 0.002773340322726148 -0.03417091263910755 0.9972266596772739 0.03417091263910755 0.9972266596772739 0.03417091263910755 0.002773340322726148 -0.03417091263910755
3.91225E9 0.002636618436610099 -0.032042676045575355 0.99736338156339 0.032042676045575355 0.99736338156339 0.032042676045575355 0.002636618436610099 -0.032042676045575355
3.987E9 0.002512140515378792 -0.029965213413491565 0.9974878594846212 0.029965213413491565 0.9974878594846212 0.029965213413491565 0.002512140515378792 -0.029965213413491565
4.06175E9 0.0023991078519034112 -0.027935769175956884 0.9976008921480966 0.027935769175956884 0.9976008921480966 0.027935769175956884 0.0023991078519034112 -0.027935769175956884
4.1365E9 0.0022967927771965773 -0.02595178172648849 0.9977032072228035 0.02595178172648849 0.9977032072228035 0.02595178172648849 0.0022967927771965773 -0.02595178172648849
4.21125E9 0.0022045312579480267 -0.02401086668689492 0.997795468742052 0.02401086668689492 0.997795468742052 0.02401086668689492 0.0022045312579480267 -0.02401086668689492
4.286E9 0.0021217163792395027 -0.022110801868081797 0.9978782836207605 0.022110801868081797 0.9978782836207605 0.022110801868081797 0.0021217163792395027 -0.022110801868081797
4.36075E9 0.0020477925937000107 -0.02024951372822938 0.9979522074063001 0.02024951372822938 0.9979522074063001 0.02024951372822938 0.0020477925937000107 -0.02024951372822938
4.4355E9 0.001982250635965244 -0.018425065158039444 0.9980177493640349 0.018425065158039444 0.9980177493640349 0.018425065158039444 0.001982250635965244 -0.018425065158039444
4.51025E9 0.001924623016059405 -0.016635644444412918 0.9980753769839406 0.016635644444412918 0.9980753769839406 0.016635644444412918 0.001924623016059405 -0.016635644444412918
4.585E9 0.001874480017722022 -0.014879555282549655 0.9981255199822779 0.014879555282549655 0.9981255199822779 0.014879555282549655 0.001874480017722022 -0.014879555282549655
4.65975E9 0.001831426138161458 -0.01315520772251772 0.9981685738618385 0.01315520772251772 0.9981685738618385 0.01315520772251772 0.001831426138161458 -0.01315520772251772
4.7345E9 0.0017950969145606405 -0.011461109950210055 0.9982049030854395 0.011461109950210055 0.9982049030854395 0.011461109950210055 0.0017950969145606405 -0.011461109950210055
4.80925E9 0.0017651560901589514 -0.009795860814614015 0.998234843909841 0.009795860814614015 0.998234843909841 0.009795860814614015 0.0017651560901589514 -0.009795860814614015
4.884E9 0.001741293079108757 -0.008158143023738096 0.9982587069208911 0.008158143023738096 0.9982587069208911 0.008158143023738096 0.001741293079108757 -0.008158143023738096
4.95875E9 0.0017232206947380934 -0.006546716940597526 0.9982767793052622 0.006546716940597526 0.9982767793052622 0.006546716940597526 0.0017232206947380934 -0.006546716940597526
5.0335E9 0.001710673110493117 -0.00496041491855182 0.998289326889507 0.00496041491855182 0.998289326889507 0.00496041491855182 0.001710673110493117 -0.00496041491855182
5.10825E9 0.0017034040268098561 -0.003398136122175312 0.9982965959731903 0.003398136122175312 0.9982965959731903 0.003398136122175312 0.0017034040268098561 -0.003398136122175312
5.183E9 0.0017011850205780232 -0.0018588417858661681 0.998298814979422 0.0018588417858661681 0.998298814979422 0.0018588417858661681 0.0017011850205780232 -0.0018588417858661681
5.25775E9 0.0017038040567966682 -3.4155086767796814E-4 0.9982961959432031 3.4155086767796814E-4 0.9982961959432031 3.4155086767796814E-4 0.0017038040567966682 -3.4155086767796814E-4
5.3325E9 0.0017110641445541187 0.0011546639395083025 0.9982889358554459 -0.0011546639395083025 0.9982889358554459 -0.0011546639395083025 0.0017110641445541187 0.0011546639395083025
5.40725E9 0.0017227821216534377 0.002630679873278911 0.9982772178783464 -0.002630679873278911 0.9982772178783464 -0.002630679873278911 0.0017227821216534377 0.002630679873278911
5.482E9 0.0017387875541002055 0.0040873274736663474 0.9982612124458998 -0.0040873274736663474 0.9982612124458998 -0.0040873274736663474 0.0017387875541002055 0.0040873274736663474
5.55675E9 0.0017589217383143288 0.005525393688862858 0.9982410782616855 -0.005525393688862858 0.9982410782616855 -0.005525393688862858 0.0017589217383143288 0.005525393688862858
5.6315E9 0.0017830367953579323 0.006945624738918723 0.998216963204642 -0.006945624738918723 0.998216963204642 -0.006945624738918723 0.0017830367953579323 0.006945624738918723
5.70625E9 0.001810994847717428 0.008348728759197939 0.9981890051522828 -0.008348728759197939 0.9981890051522828 -0.008348728759197939 0.001810994847717428 0.008348728759197939
5.781E9 0.0018426672702656327 0.009735378243166042 0.9981573327297345 -0.009735378243166042 0.9981573327297345 -0.009735378243166042 0.0018426672702656327 0.009735378243166042
5.85575E9 0.0018779340079808715 0.011106212302133534 0.9981220659920191 -0.011106212302133534 0.9981220659920191 -0.011106212302133534 0.0018779340079808715 0.011106212302133534
5.9305E9 0.0019166829538333737 0.012461838757843681 0.9980833170461667 -0.012461838757843681 0.9980833170461667 -0.012461838757843681 0.0019166829538333737 0.012461838757843681
6.00525E9 0.001958809380980607 0.01380283608224743 0.9980411906190193 -0.01380283608224743 0.9980411906190193 -0.01380283608224743 0.001958809380980607 0.01380283608224743
6.08E9 0.002004215424056216 0.01512975519743135 0.9979957845759438 -0.01512975519743135 0.9979957845759438 -0.01512975519743135 0.002004215424056216 0.01512975519743135
6.15475E9 0.0020528096049035136 0.016443121147431582 0.9979471903950965 -0.016443121147431582 0.9979471903950965 -0.016443121147431582 0.0020528096049035136 0.016443121147431582
6.2295E9 0.0021045063986041904 0.017743434652569248 0.9978954936013957 -0.017743434652569248 0.9978954936013957 -0.017743434652569248 0.0021045063986041904 0.017743434652569248
6.30425E9 0.0021592258360943945 0.01903117355595467 0.9978407741639054 -0.01903117355595467 0.9978407741639054 -0.01903117355595467 0.0021592258360943945 0.01903117355595467
6.379E9 0.0022168931400513357 0.02030679417092681 0.9977831068599488 -0.02030679417092681 0.9977831068599488 -0.02030679417092681 0.0022168931400513357 0.02030679417092681
6.45375E9 0.002277438391080141 0.021570732537399728 0.99772256160892 -0.021570732537399728 0.99772256160892 -0.021570732537399728 0.002277438391080141 0.021570732537399728
6.5285E9 0.002340796221538766 0.02282340559437727 0.9976592037784614 -0.02282340559437727 0.9976592037784614 -0.02282340559437727 0.002340796221538766 0.02282340559437727
6.60325E9 0.0024069055346127495 0.024065212275255057 0.9975930944653872 -0.024065212275255057 0.9975930944653872 -0.024065212275255057 0.0024069055346127495 0.024065212275255057
6.678E9 0.002475709246496001 0.02529653453195281 0.997524290753504 -0.02529653453195281 0.997524290753504 -0.02529653453195281 0.002475709246496001 0.02529653453195281
6.75275E9 0.0025471540497520647 0.02651773829339967 0.9974528459502479 -0.02651773829339967 0.9974528459502479 -0.02651773829339967 0.0025471540497520647 0.02651773829339967
6.8275E9 0.0026211901961256698 0.027729174363425885 0.9973788098038743 -0.027729174363425885 0.9973788098038743 -0.027729174363425885 0.0026211901961256698 0.027729174363425885
6.90225E9 0.0026977712972495686 0.028931179262690697 0.9973022287027501 -0.028931179262690697 0.9973022287027501 -0.028931179262690697 0.0026977712972495686 0.028931179262690697
6.977E9 0.002776854141849187 0.030124076018893185 0.9972231458581509 -0.030124076018893185 0.9972231458581509 -0.030124076018893185 0.002776854141849187 0.030124076018893185
7.05175E9 0.00285839852818952 0.03130817490916652 0.9971416014718104 -0.03130817490916652 0.9971416014718104 -0.03130817490916652 0.00285839852818952 0.03130817490916652
7.1265E9 0.0029423671106369596 0.03248377415824288 0.997057632889363 -0.03248377415824288 0.997057632889363 -0.03248377415824288 0.0029423671106369596 0.03248377415824288
7.20125E9 0.0030287252593248822 0.03365116059569196 0.9969712747406752 -0.03365116059569196 0.9969712747406752 -0.03365116059569196 0.0030287252593248822 0.03365116059569196
7.276E9 0.0031174409320175135 0.034810610275279374 0.9968825590679824 -0.034810610275279374 0.9968825590679824 -0.034810610275279374 0.0031174409320175135 0.034810610275279374
7.35075E9 0.003208484557362938 0.03596238905925806 0.9967915154426369 -0.03596238905925806 0.9967915154426369 -0.03596238905925806 0.003208484557362938 0.03596238905925806
7.4255E9 0.003301828928814435 0.03710675317019452 0.9966981710711857 -0.03710675317019452 0.9966981710711857 -0.03710675317019452 0.003301828928814435 0.03710675317019452
7.50025E9 0.003397449108580644 0.038243949712740845 0.9966025508914192 -0.038243949712740845 0.9966025508914192 -0.038243949712740845 0.003397449108580644 0.038243949712740845
7.575E9 0.0034953223410402975 0.03937421716758984 0.9965046776589597 -0.03937421716758984 0.9965046776589597 -0.03937421716758984 0.0034953223410402975 0.03937421716758984
7.64975E9 0.003595427975127259 0.04049778585969309 0.9964045720248729 -0.04049778585969309 0.9964045720248729 -0.04049778585969309 0.003595427975127259 0.04049778585969309
7.7245E9 0.0036977473952574144 0.04161487840268144 0.9963022526047427 -0.04161487840268144 0.9963022526047427 -0.04161487840268144 0.0036977473952574144 0.04161487840268144
7.79925E9 0.0038022639604308635 0.04272571012129725 0.9961977360395692 -0.04272571012129725 0.9961977360395692 -0.04272571012129725 0.0038022639604308635 0.04272571012129725
7.874E9 0.003908962951202136 0.043830489453533926 0.9960910370487979 -0.043830489453533926 0.9960910370487979 -0.043830489453533926 0.003908962951202136 0.043830489453533926
7.94875E9 0.004017831524267856 0.044929418334072546 0.9959821684757318 -0.044929418334072546 0.9959821684757318 -0.044929418334072546 0.004017831524267856 0.044929418334072546
8.0235E9 0.004128858674476753 0.04602269256051429 0.9958711413255232 -0.04602269256051429 0.9958711413255232 -0.04602269256051429 0.004128858674476753 0.04602269256051429
8.09825E9 0.004242035204121028 0.04711050214382208 0.9957579647958789 -0.04711050214382208 0.9957579647958789 -0.04711050214382208 0.004242035204121028 0.04711050214382208
8.173E9 0.004357353699422268 0.048193031644313294 0.9956426463005777 -0.048193031644313294 0.9956426463005777 -0.048193031644313294 0.004357353699422268 0.048193031644313294
8.24775E9 0.004474808514179247 0.04927046049447884 0.9955251914858209 -0.04927046049447884 0.9955251914858209 -0.04927046049447884 0.004474808514179247 0.04927046049447884
8.3225E9 0.0045943957606004145 0.05034296330984833 0.9954056042393997 -0.05034296330984833 0.9954056042393997 -0.05034296330984833 0.0045943957606004145 0.05034296330984833
8.39725E9 0.004716113307400891 0.05141071018907278 0.995283886692599 -0.05141071018907278 0.995283886692599 -0.05141071018907278 0.004716113307400891 0.05141071018907278
8.472E9 0.0048399607853032815 0.05247386700435492 0.9951600392146966 -0.05247386700435492 0.9951600392146966 -0.05247386700435492 0.0048399607853032815 0.05247386700435492
8.54675E9 0.004965939600144538 0.05353259568332474 0.9950340603998553 -0.05353259568332474 0.9950340603998553 -0.05353259568332474 0.004965939600144538 0.05353259568332474
