!Murata Part Number: GJM0225C1E7R8BB01
!These Parameters are Measured in Series Mode Connection
!       o--ll--o
!Port1            Port2
!       o------o
!Operation Temp=25[degC], DC Bias Voltage=0[V]
!Freq. Start=100[MHz] Stop=30[GHz], 401[Steps]
!Data Generated on Feb 1, 2023
# Hz S RI R 50
!Freq.(Hz) S11(Real) S11(Imag) S21(Real) S21(Imag) S12(Real) S12(Imag) S22(Real) S22(Imag)
1.0E8 0.8060583974722924 -0.39516288414341594 0.19394160252770765 0.39516288414341594 0.19394160252770765 0.39516288414341594 0.8060583974722924 -0.39516288414341594
1.7475E8 0.5760312953115199 -0.49379852435900734 0.4239687046884801 0.49379852435900734 0.4239687046884801 0.49379852435900734 0.5760312953115199 -0.49379852435900734
2.495E8 0.3993046841155769 -0.48920073237929346 0.6006953158844233 0.48920073237929346 0.6006953158844233 0.48920073237929346 0.3993046841155769 -0.48920073237929346
3.2425E8 0.2816952022632337 -0.44910040608284596 0.7183047977367664 0.44910040608284596 0.7183047977367664 0.44910040608284596 0.2816952022632337 -0.44910040608284596
3.99E8 0.2049752523616416 -0.40278480037554637 0.7950247476383584 0.40278480037554637 0.7950247476383584 0.40278480037554637 0.2049752523616416 -0.40278480037554637
4.7375E8 0.15389576290564705 -0.35977247465347756 0.846104237094353 0.35977247465347756 0.846104237094353 0.35977247465347756 0.15389576290564705 -0.35977247465347756
5.485E8 0.11881015693127307 -0.32230635118644196 0.8811898430687268 0.32230635118644196 0.8811898430687268 0.32230635118644196 0.11881015693127307 -0.32230635118644196
6.2325E8 0.09393214931510085 -0.2902878823435649 0.906067850684899 0.2902878823435649 0.906067850684899 0.2902878823435649 0.09393214931510085 -0.2902878823435649
6.98E8 0.07576986869224728 -0.2629891558628908 0.9242301313077528 0.2629891558628908 0.9242301313077528 0.2629891558628908 0.07576986869224728 -0.2629891558628908
7.7275E8 0.062163864044877296 -0.239611639063586 0.9378361359551227 0.239611639063586 0.9378361359551227 0.239611639063586 0.062163864044877296 -0.239611639063586
8.475E8 0.05173887181407689 -0.21944948613994145 0.948261128185923 0.21944948613994145 0.948261128185923 0.21944948613994145 0.05173887181407689 -0.21944948613994145
9.2225E8 0.043592951223705434 -0.20192084180753625 0.9564070487762946 0.20192084180753625 0.9564070487762946 0.20192084180753625 0.043592951223705434 -0.20192084180753625
9.97E8 0.03711805673368242 -0.18655812811398265 0.9628819432663174 0.18655812811398265 0.9628819432663174 0.18655812811398265 0.03711805673368242 -0.18655812811398265
1.07175E9 0.03189381121210105 -0.17298844148905673 0.9681061887878989 0.17298844148905673 0.9681061887878989 0.17298844148905673 0.03189381121210105 -0.17298844148905673
1.1465E9 0.027622879675367133 -0.16091420491901454 0.972377120324633 0.16091420491901454 0.972377120324633 0.16091420491901454 0.027622879675367133 -0.16091420491901454
1.22125E9 0.024090587128974557 -0.15009686963739274 0.9759094128710252 0.15009686963739274 0.9759094128710252 0.15009686963739274 0.024090587128974557 -0.15009686963739274
1.296E9 0.021139040106808213 -0.14034397067993717 0.9788609598931919 0.14034397067993717 0.9788609598931919 0.14034397067993717 0.021139040106808213 -0.14034397067993717
1.37075E9 0.018650149117036347 -0.131499091160954 0.9813498508829634 0.131499091160954 0.9813498508829634 0.131499091160954 0.018650149117036347 -0.131499091160954
1.4455E9 0.016534247183707287 -0.12343414947683645 0.9834657528162927 0.12343414947683645 0.9834657528162927 0.12343414947683645 0.016534247183707287 -0.12343414947683645
1.52025E9 0.01472230699623714 -0.11604347837064448 0.9852776930037629 0.11604347837064448 0.9852776930037629 0.11604347837064448 0.01472230699623714 -0.11604347837064448
1.595E9 0.013160521083291837 -0.10923926630157804 0.9868394789167083 0.10923926630157804 0.9868394789167083 0.10923926630157804 0.013160521083291837 -0.10923926630157804
1.66975E9 0.011806463955122144 -0.10294802978520035 0.9881935360448776 0.10294802978520035 0.9881935360448776 0.10294802978520035 0.011806463955122144 -0.10294802978520035
1.7445E9 0.010626332397533578 -0.09710786647764744 0.9893736676024665 0.09710786647764744 0.9893736676024665 0.09710786647764744 0.010626332397533578 -0.09710786647764744
1.81925E9 0.009592932768819966 -0.09166630163538403 0.9904070672311799 0.09166630163538403 0.9904070672311799 0.09166630163538403 0.009592932768819966 -0.09166630163538403
1.894E9 0.008684193812138018 -0.08657858791004354 0.991315806187862 0.08657858791004354 0.991315806187862 0.08657858791004354 0.008684193812138018 -0.08657858791004354
1.96875E9 0.007882054423078808 -0.08180635361311567 0.992117945576921 0.08180635361311567 0.992117945576921 0.08180635361311567 0.007882054423078808 -0.08180635361311567
2.0435E9 0.007171622474004702 -0.07731652060656531 0.9928283775259953 0.07731652060656531 0.9928283775259953 0.07731652060656531 0.007171622474004702 -0.07731652060656531
2.11825E9 0.006540531985736027 -0.07308043222506175 0.9934594680142641 0.07308043222506175 0.9934594680142641 0.07308043222506175 0.006540531985736027 -0.07308043222506175
2.193E9 0.005978447095187141 -0.06907314591456618 0.9940215529048129 0.06907314591456618 0.9940215529048129 0.06907314591456618 0.005978447095187141 -0.06907314591456618
2.26775E9 0.00547667582078 -0.06527285591025925 0.9945233241792201 0.06527285591025925 0.9945233241792201 0.06527285591025925 0.00547667582078 -0.06527285591025925
2.3425E9 0.005027866768153059 -0.061660419244768984 0.9949721332318471 0.061660419244768984 0.9949721332318471 0.061660419244768984 0.005027866768153059 -0.061660419244768984
2.41725E9 0.004625769070955759 -0.058218964380731625 0.9953742309290442 0.058218964380731625 0.9953742309290442 0.058218964380731625 0.004625769070955759 -0.058218964380731625
2.492E9 0.004265040963785853 -0.054933566312323774 0.9957349590362143 0.054933566312323774 0.9957349590362143 0.054933566312323774 0.004265040963785853 -0.054933566312323774
2.56675E9 0.0039410960632945725 -0.051790975451634115 0.9960589039367053 0.051790975451634115 0.9960589039367053 0.051790975451634115 0.0039410960632945725 -0.051790975451634115
2.6415E9 0.0036499791130106766 -0.048779390280244646 0.9963500208869892 0.048779390280244646 0.9963500208869892 0.048779390280244646 0.0036499791130106766 -0.048779390280244646
2.71625E9 0.0033882649176194355 -0.04588826580434025 0.9966117350823807 0.04588826580434025 0.9966117350823807 0.04588826580434025 0.0033882649176194355 -0.04588826580434025
2.791E9 0.0031529756540740242 -0.04310815145080081 0.996847024345926 0.04310815145080081 0.996847024345926 0.04310815145080081 0.0031529756540740242 -0.04310815145080081
2.86575E9 0.002941512840484799 -0.04043055329170629 0.9970584871595154 0.04043055329170629 0.9970584871595154 0.04043055329170629 0.002941512840484799 -0.04043055329170629
2.9405E9 0.0027516010684858947 -0.03784781646735625 0.9972483989315141 0.03784781646735625 0.9972483989315141 0.03784781646735625 0.0027516010684858947 -0.03784781646735625
3.01525E9 0.002581241231529447 -0.03535302445473879 0.9974187587684706 0.03535302445473879 0.9974187587684706 0.03535302445473879 0.002581241231529447 -0.03535302445473879
3.09E9 0.002428671461277831 -0.0329399124457917 0.9975713285387224 0.0329399124457917 0.9975713285387224 0.0329399124457917 0.002428671461277831 -0.0329399124457917
3.16475E9 0.0022923343539639728 -0.030602792593054033 0.997707665646036 0.030602792593054033 0.997707665646036 0.030602792593054033 0.0022923343539639728 -0.030602792593054033
3.2395E9 0.0021708493553583143 -0.028336489276338712 0.9978291506446416 0.028336489276338712 0.9978291506446416 0.028336489276338712 0.0021708493553583143 -0.028336489276338712
3.31425E9 0.002062989396803237 -0.02613628286356466 0.9979370106031966 0.02613628286356466 0.9979370106031966 0.02613628286356466 0.002062989396803237 -0.02613628286356466
3.389E9 0.0019676610505024064 -0.02399786069785359 0.9980323389494976 0.02399786069785359 0.9980323389494976 0.02399786069785359 0.0019676610505024064 -0.02399786069785359
3.46375E9 0.0018838876109983816 -0.021917274253829735 0.9981161123890016 0.021917274253829735 0.9981161123890016 0.021917274253829735 0.0018838876109983816 -0.021917274253829735
3.5385E9 0.0018107946199108394 -0.019890901578447504 0.9981892053800892 0.019890901578447504 0.9981892053800892 0.019890901578447504 0.0018107946199108394 -0.019890901578447504
3.61325E9 0.0017475974388899743 -0.01791541427320571 0.9982524025611103 0.01791541427320571 0.9982524025611103 0.01791541427320571 0.0017475974388899743 -0.01791541427320571
3.688E9 0.0016935905462096325 -0.015987748391275602 0.9983064094537901 0.015987748391275602 0.9983064094537901 0.015987748391275602 0.0016935905462096325 -0.015987748391275602
3.76275E9 0.0016481382892006456 -0.014105078719610399 0.9983518617107993 0.014105078719610399 0.9983518617107993 0.014105078719610399 0.0016481382892006456 -0.014105078719610399
3.8375E9 0.0016106668706758244 -0.012264795996285908 0.998389333129324 0.012264795996285908 0.998389333129324 0.012264795996285908 0.0016106668706758244 -0.012264795996285908
3.91225E9 0.0015806573848509637 -0.010464486680156065 0.9984193426151491 0.010464486680156065 0.9984193426151491 0.010464486680156065 0.0015806573848509637 -0.010464486680156065
3.987E9 0.0015576397487572413 -0.008701914945807332 0.9984423602512426 0.008701914945807332 0.9984423602512426 0.008701914945807332 0.0015576397487572413 -0.008701914945807332
4.06175E9 0.0015411874001309916 -0.006975006623706611 0.9984588125998689 0.006975006623706611 0.9984588125998689 0.006975006623706611 0.0015411874001309916 -0.006975006623706611
4.1365E9 0.0015309126533289647 -0.005281834844931996 0.998469087346671 0.005281834844931996 0.998469087346671 0.005281834844931996 0.0015309126533289647 -0.005281834844931996
4.21125E9 0.0015264626217991672 -0.0036206071832290175 0.998473537378201 0.0036206071832290175 0.998473537378201 0.0036206071832290175 0.0015264626217991672 -0.0036206071832290175
4.286E9 0.001527515629713279 -0.0019896541153875094 0.9984724843702865 0.0019896541153875094 0.9984724843702865 0.0019896541153875094 0.001527515629713279 -0.0019896541153875094
4.36075E9 0.001533778047074655 -3.874186449349686E-4 0.9984662219529253 3.874186449349686E-4 0.9984662219529253 3.874186449349686E-4 0.001533778047074655 -3.874186449349686E-4
4.4355E9 0.0015449814923870551 0.001187553045410648 0.9984550185076129 -0.001187553045410648 0.9984550185076129 -0.001187553045410648 0.0015449814923870551 0.001187553045410648
4.51025E9 0.0015608803551507653 0.002736620029619721 0.9984391196448491 -0.002736620029619721 0.9984391196448491 -0.002736620029619721 0.0015608803551507653 0.002736620029619721
4.585E9 0.0015812495973245764 0.004261054264692326 0.9984187504026755 -0.004261054264692326 0.9984187504026755 -0.004261054264692326 0.0015812495973245764 0.004261054264692326
4.65975E9 0.001605882798681719 0.005762047496747723 0.9983941172013183 -0.005762047496747723 0.9983941172013183 -0.005762047496747723 0.001605882798681719 0.005762047496747723
4.7345E9 0.0016345904158799498 0.007240717525090185 0.9983654095841201 -0.007240717525090185 0.9983654095841201 -0.007240717525090185 0.0016345904158799498 0.007240717525090185
4.80925E9 0.0016671982292115741 0.008698113892937556 0.9983328017707886 -0.008698113892937556 0.9983328017707886 -0.008698113892937556 0.0016671982292115741 0.008698113892937556
4.884E9 0.0017035459545219715 0.01013522306524766 0.9982964540454777 -0.01013522306524766 0.9982964540454777 -0.01013522306524766 0.0017035459545219715 0.01013522306524766
4.95875E9 0.0017434860007866882 0.011552973146923716 0.9982565139992132 -0.011552973146923716 0.9982565139992132 -0.011552973146923716 0.0017434860007866882 0.011552973146923716
5.0335E9 0.0017868823564013228 0.012952238188466992 0.9982131176435988 -0.012952238188466992 0.9982131176435988 -0.012952238188466992 0.0017868823564013228 0.012952238188466992
5.10825E9 0.0018336095894344248 0.01433384212073375 0.9981663904105655 -0.01433384212073375 0.9981663904105655 -0.01433384212073375 0.0018336095894344248 0.01433384212073375
5.183E9 0.0018835519489791065 0.015698562355735718 0.998116448051021 -0.015698562355735718 0.998116448051021 -0.015698562355735718 0.0018835519489791065 0.015698562355735718
5.25775E9 0.0019366025563617468 0.017047133086297142 0.9980633974436383 -0.017047133086297142 0.9980633974436383 -0.017047133086297142 0.0019366025563617468 0.017047133086297142
5.3325E9 0.0019926626763660613 0.018380248313769807 0.9980073373236341 -0.018380248313769807 0.9980073373236341 -0.018380248313769807 0.0019926626763660613 0.018380248313769807
5.40725E9 0.0020516410598412616 0.01969856462983666 0.9979483589401585 -0.01969856462983666 0.9979483589401585 -0.01969856462983666 0.0020516410598412616 0.01969856462983666
5.482E9 0.0021134533501121298 0.02100270377564963 0.997886546649888 -0.02100270377564963 0.997886546649888 -0.02100270377564963 0.0021134533501121298 0.02100270377564963
5.55675E9 0.0021780215465200797 0.022293254999092772 0.99782197845348 -0.022293254999092772 0.99782197845348 -0.022293254999092772 0.0021780215465200797 0.022293254999092772
5.6315E9 0.0022452735192176414 0.023570777228799175 0.9977547264807822 -0.023570777228799175 0.9977547264807822 -0.023570777228799175 0.0022452735192176414 0.023570777228799175
5.70625E9 0.002315142570031043 0.024835801081637496 0.9976848574299688 -0.024835801081637496 0.9976848574299688 -0.024835801081637496 0.002315142570031043 0.024835801081637496
5.781E9 0.0023875670348110123 0.026088830718693726 0.9976124329651891 -0.026088830718693726 0.9976124329651891 -0.026088830718693726 0.0023875670348110123 0.026088830718693726
5.85575E9 0.002462489923222577 0.0273303455632739 0.9975375100767773 -0.0273303455632739 0.9975375100767773 -0.0273303455632739 0.002462489923222577 0.0273303455632739
5.9305E9 0.002539858592391087 0.02856080189312537 0.9974601414076091 -0.02856080189312537 0.9974601414076091 -0.02856080189312537 0.002539858592391087 0.02856080189312537
6.00525E9 0.0026196244512323827 0.02978063431789083 0.9973803755487676 -0.02978063431789083 0.9973803755487676 -0.02978063431789083 0.0026196244512323827 0.02978063431789083
6.08E9 0.0027017426926580217 0.03099025715176032 0.997298257307342 -0.03099025715176032 0.997298257307342 -0.03099025715176032 0.0027017426926580217 0.03099025715176032
6.15475E9 0.0027861720511678074 0.03219006569034867 0.9972138279488321 -0.03219006569034867 0.9972138279488321 -0.03219006569034867 0.0027861720511678074 0.03219006569034867
6.2295E9 0.002872874583627622 0.03338043739999326 0.9971271254163724 -0.03338043739999326 0.9971271254163724 -0.03338043739999326 0.002872874583627622 0.03338043739999326
6.30425E9 0.0029618154712851043 0.03456173302692089 0.9970381845287148 -0.03456173302692089 0.9970381845287148 -0.03456173302692089 0.0029618154712851043 0.03456173302692089
6.379E9 0.003052962841303868 0.03573429763306985 0.9969470371586961 -0.03573429763306985 0.9969470371586961 -0.03573429763306985 0.003052962841303868 0.03573429763306985
6.45375E9 0.003146287606301805 0.03689846156475792 0.9968537123936982 -0.03689846156475792 0.9968537123936982 -0.03689846156475792 0.003146287606301805 0.03689846156475792
6.5285E9 0.00324176332056441 0.03805454135985818 0.9967582366794354 -0.03805454135985818 0.9967582366794354 -0.03805454135985818 0.00324176332056441 0.03805454135985818
6.60325E9 0.0033393660517723194 0.03920284059866979 0.9966606339482279 -0.03920284059866979 0.9966606339482279 -0.03920284059866979 0.0033393660517723194 0.03920284059866979
6.678E9 0.0034390742672364555 0.04034365070324778 0.9965609257327637 -0.04034365070324778 0.9965609257327637 -0.04034365070324778 0.0034390742672364555 0.04034365070324778
6.75275E9 0.0035408687337762784 0.041477251689579483 0.9964591312662237 -0.041477251689579483 0.9964591312662237 -0.041477251689579483 0.0035408687337762784 0.041477251689579483
6.8275E9 0.00364473243050883 0.04260391287665661 0.9963552675694912 -0.04260391287665661 0.9963552675694912 -0.04260391287665661 0.00364473243050883 0.04260391287665661
6.90225E9 0.0037506504739406956 0.043723893556195007 0.9962493495260591 -0.043723893556195007 0.9962493495260591 -0.043723893556195007 0.0037506504739406956 0.043723893556195007
6.977E9 0.003858610054873212 0.044837443626487415 0.9961413899451266 -0.044837443626487415 0.9961413899451266 -0.044837443626487415 0.003858610054873212 0.044837443626487415
7.05175E9 0.003968600386745135 0.04594480419364051 0.9960313996132548 -0.04594480419364051 0.9960313996132548 -0.04594480419364051 0.003968600386745135 0.04594480419364051
7.1265E9 0.004080612665148366 0.04704620814324268 0.9959193873348516 -0.04704620814324268 0.9959193873348516 -0.04704620814324268 0.004080612665148366 0.04704620814324268
7.20125E9 0.00419464003836258 0.048141880685329104 0.9958053599616373 -0.048141880685329104 0.9958053599616373 -0.048141880685329104 0.00419464003836258 0.048141880685329104
7.276E9 0.004310677588865827 0.049232039875356716 0.995689322411134 -0.049232039875356716 0.995689322411134 -0.049232039875356716 0.004310677588865827 0.049232039875356716
7.35075E9 0.004428722325891883 0.050316897113771186 0.9955712776741082 -0.050316897113771186 0.9955712776741082 -0.050316897113771186 0.004428722325891883 0.050316897113771186
7.4255E9 0.004548773189223455 0.05139665762663961 0.9954512268107765 -0.05139665762663961 0.9954512268107765 -0.05139665762663961 0.004548773189223455 0.05139665762663961
7.50025E9 0.00467083106453523 0.05247152092973621 0.9953291689354649 -0.05247152092973621 0.9953291689354649 -0.05247152092973621 0.00467083106453523 0.05247152092973621
7.575E9 0.0047948988107344975 0.053541681278402475 0.9952051011892654 -0.053541681278402475 0.9952051011892654 -0.053541681278402475 0.0047948988107344975 0.053541681278402475
7.64975E9 0.0049209812998924525 0.0546073281054588 0.9950790187001076 -0.0546073281054588 0.9950790187001076 -0.0546073281054588 0.0049209812998924525 0.0546073281054588
7.7245E9 0.005049085470519085 0.05566864644942264 0.9949509145294807 -0.05566864644942264 0.9949509145294807 -0.05566864644942264 0.005049085470519085 0.05566864644942264
7.79925E9 0.005179220395112031 0.05672581737528437 0.9948207796048881 -0.05672581737528437 0.9948207796048881 -0.05672581737528437 0.005179220395112031 0.05672581737528437
7.874E9 0.005311397363109433 0.05777901839011454 0.9946886026368906 -0.05777901839011454 0.9946886026368906 -0.05777901839011454 0.005311397363109433 0.05777901839011454
7.94875E9 0.005445629980602529 0.05882842385581919 0.9945543700193972 -0.05882842385581919 0.9945543700193972 -0.05882842385581919 0.005445629980602529 0.05882842385581919
8.0235E9 0.005581934288421833 0.059874205401429424 0.9944180657115781 -0.059874205401429424 0.9944180657115781 -0.059874205401429424 0.005581934288421833 0.059874205401429424
8.09825E9 0.005720328900506875 0.060916532337405724 0.994279671099493 -0.060916532337405724 0.994279671099493 -0.060916532337405724 0.005720328900506875 0.060916532337405724
8.173E9 0.0058608351648126574 0.06195557207456462 0.9941391648351873 -0.06195557207456462 0.9941391648351873 -0.06195557207456462 0.0058608351648126574 0.06195557207456462
8.24775E9 0.006003477349404061 0.06299149055038818 0.9939965226505959 -0.06299149055038818 0.9939965226505959 -0.06299149055038818 0.006003477349404061 0.06299149055038818
8.3225E9 0.006148282856855638 0.06402445266567185 0.9938517171431444 -0.06402445266567185 0.9938517171431444 -0.06402445266567185 0.006148282856855638 0.06402445266567185
8.39725E9 0.006295282470620696 0.06505462273469399 0.9937047175293793 -0.06505462273469399 0.9937047175293793 -0.06505462273469399 0.006295282470620696 0.06505462273469399
8.472E9 0.006444510637678425 0.06608216495236645 0.9935554893623216 -0.06608216495236645 0.9935554893623216 -0.06608216495236645 0.006444510637678425 0.06608216495236645
