!Murata Part Number: GJM0225C1E4R7BB01
!These Parameters are Measured in Series Mode Connection
!       o--ll--o
!Port1            Port2
!       o------o
!Operation Temp=25[degC], DC Bias Voltage=0[V]
!Freq. Start=100[MHz] Stop=30[GHz], 401[Steps]
!Data Generated on Feb 1, 2023
# Hz S RI R 50
!Freq.(Hz) S11(Real) S11(Imag) S21(Real) S21(Imag) S12(Real) S12(Imag) S22(Real) S22(Imag)
1.0E8 0.9196451595885012 -0.27162468706254944 0.0803548404114987 0.27162468706254944 0.0803548404114987 0.27162468706254944 0.9196451595885012 -0.27162468706254944
1.7475E8 0.7892192075105413 -0.4074834390898478 0.21078079248945852 0.4074834390898478 0.21078079248945852 0.4074834390898478 0.7892192075105413 -0.4074834390898478
2.495E8 0.6471584641378513 -0.47731136253162587 0.35284153586214867 0.47731136253162587 0.35284153586214867 0.47731136253162587 0.6471584641378513 -0.47731136253162587
3.2425E8 0.5201145376399957 -0.4988890183391178 0.47988546236000407 0.4988890183391178 0.47988546236000407 0.4988890183391178 0.5201145376399957 -0.4988890183391178
3.99E8 0.41657218846406413 -0.4921199392555836 0.5834278115359358 0.4921199392555836 0.5834278115359358 0.4921199392555836 0.41657218846406413 -0.4921199392555836
4.7375E8 0.3355301206538091 -0.47113915538507817 0.6644698793461907 0.47113915538507817 0.6644698793461907 0.47113915538507817 0.3355301206538091 -0.47113915538507817
5.485E8 0.2729346362603563 -0.4442644009818565 0.7270653637396436 0.4442644009818565 0.7270653637396436 0.4442644009818565 0.2729346362603563 -0.4442644009818565
6.2325E8 0.22455658155638195 -0.4159185452215197 0.7754434184436183 0.4159185452215197 0.7754434184436183 0.4159185452215197 0.22455658155638195 -0.4159185452215197
6.98E8 0.18688731539261488 -0.3882796370049735 0.8131126846073852 0.3882796370049735 0.8131126846073852 0.3882796370049735 0.18688731539261488 -0.3882796370049735
7.7275E8 0.1572461892443926 -0.3623194514874683 0.8427538107556074 0.3623194514874683 0.8427538107556074 0.3623194514874683 0.1572461892443926 -0.3623194514874683
8.475E8 0.13364937749062958 -0.33838796981585434 0.8663506225093703 0.33838796981585434 0.8663506225093703 0.33838796981585434 0.13364937749062958 -0.33838796981585434
9.2225E8 0.11464279387921304 -0.3165268317936967 0.8853572061207869 0.3165268317936967 0.8853572061207869 0.3165268317936967 0.11464279387921304 -0.3165268317936967
9.97E8 0.09915936665530799 -0.2966334929892874 0.9008406333446921 0.2966334929892874 0.9008406333446921 0.2966334929892874 0.09915936665530799 -0.2966334929892874
1.07175E9 0.08641083508220543 -0.2785457583180852 0.9135891649177947 0.2785457583180852 0.9135891649177947 0.2785457583180852 0.08641083508220543 -0.2785457583180852
1.1465E9 0.0758094683237614 -0.26208439233530867 0.9241905316762387 0.26208439233530867 0.9241905316762387 0.26208439233530867 0.0758094683237614 -0.26208439233530867
1.22125E9 0.06691243732905124 -0.24707378792313514 0.9330875626709486 0.24707378792313514 0.9330875626709486 0.24707378792313514 0.06691243732905124 -0.24707378792313514
1.296E9 0.05938245064647681 -0.2333512246700377 0.940617549353523 0.2333512246700377 0.940617549353523 0.2333512246700377 0.05938245064647681 -0.2333512246700377
1.37075E9 0.052959819991243134 -0.22077026903532207 0.9470401800087568 0.22077026903532207 0.9470401800087568 0.22077026903532207 0.052959819991243134 -0.22077026903532207
1.4455E9 0.04744250591163781 -0.2092012465467445 0.9525574940883622 0.2092012465467445 0.9525574940883622 0.2092012465467445 0.04744250591163781 -0.2092012465467445
1.52025E9 0.0426717414428066 -0.19853032987063915 0.9573282585571936 0.19853032987063915 0.9573282585571936 0.19853032987063915 0.0426717414428066 -0.19853032987063915
1.595E9 0.0385215754664415 -0.18865804955664564 0.9614784245335585 0.18865804955664564 0.9614784245335585 0.18865804955664564 0.0385215754664415 -0.18865804955664564
1.66975E9 0.034891191459088415 -0.1794976408828932 0.9651088085409115 0.1794976408828932 0.9651088085409115 0.1794976408828932 0.034891191459088415 -0.1794976408828932
1.7445E9 0.03169920872163166 -0.1709734301665859 0.9683007912783685 0.1709734301665859 0.9683007912783685 0.1709734301665859 0.03169920872163166 -0.1709734301665859
1.81925E9 0.02887941300963211 -0.1630193523324346 0.9711205869903677 0.1630193523324346 0.9711205869903677 0.1630193523324346 0.02887941300963211 -0.1630193523324346
1.894E9 0.026377527651252276 -0.15557763314238213 0.9736224723487475 0.15557763314238213 0.9736224723487475 0.15557763314238213 0.026377527651252276 -0.15557763314238213
1.96875E9 0.024148749265387175 -0.14859763986642543 0.9758512507346128 0.14859763986642543 0.9758512507346128 0.14859763986642543 0.024148749265387175 -0.14859763986642543
2.0435E9 0.022155850582591723 -0.14203489005362135 0.9778441494174085 0.14203489005362135 0.9778441494174085 0.14203489005362135 0.022155850582591723 -0.14203489005362135
2.11825E9 0.02036770768795922 -0.13585020220196806 0.979632292312041 0.13585020220196806 0.979632292312041 0.13585020220196806 0.02036770768795922 -0.13585020220196806
2.193E9 0.01875814767020712 -0.1300089705619872 0.9812418523297929 0.1300089705619872 0.9812418523297929 0.1300089705619872 0.01875814767020712 -0.1300089705619872
2.26775E9 0.01730504017495164 -0.12448054687721347 0.9826949598250483 0.12448054687721347 0.9826949598250483 0.12448054687721347 0.01730504017495164 -0.12448054687721347
2.3425E9 0.01598957611131665 -0.11923771339421639 0.9840104238886832 0.11923771339421639 0.9840104238886832 0.11923771339421639 0.01598957611131665 -0.11923771339421639
2.41725E9 0.014795691062804197 -0.11425623334337977 0.9852043089371958 0.11425623334337977 0.9852043089371958 0.11425623334337977 0.014795691062804197 -0.11425623334337977
2.492E9 0.013709601397007878 -0.10951446698107303 0.9862903986029922 0.10951446698107303 0.9862903986029922 0.10951446698107303 0.013709601397007878 -0.10951446698107303
2.56675E9 0.0127194287577725 -0.10499304304214126 0.9872805712422275 0.10499304304214126 0.9872805712422275 0.10499304304214126 0.0127194287577725 -0.10499304304214126
2.6415E9 0.011814894329349302 -0.10067457701683277 0.9881851056706509 0.10067457701683277 0.9881851056706509 0.10067457701683277 0.011814894329349302 -0.10067457701683277
2.71625E9 0.010987068528847871 -0.09654342902356888 0.9890129314711521 0.09654342902356888 0.9890129314711521 0.09654342902356888 0.010987068528847871 -0.09654342902356888
2.791E9 0.010228164997356962 -0.09258549520705538 0.989771835002643 0.09258549520705538 0.989771835002643 0.09258549520705538 0.010228164997356962 -0.09258549520705538
2.86575E9 0.009531370198344219 -0.0887880275693034 0.9904686298016555 0.0887880275693034 0.9904686298016555 0.0887880275693034 0.009531370198344219 -0.0887880275693034
2.9405E9 0.008890701794195249 -0.08513947796189086 0.9911092982058047 0.08513947796189086 0.9911092982058047 0.08513947796189086 0.008890701794195249 -0.08513947796189086
3.01525E9 0.008300890403352277 -0.08162936265388578 0.9916991095966478 0.08162936265388578 0.9916991095966478 0.08162936265388578 0.008300890403352277 -0.08162936265388578
3.09E9 0.007757280447934361 -0.07824814446216614 0.9922427195520656 0.07824814446216614 0.9922427195520656 0.07824814446216614 0.007757280447934361 -0.07824814446216614
3.16475E9 0.007255746663512315 -0.07498712990785752 0.9927442533364877 0.07498712990785752 0.9927442533364877 0.07498712990785752 0.007255746663512315 -0.07498712990785752
3.2395E9 0.0067926235172133574 -0.07183837926015392 0.9932073764827866 0.07183837926015392 0.9932073764827866 0.07183837926015392 0.0067926235172133574 -0.07183837926015392
3.31425E9 0.006364645311162153 -0.06879462766034578 0.9936353546888378 0.06879462766034578 0.9936353546888378 0.06879462766034578 0.006364645311162153 -0.06879462766034578
3.389E9 0.0059688951682427315 -0.06584921579571644 0.9940311048317575 0.06584921579571644 0.9940311048317575 0.06584921579571644 0.0059688951682427315 -0.06584921579571644
3.46375E9 0.005602761431131194 -0.06299602882446294 0.994397238568869 0.06299602882446294 0.994397238568869 0.06299602882446294 0.005602761431131194 -0.06299602882446294
3.5385E9 0.00526390027241667 -0.06022944244671357 0.9947360997275831 0.06022944244671357 0.9947360997275831 0.06022944244671357 0.00526390027241667 -0.06022944244671357
3.61325E9 0.004950203527880672 -0.057544275179465657 0.9950497964721196 0.057544275179465657 0.9950497964721196 0.057544275179465657 0.004950203527880672 -0.057544275179465657
3.688E9 0.0046597709377938605 -0.054935746030145415 0.9953402290622063 0.054935746030145415 0.9953402290622063 0.054935746030145415 0.0046597709377938605 -0.054935746030145415
3.76275E9 0.004390886121044864 -0.052399436878858945 0.9956091138789551 0.052399436878858945 0.9956091138789551 0.052399436878858945 0.004390886121044864 -0.052399436878858945
3.8375E9 0.004141995720751049 -0.04993125897685196 0.9958580042792489 0.04993125897685196 0.9958580042792489 0.04993125897685196 0.004141995720751049 -0.04993125897685196
3.91225E9 0.00391169125296504 -0.04752742305120163 0.9960883087470352 0.04752742305120163 0.9960883087470352 0.04752742305120163 0.00391169125296504 -0.04752742305120163
3.987E9 0.0036986932663042107 -0.04518441257577025 0.996301306733696 0.04518441257577025 0.996301306733696 0.04518441257577025 0.0036986932663042107 -0.04518441257577025
4.06175E9 0.0035018374830459165 -0.0428989598279909 0.9964981625169542 0.0428989598279909 0.9964981625169542 0.0428989598279909 0.0035018374830459165 -0.0428989598279909
4.1365E9 0.003320062644025495 -0.04066802440180628 0.9966799373559745 0.04066802440180628 0.9966799373559745 0.04066802440180628 0.003320062644025495 -0.04066802440180628
4.21125E9 0.003152399822598493 -0.038488773890442855 0.9968476001774015 0.038488773890442855 0.9968476001774015 0.038488773890442855 0.003152399822598493 -0.038488773890442855
4.286E9 0.002997963008621259 -0.03635856648982562 0.9970020369913787 0.03635856648982562 0.9970020369913787 0.03635856648982562 0.002997963008621259 -0.03635856648982562
4.36075E9 0.002855940793180472 -0.03427493530529904 0.9971440592068196 0.03427493530529904 0.9971440592068196 0.03427493530529904 0.002855940793180472 -0.03427493530529904
4.4355E9 0.002725589009720641 -0.03223557417171652 0.9972744109902794 0.03223557417171652 0.9972744109902794 0.03223557417171652 0.002725589009720641 -0.03223557417171652
4.51025E9 0.002606224208135275 -0.030238324820572458 0.9973937757918647 0.030238324820572458 0.9973937757918647 0.030238324820572458 0.002606224208135275 -0.030238324820572458
4.585E9 0.0024972178559966134 -0.02828116524824359 0.9975027821440033 0.02828116524824359 0.9975027821440033 0.02828116524824359 0.0024972178559966134 -0.02828116524824359
4.65975E9 0.0023979911759655437 -0.02636219915705307 0.9976020088240346 0.02636219915705307 0.9976020088240346 0.02636219915705307 0.0023979911759655437 -0.02636219915705307
4.7345E9 0.002308010541009554 -0.024479646356174087 0.9976919894589907 0.024479646356174087 0.9976919894589907 0.024479646356174087 0.002308010541009554 -0.024479646356174087
4.80925E9 0.0022267833597404228 -0.022631834022686342 0.9977732166402595 0.022631834022686342 0.9977732166402595 0.022631834022686342 0.0022267833597404228 -0.022631834022686342
4.884E9 0.0021538543932758517 -0.02081718873467331 0.9978461456067239 0.02081718873467331 0.9978461456067239 0.02081718873467331 0.0021538543932758517 -0.02081718873467331
4.95875E9 0.0020888024527870117 -0.019034229198345003 0.9979111975472131 0.019034229198345003 0.9979111975472131 0.019034229198345003 0.0020888024527870117 -0.019034229198345003
5.0335E9 0.002031237433528824 -0.017281559599992096 0.9979687625664712 0.017281559599992096 0.9979687625664712 0.017281559599992096 0.002031237433528824 -0.017281559599992096
5.10825E9 0.001980797646838007 -0.015557863521301117 0.9980192023531621 0.015557863521301117 0.9980192023531621 0.015557863521301117 0.001980797646838007 -0.015557863521301117
5.183E9 0.0019371474164713964 -0.013861898363332419 0.9980628525835286 0.013861898363332419 0.9980628525835286 0.013861898363332419 0.0019371474164713964 -0.013861898363332419
5.25775E9 0.0018999749098662462 -0.012192490230412635 0.9981000250901337 0.012192490230412635 0.9981000250901337 0.012192490230412635 0.0018999749098662462 -0.012192490230412635
5.3325E9 0.0018689901785368653 -0.010548529230428932 0.9981310098214633 0.010548529230428932 0.9981310098214633 0.010548529230428932 0.0018689901785368653 -0.010548529230428932
5.40725E9 0.001843923384963756 -0.008928965152627033 0.9981560766150365 0.008928965152627033 0.9981560766150365 0.008928965152627033 0.001843923384963756 -0.008928965152627033
5.482E9 0.0018245231960543442 -0.007332803488089575 0.9981754768039457 0.007332803488089575 0.9981754768039457 0.007332803488089575 0.0018245231960543442 -0.007332803488089575
5.55675E9 0.0018105553256187962 -0.005759101761673338 0.9981894446743813 0.005759101761673338 0.9981894446743813 0.005759101761673338 0.0018105553256187962 -0.005759101761673338
5.6315E9 0.0018018012103618135 -0.004206966147375583 0.9981981987896383 0.004206966147375583 0.9981981987896383 0.004206966147375583 0.0018018012103618135 -0.004206966147375583
5.70625E9 0.0017980568056846218 -0.002675548341928507 0.9982019431943153 0.002675548341928507 0.9982019431943153 0.002675548341928507 0.0017980568056846218 -0.002675548341928507
5.781E9 0.0017991314891576816 -0.0011640426739356069 0.9982008685108424 0.0011640426739356069 0.9982008685108424 0.0011640426739356069 0.0017991314891576816 -0.0011640426739356069
5.85575E9 0.0018048470608949877 3.283165719005062E-4 0.998195152939105 -3.283165719005062E-4 0.998195152939105 -3.283165719005062E-4 0.0018048470608949877 3.283165719005062E-4
5.9305E9 0.001815036831261906 0.0018022576339173629 0.9981849631687381 -0.0018022576339173629 0.9981849631687381 -0.0018022576339173629 0.001815036831261906 0.0018022576339173629
6.00525E9 0.0018295447874030239 0.0032584735726800414 0.9981704552125968 -0.0032584735726800414 0.9981704552125968 -0.0032584735726800414 0.0018295447874030239 0.0032584735726800414
6.08E9 0.0018482248310039018 0.004697624405311373 0.9981517751689961 -0.004697624405311373 0.9981517751689961 -0.004697624405311373 0.0018482248310039018 0.004697624405311373
6.15475E9 0.0018709400805175976 0.006120339088638752 0.9981290599194822 -0.006120339088638752 0.9981290599194822 -0.006120339088638752 0.0018709400805175976 0.006120339088638752
6.2295E9 0.0018975622318077037 0.007527217363561278 0.9981024377681923 -0.007527217363561278 0.9981024377681923 -0.007527217363561278 0.0018975622318077037 0.007527217363561278
6.30425E9 0.0019279709717966876 0.008918831471899763 0.9980720290282034 -0.008918831471899763 0.9980720290282034 -0.008918831471899763 0.0019279709717966876 0.008918831471899763
6.379E9 0.0019620534402722423 0.01029572775596932 0.9980379465597278 -0.01029572775596932 0.9980379465597278 -0.01029572775596932 0.0019620534402722423 0.01029572775596932
6.45375E9 0.001999703735504248 0.011658428150194087 0.9980002962644958 -0.011658428150194087 0.9980002962644958 -0.011658428150194087 0.001999703735504248 0.011658428150194087
6.5285E9 0.002040822459768772 0.013007431573255866 0.9979591775402313 -0.013007431573255866 0.9979591775402313 -0.013007431573255866 0.002040822459768772 0.013007431573255866
6.60325E9 0.0020853163012702547 0.01434321522852214 0.9979146836987297 -0.01434321522852214 0.9979146836987297 -0.01434321522852214 0.0020853163012702547 0.01434321522852214
6.678E9 0.002133097649304465 0.01566623581982737 0.9978669023506955 -0.01566623581982737 0.9978669023506955 -0.01566623581982737 0.002133097649304465 0.01566623581982737
6.75275E9 0.0021840842398183104 0.01697693068907301 0.9978159157601817 -0.01697693068907301 0.9978159157601817 -0.01697693068907301 0.0021840842398183104 0.01697693068907301
6.8275E9 0.002238198828802619 0.018275718881563565 0.9977618011711974 -0.018275718881563565 0.9977618011711974 -0.018275718881563565 0.002238198828802619 0.018275718881563565
6.90225E9 0.002295368891204506 0.01956300214449958 0.9977046311087954 -0.01956300214449958 0.9977046311087954 -0.01956300214449958 0.002295368891204506 0.01956300214449958
6.977E9 0.0023555263432703676 0.020839165863598148 0.9976444736567298 -0.020839165863598148 0.9976444736567298 -0.020839165863598148 0.0023555263432703676 0.020839165863598148
7.05175E9 0.0024186072864320306 0.022104579942405198 0.9975813927135679 -0.022104579942405198 0.9975813927135679 -0.022104579942405198 0.0024186072864320306 0.022104579942405198
7.1265E9 0.002484551771029592 0.023359599628493113 0.9975154482289704 -0.023359599628493113 0.9975154482289704 -0.023359599628493113 0.002484551771029592 0.023359599628493113
7.20125E9 0.002553303578327503 0.024604566290402342 0.9974466964216724 -0.024604566290402342 0.9974466964216724 -0.024604566290402342 0.002553303578327503 0.024604566290402342
7.276E9 0.0026248100194275477 0.02583980814888048 0.9973751899805725 -0.02583980814888048 0.9973751899805725 -0.02583980814888048 0.0026248100194275477 0.02583980814888048
7.35075E9 0.002699021749815211 0.027065640965695758 0.9973009782501846 -0.027065640965695758 0.9973009782501846 -0.027065640965695758 0.002699021749815211 0.027065640965695758
7.4255E9 0.0027758925983962634 0.028282368693048694 0.9972241074016037 -0.028282368693048694 0.9972241074016037 -0.028282368693048694 0.0027758925983962634 0.028282368693048694
7.50025E9 0.0028553794099895743 0.029490284086376883 0.9971446205900102 -0.029490284086376883 0.9971446205900102 -0.029490284086376883 0.0028553794099895743 0.029490284086376883
7.575E9 0.002937441900341558 0.030689669283139227 0.9970625580996585 -0.030689669283139227 0.9970625580996585 -0.030689669283139227 0.002937441900341558 0.030689669283139227
7.64975E9 0.0030220425228181342 0.03188079634997434 0.996977957477182 -0.03188079634997434 0.996977957477182 -0.03188079634997434 0.0030220425228181342 0.03188079634997434
7.7245E9 0.0031091463460130126 0.033063927800455334 0.9968908536539871 -0.033063927800455334 0.9968908536539871 -0.033063927800455334 0.0031091463460130126 0.033063927800455334
7.79925E9 0.0031987209415871264 0.03423931708550508 0.996801279058413 -0.03423931708550508 0.996801279058413 -0.03423931708550508 0.0031987209415871264 0.03423931708550508
7.874E9 0.0032907362817240133 0.03540720905839124 0.9967092637182761 -0.03540720905839124 0.9967092637182761 -0.03540720905839124 0.0032907362817240133 0.03540720905839124
7.94875E9 0.0033851646456506687 0.03656784041608973 0.9966148353543494 -0.03656784041608973 0.9966148353543494 -0.03656784041608973 0.0033851646456506687 0.03656784041608973
8.0235E9 0.003481980534733599 0.03772144011868598 0.9965180194652664 -0.03772144011868598 0.9965180194652664 -0.03772144011868598 0.003481980534733599 0.03772144011868598
8.09825E9 0.0035811605957157856 0.038868229788373336 0.9964188394042842 -0.038868229788373336 0.9964188394042842 -0.038868229788373336 0.0035811605957157856 0.038868229788373336
8.173E9 0.0036826835517131656 0.04000842408951104 0.9963173164482867 -0.04000842408951104 0.9963173164482867 -0.04000842408951104 0.0036826835517131656 0.04000842408951104
8.24775E9 0.003786530140638902 0.041142231091112876 0.9962134698593612 -0.041142231091112876 0.9962134698593612 -0.041142231091112876 0.003786530140638902 0.041142231091112876
8.3225E9 0.0038926830607712453 0.042269852613057206 0.9961073169392286 -0.042269852613057206 0.9961073169392286 -0.042269852613057206 0.0038926830607712453 0.042269852613057206
8.39725E9 0.00400112692322626 0.043391484557235696 0.9959988730767737 -0.043391484557235696 0.9959988730767737 -0.043391484557235696 0.00400112692322626 0.043391484557235696
8.472E9 0.004111848211140757 0.044507317224791745 0.9958881517888593 -0.044507317224791745 0.9958881517888593 -0.044507317224791745 0.004111848211140757 0.044507317224791745
8.54675E9 0.004224835245413853 0.04561753562054124 0.9957751647545859 -0.04561753562054124 0.9957751647545859 -0.04561753562054124 0.004224835245413853 0.04561753562054124
