!Murata Part Number: GJM0225C1E120GB01
!These Parameters are Measured in Series Mode Connection
!       o--ll--o
!Port1            Port2
!       o------o
!Operation Temp=25[degC], DC Bias Voltage=0[V]
!Freq. Start=100[MHz] Stop=30[GHz], 401[Steps]
!Data Generated on Feb 1, 2023
# Hz S RI R 50
!Freq.(Hz) S11(Real) S11(Imag) S21(Real) S21(Imag) S12(Real) S12(Imag) S22(Real) S22(Imag)
1.0E8 0.6370748148213257 -0.480535334716067 0.36292518517867434 0.480535334716067 0.36292518517867434 0.480535334716067 0.6370748148213257 -0.480535334716067
1.7475E8 0.3644114749790838 -0.48071735013329875 0.6355885250209161 0.48071735013329875 0.6355885250209161 0.48071735013329875 0.3644114749790838 -0.48071735013329875
2.495E8 0.21884686531551956 -0.41266425485356195 0.7811531346844806 0.41266425485356195 0.7811531346844806 0.41266425485356195 0.21884686531551956 -0.41266425485356195
3.2425E8 0.14164411218473189 -0.3476135215963779 0.858355887815268 0.3476135215963779 0.858355887815268 0.3476135215963779 0.14164411218473189 -0.3476135215963779
3.99E8 0.09770760110801369 -0.295555402514634 0.9022923988919863 0.295555402514634 0.9022923988919863 0.295555402514634 0.09770760110801369 -0.295555402514634
4.7375E8 0.07084110126077553 -0.2548801533123498 0.9291588987392244 0.2548801533123498 0.9291588987392244 0.2548801533123498 0.07084110126077553 -0.2548801533123498
5.485E8 0.05338892469238167 -0.22278872853778675 0.9466110753076183 0.22278872853778675 0.9466110753076183 0.22278872853778675 0.05338892469238167 -0.22278872853778675
6.2325E8 0.04148192557270885 -0.19701826122787072 0.9585180744272911 0.19701826122787072 0.9585180744272911 0.19701826122787072 0.04148192557270885 -0.19701826122787072
6.98E8 0.03302814009761659 -0.17593699614212313 0.9669718599023833 0.17593699614212313 0.9669718599023833 0.17593699614212313 0.03302814009761659 -0.17593699614212313
7.7275E8 0.026827032514121257 -0.158391177367106 0.9731729674858789 0.158391177367106 0.9731729674858789 0.158391177367106 0.026827032514121257 -0.158391177367106
8.475E8 0.022153634470803554 -0.14355939860411918 0.9778463655291966 0.14355939860411918 0.9778463655291966 0.14355939860411918 0.022153634470803554 -0.14355939860411918
9.2225E8 0.018550787389723808 -0.13084784677470493 0.9814492126102762 0.13084784677470493 0.9814492126102762 0.13084784677470493 0.018550787389723808 -0.13084784677470493
9.97E8 0.015719365737728537 -0.11981962961502195 0.9842806342622715 0.11981962961502195 0.9842806342622715 0.11981962961502195 0.015719365737728537 -0.11981962961502195
1.07175E9 0.013457340483006367 -0.11014762793365383 0.9865426595169935 0.11014762793365383 0.9865426595169935 0.11014762793365383 0.013457340483006367 -0.11014762793365383
1.1465E9 0.011624463816534107 -0.10158282195122267 0.988375536183466 0.10158282195122267 0.988375536183466 0.10158282195122267 0.011624463816534107 -0.10158282195122267
1.22125E9 0.010121016106640006 -0.09393271731298042 0.98987898389336 0.09393271731298042 0.98987898389336 0.09393271731298042 0.010121016106640006 -0.09393271731298042
1.296E9 0.008874585117449887 -0.08704641072387721 0.9911254148825499 0.08704641072387721 0.9911254148825499 0.08704641072387721 0.008874585117449887 -0.08704641072387721
1.37075E9 0.007831598023885273 -0.08080407866021022 0.9921684019761148 0.08080407866021022 0.9921684019761148 0.08080407866021022 0.007831598023885273 -0.08080407866021022
1.4455E9 0.006951755215143705 -0.07510945855362901 0.9930482447848561 0.07510945855362901 0.9930482447848561 0.07510945855362901 0.006951755215143705 -0.07510945855362901
1.52025E9 0.006204285940624142 -0.06988438726345328 0.9937957140593761 0.06988438726345328 0.9937957140593761 0.06988438726345328 0.006204285940624142 -0.06988438726345328
1.595E9 0.005565376738037137 -0.06506477636495094 0.994434623261963 0.06506477636495094 0.994434623261963 0.06506477636495094 0.005565376738037137 -0.06506477636495094
1.66975E9 0.005016372000531471 -0.060597606179623224 0.9949836279994686 0.060597606179623224 0.9949836279994686 0.060597606179623224 0.005016372000531471 -0.060597606179623224
1.7445E9 0.004542493349227948 -0.05643865251081184 0.995457506650772 0.05643865251081184 0.995457506650772 0.05643865251081184 0.004542493349227948 -0.05643865251081184
1.81925E9 0.004131914088127507 -0.05255074747516376 0.9958680859118725 0.05255074747516376 0.9958680859118725 0.05255074747516376 0.004131914088127507 -0.05255074747516376
1.894E9 0.003775080808582903 -0.04890243457303623 0.9962249191914171 0.04890243457303623 0.9962249191914171 0.04890243457303623 0.003775080808582903 -0.04890243457303623
1.96875E9 0.0034642096871355457 -0.045466918195543424 0.9965357903128644 0.045466918195543424 0.9965357903128644 0.045466918195543424 0.0034642096871355457 -0.045466918195543424
2.0435E9 0.0031929080207518095 -0.042221235452162914 0.9968070919792482 0.042221235452162914 0.9968070919792482 0.042221235452162914 0.0031929080207518095 -0.042221235452162914
2.11825E9 0.0029558867224038065 -0.039145597592265914 0.9970441132775961 0.039145597592265914 0.9970441132775961 0.039145597592265914 0.0029558867224038065 -0.039145597592265914
2.193E9 0.0027487396825316467 -0.036222862042373336 0.9972512603174682 0.036222862042373336 0.9972512603174682 0.036222862042373336 0.0027487396825316467 -0.036222862042373336
2.26775E9 0.002567772836896342 -0.03343810594435097 0.9974322271631036 0.03343810594435097 0.9974322271631036 0.03343810594435097 0.002567772836896342 -0.03343810594435097
2.3425E9 0.0024098705711378013 -0.03077827923454471 0.9975901294288625 0.03077827923454471 0.9975901294288625 0.03077827923454471 0.0024098705711378013 -0.03077827923454471
2.41725E9 0.0022723904439133817 -0.028231920548162988 0.9977276095560867 0.028231920548162988 0.9977276095560867 0.028231920548162988 0.0022723904439133817 -0.028231920548162988
2.492E9 0.0021530795843033726 -0.025788923115096923 0.9978469204156966 0.025788923115096923 0.9978469204156966 0.025788923115096923 0.0021530795843033726 -0.025788923115096923
2.56675E9 0.0020500078196328373 -0.023440340713510668 0.9979499921803671 0.023440340713510668 0.9979499921803671 0.023440340713510668 0.0020500078196328373 -0.023440340713510668
2.6415E9 0.001961513820968048 -0.02117822593325347 0.9980384861790318 0.02117822593325347 0.9980384861790318 0.02117822593325347 0.001961513820968048 -0.02117822593325347
2.71625E9 0.0018861614537671772 -0.018995494662101438 0.9981138385462329 0.018995494662101438 0.9981138385462329 0.018995494662101438 0.0018861614537671772 -0.018995494662101438
2.791E9 0.0018227041856229062 -0.01688581197993058 0.998177295814377 0.01688581197993058 0.998177295814377 0.01688581197993058 0.0018227041856229062 -0.01688581197993058
2.86575E9 0.0017700558978183192 -0.014843495627434897 0.9982299441021818 0.014843495627434897 0.9982299441021818 0.014843495627434897 0.0017700558978183192 -0.014843495627434897
2.9405E9 0.0017272668189333483 -0.012863433978649029 0.9982727331810665 0.012863433978649029 0.9982727331810665 0.012863433978649029 0.0017272668189333483 -0.012863433978649029
3.01525E9 0.0016935035799008182 -0.010941016043082353 0.998306496420099 0.010941016043082353 0.998306496420099 0.010941016043082353 0.0016935035799008182 -0.010941016043082353
3.09E9 0.001668032604284265 -0.00907207149285992 0.9983319673957157 0.00907207149285992 0.9983319673957157 0.00907207149285992 0.001668032604284265 -0.00907207149285992
3.16475E9 0.001650206212158346 -0.007252819082151002 0.9983497937878416 0.007252819082151002 0.9983497937878416 0.007252819082151002 0.001650206212158346 -0.007252819082151002
3.2395E9 0.0016394509432199743 -0.005479822122370144 0.9983605490567801 0.005479822122370144 0.9983605490567801 0.005479822122370144 0.0016394509432199743 -0.005479822122370144
3.31425E9 0.0016352577037538605 -0.0037499499138544464 0.9983647422962462 0.0037499499138544464 0.9983647422962462 0.0037499499138544464 0.0016352577037538605 -0.0037499499138544464
3.389E9 0.0016371734195619065 -0.0020603442256955655 0.998362826580438 0.0020603442256955655 0.998362826580438 0.0020603442256955655 0.0016371734195619065 -0.0020603442256955655
3.46375E9 0.0016447939379679371 -4.0839006991735637E-4 0.9983552060620319 4.0839006991735637E-4 0.9983552060620319 4.0839006991735637E-4 0.0016447939379679371 -4.0839006991735637E-4
3.5385E9 0.0016577579703007145 0.0012083098581994044 0.9983422420296992 -0.0012083098581994044 0.9983422420296992 -0.0012083098581994044 0.0016577579703007145 0.0012083098581994044
3.61325E9 0.001675741904690274 0.0027919575992648746 0.9983242580953096 -0.0027919575992648746 0.9983242580953096 -0.0027919575992648746 0.001675741904690274 0.0027919575992648746
3.688E9 0.001698455349753742 0.004344579649881724 0.9983015446502463 -0.004344579649881724 0.9983015446502463 -0.004344579649881724 0.001698455349753742 0.004344579649881724
3.76275E9 0.0017256372944558583 0.005868044355880984 0.9982743627055443 -0.005868044355880984 0.9982743627055443 -0.005868044355880984 0.0017256372944558583 0.005868044355880984
3.8375E9 0.0017570527893832147 0.007364077293563987 0.9982429472106168 -0.007364077293563987 0.9982429472106168 -0.007364077293563987 0.0017570527893832147 0.007364077293563987
3.91225E9 0.0017924900708576475 0.008834274906248633 0.9982075099291423 -0.008834274906248633 0.9982075099291423 -0.008834274906248633 0.0017924900708576475 0.008834274906248633
3.987E9 0.0018317580625019849 0.01028011662377999 0.9981682419374979 -0.01028011662377999 0.9981682419374979 -0.01028011662377999 0.0018317580625019849 0.01028011662377999
4.06175E9 0.0018746841996615398 0.011702975659523197 0.9981253158003386 -0.011702975659523197 0.9981253158003386 -0.011702975659523197 0.0018746841996615398 0.011702975659523197
4.1365E9 0.0019211125309498455 0.013104128651551344 0.99807888746905 -0.013104128651551344 0.99807888746905 -0.013104128651551344 0.0019211125309498455 0.013104128651551344
4.21125E9 0.0019709020585002546 0.014484764291339427 0.9980290979414997 -0.014484764291339427 0.9980290979414997 -0.014484764291339427 0.0019709020585002546 0.014484764291339427
4.286E9 0.002023925284562244 0.01584599106351775 0.9979760747154378 -0.01584599106351775 0.9979760747154378 -0.01584599106351775 0.002023925284562244 0.01584599106351775
4.36075E9 0.002080066937118674 0.017188844203508913 0.9979199330628812 -0.017188844203508913 0.9979199330628812 -0.017188844203508913 0.002080066937118674 0.017188844203508913
4.4355E9 0.0021392228514068483 0.01851429196566841 0.9978607771485932 -0.01851429196566841 0.9978607771485932 -0.01851429196566841 0.0021392228514068483 0.01851429196566841
4.51025E9 0.002201298987754109 0.01982324128245574 0.9977987010122458 -0.01982324128245574 0.9977987010122458 -0.01982324128245574 0.002201298987754109 0.01982324128245574
4.585E9 0.002266210569111012 0.02111654288484371 0.9977337894308891 -0.02111654288484371 0.9977337894308891 -0.02111654288484371 0.002266210569111012 0.02111654288484371
4.65975E9 0.002333881324181599 0.02239499594534672 0.9976661186758182 -0.02239499594534672 0.9976661186758182 -0.02239499594534672 0.002333881324181599 0.02239499594534672
4.7345E9 0.002404242824192893 0.023659352297483834 0.997595757175807 -0.023659352297483834 0.997595757175807 -0.023659352297483834 0.002404242824192893 0.023659352297483834
4.80925E9 0.002477233903181419 0.024910320278997408 0.9975227660968188 -0.024910320278997408 0.9975227660968188 -0.024910320278997408 0.002477233903181419 0.024910320278997408
4.884E9 0.0025528001532591255 0.026148568240562896 0.9974471998467408 -0.026148568240562896 0.9974471998467408 -0.026148568240562896 0.0025528001532591255 0.026148568240562896
4.95875E9 0.002630893487701133 0.02737472775691898 0.9973691065122988 -0.02737472775691898 0.9973691065122988 -0.02737472775691898 0.002630893487701133 0.02737472775691898
5.0335E9 0.0027114717659124346 0.028589396573205902 0.9972885282340879 -0.028589396573205902 0.9972885282340879 -0.028589396573205902 0.0027114717659124346 0.028589396573205902
5.10825E9 0.002794498475414089 0.02979314131573503 0.9972055015245858 -0.02979314131573503 0.9972055015245858 -0.02979314131573503 0.002794498475414089 0.02979314131573503
5.183E9 0.0028799424669708443 0.030986499993343335 0.9971200575330292 -0.030986499993343335 0.9971200575330292 -0.030986499993343335 0.0028799424669708443 0.030986499993343335
5.25775E9 0.002967777739888062 0.03216998431285194 0.9970322222601118 -0.03216998431285194 0.9970322222601118 -0.03216998431285194 0.002967777739888062 0.03216998431285194
5.3325E9 0.0030579832753605428 0.033344081829891965 0.9969420167246394 -0.033344081829891965 0.9969420167246394 -0.033344081829891965 0.0030579832753605428 0.033344081829891965
5.40725E9 0.003150542916582425 0.034509257954440924 0.9968494570834174 -0.034509257954440924 0.9968494570834174 -0.034509257954440924 0.003150542916582425 0.034509257954440924
5.482E9 0.0032454452951487895 0.035665957828793206 0.9967545547048513 -0.035665957828793206 0.9967545547048513 -0.035665957828793206 0.0032454452951487895 0.035665957828793206
5.55675E9 0.003342683804119168 0.03681460809433763 0.9966573161958809 -0.03681460809433763 0.9966573161958809 -0.03681460809433763 0.003342683804119168 0.03681460809433763
5.6315E9 0.0034422566189962847 0.03795561856241333 0.9965577433810039 -0.03795561856241333 0.9965577433810039 -0.03795561856241333 0.0034422566189962847 0.03795561856241333
5.70625E9 0.0035441667688278253 0.03908938380364342 0.9964558332311722 -0.03908938380364342 0.9964558332311722 -0.03908938380364342 0.0035441667688278253 0.03908938380364342
5.781E9 0.003648422260696684 0.04021628466949039 0.9963515777393034 -0.04021628466949039 0.9963515777393034 -0.04021628466949039 0.003648422260696684 0.04021628466949039
5.85575E9 0.003755036262064172 0.04133668975933535 0.9962449637379358 -0.04133668975933535 0.9962449637379358 -0.04133668975933535 0.003755036262064172 0.04133668975933535
5.9305E9 0.0038640273468159084 0.04245095684614572 0.9961359726531841 -0.04245095684614572 0.9961359726531841 -0.04245095684614572 0.0038640273468159084 0.04245095684614572
6.00525E9 0.003975419812487641 0.04355943427377041 0.9960245801875123 -0.04355943427377041 0.9960245801875123 -0.04355943427377041 0.003975419812487641 0.04355943427377041
6.08E9 0.0040892440780870625 0.04466246233908956 0.9959107559219129 -0.04466246233908956 0.9959107559219129 -0.04466246233908956 0.0040892440780870625 0.04466246233908956
6.15475E9 0.0042055371742646935 0.045760374672661155 0.9957944628257351 -0.045760374672661155 0.9957944628257351 -0.045760374672661155 0.0042055371742646935 0.045760374672661155
6.2295E9 0.004324343340432816 0.04685349963216285 0.9956756566595673 -0.04685349963216285 0.9956756566595673 -0.04685349963216285 0.004324343340432816 0.04685349963216285
6.30425E9 0.0044457147469270375 0.04794216172384133 0.9955542852530729 -0.04794216172384133 0.9955542852530729 -0.04794216172384133 0.0044457147469270375 0.04794216172384133
6.379E9 0.0045697123646332724 0.04902668306838107 0.9954302876353668 -0.04902668306838107 0.9954302876353668 -0.04902668306838107 0.0045697123646332724 0.04902668306838107
6.45375E9 0.004696407009899467 0.05010738492910688 0.9953035929901006 -0.05010738492910688 0.9953035929901006 -0.05010738492910688 0.004696407009899467 0.05010738492910688
6.5285E9 0.004825880599326184 0.05118458932227342 0.9951741194006737 -0.05118458932227342 0.9951741194006737 -0.05118458932227342 0.004825880599326184 0.05118458932227342
6.60325E9 0.004958227657588573 0.05225862073138338 0.9950417723424116 -0.05225862073138338 0.9950417723424116 -0.05225862073138338 0.004958227657588573 0.05225862073138338
6.678E9 0.005093557132323011 0.05332980795003371 0.9949064428676772 -0.05332980795003371 0.9949064428676772 -0.05332980795003371 0.005093557132323011 0.05332980795003371
6.75275E9 0.005231994584029326 0.054398486080699526 0.9947680054159708 -0.054398486080699526 0.9947680054159708 -0.054398486080699526 0.005231994584029326 0.054398486080699526
6.8275E9 0.005373684836853607 0.05546499872008273 0.9946263151631465 -0.05546499872008273 0.9946263151631465 -0.05546499872008273 0.005373684836853607 0.05546499872008273
6.90225E9 0.005518795199319391 0.05652970036505676 0.9944812048006806 -0.05652970036505676 0.9944812048006806 -0.05652970036505676 0.005518795199319391 0.05652970036505676
6.977E9 0.005667519394319874 0.05759295907658915 0.9943324806056801 -0.05759295907658915 0.9943324806056801 -0.05759295907658915 0.005667519394319874 0.05759295907658915
7.05175E9 0.0058200823773661885 0.05865515944187867 0.9941799176226339 -0.05865515944187867 0.9941799176226339 -0.05865515944187867 0.0058200823773661885 0.05865515944187867
7.1265E9 0.005976746274497235 0.059716705876525916 0.9940232537255027 -0.059716705876525916 0.9940232537255027 -0.059716705876525916 0.005976746274497235 0.059716705876525916
7.20125E9 0.0061378177409492606 0.06077802630753248 0.9938621822590508 -0.06077802630753248 0.9938621822590508 -0.06077802630753248 0.0061378177409492606 0.06077802630753248
7.276E9 0.006303657134995124 0.061839576272038725 0.9936963428650051 -0.061839576272038725 0.9936963428650051 -0.061839576272038725 0.006303657134995124 0.061839576272038725
7.35075E9 0.006474690027170554 0.06290184345219735 0.9935253099728295 -0.06290184345219735 0.9935253099728295 -0.06290184345219735 0.006474690027170554 0.06290184345219735
7.4255E9 0.006651421735904849 0.06396535263713968 0.9933485782640951 -0.06396535263713968 0.9933485782640951 -0.06396535263713968 0.006651421735904849 0.06396535263713968
7.50025E9 0.0068344558140487595 0.06503067104812897 0.9931655441859513 -0.06503067104812897 0.9931655441859513 -0.06503067104812897 0.0068344558140487595 0.06503067104812897
7.575E9 0.007024517732044475 0.06609841386514133 0.9929754822679555 -0.06609841386514133 0.9929754822679555 -0.06609841386514133 0.007024517732044475 0.06609841386514133
7.64975E9 0.007222485448198184 0.06716924962274652 0.9927775145518017 -0.06716924962274652 0.9927775145518017 -0.06716924962274652 0.007222485448198184 0.06716924962274652
7.7245E9 0.00742942917534126 0.06824390485035135 0.9925705708246587 -0.06824390485035135 0.9925705708246587 -0.06824390485035135 0.00742942917534126 0.06824390485035135
7.79925E9 0.0076466635174703345 0.06932316683151017 0.9923533364825298 -0.06932316683151017 0.9923533364825298 -0.06932316683151017 0.0076466635174703345 0.06932316683151017
7.874E9 0.00787581635871462 0.07040788250281955 0.9921241836412853 -0.07040788250281955 0.9921241836412853 -0.07040788250281955 0.00787581635871462 0.07040788250281955
7.94875E9 0.008118920573007912 0.07149895005110943 0.9918810794269922 -0.07149895005110943 0.9918810794269922 -0.07149895005110943 0.008118920573007912 0.07149895005110943
8.0235E9 0.008378536952615194 0.07259729725390165 0.991621463047385 -0.07259729725390165 0.991621463047385 -0.07259729725390165 0.008378536952615194 0.07259729725390165
8.09825E9 0.008657919904337511 0.07370383625789605 0.9913420800956623 -0.07370383625789605 0.9913420800956623 -0.07370383625789605 0.008657919904337511 0.07370383625789605
8.173E9 0.008961241532891778 0.07481937690920384 0.9910387584671083 -0.07481937690920384 0.9910387584671083 -0.07481937690920384 0.008961241532891778 0.07481937690920384
8.24775E9 0.009293894478764561 0.07594446745240377 0.9907061055212355 -0.07594446745240377 0.9907061055212355 -0.07594446745240377 0.009293894478764561 0.07594446745240377
8.3225E9 0.00966289800621773 0.07707910799657601 0.9903371019937822 -0.07707910799657601 0.9903371019937822 -0.07707910799657601 0.00966289800621773 0.07707910799657601
8.39725E9 0.01007743116830756 0.0782222409404115 0.9899225688316926 -0.0782222409404115 0.9899225688316926 -0.0782222409404115 0.01007743116830756 0.0782222409404115
8.472E9 0.010549499810150709 0.07937085087505283 0.9894505001898495 -0.07937085087505283 0.9894505001898495 -0.07937085087505283 0.010549499810150709 0.07937085087505283
