!Murata Part Number: GJM0225C1E2R9BB01
!These Parameters are Measured in Series Mode Connection
!       o--ll--o
!Port1            Port2
!       o------o
!Operation Temp=25[degC], DC Bias Voltage=0[V]
!Freq. Start=100[MHz] Stop=30[GHz], 401[Steps]
!Data Generated on Feb 1, 2023
# Hz S RI R 50
!Freq.(Hz) S11(Real) S11(Imag) S21(Real) S21(Imag) S12(Real) S12(Imag) S22(Real) S22(Imag)
1.0E8 0.9677886632033426 -0.17636681678591498 0.03221133679665749 0.17636681678591498 0.03221133679665749 0.17636681678591498 0.9677886632033426 -0.17636681678591498
1.7475E8 0.9076794107774518 -0.28913862216453523 0.09232058922254816 0.28913862216453523 0.09232058922254816 0.28913862216453523 0.9076794107774518 -0.28913862216453523
2.495E8 0.8281168551861067 -0.37679401719768446 0.1718831448138935 0.37679401719768446 0.1718831448138935 0.37679401719768446 0.8281168551861067 -0.37679401719768446
3.2425E8 0.7401536120015808 -0.4379194987196282 0.259846387998419 0.4379194987196282 0.259846387998419 0.4379194987196282 0.7401536120015808 -0.4379194987196282
3.99E8 0.6524967456292122 -0.4754002701709695 0.34750325437078783 0.4754002701709695 0.34750325437078783 0.4754002701709695 0.6524967456292122 -0.4754002701709695
4.7375E8 0.5706177118570076 -0.49406422245018117 0.4293822881429924 0.49406422245018117 0.4293822881429924 0.49406422245018117 0.5706177118570076 -0.49406422245018117
5.485E8 0.4971877270943583 -0.49892077579826966 0.5028122729056418 0.49892077579826966 0.5028122729056418 0.49892077579826966 0.4971877270943583 -0.49892077579826966
6.2325E8 0.43296620876321834 -0.49426648264054784 0.5670337912367819 0.49426648264054784 0.5670337912367819 0.49426648264054784 0.43296620876321834 -0.49426648264054784
6.98E8 0.37761704593892026 -0.4834223026160651 0.6223829540610799 0.4834223026160651 0.6223829540610799 0.4834223026160651 0.37761704593892026 -0.4834223026160651
7.7275E8 0.3302829009000068 -0.4687959145618232 0.6697170990999931 0.4687959145618232 0.6697170990999931 0.4687959145618232 0.3302829009000068 -0.4687959145618232
8.475E8 0.289930830143806 -0.45205974578752883 0.7100691698561941 0.45205974578752883 0.7100691698561941 0.45205974578752883 0.289930830143806 -0.45205974578752883
9.2225E8 0.2555359259544839 -0.43433920976785984 0.7444640740455161 0.43433920976785984 0.7444640740455161 0.43433920976785984 0.2555359259544839 -0.43433920976785984
9.97E8 0.22616582760683926 -0.41637105662074264 0.7738341723931605 0.41637105662074264 0.7738341723931605 0.41637105662074264 0.22616582760683926 -0.41637105662074264
1.07175E9 0.2010103138792103 -0.3986236955527971 0.7989896861207897 0.3986236955527971 0.7989896861207897 0.3986236955527971 0.2010103138792103 -0.3986236955527971
1.1465E9 0.17938311383786928 -0.38138380152531987 0.8206168861621306 0.38138380152531987 0.8206168861621306 0.38138380152531987 0.17938311383786928 -0.38138380152531987
1.22125E9 0.16071124114083027 -0.36481674565305394 0.8392887588591698 0.36481674565305394 0.8392887588591698 0.36481674565305394 0.16071124114083027 -0.36481674565305394
1.296E9 0.1445199235453361 -0.3490079856993226 0.855480076454664 0.3490079856993226 0.855480076454664 0.3490079856993226 0.1445199235453361 -0.3490079856993226
1.37075E9 0.13041709043870403 -0.33399109156615653 0.8695829095612959 0.33399109156615653 0.8695829095612959 0.33399109156615653 0.13041709043870403 -0.33399109156615653
1.4455E9 0.11807916839689243 -0.3197665765692588 0.8819208316031077 0.3197665765692588 0.8819208316031077 0.3197665765692588 0.11807916839689243 -0.3197665765692588
1.52025E9 0.10723880071717755 -0.30631447575620285 0.8927611992828225 0.30631447575620285 0.8927611992828225 0.30631447575620285 0.10723880071717755 -0.30631447575620285
1.595E9 0.09767456020291242 -0.2936026986554679 0.9023254397970875 0.2936026986554679 0.9023254397970875 0.2936026986554679 0.09767456020291242 -0.2936026986554679
1.66975E9 0.08920248601320148 -0.2815925364604524 0.9107975139867986 0.2815925364604524 0.9107975139867986 0.2815925364604524 0.08920248601320148 -0.2815925364604524
1.7445E9 0.08166919225120473 -0.2702422568612055 0.9183308077487954 0.2702422568612055 0.9183308077487954 0.2702422568612055 0.08166919225120473 -0.2702422568612055
1.81925E9 0.07494628682695083 -0.2595094157510685 0.9250537131730493 0.2595094157510685 0.9250537131730493 0.2595094157510685 0.07494628682695083 -0.2595094157510685
1.894E9 0.06892586194904017 -0.2493523097279729 0.93107413805096 0.2493523097279729 0.93107413805096 0.2493523097279729 0.06892586194904017 -0.2493523097279729
1.96875E9 0.06351685139765312 -0.23973085508596584 0.936483148602347 0.23973085508596584 0.936483148602347 0.23973085508596584 0.06351685139765312 -0.23973085508596584
2.0435E9 0.058642084596189976 -0.23060708598606525 0.9413579154038099 0.23060708598606525 0.9413579154038099 0.23060708598606525 0.058642084596189976 -0.23060708598606525
2.11825E9 0.05423589919004343 -0.22194540185330972 0.9457641008099565 0.22194540185330972 0.9457641008099565 0.22194540185330972 0.05423589919004343 -0.22194540185330972
2.193E9 0.05024220092970418 -0.21371265177800916 0.9497577990702959 0.21371265177800916 0.9497577990702959 0.21371265177800916 0.05024220092970418 -0.21371265177800916
2.26775E9 0.04661288203323531 -0.20587811511455031 0.9533871179667646 0.20587811511455031 0.9533871179667646 0.20587811511455031 0.04661288203323531 -0.20587811511455031
2.3425E9 0.04330652732116902 -0.1984134180978757 0.956693472678831 0.1984134180978757 0.956693472678831 0.1984134180978757 0.04330652732116902 -0.1984134180978757
2.41725E9 0.040287351909999145 -0.1912924131426993 0.9597126480900009 0.1912924131426993 0.9597126480900009 0.1912924131426993 0.040287351909999145 -0.1912924131426993
2.492E9 0.037524325762066414 -0.18449103854616478 0.9624756742379336 0.18449103854616478 0.9624756742379336 0.18449103854616478 0.037524325762066414 -0.18449103854616478
2.56675E9 0.03499044949811796 -0.1779871702305611 0.965009550501882 0.1779871702305611 0.965009550501882 0.1779871702305611 0.03499044949811796 -0.1779871702305611
2.6415E9 0.03266215307404045 -0.17176047302728753 0.9673378469259596 0.17176047302728753 0.9673378469259596 0.17176047302728753 0.03266215307404045 -0.17176047302728753
2.71625E9 0.03051879460643103 -0.16579225619884289 0.9694812053935691 0.16579225619884289 0.9694812053935691 0.16579225619884289 0.03051879460643103 -0.16579225619884289
2.791E9 0.02854224112480974 -0.16006533600214262 0.9714577588751903 0.16006533600214262 0.9714577588751903 0.16006533600214262 0.02854224112480974 -0.16006533600214262
2.86575E9 0.026716516586666263 -0.15456390682724216 0.9732834834133338 0.15456390682724216 0.9732834834133338 0.15456390682724216 0.026716516586666263 -0.15456390682724216
2.9405E9 0.025027505316003274 -0.14927342160424592 0.9749724946839967 0.14927342160424592 0.9749724946839967 0.14927342160424592 0.025027505316003274 -0.14927342160424592
3.01525E9 0.023462701273888727 -0.14418048162297142 0.9765372987261112 0.14418048162297142 0.9765372987261112 0.14418048162297142 0.023462701273888727 -0.14418048162297142
3.09E9 0.02201099536369513 -0.1392727355619883 0.977989004636305 0.1392727355619883 0.977989004636305 0.1392727355619883 0.02201099536369513 -0.1392727355619883
3.16475E9 0.020662494410197733 -0.13453878731195484 0.9793375055898021 0.13453878731195484 0.9793375055898021 0.13453878731195484 0.020662494410197733 -0.13453878731195484
3.2395E9 0.019408366605536544 -0.12996811205851797 0.9805916333944634 0.12996811205851797 0.9805916333944634 0.12996811205851797 0.019408366605536544 -0.12996811205851797
3.31425E9 0.01824070914489781 -0.12555098003191895 0.981759290855102 0.12555098003191895 0.981759290855102 0.12555098003191895 0.01824070914489781 -0.12555098003191895
3.389E9 0.01715243452661919 -0.12127838731280567 0.9828475654733809 0.12127838731280567 0.9828475654733809 0.12127838731280567 0.01715243452661919 -0.12127838731280567
3.46375E9 0.01613717260137962 -0.11714199309211058 0.9838628273986204 0.11714199309211058 0.9838628273986204 0.11714199309211058 0.01613717260137962 -0.11714199309211058
3.5385E9 0.01518918595162914 -0.11313406280729388 0.9848108140483708 0.11313406280729388 0.9848108140483708 0.11313406280729388 0.01518918595162914 -0.11313406280729388
3.61325E9 0.014303296587888923 -0.10924741661102066 0.9856967034121111 0.10924741661102066 0.9856967034121111 0.10924741661102066 0.014303296587888923 -0.10924741661102066
3.688E9 0.013474822280776998 -0.1054753826668987 0.9865251777192229 0.1054753826668987 0.9865251777192229 0.1054753826668987 0.013474822280776998 -0.1054753826668987
3.76275E9 0.012699521120699574 -0.10181175480722546 0.9873004788793003 0.10181175480722546 0.9873004788793003 0.10181175480722546 0.012699521120699574 -0.10181175480722546
3.8375E9 0.011973543122330751 -0.09825075412782601 0.9880264568776693 0.09825075412782601 0.9880264568776693 0.09825075412782601 0.011973543122330751 -0.09825075412782601
3.91225E9 0.011293387877264256 -0.09478699413377971 0.9887066121227357 0.09478699413377971 0.9887066121227357 0.09478699413377971 0.011293387877264256 -0.09478699413377971
3.987E9 0.01065586741275524 -0.09141544908639786 0.989344132587245 0.09141544908639786 0.989344132587245 0.09141544908639786 0.01065586741275524 -0.09141544908639786
4.06175E9 0.010058073543065484 -0.08813142523584577 0.9899419264569346 0.08813142523584577 0.9899419264569346 0.08813142523584577 0.010058073543065484 -0.08813142523584577
4.1365E9 0.009497349107245881 -0.08493053465513246 0.9905026508927541 0.08493053465513246 0.9905026508927541 0.08493053465513246 0.009497349107245881 -0.08493053465513246
4.21125E9 0.008971262577010957 -0.08180867141980364 0.9910287374229892 0.08180867141980364 0.9910287374229892 0.08180867141980364 0.008971262577010957 -0.08180867141980364
4.286E9 0.008477585593743425 -0.0787619899036547 0.9915224144062567 0.0787619899036547 0.9915224144062567 0.0787619899036547 0.008477585593743425 -0.0787619899036547
4.36075E9 0.008014273057104828 -0.07578688498426078 0.9919857269428951 0.07578688498426078 0.9919857269428951 0.07578688498426078 0.008014273057104828 -0.07578688498426078
4.4355E9 0.007579445441254572 -0.07287997397327149 0.9924205545587453 0.07287997397327149 0.9924205545587453 0.07287997397327149 0.007579445441254572 -0.07287997397327149
4.51025E9 0.007171373059959736 -0.07003808010542131 0.9928286269400403 0.07003808010542131 0.9928286269400403 0.07003808010542131 0.007171373059959736 -0.07003808010542131
4.585E9 0.006788462040278538 -0.06725821743724962 0.9932115379597214 0.06725821743724962 0.9932115379597214 0.06725821743724962 0.006788462040278538 -0.06725821743724962
4.65975E9 0.006429241797146015 -0.0645375770217857 0.993570758202854 0.0645375770217857 0.993570758202854 0.0645375770217857 0.006429241797146015 -0.0645375770217857
4.7345E9 0.006092353829010332 -0.0618735142391086 0.9939076461709898 0.0618735142391086 0.9939076461709898 0.0618735142391086 0.006092353829010332 -0.0618735142391086
4.80925E9 0.00577654167843097 -0.05926353717490333 0.9942234583215691 0.05926353717490333 0.9942234583215691 0.05926353717490333 0.00577654167843097 -0.05926353717490333
4.884E9 0.005480641921893049 -0.05670529595004707 0.9945193580781069 0.05670529595004707 0.9945193580781069 0.05670529595004707 0.005480641921893049 -0.05670529595004707
4.95875E9 0.005203576070546399 -0.05419657291401372 0.9947964239294538 0.05419657291401372 0.9947964239294538 0.05419657291401372 0.005203576070546399 -0.05419657291401372
5.0335E9 0.004944343278586099 -0.0517352736236037 0.9950556567214138 0.0517352736236037 0.9950556567214138 0.0517352736236037 0.004944343278586099 -0.0517352736236037
5.10825E9 0.0047020137689230196 -0.049319418536300216 0.9952979862310772 0.049319418536300216 0.9952979862310772 0.049319418536300216 0.0047020137689230196 -0.049319418536300216
5.183E9 0.0044757228969583415 -0.04694713535452151 0.9955242771030417 0.04694713535452151 0.9955242771030417 0.04694713535452151 0.0044757228969583415 -0.04694713535452151
5.25775E9 0.004264665782936372 -0.044616651963278124 0.9957353342170635 0.044616651963278124 0.9957353342170635 0.044616651963278124 0.004264665782936372 -0.044616651963278124
5.3325E9 0.004068092451723233 -0.04232628990932219 0.995931907548277 0.04232628990932219 0.995931907548277 0.04232628990932219 0.004068092451723233 -0.04232628990932219
5.40725E9 0.0038853034261320217 -0.04007445837488 0.9961146965738679 0.04007445837488 0.9961146965738679 0.04007445837488 0.0038853034261320217 -0.04007445837488
5.482E9 0.003715645726242507 -0.03785964860353704 0.9962843542737573 0.03785964860353704 0.9962843542737573 0.03785964860353704 0.003715645726242507 -0.03785964860353704
5.55675E9 0.0035585092326796282 -0.03568042873986541 0.9964414907673202 0.03568042873986541 0.9964414907673202 0.03568042873986541 0.0035585092326796282 -0.03568042873986541
5.6315E9 0.003413323376631761 -0.03353543904799158 0.9965866766233682 0.03353543904799158 0.9965866766233682 0.03353543904799158 0.003413323376631761 -0.03353543904799158
5.70625E9 0.0032795541236029955 -0.03142338747754131 0.9967204458763971 0.03142338747754131 0.9967204458763971 0.03142338747754131 0.0032795541236029955 -0.03142338747754131
5.781E9 0.0031567012215856097 -0.029343045548312692 0.9968432987784145 0.029343045548312692 0.9968432987784145 0.029343045548312692 0.0031567012215856097 -0.029343045548312692
5.85575E9 0.00304429568757917 -0.027293244527649727 0.9969557043124208 0.027293244527649727 0.9969557043124208 0.027293244527649727 0.00304429568757917 -0.027293244527649727
5.9305E9 0.0029418975092309436 -0.025272871876846497 0.997058102490769 0.025272871876846497 0.997058102490769 0.025272871876846497 0.0029418975092309436 -0.025272871876846497
6.00525E9 0.0028490935408803774 -0.023280867945041705 0.9971509064591196 0.023280867945041705 0.9971509064591196 0.023280867945041705 0.0028490935408803774 -0.023280867945041705
6.08E9 0.0027654955755018313 -0.021316222890979487 0.9972345044244981 0.021316222890979487 0.9972345044244981 0.021316222890979487 0.0027654955755018313 -0.021316222890979487
6.15475E9 0.0026907385759928257 -0.01937797381474534 0.9973092614240072 0.01937797381474534 0.9973092614240072 0.01937797381474534 0.0026907385759928257 -0.01937797381474534
6.2295E9 0.002624479050982498 -0.017465202083149865 0.9973755209490177 0.017465202083149865 0.9973755209490177 0.017465202083149865 0.002624479050982498 -0.017465202083149865
6.30425E9 0.0025663935618648946 -0.015577030833849204 0.9974336064381351 0.015577030833849204 0.9974336064381351 0.015577030833849204 0.0025663935618648946 -0.015577030833849204
6.379E9 0.0025161773491187613 -0.013712622644570273 0.9974838226508814 0.013712622644570273 0.9974838226508814 0.013712622644570273 0.0025161773491187613 -0.013712622644570273
6.45375E9 0.0024735430671807184 -0.011871177354970357 0.9975264569328192 0.011871177354970357 0.9975264569328192 0.011871177354970357 0.0024735430671807184 -0.011871177354970357
6.5285E9 0.0024382196182107046 -0.010051930029711264 0.9975617803817896 0.010051930029711264 0.9975617803817896 0.010051930029711264 0.0024382196182107046 -0.010051930029711264
6.60325E9 0.0024099510760431007 -0.008254149052284013 0.9975900489239569 0.008254149052284013 0.9975900489239569 0.008254149052284013 0.0024099510760431007 -0.008254149052284013
6.678E9 0.0023884956924682134 -0.00647713433998541 0.9976115043075319 0.00647713433998541 0.9976115043075319 0.00647713433998541 0.0023884956924682134 -0.00647713433998541
6.75275E9 0.0023736249787487023 -0.004720215671236821 0.9976263750212514 0.004720215671236821 0.9976263750212514 0.004720215671236821 0.0023736249787487023 -0.004720215671236821
6.8275E9 0.0023651228559549535 -0.0029827511171521357 0.9976348771440452 0.0029827511171521357 0.9976348771440452 0.0029827511171521357 0.0023651228559549535 -0.0029827511171521357
6.90225E9 0.00236278486831136 -0.0012641255699134997 0.9976372151316887 0.0012641255699134997 0.9976372151316887 0.0012641255699134997 0.00236278486831136 -0.0012641255699134997
6.977E9 0.002366417454290332 4.3625063889026806E-4 0.9976335825457097 -4.3625063889026806E-4 0.9976335825457097 -4.3625063889026806E-4 0.002366417454290332 4.3625063889026806E-4
7.05175E9 0.002375837270679586 0.0021189430362670066 0.9976241627293205 -0.0021189430362670066 0.9976241627293205 -0.0021189430362670066 0.002375837270679586 0.0021189430362670066
7.1265E9 0.0023908705652872426 0.0037844942279747495 0.9976091294347127 -0.0037844942279747495 0.9976091294347127 -0.0037844942279747495 0.0023908705652872426 0.0037844942279747495
7.20125E9 0.002411352594343973 0.005433425046182139 0.9975886474056561 -0.005433425046182139 0.9975886474056561 -0.005433425046182139 0.002411352594343973 0.005433425046182139
7.276E9 0.0024371270810166134 0.007066235629579227 0.9975628729189834 -0.007066235629579227 0.9975628729189834 -0.007066235629579227 0.0024371270810166134 0.007066235629579227
7.35075E9 0.002468045711767884 0.008683406440503895 0.9975319542882322 -0.008683406440503895 0.9975319542882322 -0.008683406440503895 0.002468045711767884 0.008683406440503895
7.4255E9 0.0025039676675855 0.010285399223302912 0.9974960323324146 -0.010285399223302912 0.9974960323324146 -0.010285399223302912 0.0025039676675855 0.010285399223302912
7.50025E9 0.002544759187364767 0.011872657907830108 0.9974552408126353 -0.011872657907830108 0.9974552408126353 -0.011872657907830108 0.002544759187364767 0.011872657907830108
7.575E9 0.002590293160964356 0.013445609461692397 0.9974097068390357 -0.013445609461692397 0.9974097068390357 -0.013445609461692397 0.002590293160964356 0.013445609461692397
7.64975E9 0.0026404487496682035 0.015004664694588013 0.9973595512503316 -0.015004664694588013 0.9973595512503316 -0.015004664694588013 0.0026404487496682035 0.015004664694588013
7.7245E9 0.002695111031979591 0.016550219017836886 0.9973048889680204 -0.016550219017836886 0.9973048889680204 -0.016550219017836886 0.002695111031979591 0.016550219017836886
7.79925E9 0.0027541706728484556 0.01808265316197631 0.9972458293271514 -0.01808265316197631 0.9972458293271514 -0.01808265316197631 0.0027541706728484556 0.01808265316197631
7.874E9 0.002817523614591911 0.019602333855090272 0.9971824763854081 -0.019602333855090272 0.9971824763854081 -0.019602333855090272 0.002817523614591911 0.019602333855090272
7.94875E9 0.002885070787912086 0.02110961446434742 0.997114929212088 -0.02110961446434742 0.997114929212088 -0.02110961446434742 0.002885070787912086 0.02110961446434742
8.0235E9 0.002956717841546678 0.02260483560305068 0.9970432821584533 -0.02260483560305068 0.9970432821584533 -0.02260483560305068 0.002956717841546678 0.02260483560305068
8.09825E9 0.0030323748892067642 0.024088325705335808 0.9969676251107933 -0.024088325705335808 0.9969676251107933 -0.024088325705335808 0.0030323748892067642 0.024088325705335808
8.173E9 0.003111956272565214 0.02556040157051121 0.9968880437274346 -0.02556040157051121 0.9968880437274346 -0.02556040157051121 0.003111956272565214 0.02556040157051121
8.24775E9 0.003195380339157972 0.027021368878890378 0.996804619660842 -0.027021368878890378 0.996804619660842 -0.027021368878890378 0.003195380339157972 0.027021368878890378
8.3225E9 0.003282569234150867 0.028471522680843096 0.9967174307658491 -0.028471522680843096 0.9967174307658491 -0.028471522680843096 0.003282569234150867 0.028471522680843096
8.39725E9 0.0033734487050070786 0.029911147860674253 0.9966265512949929 -0.029911147860674253 0.9966265512949929 -0.029911147860674253 0.0033734487050070786 0.029911147860674253
8.472E9 0.0034679479181657334 0.031340519576829436 0.9965320520818343 -0.031340519576829436 0.9965320520818343 -0.031340519576829436 0.0034679479181657334 0.031340519576829436
8.54675E9 0.0035659992869110503 0.03275990367982739 0.9964340007130892 -0.03275990367982739 0.9964340007130892 -0.03275990367982739 0.0035659992869110503 0.03275990367982739
