!Murata Part Number: GJM0225C1E8R9BB01
!These Parameters are Measured in Series Mode Connection
!       o--ll--o
!Port1            Port2
!       o------o
!Operation Temp=25[degC], DC Bias Voltage=0[V]
!Freq. Start=100[MHz] Stop=30[GHz], 401[Steps]
!Data Generated on Feb 1, 2023
# Hz S RI R 50
!Freq.(Hz) S11(Real) S11(Imag) S21(Real) S21(Imag) S12(Real) S12(Imag) S22(Real) S22(Imag)
1.0E8 0.7614562893570465 -0.4259545487739664 0.23854371064295354 0.4259545487739664 0.23854371064295354 0.4259545487739664 0.7614562893570465 -0.4259545487739664
1.7475E8 0.5105874157420094 -0.49946742294429397 0.48941258425799067 0.49946742294429397 0.48941258425799067 0.49946742294429397 0.5105874157420094 -0.49946742294429397
2.495E8 0.33786013645588286 -0.47237271256374636 0.6621398635441169 0.47237271256374636 0.6621398635441169 0.47237271256374636 0.33786013645588286 -0.47237271256374636
3.2425E8 0.23130192607575456 -0.42086199625517073 0.7686980739242453 0.42086199625517073 0.7686980739242453 0.42086199625517073 0.23130192607575456 -0.42086199625517073
3.99E8 0.1650835203532778 -0.3702484766330544 0.8349164796467222 0.3702484766330544 0.8349164796467222 0.3702484766330544 0.1650835203532778 -0.3702484766330544
4.7375E8 0.1223573753538501 -0.32647537553197215 0.87764262464615 0.32647537553197215 0.87764262464615 0.32647537553197215 0.1223573753538501 -0.32647537553197215
5.485E8 0.09361987731163739 -0.2898491921175753 0.9063801226883627 0.2898491921175753 0.9063801226883627 0.2898491921175753 0.09361987731163739 -0.2898491921175753
6.2325E8 0.07353995599138965 -0.25933082721266276 0.9264600440086104 0.25933082721266276 0.9264600440086104 0.25933082721266276 0.07353995599138965 -0.25933082721266276
6.98E8 0.05903617053270222 -0.23374924491533788 0.940963829467298 0.23374924491533788 0.940963829467298 0.23374924491533788 0.05903617053270222 -0.23374924491533788
7.7275E8 0.048258125858685254 -0.21210123474626935 0.9517418741413146 0.21210123474626935 0.9517418741413146 0.21210123474626935 0.048258125858685254 -0.21210123474626935
8.475E8 0.040051827280494105 -0.19359032253954656 0.959948172719506 0.19359032253954656 0.959948172719506 0.19359032253954656 0.040051827280494105 -0.19359032253954656
9.2225E8 0.03367205804408101 -0.17759881543348988 0.966327941955919 0.17759881543348988 0.966327941955919 0.17759881543348988 0.03367205804408101 -0.17759881543348988
9.97E8 0.028622288250643654 -0.1636495285138131 0.9713777117493565 0.1636495285138131 0.9713777117493565 0.1636495285138131 0.028622288250643654 -0.1636495285138131
1.07175E9 0.024562359407543446 -0.1513722106825176 0.9754376405924565 0.1513722106825176 0.9754376405924565 0.1513722106825176 0.024562359407543446 -0.1513722106825176
1.1465E9 0.02125342142272439 -0.1404772898321336 0.9787465785772754 0.1404772898321336 0.9787465785772754 0.1404772898321336 0.02125342142272439 -0.1404772898321336
1.22125E9 0.018524046772013532 -0.13073615673786787 0.9814759532279865 0.13073615673786787 0.9814759532279865 0.13073615673786787 0.018524046772013532 -0.13073615673786787
1.296E9 0.016248774191938486 -0.12196655530000342 0.9837512258080615 0.12196655530000342 0.9837512258080615 0.12196655530000342 0.016248774191938486 -0.12196655530000342
1.37075E9 0.014334166837557456 -0.11402177132999289 0.9856658331624428 0.11402177132999289 0.9856658331624428 0.11402177132999289 0.014334166837557456 -0.11402177132999289
1.4455E9 0.012709538508591101 -0.10678259709128186 0.987290461491409 0.10678259709128186 0.987290461491409 0.10678259709128186 0.012709538508591101 -0.10678259709128186
1.52025E9 0.011320652598973911 -0.10015131571440758 0.9886793474010264 0.10015131571440758 0.9886793474010264 0.10015131571440758 0.011320652598973911 -0.10015131571440758
1.595E9 0.010125357515302637 -0.09404715911746377 0.9898746424846973 0.09404715911746377 0.9898746424846973 0.09404715911746377 0.010125357515302637 -0.09404715911746377
1.66975E9 0.00909050990988268 -0.08840284723950809 0.9909094900901172 0.08840284723950809 0.9909094900901172 0.08840284723950809 0.00909050990988268 -0.08840284723950809
1.7445E9 0.008189770718625571 -0.08316192689098723 0.9918102292813745 0.08316192689098723 0.9918102292813745 0.08316192689098723 0.008189770718625571 -0.08316192689098723
1.81925E9 0.007402003087787516 -0.07827670695726238 0.9925979969122125 0.07827670695726238 0.9925979969122125 0.07827670695726238 0.007402003087787516 -0.07827670695726238
1.894E9 0.006710092033834454 -0.0737066422951194 0.9932899079661658 0.0737066422951194 0.9932899079661658 0.0737066422951194 0.006710092033834454 -0.0737066422951194
1.96875E9 0.006100063973470846 -0.06941705821146327 0.9938999360265292 0.06941705821146327 0.9938999360265292 0.06941705821146327 0.006100063973470846 -0.06941705821146327
2.0435E9 0.005560422382306082 -0.06537813570618994 0.9944395776176939 0.06537813570618994 0.9944395776176939 0.06537813570618994 0.005560422382306082 -0.06537813570618994
2.11825E9 0.005081641191106377 -0.06156409804602634 0.9949183588088937 0.06156409804602634 0.9949183588088937 0.06156409804602634 0.005081641191106377 -0.06156409804602634
2.193E9 0.004655774650176045 -0.05795255403871254 0.995344225349824 0.05795255403871254 0.995344225349824 0.05795255403871254 0.004655774650176045 -0.05795255403871254
2.26775E9 0.004276154124387331 -0.054523964213777594 0.9957238458756128 0.054523964213777594 0.9957238458756128 0.054523964213777594 0.004276154124387331 -0.054523964213777594
2.3425E9 0.003937150429125198 -0.05126120411515848 0.9960628495708748 0.05126120411515848 0.9960628495708748 0.05126120411515848 0.003937150429125198 -0.05126120411515848
2.41725E9 0.0036339860473978635 -0.0481492048633666 0.9963660139526023 0.0481492048633666 0.9963660139526023 0.0481492048633666 0.0036339860473978635 -0.0481492048633666
2.492E9 0.0033625856455801084 -0.04517465560977945 0.9966374143544199 0.04517465560977945 0.9966374143544199 0.04517465560977945 0.0033625856455801084 -0.04517465560977945
2.56675E9 0.003119456238478702 -0.042325755880638104 0.9968805437615214 0.042325755880638104 0.9968805437615214 0.042325755880638104 0.003119456238478702 -0.042325755880638104
2.6415E9 0.0029015904864820056 -0.03959200837859135 0.9970984095135181 0.03959200837859135 0.9970984095135181 0.03959200837859135 0.0029015904864820056 -0.03959200837859135
2.71625E9 0.0027063881723779297 -0.03696404478112459 0.9972936118276221 0.03696404478112459 0.9972936118276221 0.03696404478112459 0.0027063881723779297 -0.03696404478112459
2.791E9 0.002531592064434416 -0.03443347859789288 0.9974684079355656 0.03443347859789288 0.9974684079355656 0.03443347859789288 0.002531592064434416 -0.03443347859789288
2.86575E9 0.0023752352381854118 -0.031992780332811194 0.9976247647618145 0.031992780332811194 0.9976247647618145 0.031992780332811194 0.0023752352381854118 -0.031992780332811194
2.9405E9 0.0022355975814772203 -0.029635171122994658 0.9977644024185227 0.029635171122994658 0.9977644024185227 0.029635171122994658 0.0022355975814772203 -0.029635171122994658
3.01525E9 0.0021111697022513816 -0.02735453175574313 0.9978888302977487 0.02735453175574313 0.9978888302977487 0.02735453175574313 0.0021111697022513816 -0.02735453175574313
3.09E9 0.0020006228369026276 -0.025145324542028002 0.9979993771630972 0.025145324542028002 0.9979993771630972 0.025145324542028002 0.0020006228369026276 -0.025145324542028002
3.16475E9 0.0019027836483067957 -0.023002525984531577 0.998097216351693 0.023002525984531577 0.998097216351693 0.023002525984531577 0.0019027836483067957 -0.023002525984531577
3.2395E9 0.0018166130282910406 -0.02092156854615142 0.9981833869717088 0.02092156854615142 0.9981833869717088 0.02092156854615142 0.0018166130282910406 -0.02092156854615142
3.31425E9 0.0017411881952758643 -0.018898290120824845 0.9982588118047242 0.018898290120824845 0.9982588118047242 0.018898290120824845 0.0017411881952758643 -0.018898290120824845
3.389E9 0.001675687515826266 -0.01692889004778183 0.9983243124841734 0.01692889004778183 0.9983243124841734 0.01692889004778183 0.001675687515826266 -0.01692889004778183
3.46375E9 0.001619377587706522 -0.015009890704662441 0.9983806224122933 0.015009890704662441 0.9983806224122933 0.015009890704662441 0.001619377587706522 -0.015009890704662441
3.5385E9 0.001571602208362184 -0.013138103873487114 0.9984283977916381 0.013138103873487114 0.9984283977916381 0.013138103873487114 0.001571602208362184 -0.013138103873487114
3.61325E9 0.001531772921570484 -0.011310601203388393 0.9984682270784294 0.011310601203388393 0.9984682270784294 0.011310601203388393 0.001531772921570484 -0.011310601203388393
3.688E9 0.0014993608901301284 -0.009524688200913532 0.9985006391098697 0.009524688200913532 0.9985006391098697 0.009524688200913532 0.0014993608901301284 -0.009524688200913532
3.76275E9 0.0014738898868354611 -0.0077778812670200705 0.9985261101131646 0.0077778812670200705 0.9985261101131646 0.0077778812670200705 0.0014738898868354611 -0.0077778812670200705
3.8375E9 0.0014549302318590668 -0.006067887373119999 0.998545069768141 0.006067887373119999 0.998545069768141 0.006067887373119999 0.0014549302318590668 -0.006067887373119999
3.91225E9 0.0014420935338037625 -0.0043925860294846 0.9985579064661962 0.0043925860294846 0.9985579064661962 0.0043925860294846 0.0014420935338037625 -0.0043925860294846
3.987E9 0.0014350281154458984 -0.002750013250236484 0.9985649718845541 0.002750013250236484 0.9985649718845541 0.002750013250236484 0.0014350281154458984 -0.002750013250236484
4.06175E9 0.0014334150246468323 -0.0011383472618306761 0.9985665849753531 0.0011383472618306761 0.9985665849753531 0.0011383472618306761 0.0014334150246468323 -0.0011383472618306761
4.1365E9 0.0014369645469006044 4.4410426218874583E-4 0.9985630354530995 -4.4410426218874583E-4 0.9985630354530995 -4.4410426218874583E-4 0.0014369645469006044 4.4410426218874583E-4
4.21125E9 0.0014454131491790441 0.0019989156270980167 0.9985545868508209 -0.0019989156270980167 0.9985545868508209 -0.0019989156270980167 0.0014454131491790441 0.0019989156270980167
4.286E9 0.0014585207956596762 0.0035275533648957305 0.9985414792043403 -0.0035275533648957305 0.9985414792043403 -0.0035275533648957305 0.0014585207956596762 0.0035275533648957305
4.36075E9 0.0014760685849986282 0.005031385443786272 0.9985239314150014 -0.005031385443786272 0.9985239314150014 -0.005031385443786272 0.0014760685849986282 0.005031385443786272
4.4355E9 0.0014978566663781975 0.006511689560332715 0.9985021433336216 -0.006511689560332715 0.9985021433336216 -0.006511689560332715 0.0014978566663781975 0.006511689560332715
4.51025E9 0.0015237023978883855 0.007969660619578598 0.9984762976021115 -0.007969660619578598 0.9984762976021115 -0.007969660619578598 0.0015237023978883855 0.007969660619578598
4.585E9 0.0015534387161129776 0.00940641749492798 0.998446561283887 -0.00940641749492798 0.998446561283887 -0.00940641749492798 0.0015534387161129776 0.00940641749492798
4.65975E9 0.0015869126902612106 0.010823009147984076 0.9984130873097389 -0.010823009147984076 0.9984130873097389 -0.010823009147984076 0.0015869126902612106 0.010823009147984076
4.7345E9 0.0016239842379603651 0.012220420178579952 0.9983760157620396 -0.012220420178579952 0.9983760157620396 -0.012220420178579952 0.0016239842379603651 0.012220420178579952
4.80925E9 0.0016645249830205494 0.013599575866643555 0.9983354750169795 -0.013599575866643555 0.9983354750169795 -0.013599575866643555 0.0016645249830205494 0.013599575866643555
4.884E9 0.0017084172381972055 0.014961346760116805 0.998291582761803 -0.014961346760116805 0.998291582761803 -0.014961346760116805 0.0017084172381972055 0.014961346760116805
4.95875E9 0.0017555530982887588 0.016306552856722563 0.9982444469017114 -0.016306552856722563 0.9982444469017114 -0.016306552856722563 0.0017555530982887588 0.016306552856722563
5.0335E9 0.0018058336308817494 0.017635967421795132 0.9981941663691182 -0.017635967421795132 0.9981941663691182 -0.017635967421795132 0.0018058336308817494 0.017635967421795132
5.10825E9 0.0018591681537479777 0.018950320479544567 0.998140831846252 -0.018950320479544567 0.998140831846252 -0.018950320479544567 0.0018591681537479777 0.018950320479544567
5.183E9 0.0019154735893523937 0.020250302010899966 0.9980845264106476 -0.020250302010899966 0.9980845264106476 -0.020250302010899966 0.0019154735893523937 0.020250302010899966
5.25775E9 0.0019746738881842537 0.021536564887394246 0.9980253261118156 -0.021536564887394246 0.9980253261118156 -0.021536564887394246 0.0019746738881842537 0.021536564887394246
5.3325E9 0.0020366995137086038 0.022809727567331375 0.9979633004862913 -0.022809727567331375 0.9979633004862913 -0.022809727567331375 0.0020366995137086038 0.022809727567331375
5.40725E9 0.002101486982676631 0.024070376577658894 0.9978985130173234 -0.024070376577658894 0.9978985130173234 -0.024070376577658894 0.002101486982676631 0.024070376577658894
5.482E9 0.002168978455354055 0.025319068802497315 0.9978310215446459 -0.025319068802497315 0.9978310215446459 -0.025319068802497315 0.002168978455354055 0.025319068802497315
5.55675E9 0.002239121370945001 0.026556333597110588 0.9977608786290548 -0.026556333597110588 0.9977608786290548 -0.026556333597110588 0.002239121370945001 0.026556333597110588
5.6315E9 0.002311868124120722 0.027782674744196434 0.997688131875879 -0.027782674744196434 0.997688131875879 -0.027782674744196434 0.002311868124120722 0.027782674744196434
5.70625E9 0.0023871757791216045 0.028998572267702773 0.9976128242208784 -0.028998572267702773 0.9976128242208784 -0.028998572267702773 0.0023871757791216045 0.028998572267702773
5.781E9 0.0024650058183987834 0.030204484117903944 0.9975349941816013 -0.030204484117903944 0.9975349941816013 -0.030204484117903944 0.0024650058183987834 0.030204484117903944
5.85575E9 0.002545323923208495 0.03140084774017665 0.9974546760767915 -0.03140084774017665 0.9974546760767915 -0.03140084774017665 0.002545323923208495 0.03140084774017665
5.9305E9 0.0026280997839770196 0.032588081538779366 0.997371900216023 -0.032588081538779366 0.997371900216023 -0.032588081538779366 0.0026280997839770196 0.032588081538779366
6.00525E9 0.0027133069386243085 0.033766586245940214 0.9972866930613759 -0.033766586245940214 0.9972866930613759 -0.033766586245940214 0.0027133069386243085 0.033766586245940214
6.08E9 0.0028009226373775587 0.03493674620568573 0.9971990773626225 -0.03493674620568573 0.9971990773626225 -0.03493674620568573 0.0028009226373775587 0.03493674620568573
6.15475E9 0.0028909277329282595 0.036098930581079186 0.9971090722670717 -0.036098930581079186 0.9971090722670717 -0.036098930581079186 0.0028909277329282595 0.036098930581079186
6.2295E9 0.0029833065950938963 0.03725349449287553 0.9970166934049063 -0.03725349449287553 0.9970166934049063 -0.03725349449287553 0.0029833065950938963 0.03725349449287553
6.30425E9 0.0030780470494441406 0.038400780097027035 0.9969219529505559 -0.038400780097027035 0.9969219529505559 -0.038400780097027035 0.0030780470494441406 0.038400780097027035
6.379E9 0.003175140339646969 0.039541117607986793 0.9968248596603531 -0.039541117607986793 0.9968248596603531 -0.039541117607986793 0.003175140339646969 0.039541117607986793
6.45375E9 0.0032745811135880295 0.04067482627434359 0.9967254188864118 -0.04067482627434359 0.9967254188864118 -0.04067482627434359 0.0032745811135880295 0.04067482627434359
6.5285E9 0.003376367433623313 0.04180221531298425 0.9966236325663764 -0.04180221531298425 0.9966236325663764 -0.04180221531298425 0.003376367433623313 0.04180221531298425
6.60325E9 0.003480500811646423 0.04292358480770624 0.9965194991883536 -0.04292358480770624 0.9965194991883536 -0.04292358480770624 0.003480500811646423 0.04292358480770624
6.678E9 0.0035869862699951533 0.044039226577999274 0.9964130137300048 -0.044039226577999274 0.9964130137300048 -0.044039226577999274 0.0035869862699951533 0.044039226577999274
6.75275E9 0.0036958324295948124 0.045149425023572186 0.9963041675704053 -0.045149425023572186 0.9963041675704053 -0.045149425023572186 0.0036958324295948124 0.045149425023572186
6.8275E9 0.003807051627146978 0.04625445795012368 0.9961929483728531 -0.04625445795012368 0.9961929483728531 -0.04625445795012368 0.003807051627146978 0.04625445795012368
6.90225E9 0.003920660063632344 0.0473545973818431 0.9960793399363674 -0.0473545973818431 0.9960793399363674 -0.0473545973818431 0.003920660063632344 0.0473545973818431
6.977E9 0.004036677986916629 0.04845011036617889 0.9959633220130834 -0.04845011036617889 0.9959633220130834 -0.04845011036617889 0.004036677986916629 0.04845011036617889
7.05175E9 0.004155129911843903 0.04954125977653623 0.9958448700881559 -0.04954125977653623 0.9958448700881559 -0.04954125977653623 0.004155129911843903 0.04954125977653623
7.1265E9 0.004276044881888562 0.05062830511876001 0.9957239551181114 -0.05062830511876001 0.9957239551181114 -0.05062830511876001 0.004276044881888562 0.05062830511876001
7.20125E9 0.0043994567772363425 0.051711503347535555 0.9956005432227637 -0.051711503347535555 0.9956005432227637 -0.051711503347535555 0.0043994567772363425 0.051711503347535555
7.276E9 0.004525404675100884 0.052791109699200874 0.995474595324899 -0.052791109699200874 0.995474595324899 -0.052791109699200874 0.004525404675100884 0.052791109699200874
7.35075E9 0.004653933269185726 0.05386737854792211 0.9953460667308144 -0.05386737854792211 0.9953460667308144 -0.05386737854792211 0.004653933269185726 0.05386737854792211
7.4255E9 0.0047850933565092915 0.05494056429274794 0.9952149066434908 -0.05494056429274794 0.9952149066434908 -0.05494056429274794 0.0047850933565092915 0.05494056429274794
7.50025E9 0.004918942401368573 0.05601092228374213 0.9950810575986314 -0.05601092228374213 0.9950810575986314 -0.05601092228374213 0.004918942401368573 0.05601092228374213
7.575E9 0.005055545188082104 0.05707870979621257 0.994944454811918 -0.05707870979621257 0.994944454811918 -0.05707870979621257 0.005055545188082104 0.05707870979621257
7.64975E9 0.005194974576395518 0.058144187063024565 0.9948050254236043 -0.058144187063024565 0.9948050254236043 -0.058144187063024565 0.005194974576395518 0.058144187063024565
7.7245E9 0.005337312376141888 0.05920761837613278 0.9946626876238583 -0.05920761837613278 0.9946626876238583 -0.05920761837613278 0.005337312376141888 0.05920761837613278
7.79925E9 0.0054826503610346695 0.06026927326980518 0.9945173496389654 -0.06026927326980518 0.9945173496389654 -0.06026927326980518 0.0054826503610346695 0.06026927326980518
7.874E9 0.0056310914454740105 0.061329427799577695 0.9943689085545259 -0.061329427799577695 0.9943689085545259 -0.061329427799577695 0.0056310914454740105 0.061329427799577695
7.94875E9 0.005782751053144267 0.06238836593279298 0.9942172489468558 -0.06238836593279298 0.9942172489468558 -0.06238836593279298 0.005782751053144267 0.06238836593279298
8.0235E9 0.005937758712197979 0.06344638106867599 0.9940622412878019 -0.06344638106867599 0.9940622412878019 -0.06344638106867599 0.005937758712197979 0.06344638106867599
8.09825E9 0.006096259919247647 0.06450377770831021 0.9939037400807524 -0.06450377770831021 0.9939037400807524 -0.06450377770831021 0.006096259919247647 0.06450377770831021
8.173E9 0.006258418323592713 0.06556087329763309 0.9937415816764074 -0.06556087329763309 0.9937415816764074 -0.06556087329763309 0.006258418323592713 0.06556087329763309
8.24775E9 0.00642441829457386 0.06661800026968955 0.9935755817054259 -0.06661800026968955 0.9935755817054259 -0.06661800026968955 0.00642441829457386 0.06661800026968955
8.3225E9 0.006594467949292226 0.06767550831587699 0.9934055320507076 -0.06767550831587699 0.9934055320507076 -0.06767550831587699 0.006594467949292226 0.06767550831587699
8.39725E9 0.006768802735967627 0.06873376691976972 0.9932311972640325 -0.06873376691976972 0.9932311972640325 -0.06873376691976972 0.006768802735967627 0.06873376691976972
8.472E9 0.006947689691001276 0.06979316819126564 0.9930523103089987 -0.06979316819126564 0.9930523103089987 -0.06979316819126564 0.006947689691001276 0.06979316819126564
