!Murata Part Number: GJM0225C1E6R3BB01
!These Parameters are Measured in Series Mode Connection
!       o--ll--o
!Port1            Port2
!       o------o
!Operation Temp=25[degC], DC Bias Voltage=0[V]
!Freq. Start=100[MHz] Stop=30[GHz], 401[Steps]
!Data Generated on Feb 1, 2023
# Hz S RI R 50
!Freq.(Hz) S11(Real) S11(Imag) S21(Real) S21(Imag) S12(Real) S12(Imag) S22(Real) S22(Imag)
1.0E8 0.8643156541356398 -0.34221523382816366 0.13568434586436023 0.34221523382816366 0.13568434586436023 0.34221523382816366 0.8643156541356398 -0.34221523382816366
1.7475E8 0.6756469072620607 -0.4677156450000471 0.3243530927379394 0.4677156450000471 0.3243530927379394 0.4677156450000471 0.6756469072620607 -0.4677156450000471
2.495E8 0.5048699647523588 -0.499377893350157 0.49513003524764126 0.499377893350157 0.49513003524764126 0.499377893350157 0.5048699647523588 -0.499377893350157
3.2425E8 0.37577172045517004 -0.48353858401337596 0.62422827954483 0.48353858401337596 0.62422827954483 0.48353858401337596 0.37577172045517004 -0.48353858401337596
3.99E8 0.28372182489505304 -0.44983197030494 0.716278175104947 0.44983197030494 0.716278175104947 0.44983197030494 0.28372182489505304 -0.44983197030494
4.7375E8 0.21859144168884798 -0.41212591381964014 0.7814085583111519 0.41212591381964014 0.7814085583111519 0.41212591381964014 0.21859144168884798 -0.41212591381964014
5.485E8 0.17192887340251375 -0.3759549661226058 0.828071126597486 0.3759549661226058 0.828071126597486 0.3759549661226058 0.17192887340251375 -0.3759549661226058
6.2325E8 0.13783785836970394 -0.34316109109830284 0.862162141630296 0.34316109109830284 0.862162141630296 0.34316109109830284 0.13783785836970394 -0.34316109109830284
6.98E8 0.1124016669436702 -0.3140796444405115 0.8875983330563296 0.3140796444405115 0.8875983330563296 0.3140796444405115 0.1124016669436702 -0.3140796444405115
7.7275E8 0.09303388201322695 -0.2884806296039326 0.9069661179867732 0.2884806296039326 0.9069661179867732 0.2884806296039326 0.09303388201322695 -0.2884806296039326
8.475E8 0.0780080874965009 -0.2659584247649032 0.921991912503499 0.2659584247649032 0.921991912503499 0.2659584247649032 0.0780080874965009 -0.2659584247649032
9.2225E8 0.06615190625009588 -0.24608689218330518 0.9338480937499042 0.24608689218330518 0.9338480937499042 0.24608689218330518 0.06615190625009588 -0.24608689218330518
9.97E8 0.056653710664143084 -0.22847611814500782 0.9433462893358571 0.22847611814500782 0.9433462893358571 0.22847611814500782 0.056653710664143084 -0.22847611814500782
1.07175E9 0.04894064046030769 -0.2127885753392523 0.9510593595396925 0.2127885753392523 0.9510593595396925 0.2127885753392523 0.04894064046030769 -0.2127885753392523
1.1465E9 0.0426007923078193 -0.19873921541157122 0.9573992076921806 0.19873921541157122 0.9573992076921806 0.19873921541157122 0.0426007923078193 -0.19873921541157122
1.22125E9 0.037332802173133874 -0.18608985316561033 0.9626671978268663 0.18608985316561033 0.9626671978268663 0.18608985316561033 0.037332802173133874 -0.18608985316561033
1.296E9 0.03291260013715351 -0.17464214234057512 0.9670873998628464 0.17464214234057512 0.9670873998628464 0.17464214234057512 0.03291260013715351 -0.17464214234057512
1.37075E9 0.029171094354325165 -0.1642308328975983 0.9708289056456748 0.1642308328975983 0.9708289056456748 0.1642308328975983 0.029171094354325165 -0.1642308328975983
1.4455E9 0.025978928193504097 -0.15471788273214152 0.974021071806496 0.15471788273214152 0.974021071806496 0.15471788273214152 0.025978928193504097 -0.15471788273214152
1.52025E9 0.023235894020446964 -0.14598753180515703 0.9767641059795531 0.14598753180515703 0.9767641059795531 0.14598753180515703 0.023235894020446964 -0.14598753180515703
1.595E9 0.02086346461568133 -0.1379422670020134 0.9791365353843189 0.1379422670020134 0.9791365353843189 0.1379422670020134 0.02086346461568133 -0.1379422670020134
1.66975E9 0.018799445847307725 -0.13049954949292827 0.9812005541526923 0.13049954949292827 0.9812005541526923 0.13049954949292827 0.018799445847307725 -0.13049954949292827
1.7445E9 0.016994094988480618 -0.12358917091382217 0.9830059050115192 0.12358917091382217 0.9830059050115192 0.12358917091382217 0.016994094988480618 -0.12358917091382217
1.81925E9 0.015407266486228064 -0.11715111840436089 0.9845927335137717 0.11715111840436089 0.9845927335137717 0.11715111840436089 0.015407266486228064 -0.11715111840436089
1.894E9 0.014006287889541122 -0.11113384760569912 0.985993712110459 0.11113384760569912 0.985993712110459 0.11113384760569912 0.014006287889541122 -0.11113384760569912
1.96875E9 0.0127643613540163 -0.10549288146299901 0.9872356386459836 0.10549288146299901 0.9872356386459836 0.10549288146299901 0.0127643613540163 -0.10549288146299901
2.0435E9 0.011659348035064179 -0.10018966906365817 0.9883406519649357 0.10018966906365817 0.9883406519649357 0.10018966906365817 0.011659348035064179 -0.10018966906365817
2.11825E9 0.010672834581412034 -0.09519065231063849 0.9893271654185878 0.09519065231063849 0.9893271654185878 0.09519065231063849 0.010672834581412034 -0.09519065231063849
2.193E9 0.009789409681045509 -0.0904664991531572 0.9902105903189544 0.0904664991531572 0.9902105903189544 0.0904664991531572 0.009789409681045509 -0.0904664991531572
2.26775E9 0.008996098573540987 -0.08599147075774503 0.9910039014264589 0.08599147075774503 0.9910039014264589 0.08599147075774503 0.008996098573540987 -0.08599147075774503
2.3425E9 0.008281917472212264 -0.08174289681591906 0.9917180825277877 0.08174289681591906 0.9917180825277877 0.08174289681591906 0.008281917472212264 -0.08174289681591906
2.41725E9 0.007637519810534913 -0.07770073852581702 0.9923624801894649 0.07770073852581702 0.9923624801894649 0.07770073852581702 0.007637519810534913 -0.07770073852581702
2.492E9 0.007054913389322805 -0.07384722296898796 0.9929450866106773 0.07384722296898796 0.9929450866106773 0.07384722296898796 0.007054913389322805 -0.07384722296898796
2.56675E9 0.00652723269723883 -0.0701665358841783 0.9934727673027612 0.0701665358841783 0.9934727673027612 0.0701665358841783 0.00652723269723883 -0.0701665358841783
2.6415E9 0.006048554482954658 -0.06664456241797104 0.9939514455170454 0.06664456241797104 0.9939514455170454 0.06664456241797104 0.006048554482954658 -0.06664456241797104
2.71625E9 0.0056137474698133944 -0.06326866746397082 0.9943862525301866 0.06326866746397082 0.9943862525301866 0.06326866746397082 0.0056137474698133944 -0.06326866746397082
2.791E9 0.005218349200162874 -0.060027508809123165 0.9947816507998372 0.060027508809123165 0.9947816507998372 0.060027508809123165 0.005218349200162874 -0.060027508809123165
2.86575E9 0.0048584645716774665 -0.05691087758137549 0.9951415354283225 0.05691087758137549 0.9951415354283225 0.05691087758137549 0.0048584645716774665 -0.05691087758137549
2.9405E9 0.004530681820650992 -0.05390956150954613 0.9954693181793489 0.05390956150954613 0.9954693181793489 0.05390956150954613 0.004530681820650992 -0.05390956150954613
3.01525E9 0.004232002616905727 -0.05101522731984023 0.9957679973830942 0.05101522731984023 0.9957679973830942 0.05101522731984023 0.004232002616905727 -0.05101522731984023
3.09E9 0.003959783633601053 -0.04822031924718505 0.9960402163663988 0.04822031924718505 0.9960402163663988 0.04822031924718505 0.003959783633601053 -0.04822031924718505
3.16475E9 0.0037116874953460706 -0.045517971167019916 0.996288312504654 0.045517971167019916 0.996288312504654 0.045517971167019916 0.0037116874953460706 -0.045517971167019916
3.2395E9 0.003485641428224236 -0.042901930280493196 0.9965143585717757 0.042901930280493196 0.9965143585717757 0.042901930280493196 0.003485641428224236 -0.042901930280493196
3.31425E9 0.003279802264214194 -0.04036649063359809 0.9967201977357858 0.04036649063359809 0.9967201977357858 0.04036649063359809 0.003279802264214194 -0.04036649063359809
3.389E9 0.0030925267113659847 -0.03790643503461354 0.996907473288634 0.03790643503461354 0.996907473288634 0.03790643503461354 0.0030925267113659847 -0.03790643503461354
3.46375E9 0.0029223460059822526 -0.035516984166897476 0.9970776539940176 0.035516984166897476 0.9970776539940176 0.035516984166897476 0.0029223460059822526 -0.035516984166897476
3.5385E9 0.0027679442260671277 -0.03319375188553943 0.9972320557739331 0.03319375188553943 0.9972320557739331 0.03319375188553943 0.0027679442260671277 -0.03319375188553943
3.61325E9 0.0026281396756505054 -0.03093270584450405 0.9973718603243495 0.03093270584450405 0.9973718603243495 0.03093270584450405 0.0026281396756505054 -0.03093270584450405
3.688E9 0.002501868854319416 -0.02873013273195379 0.9974981311456806 0.02873013273195379 0.9974981311456806 0.02873013273195379 0.002501868854319416 -0.02873013273195379
3.76275E9 0.0023881726108142725 -0.026582607500442366 0.997611827389186 0.026582607500442366 0.997611827389186 0.026582607500442366 0.0023881726108142725 -0.026582607500442366
3.8375E9 0.002286184148072232 -0.02448696606963162 0.9977138158519279 0.02448696606963162 0.9977138158519279 0.02448696606963162 0.002286184148072232 -0.02448696606963162
3.91225E9 0.002195118602887499 -0.022440281055344603 0.9978048813971125 0.022440281055344603 0.9978048813971125 0.022440281055344603 0.002195118602887499 -0.022440281055344603
3.987E9 0.0021142639689609283 -0.020439840142731695 0.9978857360310389 0.020439840142731695 0.9978857360310389 0.020439840142731695 0.0021142639689609283 -0.020439840142731695
4.06175E9 0.0020429731695343362 -0.018483126775217382 0.9979570268304656 0.018483126775217382 0.9979570268304656 0.018483126775217382 0.0020429731695343362 -0.018483126775217382
4.1365E9 0.0019806571166306997 -0.016567802876431944 0.9980193428833695 0.016567802876431944 0.9980193428833695 0.016567802876431944 0.0019806571166306997 -0.016567802876431944
4.21125E9 0.0019267786194052884 -0.01469169336092265 0.9980732213805948 0.01469169336092265 0.9980732213805948 0.01469169336092265 0.0019267786194052884 -0.01469169336092265
4.286E9 0.001880847025253644 -0.012852772222234583 0.9981191529747463 0.012852772222234583 0.9981191529747463 0.012852772222234583 0.001880847025253644 -0.012852772222234583
4.36075E9 0.001842413494919421 -0.011049150014896534 0.9981575865050807 0.011049150014896534 0.9981575865050807 0.011049150014896534 0.001842413494919421 -0.011049150014896534
4.4355E9 0.0018110668275400591 -0.009279062570725189 0.99818893317246 0.009279062570725189 0.99818893317246 0.009279062570725189 0.0018110668275400591 -0.009279062570725189
4.51025E9 0.0017864297638779786 -0.007540860810312445 0.9982135702361222 0.007540860810312445 0.9982135702361222 0.007540860810312445 0.0017864297638779786 -0.007540860810312445
4.585E9 0.001768155706327954 -0.005833001528124252 0.998231844293672 0.005833001528124252 0.998231844293672 0.005833001528124252 0.001768155706327954 -0.005833001528124252
4.65975E9 0.001755925803007131 -0.0041540390447564884 0.9982440741969927 0.0041540390447564884 0.9982440741969927 0.0041540390447564884 0.001755925803007131 -0.0041540390447564884
4.7345E9 0.0017494463505995613 -0.0025026176329373956 0.9982505536494004 0.0025026176329373956 0.9982505536494004 0.0025026176329373956 0.0017494463505995613 -0.0025026176329373956
4.80925E9 0.001748446476868418 -8.774646351451787E-4 0.9982515535231317 8.774646351451787E-4 0.9982515535231317 8.774646351451787E-4 0.001748446476868418 -8.774646351451787E-4
4.884E9 0.0017526760690517948 7.226157995142925E-4 0.9982473239309481 -7.226157995142925E-4 0.9982473239309481 -7.226157995142925E-4 0.0017526760690517948 7.226157995142925E-4
4.95875E9 0.001761903918874893 0.0022987484230349484 0.9982380960811251 -0.0022987484230349484 0.9982380960811251 -0.0022987484230349484 0.001761903918874893 0.0022987484230349484
5.0335E9 0.0017759160587684888 0.0038519920973182574 0.9982240839412315 -0.0038519920973182574 0.9982240839412315 -0.0038519920973182574 0.0017759160587684888 0.0038519920973182574
5.10825E9 0.0017945142671852102 0.005383344554091984 0.9982054857328149 -0.005383344554091984 0.9982054857328149 -0.005383344554091984 0.0017945142671852102 0.005383344554091984
5.183E9 0.0018175147237379401 0.006893746750339261 0.998182485276262 -0.006893746750339261 0.998182485276262 -0.006893746750339261 0.0018175147237379401 0.006893746750339261
5.25775E9 0.0018447467973206576 0.008384086858706941 0.9981552532026793 -0.008384086858706941 0.9981552532026793 -0.008384086858706941 0.0018447467973206576 0.008384086858706941
5.3325E9 0.0018760519524715956 0.009855203928037385 0.9981239480475286 -0.009855203928037385 0.9981239480475286 -0.009855203928037385 0.0018760519524715956 0.009855203928037385
5.40725E9 0.0019112827610518674 0.011307891245368153 0.9980887172389482 -0.011307891245368153 0.9980887172389482 -0.011307891245368153 0.0019112827610518674 0.011307891245368153
5.482E9 0.0019503020078822353 0.012742899427398197 0.9980496979921177 -0.012742899427398197 0.9980496979921177 -0.012742899427398197 0.0019503020078822353 0.012742899427398197
5.55675E9 0.001992981880341824 0.01416093926647023 0.9980070181196582 -0.01416093926647023 0.9980070181196582 -0.01416093926647023 0.001992981880341824 0.01416093926647023
5.6315E9 0.00203920323311543 0.015562684353512587 0.9979607967668847 -0.015562684353512587 0.9979607967668847 -0.015562684353512587 0.00203920323311543 0.015562684353512587
5.70625E9 0.002088854920305975 0.01694877349807961 0.997911145079694 -0.01694877349807961 0.997911145079694 -0.01694877349807961 0.002088854920305975 0.01694877349807961
5.781E9 0.002141833188027017 0.018319812963586698 0.997858166811973 -0.018319812963586698 0.997858166811973 -0.018319812963586698 0.002141833188027017 0.018319812963586698
5.85575E9 0.002198041121375375 0.019676378534022966 0.9978019588786247 -0.019676378534022966 0.9978019588786247 -0.019676378534022966 0.002198041121375375 0.019676378534022966
5.9305E9 0.0022573881403713607 0.021019017426814522 0.9977426118596285 -0.021019017426814522 0.9977426118596285 -0.021019017426814522 0.0022573881403713607 0.021019017426814522
6.00525E9 0.002319789540056949 0.022348250065075473 0.9976802104599429 -0.022348250065075473 0.9976802104599429 -0.022348250065075473 0.002319789540056949 0.022348250065075473
6.08E9 0.0023851660704720043 0.023664571721207183 0.997614833929528 -0.023664571721207183 0.997614833929528 -0.023664571721207183 0.0023851660704720043 0.023664571721207183
6.15475E9 0.002453443552694814 0.024968454042663377 0.9975465564473052 -0.024968454042663377 0.9975465564473052 -0.024968454042663377 0.002453443552694814 0.024968454042663377
6.2295E9 0.0025245525275442433 0.026260346469680448 0.9974754474724556 -0.026260346469680448 0.9974754474724556 -0.026260346469680448 0.0025245525275442433 0.026260346469680448
6.30425E9 0.0025984279339036787 0.0275406775538575 0.9974015720660964 -0.0275406775538575 0.9974015720660964 -0.0275406775538575 0.0025984279339036787 0.0275406775538575
6.379E9 0.0026750088139480804 0.028809856185654636 0.9973249911860517 -0.028809856185654636 0.9973249911860517 -0.028809856185654636 0.0026750088139480804 0.028809856185654636
6.45375E9 0.002754238042839758 0.030068272738141742 0.9972457619571602 -0.030068272738141742 0.9972457619571602 -0.030068272738141742 0.002754238042839758 0.030068272738141742
6.5285E9 0.0028360620807110423 0.031316300133672585 0.9971639379192888 -0.031316300133672585 0.9971639379192888 -0.031316300133672585 0.0028360620807110423 0.031316300133672585
6.60325E9 0.002920430744976303 0.032554294839564256 0.9970795692550236 -0.032554294839564256 0.9970795692550236 -0.032554294839564256 0.002920430744976303 0.032554294839564256
6.678E9 0.0030072970012156772 0.03378259779832905 0.9969927029987842 -0.03378259779832905 0.9969927029987842 -0.03378259779832905 0.0030072970012156772 0.03378259779832905
6.75275E9 0.0030966167710510563 0.03500153529752444 0.9969033832289489 -0.03500153529752444 0.9969033832289489 -0.03500153529752444 0.0030966167710510563 0.03500153529752444
6.8275E9 0.003188348755594128 0.036211419783851104 0.9968116512444058 -0.036211419783851104 0.9968116512444058 -0.036211419783851104 0.003188348755594128 0.036211419783851104
6.90225E9 0.003282454273188968 0.03741255062573914 0.9967175457268111 -0.03741255062573914 0.9967175457268111 -0.03741255062573914 0.003282454273188968 0.03741255062573914
6.977E9 0.0033788971102994593 0.03860521482830528 0.9966211028897006 -0.03860521482830528 0.9966211028897006 -0.03860521482830528 0.0033788971102994593 0.03860521482830528
7.05175E9 0.003477643384506892 0.03978968770424495 0.996522356615493 -0.03978968770424495 0.996522356615493 -0.03978968770424495 0.003477643384506892 0.03978968770424495
7.1265E9 0.0035786614186866655 0.04096623350393139 0.9964213385813133 -0.04096623350393139 0.9964213385813133 -0.04096623350393139 0.0035786614186866655 0.04096623350393139
7.20125E9 0.003681921625526549 0.04213510600773094 0.9963180783744734 -0.04213510600773094 0.9963180783744734 -0.04213510600773094 0.003681921625526549 0.04213510600773094
7.276E9 0.003787396401633687 0.043296549083304714 0.9962126035983663 -0.043296549083304714 0.9962126035983663 -0.043296549083304714 0.003787396401633687 0.043296549083304714
7.35075E9 0.0038950600305545386 0.04445079721045012 0.9961049399694455 -0.04445079721045012 0.9961049399694455 -0.04445079721045012 0.0038950600305545386 0.04445079721045012
7.4255E9 0.00400488859410196 0.0455980759758388 0.995995111405898 -0.0455980759758388 0.995995111405898 -0.0455980759758388 0.00400488859410196 0.0455980759758388
7.50025E9 0.004116859891447904 0.04673860253982872 0.9958831401085522 -0.04673860253982872 0.9958831401085522 -0.04673860253982872 0.004116859891447904 0.04673860253982872
7.575E9 0.004230953365499045 0.04787258607736615 0.9957690466345007 -0.04787258607736615 0.9957690466345007 -0.04787258607736615 0.004230953365499045 0.04787258607736615
7.64975E9 0.004347150036127064 0.04900022819484497 0.995652849963873 -0.04900022819484497 0.995652849963873 -0.04900022819484497 0.004347150036127064 0.04900022819484497
7.7245E9 0.004465432439875806 0.05012172332465733 0.9955345675601242 -0.05012172332465733 0.9955345675601242 -0.05012172332465733 0.004465432439875806 0.05012172332465733
7.79925E9 0.004585784575814693 0.051237259099047715 0.9954142154241855 -0.051237259099047715 0.9954142154241855 -0.051237259099047715 0.004585784575814693 0.051237259099047715
7.874E9 0.004708191857252046 0.05234701670477179 0.9952918081427481 -0.05234701670477179 0.9952918081427481 -0.05234701670477179 0.004708191857252046 0.05234701670477179
7.94875E9 0.004832641069064002 0.05345117121996078 0.995167358930936 -0.05345117121996078 0.995167358930936 -0.05345117121996078 0.004832641069064002 0.05345117121996078
8.0235E9 0.004959120330435058 0.05454989193450309 0.9950408796695648 -0.05454989193450309 0.9950408796695648 -0.05454989193450309 0.004959120330435058 0.05454989193450309
8.09825E9 0.005087619062844686 0.055643342655169487 0.9949123809371553 -0.055643342655169487 0.9949123809371553 -0.055643342655169487 0.005087619062844686 0.055643342655169487
8.173E9 0.005218127963172789 0.05673168199663805 0.9947818720368274 -0.05673168199663805 0.9947818720368274 -0.05673168199663805 0.005218127963172789 0.05673168199663805
8.24775E9 0.005350638981833564 0.057815063659504506 0.9946493610181664 -0.057815063659504506 0.9946493610181664 -0.057815063659504506 0.005350638981833564 0.057815063659504506
8.3225E9 0.005485145305885066 0.05889363669630804 0.994514854694115 -0.05889363669630804 0.994514854694115 -0.05889363669630804 0.005485145305885066 0.05889363669630804
8.39725E9 0.005621641347098917 0.05996754576654494 0.994378358652901 -0.05996754576654494 0.994378358652901 -0.05996754576654494 0.005621641347098917 0.05996754576654494
8.472E9 0.005760122735013368 0.06103693138159991 0.9942398772649866 -0.06103693138159991 0.9942398772649866 -0.06103693138159991 0.005760122735013368 0.06103693138159991
8.54675E9 0.005900586315032506 0.062101930140480245 0.9940994136849677 -0.062101930140480245 0.9940994136849677 -0.062101930140480245 0.005900586315032506 0.062101930140480245
