!Murata Part Number: GJM0225C1E8R3BB01
!These Parameters are Measured in Series Mode Connection
!       o--ll--o
!Port1            Port2
!       o------o
!Operation Temp=25[degC], DC Bias Voltage=0[V]
!Freq. Start=100[MHz] Stop=30[GHz], 401[Steps]
!Data Generated on Feb 1, 2023
# Hz S RI R 50
!Freq.(Hz) S11(Real) S11(Imag) S21(Real) S21(Imag) S12(Real) S12(Imag) S22(Real) S22(Imag)
1.0E8 0.785884454579014 -0.4099722855644081 0.2141155454209859 0.4099722855644081 0.2141155454209859 0.4099722855644081 0.785884454579014 -0.4099722855644081
1.7475E8 0.5454028392712181 -0.49752195423514006 0.454597160728782 0.49752195423514006 0.454597160728782 0.49752195423514006 0.5454028392712181 -0.49752195423514006
2.495E8 0.3698455450679655 -0.48217048434068654 0.6301544549320345 0.48217048434068654 0.6301544549320345 0.48217048434068654 0.3698455450679655 -0.48217048434068654
3.2425E8 0.25716598388221423 -0.436295990098582 0.7428340161177857 0.436295990098582 0.7428340161177857 0.436295990098582 0.25716598388221423 -0.436295990098582
3.99E8 0.18537198881222933 -0.387635259082075 0.8146280111877707 0.387635259082075 0.8146280111877707 0.387635259082075 0.18537198881222933 -0.387635259082075
4.7375E8 0.1383003306315042 -0.3440574254047509 0.8616996693684958 0.3440574254047509 0.8616996693684958 0.3440574254047509 0.1383003306315042 -0.3440574254047509
5.485E8 0.10629955473573481 -0.30686285650340395 0.8937004452642652 0.30686285650340395 0.8937004452642652 0.30686285650340395 0.10629955473573481 -0.30686285650340395
6.2325E8 0.08377162354375631 -0.2754795399172681 0.9162283764562437 0.2754795399172681 0.9162283764562437 0.2754795399172681 0.08377162354375631 -0.2754795399172681
6.98E8 0.06741047600007384 -0.24895012480637846 0.9325895239999259 0.24895012480637846 0.9325895239999259 0.24895012480637846 0.06741047600007384 -0.24895012480637846
7.7275E8 0.055201535500207295 -0.2263668456808051 0.9447984644997925 0.2263668456808051 0.9447984644997925 0.2263668456808051 0.055201535500207295 -0.2263668456808051
8.475E8 0.04587524808639822 -0.20697343475159494 0.9541247519136018 0.20697343475159494 0.9541247519136018 0.20697343475159494 0.04587524808639822 -0.20697343475159494
9.2225E8 0.03860544637449986 -0.19016651002847834 0.9613945536255002 0.19016651002847834 0.9613945536255002 0.19016651002847834 0.03860544637449986 -0.19016651002847834
9.97E8 0.03283843797680627 -0.17547116782962413 0.9671615620231938 0.17547116782962413 0.9671615620231938 0.17547116782962413 0.03283843797680627 -0.17547116782962413
1.07175E9 0.028193165843593347 -0.1625140590650001 0.9718068341564068 0.1625140590650001 0.9718068341564068 0.1625140590650001 0.028193165843593347 -0.1625140590650001
1.1465E9 0.024401075638168887 -0.15100034967570924 0.9755989243618309 0.15100034967570924 0.9755989243618309 0.15100034967570924 0.024401075638168887 -0.15100034967570924
1.22125E9 0.021268832313312766 -0.14069555106062012 0.978731167686687 0.14069555106062012 0.978731167686687 0.14069555106062012 0.021268832313312766 -0.14069555106062012
1.296E9 0.01865457365275283 -0.13141163366994432 0.9813454263472474 0.13141163366994432 0.9813454263472474 0.13141163366994432 0.01865457365275283 -0.13141163366994432
1.37075E9 0.016452408103280525 -0.12299652997707704 0.9835475918967196 0.12299652997707704 0.9835475918967196 0.12299652997707704 0.016452408103280525 -0.12299652997707704
1.4455E9 0.014582064114077121 -0.11532621061737984 0.9854179358859229 0.11532621061737984 0.9854179358859229 0.11532621061737984 0.014582064114077121 -0.11532621061737984
1.52025E9 0.012981835595613772 -0.10829868228035835 0.9870181644043864 0.10829868228035835 0.9870181644043864 0.10829868228035835 0.012981835595613772 -0.10829868228035835
1.595E9 0.011603682794081029 -0.10182941414930743 0.988396317205919 0.10182941414930743 0.988396317205919 0.10182941414930743 0.011603682794081029 -0.10182941414930743
1.66975E9 0.010409771133311643 -0.09584782765731555 0.9895902288666885 0.09584782765731555 0.9895902288666885 0.09584782765731555 0.010409771133311643 -0.09584782765731555
1.7445E9 0.009369987192268567 -0.09029458129142703 0.9906300128077313 0.09029458129142703 0.9906300128077313 0.09029458129142703 0.009369987192268567 -0.09029458129142703
1.81925E9 0.008460130007668553 -0.08511945358315652 0.9915398699923318 0.08511945358315652 0.9915398699923318 0.08511945358315652 0.008460130007668553 -0.08511945358315652
1.894E9 0.007660576455964585 -0.08027967939209105 0.9923394235440355 0.08027967939209105 0.9923394235440355 0.08027967939209105 0.007660576455964585 -0.08027967939209105
1.96875E9 0.006955284275788741 -0.07573863228630681 0.9930447157242113 0.07573863228630681 0.9930447157242113 0.07573863228630681 0.006955284275788741 -0.07573863228630681
2.0435E9 0.006331038793007075 -0.07146477320515936 0.993668961206993 0.07146477320515936 0.993668961206993 0.07146477320515936 0.006331038793007075 -0.07146477320515936
2.11825E9 0.005776877740509411 -0.06743080555930002 0.9942231222594905 0.06743080555930002 0.9942231222594905 0.06743080555930002 0.005776877740509411 -0.06743080555930002
2.193E9 0.005283647737073351 -0.063612991567176 0.9947163522629267 0.063612991567176 0.9947163522629267 0.063612991567176 0.005283647737073351 -0.063612991567176
2.26775E9 0.004843659148962427 -0.0599905954357218 0.9951563408510377 0.0599905954357218 0.9951563408510377 0.0599905954357218 0.004843659148962427 -0.0599905954357218
2.3425E9 0.00445041521010241 -0.05654542702514137 0.9955495847898977 0.05654542702514137 0.9955495847898977 0.05654542702514137 0.00445041521010241 -0.05654542702514137
2.41725E9 0.0040983977210057925 -0.05326146564898055 0.9959016022789942 0.05326146564898055 0.9959016022789942 0.05326146564898055 0.0040983977210057925 -0.05326146564898055
2.492E9 0.0037828962370692093 -0.050124548191548456 0.9962171037629307 0.050124548191548456 0.9962171037629307 0.050124548191548456 0.0037828962370692093 -0.050124548191548456
2.56675E9 0.003499870962485668 -0.047122109163795514 0.9965001290375145 0.047122109163795514 0.9965001290375145 0.047122109163795514 0.003499870962485668 -0.047122109163795514
2.6415E9 0.003245841970861204 -0.0442429629471103 0.9967541580291388 0.0442429629471103 0.9967541580291388 0.0442429629471103 0.003245841970861204 -0.0442429629471103
2.71625E9 0.003017799140084152 -0.04147712049675499 0.9969822008599158 0.04147712049675499 0.9969822008599158 0.04147712049675499 0.003017799140084152 -0.04147712049675499
2.791E9 0.00281312849837093 -0.03881563434272976 0.9971868715016291 0.03881563434272976 0.9971868715016291 0.03881563434272976 0.00281312849837093 -0.03881563434272976
2.86575E9 0.0026295516573439193 -0.03625046694628364 0.9973704483426562 0.03625046694628364 0.9973704483426562 0.03625046694628364 0.0026295516573439193 -0.03625046694628364
2.9405E9 0.0024650757458456103 -0.03377437842713712 0.9975349242541546 0.03377437842713712 0.9975349242541546 0.03377437842713712 0.0024650757458456103 -0.03377437842713712
3.01525E9 0.002317951818625817 -0.031380830431067964 0.9976820481813741 0.031380830431067964 0.9976820481813741 0.031380830431067964 0.002317951818625817 -0.031380830431067964
3.09E9 0.002186640142832825 -0.029063903505938477 0.9978133598571672 0.029063903505938477 0.9978133598571672 0.029063903505938477 0.002186640142832825 -0.029063903505938477
3.16475E9 0.002069781095596606 -0.026818225831399603 0.9979302189044033 0.026818225831399603 0.9979302189044033 0.026818225831399603 0.002069781095596606 -0.026818225831399603
3.2395E9 0.0019661706621926767 -0.0246389115299484 0.9980338293378072 0.0246389115299484 0.9980338293378072 0.0246389115299484 0.0019661706621926767 -0.0246389115299484
3.31425E9 0.0018747397242147496 -0.022521507095075617 0.9981252602757854 0.022521507095075617 0.9981252602757854 0.022521507095075617 0.0018747397242147496 -0.022521507095075617
3.389E9 0.0017945364841521474 -0.020461944721579698 0.9982054635158478 0.020461944721579698 0.9982054635158478 0.020461944721579698 0.0017945364841521474 -0.020461944721579698
3.46375E9 0.0017247114967034575 -0.01845650152586834 0.9982752885032968 0.01845650152586834 0.9982752885032968 0.01845650152586834 0.0017247114967034575 -0.01845650152586834
3.5385E9 0.0016645048755453123 -0.016501763809657503 0.9983354951244549 0.016501763809657503 0.9983354951244549 0.016501763809657503 0.0016645048755453123 -0.016501763809657503
3.61325E9 0.0016132353227875662 -0.014594595656301036 0.9983867646772123 0.014594595656301036 0.9983867646772123 0.014594595656301036 0.0016132353227875662 -0.014594595656301036
3.688E9 0.0015702906913096916 -0.012732111260845214 0.9984297093086903 0.012732111260845214 0.9984297093086903 0.012732111260845214 0.0015702906913096916 -0.012732111260845214
3.76275E9 0.0015351198409078069 -0.010911650487400212 0.9984648801590921 0.010911650487400212 0.9984648801590921 0.010911650487400212 0.0015351198409078069 -0.010911650487400212
3.8375E9 0.001507225590248378 -0.009130757224190832 0.9984927744097518 0.009130757224190832 0.9984927744097518 0.009130757224190832 0.001507225590248378 -0.009130757224190832
3.91225E9 0.0014861586000109548 -0.007387160170605204 0.9985138413999891 0.007387160170605204 0.9985138413999891 0.007387160170605204 0.0014861586000109548 -0.007387160170605204
3.987E9 0.0014715120498581136 -0.0056787557440264695 0.9985284879501418 0.0056787557440264695 0.9985284879501418 0.0056787557440264695 0.0014715120498581136 -0.0056787557440264695
4.06175E9 0.0014629169942112642 -0.004003592839081635 0.9985370830057887 0.004003592839081635 0.9985370830057887 0.004003592839081635 0.0014629169942112642 -0.004003592839081635
4.1365E9 0.0014600383001931556 -0.0023598592096882877 0.9985399616998069 0.0023598592096882877 0.9985399616998069 0.0023598592096882877 0.0014600383001931556 -0.0023598592096882877
4.21125E9 0.0014625710862792762 -7.458692761459614E-4 0.9985374289137207 7.458692761459614E-4 0.9985374289137207 7.458692761459614E-4 0.0014625710862792762 -7.458692761459614E-4
4.286E9 0.0014702375927829554 8.399468134947623E-4 0.9985297624072172 -8.399468134947623E-4 0.9985297624072172 -8.399468134947623E-4 0.0014702375927829554 8.399468134947623E-4
4.36075E9 0.0014827844257635434 0.0023990530156320017 0.9985172155742364 -0.0023990530156320017 0.9985172155742364 -0.0023990530156320017 0.0014827844257635434 0.0023990530156320017
4.4355E9 0.0014999801246789778 0.003932816245205776 0.998500019875321 -0.003932816245205776 0.998500019875321 -0.003932816245205776 0.0014999801246789778 0.003932816245205776
4.51025E9 0.0015216130114134518 0.0054425143633355854 0.9984783869885866 -0.0054425143633355854 0.9984783869885866 -0.0054425143633355854 0.0015216130114134518 0.0054425143633355854
4.585E9 0.0015474892844485012 0.006929343395873948 0.9984525107155513 -0.006929343395873948 0.9984525107155513 -0.006929343395873948 0.0015474892844485012 0.006929343395873948
4.65975E9 0.00157743132711483 0.008394424067989332 0.9984225686728851 -0.008394424067989332 0.9984225686728851 -0.008394424067989332 0.00157743132711483 0.008394424067989332
4.7345E9 0.00161127620322806 0.009838807729339627 0.9983887237967718 -0.009838807729339627 0.9983887237967718 -0.009838807729339627 0.00161127620322806 0.009838807729339627
4.80925E9 0.0016488743171095119 0.011263481735295114 0.9983511256828904 -0.011263481735295114 0.9983511256828904 -0.011263481735295114 0.0016488743171095119 0.011263481735295114
4.884E9 0.0016900882181337476 0.012669374341797279 0.9983099117818662 -0.012669374341797279 0.9983099117818662 -0.012669374341797279 0.0016900882181337476 0.012669374341797279
4.95875E9 0.0017347915326191038 0.014057359164617518 0.9982652084673809 -0.014057359164617518 0.9982652084673809 -0.014057359164617518 0.0017347915326191038 0.014057359164617518
5.0335E9 0.0017828680081608654 0.015428259247854277 0.998217131991839 -0.015428259247854277 0.998217131991839 -0.015428259247854277 0.0017828680081608654 0.015428259247854277
5.10825E9 0.001834210657461194 0.016782850781349008 0.9981657893425387 -0.016782850781349008 0.9981657893425387 -0.016782850781349008 0.001834210657461194 0.016782850781349008
5.183E9 0.001888720990387096 0.01812186650220337 0.9981112790096128 -0.01812186650220337 0.9981112790096128 -0.01812186650220337 0.001888720990387096 0.01812186650220337
5.25775E9 0.0019463083244303898 0.01944599881164939 0.9980536916755699 -0.01944599881164939 0.9980536916755699 -0.01944599881164939 0.0019463083244303898 0.01944599881164939
5.3325E9 0.002006889164987759 0.020755902635083114 0.9979931108350122 -0.020755902635083114 0.9979931108350122 -0.020755902635083114 0.002006889164987759 0.020755902635083114
5.40725E9 0.002070386647954436 0.022052198050054112 0.9979296133520457 -0.022052198050054112 0.9979296133520457 -0.022052198050054112 0.002070386647954436 0.022052198050054112
5.482E9 0.0021367300380571073 0.023335472704351864 0.9978632699619429 -0.023335472704351864 0.9978632699619429 -0.023335472704351864 0.0021367300380571073 0.023335472704351864
5.55675E9 0.002205854277161417 0.02460628404399679 0.9977941457228383 -0.02460628404399679 0.9977941457228383 -0.02460628404399679 0.002205854277161417 0.02460628404399679
5.6315E9 0.002277699577494863 0.02586516136888683 0.9977223004225052 -0.02586516136888683 0.9977223004225052 -0.02586516136888683 0.002277699577494863 0.02586516136888683
5.70625E9 0.002352211055342084 0.0271126077320363 0.997647788944658 -0.0271126077320363 0.997647788944658 -0.0271126077320363 0.002352211055342084 0.0271126077320363
5.781E9 0.002429338401309425 0.02834910169673866 0.9975706615986908 -0.02834910169673866 0.9975706615986908 -0.02834910169673866 0.002429338401309425 0.02834910169673866
5.85575E9 0.0025090355837300827 0.029575098964565484 0.99749096441627 -0.029575098964565484 0.99749096441627 -0.029575098964565484 0.0025090355837300827 0.029575098964565484
5.9305E9 0.0025912605821996966 0.030791033885856915 0.9974087394178004 -0.030791033885856915 0.9974087394178004 -0.030791033885856915 0.0025912605821996966 0.030791033885856915
6.00525E9 0.0026759751486026798 0.0319973208632427 0.9973240248513973 -0.0319973208632427 0.9973240248513973 -0.0319973208632427 0.0026759751486026798 0.0319973208632427
6.08E9 0.00276314459331912 0.03319435565774404 0.9972368554066808 -0.03319435565774404 0.9972368554066808 -0.03319435565774404 0.00276314459331912 0.03319435565774404
6.15475E9 0.0028527375945965935 0.03438251660612758 0.9971472624054034 -0.03438251660612758 0.9971472624054034 -0.03438251660612758 0.0028527375945965935 0.03438251660612758
6.2295E9 0.002944726029335986 0.03556216575740233 0.9970552739706641 -0.03556216575740233 0.9970552739706641 -0.03556216575740233 0.002944726029335986 0.03556216575740233
6.30425E9 0.003039084823780009 0.036733649935657114 0.9969609151762199 -0.036733649935657114 0.9969609151762199 -0.036733649935657114 0.003039084823780009 0.036733649935657114
6.379E9 0.0031357918228117846 0.03789730173582129 0.9968642081771881 -0.03789730173582129 0.9968642081771881 -0.03789730173582129 0.0031357918228117846 0.03789730173582129
6.45375E9 0.003234827676771974 0.03905344045838477 0.9967651723232279 -0.03905344045838477 0.9967651723232279 -0.03905344045838477 0.003234827676771974 0.03905344045838477
6.5285E9 0.0033361757448902673 0.04020237298863141 0.9966638242551097 -0.04020237298863141 0.9966638242551097 -0.04020237298863141 0.0033361757448902673 0.04020237298863141
6.60325E9 0.0034398220146031467 0.041344394625511344 0.9965601779853971 -0.041344394625511344 0.9965601779853971 -0.041344394625511344 0.0034398220146031467 0.041344394625511344
6.678E9 0.0035457550361981203 0.042479789864903424 0.9964542449638021 -0.042479789864903424 0.9964542449638021 -0.042479789864903424 0.0035457550361981203 0.042479789864903424
6.75275E9 0.0036539658723874387 0.04360883314168878 0.9963460341276126 -0.04360883314168878 0.9963460341276126 -0.04360883314168878 0.0036539658723874387 0.04360883314168878
6.8275E9 0.0037644480625745537 0.04473178953476998 0.9962355519374256 -0.04473178953476998 0.9962355519374256 -0.04473178953476998 0.0037644480625745537 0.04473178953476998
6.90225E9 0.00387719760173711 0.04584891543892419 0.9961228023982627 -0.04584891543892419 0.9961228023982627 -0.04584891543892419 0.00387719760173711 0.04584891543892419
6.977E9 0.003992212934013513 0.04696045920716813 0.9960077870659865 -0.04696045920716813 0.9960077870659865 -0.04696045920716813 0.003992212934013513 0.04696045920716813
7.05175E9 0.0041094949612494715 0.04806666176713793 0.9958905050387504 -0.04806666176713793 0.9958905050387504 -0.04806666176713793 0.0041094949612494715 0.04806666176713793
7.1265E9 0.0042290470669393 0.049167757214846015 0.9957709529330606 -0.049167757214846015 0.9957709529330606 -0.049167757214846015 0.0042290470669393 0.049167757214846015
7.20125E9 0.004350875156187734 0.05026397338906778 0.9956491248438124 -0.05026397338906778 0.9956491248438124 -0.05026397338906778 0.004350875156187734 0.05026397338906778
7.276E9 0.004474987712525516 0.051355532429532585 0.9955250122874746 -0.051355532429532585 0.9955250122874746 -0.051355532429532585 0.004474987712525516 0.051355532429532585
7.35075E9 0.0046013958726407525 0.05244265132205007 0.9953986041273591 -0.05244265132205007 0.9953986041273591 -0.05244265132205007 0.0046013958726407525 0.05244265132205007
7.4255E9 0.004730113520342595 0.05352554243368607 0.9952698864796573 -0.05352554243368607 0.9952698864796573 -0.05352554243368607 0.004730113520342595 0.05352554243368607
7.50025E9 0.004861157401361073 0.054604414041124226 0.995138842598639 -0.054604414041124226 0.995138842598639 -0.054604414041124226 0.004861157401361073 0.054604414041124226
7.575E9 0.00499454726091317 0.05567947085540062 0.9950054527390868 -0.05567947085540062 0.9950054527390868 -0.05567947085540062 0.00499454726091317 0.05567947085540062
7.64975E9 0.005130306006339456 0.05675091454628866 0.9948696939936605 -0.05675091454628866 0.9948696939936605 -0.05675091454628866 0.005130306006339456 0.05675091454628866
7.7245E9 0.005268459897547872 0.05781894426973978 0.9947315401024522 -0.05781894426973978 0.9947315401024522 -0.05781894426973978 0.005268459897547872 0.05781894426973978
7.79925E9 0.005409038768503303 0.05888375720195409 0.9945909612314968 -0.05888375720195409 0.9945909612314968 -0.05888375720195409 0.005409038768503303 0.05888375720195409
7.874E9 0.005552076283588744 0.05994554908387063 0.9944479237164112 -0.05994554908387063 0.9944479237164112 -0.05994554908387063 0.005552076283588744 0.05994554908387063
7.94875E9 0.005697610233353439 0.06100451478013247 0.9943023897666463 -0.06100451478013247 0.9943023897666463 -0.06100451478013247 0.005697610233353439 0.06100451478013247
8.0235E9 0.005845682874977601 0.062060848856901746 0.9941543171250223 -0.062060848856901746 0.9941543171250223 -0.062060848856901746 0.005845682874977601 0.062060848856901746
8.09825E9 0.005996341323748557 0.06311474618328311 0.9940036586762516 -0.06311474618328311 0.9940036586762516 -0.06311474618328311 0.005996341323748557 0.06311474618328311
8.173E9 0.006149638002992858 0.06416640256156572 0.993850361997007 -0.06416640256156572 0.993850361997007 -0.06416640256156572 0.006149638002992858 0.06416640256156572
8.24775E9 0.006305631161282992 0.06521601539202242 0.9936943688387171 -0.06521601539202242 0.9936943688387171 -0.06521601539202242 0.006305631161282992 0.06521601539202242
8.3225E9 0.00646438546738726 0.06626378437862078 0.9935356145326129 -0.06626378437862078 0.9935356145326129 -0.06626378437862078 0.00646438546738726 0.06626378437862078
8.39725E9 0.006625972695419165 0.06730991228271314 0.9933740273045808 -0.06730991228271314 0.9933740273045808 -0.06730991228271314 0.006625972695419165 0.06730991228271314
8.472E9 0.006790472515047614 0.06835460573259128 0.9932095274849525 -0.06835460573259128 0.9932095274849525 -0.06835460573259128 0.006790472515047614 0.06835460573259128
