!Murata Part Number: GJM0225C1E2R5BB01
!These Parameters are Measured in Series Mode Connection
!       o--ll--o
!Port1            Port2
!       o------o
!Operation Temp=25[degC], DC Bias Voltage=0[V]
!Freq. Start=100[MHz] Stop=30[GHz], 401[Steps]
!Data Generated on Feb 1, 2023
# Hz S RI R 50
!Freq.(Hz) S11(Real) S11(Imag) S21(Real) S21(Imag) S12(Real) S12(Imag) S22(Real) S22(Imag)
1.0E8 0.9758628207615706 -0.15330696766386168 0.024137179238429448 0.15330696766386168 0.024137179238429448 0.15330696766386168 0.9758628207615706 -0.15330696766386168
1.7475E8 0.9297322687136006 -0.2553039649886003 0.07026773128639939 0.2553039649886003 0.07026773128639939 0.2553039649886003 0.9297322687136006 -0.2553039649886003
2.495E8 0.8663926470855049 -0.33981034815237765 0.13360735291449513 0.33981034815237765 0.13360735291449513 0.33981034815237765 0.8663926470855049 -0.33981034815237765
3.2425E8 0.7931537471188843 -0.4044984997093169 0.2068462528811157 0.4044984997093169 0.2068462528811157 0.4044984997093169 0.7931537471188843 -0.4044984997093169
3.99E8 0.7165747680069682 -0.4499886934212815 0.28342523199303177 0.4499886934212815 0.28342523199303177 0.4499886934212815 0.7165747680069682 -0.4499886934212815
4.7375E8 0.641561782674335 -0.4787423750424711 0.3584382173256651 0.4787423750424711 0.3584382173256651 0.4787423750424711 0.641561782674335 -0.4787423750424711
5.485E8 0.5712249735246356 -0.4939741156814196 0.42877502647536425 0.4939741156814196 0.42877502647536425 0.4939741156814196 0.5712249735246356 -0.4939741156814196
6.2325E8 0.5071772401494591 -0.4988934280289987 0.492822759850541 0.4988934280289987 0.492822759850541 0.4988934280289987 0.5071772401494591 -0.4988934280289987
6.98E8 0.4499712106499906 -0.49630688486562846 0.5500287893500092 0.49630688486562846 0.5500287893500092 0.49630688486562846 0.4499712106499906 -0.49630688486562846
7.7275E8 0.3994992129539148 -0.4884818345340336 0.6005007870460852 0.4884818345340336 0.6005007870460852 0.4884818345340336 0.3994992129539148 -0.4884818345340336
8.475E8 0.3552931055746539 -0.47715784063631966 0.6447068944253461 0.47715784063631966 0.6447068944253461 0.47715784063631966 0.3552931055746539 -0.47715784063631966
9.2225E8 0.3167230693561623 -0.46362265610168174 0.6832769306438378 0.46362265610168174 0.6832769306438378 0.46362265610168174 0.3167230693561623 -0.46362265610168174
9.97E8 0.2831175241480232 -0.44880463863745407 0.7168824758519767 0.44880463863745407 0.7168824758519767 0.44880463863745407 0.2831175241480232 -0.44880463863745407
1.07175E9 0.253829027613027 -0.4333587409690243 0.746170972386973 0.4333587409690243 0.746170972386973 0.4333587409690243 0.253829027613027 -0.4333587409690243
1.1465E9 0.2282662025271735 -0.4177378209899951 0.7717337974728266 0.4177378209899951 0.7717337974728266 0.4177378209899951 0.2282662025271735 -0.4177378209899951
1.22125E9 0.2059056986508155 -0.4022482236215123 0.7940943013491842 0.4022482236215123 0.7940943013491842 0.4022482236215123 0.2059056986508155 -0.4022482236215123
1.296E9 0.18629319104273853 -0.38709154038723853 0.8137068089572614 0.38709154038723853 0.8137068089572614 0.38709154038723853 0.18629319104273853 -0.38709154038723853
1.37075E9 0.16903887342187426 -0.37239527509785875 0.8309611265781258 0.37239527509785875 0.8309611265781258 0.37239527509785875 0.16903887342187426 -0.37239527509785875
1.4455E9 0.15381059916140996 -0.3582350360315349 0.84618940083859 0.3582350360315349 0.84618940083859 0.3582350360315349 0.15381059916140996 -0.3582350360315349
1.52025E9 0.14032640048462747 -0.3446504427344986 0.8596735995153724 0.3446504427344986 0.8596735995153724 0.3446504427344986 0.14032640048462747 -0.3446504427344986
1.595E9 0.1283472740657069 -0.33165645310241015 0.871652725934293 0.33165645310241015 0.871652725934293 0.33165645310241015 0.1283472740657069 -0.33165645310241015
1.66975E9 0.11767063976207098 -0.3192513900380145 0.882329360237929 0.3192513900380145 0.882329360237929 0.3192513900380145 0.11767063976207098 -0.3192513900380145
1.7445E9 0.10812461454459914 -0.3074226055178028 0.8918753854554008 0.3074226055178028 0.8918753854554008 0.3074226055178028 0.10812461454459914 -0.3074226055178028
1.81925E9 0.09956310564972716 -0.29615046017756796 0.9004368943502727 0.29615046017756796 0.9004368943502727 0.29615046017756796 0.09956310564972716 -0.29615046017756796
1.894E9 0.0918616609180588 -0.2854111047404917 0.9081383390819414 0.2854111047404917 0.9081383390819414 0.2854111047404917 0.0918616609180588 -0.2854111047404917
1.96875E9 0.08491398790576239 -0.2751784104652539 0.9150860120942377 0.2751784104652539 0.9150860120942377 0.2751784104652539 0.08491398790576239 -0.2751784104652539
2.0435E9 0.07862904794786996 -0.2654252958882796 0.9213709520521298 0.2654252958882796 0.9213709520521298 0.2654252958882796 0.07862904794786996 -0.2654252958882796
2.11825E9 0.07292863630176293 -0.2561246258317143 0.9270713636982371 0.2561246258317143 0.9270713636982371 0.2561246258317143 0.07292863630176293 -0.2561246258317143
2.193E9 0.06774536893032286 -0.24724980791210294 0.932254631069677 0.24724980791210294 0.932254631069677 0.24724980791210294 0.06774536893032286 -0.24724980791210294
2.26775E9 0.06302100725740194 -0.23877517572101906 0.9369789927425982 0.23877517572101906 0.9369789927425982 0.23877517572101906 0.06302100725740194 -0.23877517572101906
2.3425E9 0.05870506275483035 -0.23067622220977074 0.9412949372451697 0.23067622220977074 0.9412949372451697 0.23067622220977074 0.05870506275483035 -0.23067622220977074
2.41725E9 0.054753632773983374 -0.22292972856435841 0.9452463672260166 0.22292972856435841 0.9452463672260166 0.22292972856435841 0.054753632773983374 -0.22292972856435841
2.492E9 0.05112842735554903 -0.21551382085327517 0.9488715726444511 0.21551382085327517 0.9488715726444511 0.21551382085327517 0.05112842735554903 -0.21551382085327517
2.56675E9 0.04779595381838463 -0.20840797744785983 0.9522040461816152 0.20840797744785983 0.9522040461816152 0.20840797744785983 0.04779595381838463 -0.20840797744785983
2.6415E9 0.04472683183635494 -0.20159300357703458 0.9552731681636452 0.20159300357703458 0.9552731681636452 0.20159300357703458 0.04472683183635494 -0.20159300357703458
2.71625E9 0.04189521660060575 -0.19505098462455708 0.9581047833993942 0.19505098462455708 0.9581047833993942 0.19505098462455708 0.04189521660060575 -0.19505098462455708
2.791E9 0.03927831168333965 -0.18876522636850243 0.9607216883166606 0.18876522636850243 0.9607216883166606 0.18876522636850243 0.03927831168333965 -0.18876522636850243
2.86575E9 0.036855956509337304 -0.18272018791704386 0.9631440434906625 0.18272018791704386 0.9631440434906625 0.18272018791704386 0.036855956509337304 -0.18272018791704386
2.9405E9 0.03461027602917092 -0.17690141133959686 0.9653897239708292 0.17690141133959686 0.9653897239708292 0.17690141133959686 0.03461027602917092 -0.17690141133959686
3.01525E9 0.03252538238143504 -0.17129545073383617 0.9674746176185651 0.17129545073383617 0.9674746176185651 0.17129545073383617 0.03252538238143504 -0.17129545073383617
3.09E9 0.030587120121200673 -0.16588980256811564 0.9694128798787994 0.16588980256811564 0.9694128798787994 0.16588980256811564 0.030587120121200673 -0.16588980256811564
3.16475E9 0.02878284805343438 -0.16067283849574157 0.9712171519465657 0.16067283849574157 0.9712171519465657 0.16067283849574157 0.02878284805343438 -0.16067283849574157
3.2395E9 0.02710125190492298 -0.15563374138070604 0.9728987480950768 0.15563374138070604 0.9728987480950768 0.15563374138070604 0.02710125190492298 -0.15563374138070604
3.31425E9 0.025532183046489854 -0.15076244495218752 0.97446781695351 0.15076244495218752 0.97446781695351 0.15076244495218752 0.025532183046489854 -0.15076244495218752
3.389E9 0.024066519279686463 -0.146049577279996 0.9759334807203133 0.146049577279996 0.9759334807203133 0.146049577279996 0.024066519279686463 -0.146049577279996
3.46375E9 0.0226960443616499 -0.141486408108145 0.9773039556383499 0.141486408108145 0.9773039556383499 0.141486408108145 0.0226960443616499 -0.141486408108145
3.5385E9 0.021413343485063043 -0.13706479997921403 0.9785866565149371 0.13706479997921403 0.9785866565149371 0.13706479997921403 0.021413343485063043 -0.13706479997921403
3.61325E9 0.02021171237867171 -0.13277716301389503 0.9797882876213282 0.13277716301389503 0.9797882876213282 0.13277716301389503 0.02021171237867171 -0.13277716301389503
3.688E9 0.019085078064999348 -0.1286164131677036 0.9809149219350006 0.1286164131677036 0.9809149219350006 0.1286164131677036 0.019085078064999348 -0.1286164131677036
3.76275E9 0.01802792961984131 -0.1245759337627715 0.9819720703801585 0.1245759337627715 0.9819720703801585 0.1245759337627715 0.01802792961984131 -0.1245759337627715
3.8375E9 0.017035257534218834 -0.12064954008142759 0.9829647424657812 0.12064954008142759 0.9829647424657812 0.12064954008142759 0.017035257534218834 -0.12064954008142759
3.91225E9 0.016102500492988316 -0.11683144680596179 0.9838974995070117 0.11683144680596179 0.9838974995070117 0.11683144680596179 0.016102500492988316 -0.11683144680596179
3.987E9 0.01522549856275284 -0.11311623809266708 0.9847745014372471 0.11311623809266708 0.9847745014372471 0.11311623809266708 0.01522549856275284 -0.11311623809266708
4.06175E9 0.014400451931239983 -0.10949884007590464 0.9855995480687599 0.10949884007590464 0.9855995480687599 0.10949884007590464 0.014400451931239983 -0.10949884007590464
4.1365E9 0.013623884465888372 -0.1059744956080423 0.9863761155341114 0.1059744956080423 0.9863761155341114 0.1059744956080423 0.013623884465888372 -0.1059744956080423
4.21125E9 0.012892611465116619 -0.10253874105262367 0.9871073885348834 0.10253874105262367 0.9871073885348834 0.10253874105262367 0.012892611465116619 -0.10253874105262367
4.286E9 0.012203711064980341 -0.0991873849602912 0.9877962889350196 0.0991873849602912 0.9877962889350196 0.0991873849602912 0.012203711064980341 -0.0991873849602912
4.36075E9 0.011554498839409405 -0.09591648846928807 0.9884455011605904 0.09591648846928807 0.9884455011605904 0.09591648846928807 0.011554498839409405 -0.09591648846928807
4.4355E9 0.010942505196224472 -0.09272234728446105 0.9890574948037755 0.09272234728446105 0.9890574948037755 0.09272234728446105 0.010942505196224472 -0.09272234728446105
4.51025E9 0.010365455225528149 -0.08960147510033553 0.9896345447744717 0.08960147510033553 0.9896345447744717 0.08960147510033553 0.010365455225528149 -0.08960147510033553
4.585E9 0.009821250703400062 -0.08655058834490781 0.9901787492966 0.08655058834490781 0.9901787492966 0.08655058834490781 0.009821250703400062 -0.08655058834490781
4.65975E9 0.009307953993376798 -0.08356659213119523 0.9906920460066231 0.08356659213119523 0.9906920460066231 0.08356659213119523 0.009307953993376798 -0.08356659213119523
4.7345E9 0.008823773622035003 -0.08064656731328615 0.9911762263779648 0.08064656731328615 0.9911762263779648 0.08064656731328615 0.008823773622035003 -0.08064656731328615
4.80925E9 0.008367051334003566 -0.07778775855260922 0.9916329486659963 0.07778775855260922 0.9916329486659963 0.07778775855260922 0.008367051334003566 -0.07778775855260922
4.884E9 0.007936250456651764 -0.07498756330842384 0.992063749543348 0.07498756330842384 0.992063749543348 0.07498756330842384 0.007936250456651764 -0.07498756330842384
4.95875E9 0.0075299454261523475 -0.07224352167413767 0.9924700545738474 0.07224352167413767 0.9924700545738474 0.07224352167413767 0.0075299454261523475 -0.07224352167413767
5.0335E9 0.00714681234512186 -0.06955330698801804 0.992853187654878 0.06955330698801804 0.992853187654878 0.06955330698801804 0.00714681234512186 -0.06955330698801804
5.10825E9 0.006785620458031882 -0.06691471715322603 0.9932143795419681 0.06691471715322603 0.9932143795419681 0.06691471715322603 0.006785620458031882 -0.06691471715322603
5.183E9 0.006445224444430826 -0.06432566660790028 0.9935547755555689 0.06432566660790028 0.9935547755555689 0.06432566660790028 0.006445224444430826 -0.06432566660790028
5.25775E9 0.006124557442027417 -0.06178417889129841 0.9938754425579724 0.06178417889129841 0.9938754425579724 0.06178417889129841 0.006124557442027417 -0.06178417889129841
5.3325E9 0.005822624722125583 -0.059288379756806814 0.9941773752778745 0.059288379756806814 0.9941773752778745 0.059288379756806814 0.005822624722125583 -0.059288379756806814
5.40725E9 0.005538497948988671 -0.05683649078699437 0.9944615020510112 0.05683649078699437 0.9944615020510112 0.05683649078699437 0.005538497948988671 -0.05683649078699437
5.482E9 0.005271309962637065 -0.05442682346985187 0.994728690037363 0.05442682346985187 0.994728690037363 0.05442682346985187 0.005271309962637065 -0.05442682346985187
5.55675E9 0.005020250031507591 -0.052057773698956734 0.9949797499684923 0.052057773698956734 0.9949797499684923 0.052057773698956734 0.005020250031507591 -0.052057773698956734
5.6315E9 0.0047845595274630314 -0.04972781666357397 0.9952154404725371 0.04972781666357397 0.9952154404725371 0.04972781666357397 0.0047845595274630314 -0.04972781666357397
5.70625E9 0.004563527980951109 -0.047435502097668406 0.995436472019049 0.047435502097668406 0.995436472019049 0.047435502097668406 0.004563527980951109 -0.047435502097668406
5.781E9 0.0043564894787755885 -0.045179449859498406 0.9956435105212245 0.045179449859498406 0.9956435105212245 0.045179449859498406 0.0043564894787755885 -0.045179449859498406
5.85575E9 0.0041628193710422845 -0.04295834581590633 0.9958371806289577 0.04295834581590633 0.9958371806289577 0.04295834581590633 0.0041628193710422845 -0.04295834581590633
5.9305E9 0.0039819312574534945 -0.04077093800764034 0.9960180687425464 0.04077093800764034 0.9960180687425464 0.04077093800764034 0.0039819312574534945 -0.04077093800764034
6.00525E9 0.003813274226309353 -0.03861603307406174 0.9961867257736906 0.03861603307406174 0.9961867257736906 0.03861603307406174 0.003813274226309353 -0.03861603307406174
6.08E9 0.003656330322387265 -0.03649249291742292 0.9963436696776126 0.03649249291742292 0.9963436696776126 0.03649249291742292 0.003656330322387265 -0.03649249291742292
6.15475E9 0.003510612222358978 -0.03439923158856957 0.9964893877776411 0.03439923158856957 0.9964893877776411 0.03439923158856957 0.003510612222358978 -0.03439923158856957
6.2295E9 0.0033756610986086536 -0.03233521237743457 0.9966243389013912 0.03233521237743457 0.9966243389013912 0.03233521237743457 0.0033756610986086536 -0.03233521237743457
6.30425E9 0.00325104465427044 -0.03029944509307252 0.9967489553457296 0.03029944509307252 0.9967489553457296 0.03029944509307252 0.00325104465427044 -0.03029944509307252
6.379E9 0.003136355314040217 -0.028290983519236527 0.9968636446859598 0.028290983519236527 0.9968636446859598 0.028290983519236527 0.003136355314040217 -0.028290983519236527
6.45375E9 0.0030312085568607863 -0.02630892303264646 0.9969687914431392 0.02630892303264646 0.9969687914431392 0.02630892303264646 0.0030312085568607863 -0.02630892303264646
6.5285E9 0.002935241377954743 -0.024352398372136392 0.9970647586220454 0.024352398372136392 0.9970647586220454 0.024352398372136392 0.002935241377954743 -0.024352398372136392
6.60325E9 0.002848110868905803 -0.022420581547823126 0.9971518891310943 0.022420581547823126 0.9971518891310943 0.022420581547823126 0.002848110868905803 -0.022420581547823126
6.678E9 0.0027694929055839643 -0.020512679880302958 0.9972305070944161 0.020512679880302958 0.9972305070944161 0.020512679880302958 0.0027694929055839643 -0.020512679880302958
6.75275E9 0.002699080934688502 -0.01862793416067649 0.9973009190653117 0.01862793416067649 0.9973009190653117 0.01862793416067649 0.002699080934688502 -0.01862793416067649
6.8275E9 0.002636584850558622 -0.01676561692292637 0.9973634151494413 0.01676561692292637 0.9973634151494413 0.01676561692292637 0.002636584850558622 -0.01676561692292637
6.90225E9 0.002581729954686127 -0.014925030820831653 0.9974182700453136 0.014925030820831653 0.9974182700453136 0.014925030820831653 0.002581729954686127 -0.014925030820831653
6.977E9 0.0025342559910683767 -0.013105507102210777 0.9974657440089315 0.013105507102210777 0.9974657440089315 0.013105507102210777 0.0025342559910683767 -0.013105507102210777
7.05175E9 0.002493916251171816 -0.011306404173836323 0.9975060837488283 0.011306404173836323 0.9975060837488283 0.011306404173836323 0.002493916251171816 -0.011306404173836323
7.1265E9 0.002460476742844606 -0.00952710625087459 0.9975395232571556 0.00952710625087459 0.9975395232571556 0.00952710625087459 0.002460476742844606 -0.00952710625087459
7.20125E9 0.002433715418028201 -0.007767022085165899 0.9975662845819718 0.007767022085165899 0.9975662845819718 0.007767022085165899 0.002433715418028201 -0.007767022085165899
7.276E9 0.0024134214545784905 -0.006025583767089936 0.9975865785454215 0.006025583767089936 0.9975865785454215 0.006025583767089936 0.0024134214545784905 -0.006025583767089936
7.35075E9 0.0023993945879225865 -0.004302245596150055 0.9976006054120775 0.004302245596150055 0.9976006054120775 0.004302245596150055 0.0023993945879225865 -0.004302245596150055
7.4255E9 0.002391444488652451 -0.0025964830157717217 0.9976085555113474 0.0025964830157717217 0.9976085555113474 0.0025964830157717217 0.002391444488652451 -0.0025964830157717217
7.50025E9 0.0023893901824955602 -9.077916081387437E-4 0.9976106098175045 9.077916081387437E-4 0.9976106098175045 9.077916081387437E-4 0.0023893901824955602 -9.077916081387437E-4
7.575E9 0.002393059509409398 7.643138548039638E-4 0.9976069404905905 -7.643138548039638E-4 0.9976069404905905 -7.643138548039638E-4 0.002393059509409398 7.643138548039638E-4
7.64975E9 0.002402288618824271 0.0024203003077736297 0.9975977113811757 -0.0024203003077736297 0.9975977113811757 -0.0024203003077736297 0.002402288618824271 0.0024203003077736297
7.7245E9 0.0024169214983105185 0.004060617239334571 0.9975830785016895 -0.004060617239334571 0.9975830785016895 -0.004060617239334571 0.0024169214983105185 0.004060617239334571
7.79925E9 0.0024368095331744914 0.005685697492942346 0.9975631904668255 -0.005685697492942346 0.9975631904668255 -0.005685697492942346 0.0024368095331744914 0.005685697492942346
7.874E9 0.002461811094694954 0.00729595802472786 0.9975381889053049 -0.00729595802472786 0.9975381889053049 -0.00729595802472786 0.002461811094694954 0.00729595802472786
7.94875E9 0.002491791154899874 0.0088918006206992 0.9975082088451003 -0.0088918006206992 0.9975082088451003 -0.0088918006206992 0.002491791154899874 0.0088918006206992
8.0235E9 0.0025266209259549744 0.010473612575854526 0.9974733790740453 -0.010473612575854526 0.9974733790740453 -0.010473612575854526 0.0025266209259549744 0.010473612575854526
8.09825E9 0.002566177522391336 0.012041767337525896 0.9974338224776088 -0.012041767337525896 0.9974338224776088 -0.012041767337525896 0.002566177522391336 0.012041767337525896
8.173E9 0.0026103436445415354 0.01359662511511751 0.9973896563554584 -0.01359662511511751 0.9973896563554584 -0.01359662511511751 0.0026103436445415354 0.01359662511511751
8.24775E9 0.0026590072816833296 0.015138533458252739 0.9973409927183167 -0.015138533458252739 0.9973409927183167 -0.015138533458252739 0.0026590072816833296 0.015138533458252739
8.3225E9 0.0027120614335082857 0.016667827805210984 0.9972879385664917 -0.016667827805210984 0.9972879385664917 -0.016667827805210984 0.0027120614335082857 0.016667827805210984
8.39725E9 0.002769403848640724 0.01818483200340797 0.9972305961513591 -0.01818483200340797 0.9972305961513591 -0.01818483200340797 0.002769403848640724 0.01818483200340797
8.472E9 0.002830936779031165 0.01968985880355776 0.997169063220969 -0.01968985880355776 0.997169063220969 -0.01968985880355776 0.002830936779031165 0.01968985880355776
8.54675E9 0.0028965667491388037 0.021183210329046735 0.9971034332508611 -0.021183210329046735 0.9971034332508611 -0.021183210329046735 0.0028965667491388037 0.021183210329046735
8.6215E9 0.0029662043389003076 0.022665178521950016 0.9970337956610996 -0.022665178521950016 0.9970337956610996 -0.022665178521950016 0.0029662043389003076 0.022665178521950016
