!Murata Part Number: GJM0225C1E1R4BB01
!These Parameters are Measured in Series Mode Connection
!       o--ll--o
!Port1            Port2
!       o------o
!Operation Temp=25[degC], DC Bias Voltage=0[V]
!Freq. Start=100[MHz] Stop=30[GHz], 401[Steps]
!Data Generated on Feb 1, 2023
# Hz S RI R 50
!Freq.(Hz) S11(Real) S11(Imag) S21(Real) S21(Imag) S12(Real) S12(Imag) S22(Real) S22(Imag)
1.0E8 0.9923004729344304 -0.08729391469623982 0.007699527065569683 0.08729391469623982 0.007699527065569683 0.08729391469623982 0.9923004729344304 -0.08729391469623982
1.7475E8 0.9768455833856289 -0.1501935859106946 0.023154416614371034 0.1501935859106946 0.023154416614371034 0.1501935859106946 0.9768455833856289 -0.1501935859106946
2.495E8 0.953884514986397 -0.20944928803632826 0.04611548501360289 0.20944928803632826 0.04611548501360289 0.20944928803632826 0.953884514986397 -0.20944928803632826
3.2425E8 0.9244598770642832 -0.26388918785543725 0.07554012293571676 0.26388918785543725 0.07554012293571676 0.26388918785543725 0.9244598770642832 -0.26388918785543725
3.99E8 0.8898023723504036 -0.312678316827315 0.11019762764959645 0.312678316827315 0.11019762764959645 0.312678316827315 0.8898023723504036 -0.312678316827315
4.7375E8 0.8512155093535573 -0.3553322292821855 0.14878449064644275 0.3553322292821855 0.14878449064644275 0.3553322292821855 0.8512155093535573 -0.3553322292821855
5.485E8 0.809973486132434 -0.39169192013132664 0.190026513867566 0.39169192013132664 0.190026513867566 0.39169192013132664 0.809973486132434 -0.39169192013132664
6.2325E8 0.7672433654867528 -0.4218720404454233 0.2327566345132472 0.4218720404454233 0.2327566345132472 0.4218720404454233 0.7672433654867528 -0.4218720404454233
6.98E8 0.724035512965683 -0.4461958950185762 0.275964487034317 0.4461958950185762 0.275964487034317 0.4461958950185762 0.724035512965683 -0.4461958950185762
7.7275E8 0.6811804775709331 -0.46512887665563835 0.31881952242906686 0.46512887665563835 0.31881952242906686 0.46512887665563835 0.6811804775709331 -0.46512887665563835
8.475E8 0.6393270186994582 -0.47921847806399265 0.36067298130054176 0.47921847806399265 0.36067298130054176 0.47921847806399265 0.6393270186994582 -0.47921847806399265
9.2225E8 0.5989547524334311 -0.4890452754663895 0.40104524756656895 0.4890452754663895 0.40104524756656895 0.4890452754663895 0.5989547524334311 -0.4890452754663895
9.97E8 0.5603952683615013 -0.49518620704780514 0.43960473163849867 0.49518620704780514 0.43960473163849867 0.49518620704780514 0.5603952683615013 -0.49518620704780514
1.07175E9 0.523856797262623 -0.4981894142677239 0.476143202737377 0.4981894142677239 0.476143202737377 0.4981894142677239 0.523856797262623 -0.4981894142677239
1.1465E9 0.48944898198926867 -0.4985588216612243 0.5105510180107313 0.4985588216612243 0.5105510180107313 0.4985588216612243 0.48944898198926867 -0.4985588216612243
1.22125E9 0.45720564579231554 -0.4967462624375252 0.5427943542076843 0.4967462624375252 0.5427943542076843 0.4967462624375252 0.45720564579231554 -0.4967462624375252
1.296E9 0.42710449887751906 -0.49314904173634144 0.5728955011224809 0.49314904173634144 0.5728955011224809 0.49314904173634144 0.42710449887751906 -0.49314904173634144
1.37075E9 0.39908344825915465 -0.48811114240702536 0.6009165517408454 0.48811114240702536 0.6009165517408454 0.48811114240702536 0.39908344825915465 -0.48811114240702536
1.4455E9 0.3730536226245942 -0.48192666603255624 0.6269463773754058 0.48192666603255624 0.6269463773754058 0.48192666603255624 0.3730536226245942 -0.48192666603255624
1.52025E9 0.34890946216737695 -0.4748444755429682 0.6510905378326229 0.4748444755429682 0.6510905378326229 0.4748444755429682 0.34890946216737695 -0.4748444755429682
1.595E9 0.32653632068013017 -0.4670733232342032 0.6734636793198697 0.4670733232342032 0.6734636793198697 0.4670733232342032 0.32653632068013017 -0.4670733232342032
1.66975E9 0.30581603818766206 -0.45878699694410896 0.6941839618123378 0.45878699694410896 0.6941839618123378 0.45878699694410896 0.30581603818766206 -0.45878699694410896
1.7445E9 0.28663090634583527 -0.4501292010367964 0.7133690936541647 0.4501292010367964 0.7133690936541647 0.4501292010367964 0.28663090634583527 -0.4501292010367964
1.81925E9 0.268866391617712 -0.44121801809546385 0.7311336083822881 0.44121801809546385 0.7311336083822881 0.44121801809546385 0.268866391617712 -0.44121801809546385
1.894E9 0.2524129185332257 -0.4321498838923101 0.7475870814667743 0.4321498838923101 0.7475870814667743 0.4321498838923101 0.2524129185332257 -0.4321498838923101
1.96875E9 0.23716695573371663 -0.42300306344864447 0.7628330442662834 0.42300306344864447 0.7628330442662834 0.42300306344864447 0.23716695573371663 -0.42300306344864447
2.0435E9 0.2230315950449941 -0.41384064903959267 0.7769684049550062 0.41384064903959267 0.7769684049550062 0.41384064903959267 0.2230315950449941 -0.41384064903959267
2.11825E9 0.2099167698453815 -0.4047131189484179 0.7900832301546188 0.4047131189484179 0.7900832301546188 0.4047131189484179 0.2099167698453815 -0.4047131189484179
2.193E9 0.1977392233434441 -0.39566050386032603 0.802260776656556 0.39566050386032603 0.802260776656556 0.39566050386032603 0.1977392233434441 -0.39566050386032603
2.26775E9 0.1864223091801083 -0.38671420969907755 0.8135776908198915 0.38671420969907755 0.8135776908198915 0.38671420969907755 0.1864223091801083 -0.38671420969907755
2.3425E9 0.1758956848826471 -0.37789854397935485 0.8241043151173529 0.37789854397935485 0.8241043151173529 0.37789854397935485 0.1758956848826471 -0.37789854397935485
2.41725E9 0.1660949419675278 -0.3692319890495848 0.8339050580324723 0.3692319890495848 0.8339050580324723 0.3692319890495848 0.1660949419675278 -0.3692319890495848
2.492E9 0.15696120386375448 -0.36072826100858935 0.8430387961362457 0.36072826100858935 0.8430387961362457 0.36072826100858935 0.15696120386375448 -0.36072826100858935
2.56675E9 0.14844071340890447 -0.35239718825737704 0.8515592865910955 0.35239718825737704 0.8515592865910955 0.35239718825737704 0.14844071340890447 -0.35239718825737704
2.6415E9 0.14048442471735603 -0.3442454389811998 0.859515575282644 0.3442454389811998 0.859515575282644 0.3442454389811998 0.14048442471735603 -0.3442454389811998
2.71625E9 0.13304760914293695 -0.33627712255372916 0.866952390857063 0.33627712255372916 0.866952390857063 0.33627712255372916 0.13304760914293695 -0.33627712255372916
2.791E9 0.12608948139260887 -0.32849428600847214 0.8739105186073911 0.32849428600847214 0.8739105186073911 0.32849428600847214 0.12608948139260887 -0.32849428600847214
2.86575E9 0.1195728492354411 -0.3208973233568397 0.8804271507645589 0.3208973233568397 0.8804271507645589 0.3208973233568397 0.1195728492354411 -0.3208973233568397
2.9405E9 0.113463788418272 -0.3134853126322339 0.8865362115817281 0.3134853126322339 0.8865362115817281 0.3134853126322339 0.113463788418272 -0.3134853126322339
3.01525E9 0.1077313431389398 -0.30625629306856933 0.8922686568610602 0.30625629306856933 0.8922686568610602 0.30625629306856933 0.1077313431389398 -0.30625629306856933
3.09E9 0.10234725158424217 -0.29920749273379305 0.897652748415758 0.29920749273379305 0.897652748415758 0.29920749273379305 0.10234725158424217 -0.29920749273379305
3.16475E9 0.09728569549684307 -0.2923355151858101 0.902714304503157 0.2923355151858101 0.902714304503157 0.2923355151858101 0.09728569549684307 -0.2923355151858101
3.2395E9 0.09252307240722323 -0.2856364922530145 0.9074769275927768 0.2856364922530145 0.9074769275927768 0.2856364922530145 0.09252307240722323 -0.2856364922530145
3.31425E9 0.08803778899010455 -0.2791062088213523 0.9119622110098955 0.2791062088213523 0.9119622110098955 0.2791062088213523 0.08803778899010455 -0.2791062088213523
3.389E9 0.08381007393319989 -0.2727402044962179 0.9161899260668002 0.2727402044962179 0.9161899260668002 0.2727402044962179 0.08381007393319989 -0.2727402044962179
3.46375E9 0.0798218087058777 -0.2665338561670736 0.9201781912941223 0.2665338561670736 0.9201781912941223 0.2665338561670736 0.0798218087058777 -0.2665338561670736
3.5385E9 0.07605637466203113 -0.2604824448068308 0.9239436253379687 0.2604824448068308 0.9239436253379687 0.2604824448068308 0.07605637466203113 -0.2604824448068308
3.61325E9 0.07249851498763236 -0.2545812092623546 0.9275014850123676 0.2545812092623546 0.9275014850123676 0.2545812092623546 0.07249851498763236 -0.2545812092623546
3.688E9 0.06913421009678211 -0.24882538931646256 0.930865789903218 0.24882538931646256 0.930865789903218 0.24882538931646256 0.06913421009678211 -0.24882538931646256
3.76275E9 0.0659505651818847 -0.24321025990830727 0.9340494348181152 0.24321025990830727 0.9340494348181152 0.24321025990830727 0.0659505651818847 -0.24321025990830727
3.8375E9 0.06293570872795909 -0.2377311580737647 0.9370642912720408 0.2377311580737647 0.9370642912720408 0.2377311580737647 0.06293570872795909 -0.2377311580737647
3.91225E9 0.06007870090406597 -0.23238350389853016 0.9399212990959341 0.23238350389853016 0.9399212990959341 0.23238350389853016 0.06007870090406597 -0.23238350389853016
3.987E9 0.057369450843821446 -0.22716281655422912 0.9426305491561784 0.22716281655422912 0.9426305491561784 0.22716281655422912 0.057369450843821446 -0.22716281655422912
4.06175E9 0.05479864192042153 -0.22206472630385307 0.9452013580795784 0.22206472630385307 0.9452013580795784 0.22206472630385307 0.05479864192042153 -0.22206472630385307
4.1365E9 0.05235766420865092 -0.21708498321053282 0.9476423357913494 0.21708498321053282 0.9476423357913494 0.21708498321053282 0.05235766420865092 -0.21708498321053282
4.21125E9 0.050038553406634816 -0.21221946315754828 0.9499614465933652 0.21221946315754828 0.9499614465933652 0.21221946315754828 0.050038553406634816 -0.21221946315754828
4.286E9 0.047833935563563315 -0.2074641716829687 0.9521660644364367 0.2074641716829687 0.9521660644364367 0.2074641716829687 0.047833935563563315 -0.2074641716829687
4.36075E9 0.04573697702646147 -0.20281524604568885 0.9542630229735386 0.20281524604568885 0.9542630229735386 0.20281524604568885 0.04573697702646147 -0.20281524604568885
4.4355E9 0.043741339079606235 -0.19826895586776772 0.9562586609203939 0.19826895586776772 0.9562586609203939 0.19826895586776772 0.043741339079606235 -0.19826895586776772
4.51025E9 0.0418411368048041 -0.19382170263834272 0.958158863195196 0.19382170263834272 0.958158863195196 0.19382170263834272 0.0418411368048041 -0.19382170263834272
4.585E9 0.0400309017398777 -0.18947001831488391 0.9599690982601223 0.18947001831488391 0.9599690982601223 0.18947001831488391 0.0400309017398777 -0.18947001831488391
4.65975E9 0.03830554795681536 -0.1852105632164238 0.9616944520431847 0.1852105632164238 0.9616944520431847 0.1852105632164238 0.03830554795681536 -0.1852105632164238
4.7345E9 0.03666034122056425 -0.18104012336923142 0.9633396587794357 0.18104012336923142 0.9633396587794357 0.18104012336923142 0.03666034122056425 -0.18104012336923142
4.80925E9 0.035090870924823055 -0.17695560743700078 0.9649091290751771 0.17695560743700078 0.9649091290751771 0.17695560743700078 0.035090870924823055 -0.17695560743700078
4.884E9 0.03359302453281775 -0.17295404334401562 0.9664069754671821 0.17295404334401562 0.9664069754671821 0.17295404334401562 0.03359302453281775 -0.17295404334401562
4.95875E9 0.032162964279304415 -0.16903257468012906 0.9678370357206957 0.16903257468012906 0.9678370357206957 0.16903257468012906 0.032162964279304415 -0.16903257468012906
5.0335E9 0.030797105915281623 -0.16518845696008655 0.9692028940847184 0.16518845696008655 0.9692028940847184 0.16518845696008655 0.030797105915281623 -0.16518845696008655
5.10825E9 0.0294920992994285 -0.16141905379616422 0.9705079007005715 0.16141905379616422 0.9705079007005715 0.16141905379616422 0.0294920992994285 -0.16141905379616422
5.183E9 0.02824481066040179 -0.15772183303183201 0.971755189339598 0.15772183303183201 0.971755189339598 0.15772183303183201 0.02824481066040179 -0.15772183303183201
5.25775E9 0.027052306372087345 -0.15409436287480713 0.9729476936279126 0.15409436287480713 0.9729476936279126 0.15409436287480713 0.027052306372087345 -0.15409436287480713
5.3325E9 0.02591183809993708 -0.1505343080601005 0.9740881619000629 0.1505343080601005 0.9740881619000629 0.1505343080601005 0.02591183809993708 -0.1505343080601005
5.40725E9 0.024820829190850588 -0.14703942606724144 0.9751791708091495 0.14703942606724144 0.9751791708091495 0.14703942606724144 0.024820829190850588 -0.14703942606724144
5.482E9 0.023776862191855985 -0.14360756341053774 0.9762231378081437 0.14360756341053774 0.9762231378081437 0.14360756341053774 0.023776862191855985 -0.14360756341053774
5.55675E9 0.022777667394287812 -0.14023665201684263 0.9772223326057122 0.14023665201684263 0.9772223326057122 0.14023665201684263 0.022777667394287812 -0.14023665201684263
5.6315E9 0.021821112310389263 -0.13692470570167173 0.9781788876896106 0.13692470570167173 0.9781788876896106 0.13692470570167173 0.021821112310389263 -0.13692470570167173
5.70625E9 0.02090519199842127 -0.1336698167515397 0.9790948080015787 0.1336698167515397 0.9790948080015787 0.1336698167515397 0.02090519199842127 -0.1336698167515397
5.781E9 0.020028020160555774 -0.13047015261793835 0.9799719798394441 0.13047015261793835 0.9799719798394441 0.13047015261793835 0.020028020160555774 -0.13047015261793835
5.85575E9 0.01918782094517385 -0.12732395272639233 0.9808121790548262 0.12732395272639233 0.9808121790548262 0.12732395272639233 0.01918782094517385 -0.12732395272639233
5.9305E9 0.01838292139176901 -0.1242295254023996 0.981617078608231 0.1242295254023996 0.981617078608231 0.1242295254023996 0.01838292139176901 -0.1242295254023996
6.00525E9 0.01761174446256148 -0.1211852449147628 0.9823882555374386 0.1211852449147628 0.9823882555374386 0.1211852449147628 0.01761174446256148 -0.1211852449147628
6.08E9 0.016872802610226553 -0.11818954863576007 0.9831271973897734 0.11818954863576007 0.9831271973897734 0.11818954863576007 0.016872802610226553 -0.11818954863576007
6.15475E9 0.016164691835902297 -0.115240934316776 0.9838353081640978 0.115240934316776 0.9838353081640978 0.115240934316776 0.016164691835902297 -0.115240934316776
6.2295E9 0.015486086195919251 -0.11233795747735126 0.9845139138040807 0.11233795747735126 0.9845139138040807 0.11233795747735126 0.015486086195919251 -0.11233795747735126
6.30425E9 0.014835732719545454 -0.10947922890510667 0.9851642672804545 0.10947922890510667 0.9851642672804545 0.10947922890510667 0.014835732719545454 -0.10947922890510667
6.379E9 0.014212446703504886 -0.10666341226360816 0.9857875532964953 0.10666341226360816 0.9857875532964953 0.10666341226360816 0.014212446703504886 -0.10666341226360816
6.45375E9 0.013615107352150302 -0.10388922180495938 0.9863848926478498 0.10388922180495938 0.9863848926478498 0.10388922180495938 0.013615107352150302 -0.10388922180495938
6.5285E9 0.013042653734986155 -0.10115542018370417 0.986957346265014 0.10115542018370417 0.986957346265014 0.10115542018370417 0.013042653734986155 -0.10115542018370417
6.60325E9 0.012494081035777973 -0.0984608163684919 0.9875059189642218 0.0984608163684919 0.9875059189642218 0.0984608163684919 0.012494081035777973 -0.0984608163684919
6.678E9 0.0119684370697781 -0.09580426364787961 0.9880315629302219 0.09580426364787961 0.9880315629302219 0.09580426364787961 0.0119684370697781 -0.09580426364787961
6.75275E9 0.01146481904767105 -0.09318465772661504 0.9885351809523292 0.09318465772661504 0.9885351809523292 0.09318465772661504 0.01146481904767105 -0.09318465772661504
6.8275E9 0.010982370566716625 -0.0906009349087491 0.9890176294332835 0.0906009349087491 0.9890176294332835 0.0906009349087491 0.010982370566716625 -0.0906009349087491
6.90225E9 0.010520278811265743 -0.08805207036395966 0.9894797211887343 0.08805207036395966 0.9894797211887343 0.08805207036395966 0.010520278811265743 -0.08805207036395966
6.977E9 0.010077771946361455 -0.08553707647352718 0.9899222280536384 0.08553707647352718 0.9899222280536384 0.08553707647352718 0.010077771946361455 -0.08553707647352718
7.05175E9 0.00965411668953065 -0.08305500125247518 0.9903458833104695 0.08305500125247518 0.9903458833104695 0.08305500125247518 0.00965411668953065 -0.08305500125247518
7.1265E9 0.00924861604713664 -0.0806049268444813 0.9907513839528634 0.0806049268444813 0.9907513839528634 0.0806049268444813 0.00924861604713664 -0.0806049268444813
7.20125E9 0.008860607202809843 -0.07818596808625913 0.9911393927971901 0.07818596808625913 0.9911393927971901 0.07818596808625913 0.008860607202809843 -0.07818596808625913
7.276E9 0.008489459546516967 -0.07579727113822073 0.9915105404534831 0.07579727113822073 0.9915105404534831 0.07579727113822073 0.008489459546516967 -0.07579727113822073
7.35075E9 0.00813457283377707 -0.07343801217834062 0.9918654271662231 0.07343801217834062 0.9918654271662231 0.07343801217834062 0.00813457283377707 -0.07343801217834062
7.4255E9 0.007795375465395388 -0.07110739615625529 0.9922046245346045 0.07110739615625529 0.9922046245346045 0.07110739615625529 0.007795375465395388 -0.07110739615625529
7.50025E9 0.00747132287887154 -0.0688046556047504 0.9925286771211284 0.0688046556047504 0.9925286771211284 0.0688046556047504 0.00747132287887154 -0.0688046556047504
7.575E9 0.007161896043354287 -0.06652904950590201 0.9928381039566458 0.06652904950590201 0.9928381039566458 0.06652904950590201 0.007161896043354287 -0.06652904950590201
7.64975E9 0.0068666000506680935 -0.06427986220925656 0.993133399949332 0.06427986220925656 0.993133399949332 0.06427986220925656 0.0068666000506680935 -0.06427986220925656
7.7245E9 0.006584962795531936 -0.06205640239954519 0.9934150372044681 0.06205640239954519 0.9934150372044681 0.06205640239954519 0.006584962795531936 -0.06205640239954519
7.79925E9 0.006316533738635195 -0.05985800211154268 0.9936834662613647 0.05985800211154268 0.9936834662613647 0.05985800211154268 0.006316533738635195 -0.05985800211154268
7.874E9 0.006060882746732128 -0.05768401578978799 0.9939391172532681 0.05768401578978799 0.9939391172532681 0.05768401578978799 0.006060882746732128 -0.05768401578978799
7.94875E9 0.00581759900437138 -0.0555338193909918 0.9941824009956287 0.0555338193909918 0.9941824009956287 0.0555338193909918 0.00581759900437138 -0.0555338193909918
8.0235E9 0.005586289992292544 -0.05340680952705649 0.9944137100077074 0.05340680952705649 0.9944137100077074 0.05340680952705649 0.005586289992292544 -0.05340680952705649
8.09825E9 0.005366580527903024 -0.051302402646735336 0.9946334194720969 0.051302402646735336 0.9946334194720969 0.051302402646735336 0.005366580527903024 -0.051302402646735336
8.173E9 0.005158111863597224 -0.049220034254051394 0.9948418881364028 0.049220034254051394 0.9948418881364028 0.049220034254051394 0.005158111863597224 -0.049220034254051394
8.24775E9 0.004960540839000363 -0.04715915816168972 0.9950394591609996 0.04715915816168972 0.9950394591609996 0.04715915816168972 0.004960540839000363 -0.04715915816168972
8.3225E9 0.004773539083512621 -0.04511924577766287 0.9952264609164874 0.04511924577766287 0.9952264609164874 0.04511924577766287 0.004773539083512621 -0.04511924577766287
8.39725E9 0.004596792265799138 -0.04309978542363509 0.995403207734201 0.04309978542363509 0.995403207734201 0.04309978542363509 0.004596792265799138 -0.04309978542363509
8.472E9 0.004429999387119014 -0.04110028168337067 0.9955700006128808 0.04110028168337067 0.9955700006128808 0.04110028168337067 0.004429999387119014 -0.04110028168337067
8.54675E9 0.004272872115614076 -0.039120254779847596 0.9957271278843861 0.039120254779847596 0.9957271278843861 0.039120254779847596 0.004272872115614076 -0.039120254779847596
8.6215E9 0.00412513415888784 -0.03715923997965304 0.9958748658411121 0.03715923997965304 0.9958748658411121 0.03715923997965304 0.00412513415888784 -0.03715923997965304
8.69625E9 0.003986520672397743 -0.03521678702334475 0.9960134793276023 0.03521678702334475 0.9960134793276023 0.03521678702334475 0.003986520672397743 -0.03521678702334475
