!Murata Part Number: GJM0225C1ER50WB01
!These Parameters are Measured in Series Mode Connection
!       o--ll--o
!Port1            Port2
!       o------o
!Operation Temp=25[degC], DC Bias Voltage=0[V]
!Freq. Start=100[MHz] Stop=30[GHz], 401[Steps]
!Data Generated on Feb 1, 2023
# Hz S RI R 50
!Freq.(Hz) S11(Real) S11(Imag) S21(Real) S21(Imag) S12(Real) S12(Imag) S22(Real) S22(Imag)
1.0E8 0.9990112735955763 -0.031385720670916835 9.887264044235837E-4 0.031385720670916835 9.887264044235837E-4 0.031385720670916835 0.9990112735955763 -0.031385720670916835
1.7475E8 0.9969864562924983 -0.05473844959832819 0.0030135437075018237 0.05473844959832819 0.0030135437075018237 0.05473844959832819 0.9969864562924983 -0.05473844959832819
2.495E8 0.9938750170848057 -0.07791587443816236 0.006124982915194373 0.07791587443816236 0.006124982915194373 0.07791587443816236 0.9938750170848057 -0.07791587443816236
3.2425E8 0.989696133102685 -0.10084544911680389 0.010303866897315045 0.10084544911680389 0.010303866897315045 0.10084544911680389 0.989696133102685 -0.10084544911680389
3.99E8 0.9844752948992347 -0.12345714633279224 0.015524705100765415 0.12345714633279224 0.015524705100765415 0.12345714633279224 0.9844752948992347 -0.12345714633279224
4.7375E8 0.9782439230354705 -0.14568412226919392 0.021756076964529535 0.14568412226919392 0.021756076964529535 0.14568412226919392 0.9782439230354705 -0.14568412226919392
5.485E8 0.9710389047058198 -0.16746331543914847 0.02896109529418033 0.16746331543914847 0.02896109529418033 0.16746331543914847 0.9710389047058198 -0.16746331543914847
6.2325E8 0.9629020628992913 -0.18873596927236597 0.03709793710070879 0.18873596927236597 0.03709793710070879 0.18873596927236597 0.9629020628992913 -0.18873596927236597
6.98E8 0.9538795719411187 -0.20944807061829973 0.046120428058881315 0.20944807061829973 0.046120428058881315 0.20944807061829973 0.9538795719411187 -0.20944807061829973
7.7275E8 0.9440213340478983 -0.22955069905437508 0.055978665952101686 0.22955069905437508 0.055978665952101686 0.22955069905437508 0.9440213340478983 -0.22955069905437508
8.475E8 0.9333803317562037 -0.24900028461697185 0.06661966824379636 0.24900028461697185 0.06661966824379636 0.24900028461697185 0.9333803317562037 -0.24900028461697185
9.2225E8 0.9220119707802171 -0.26775877419920785 0.07798802921978293 0.26775877419920785 0.07798802921978293 0.26775877419920785 0.9220119707802171 -0.26775877419920785
9.97E8 0.90997342707334 -0.28579370927853165 0.09002657292666008 0.28579370927853165 0.09002657292666008 0.28579370927853165 0.90997342707334 -0.28579370927853165
1.07175E9 0.8973230106868628 -0.303078219764563 0.10267698931313703 0.303078219764563 0.10267698931313703 0.303078219764563 0.8973230106868628 -0.303078219764563
1.1465E9 0.8841195575233871 -0.3195909405326916 0.11588044247661282 0.3195909405326916 0.11588044247661282 0.3195909405326916 0.8841195575233871 -0.3195909405326916
1.22125E9 0.8704218583677736 -0.33531585859515717 0.12957814163222645 0.33531585859515717 0.12957814163222645 0.33531585859515717 0.8704218583677736 -0.33531585859515717
1.296E9 0.8562881327377978 -0.3502420998457378 0.1437118672622021 0.3502420998457378 0.1437118672622021 0.3502420998457378 0.8562881327377978 -0.3502420998457378
1.37075E9 0.8417755532186273 -0.36436366490498545 0.15822444678137276 0.36436366490498545 0.15822444678137276 0.36436366490498545 0.8417755532186273 -0.36436366490498545
1.4455E9 0.8269398241080275 -0.37767912381618374 0.17306017589197245 0.37767912381618374 0.17306017589197245 0.37767912381618374 0.8269398241080275 -0.37767912381618374
1.52025E9 0.8118348164682996 -0.39019127923755054 0.1881651835317004 0.39019127923755054 0.1881651835317004 0.39019127923755054 0.8118348164682996 -0.39019127923755054
1.595E9 0.7965122601072663 -0.4019068073926909 0.20348773989273375 0.4019068073926909 0.20348773989273375 0.4019068073926909 0.7965122601072663 -0.4019068073926909
1.66975E9 0.7810214916301707 -0.41283588543315713 0.21897850836982938 0.41283588543315713 0.21897850836982938 0.41283588543315713 0.7810214916301707 -0.41283588543315713
1.7445E9 0.7654092565387507 -0.422991813089782 0.23459074346124942 0.422991813089782 0.23459074346124942 0.422991813089782 0.7654092565387507 -0.422991813089782
1.81925E9 0.7497195624116967 -0.4323906355970468 0.2502804375883033 0.4323906355970468 0.2502804375883033 0.4323906355970468 0.7497195624116967 -0.4323906355970468
1.894E9 0.7339935794797829 -0.4410507739167647 0.266006420520217 0.4410507739167647 0.266006420520217 0.4410507739167647 0.7339935794797829 -0.4410507739167647
1.96875E9 0.7182695843979146 -0.4489926673074351 0.2817304156020854 0.4489926673074351 0.2817304156020854 0.4489926673074351 0.7182695843979146 -0.4489926673074351
2.0435E9 0.7025829426972441 -0.4562384323205195 0.29741705730275597 0.4562384323205195 0.29741705730275597 0.4562384323205195 0.7025829426972441 -0.4562384323205195
2.11825E9 0.6869661252510588 -0.4628115413839041 0.3130338747489412 0.4628115413839041 0.3130338747489412 0.4628115413839041 0.6869661252510588 -0.4628115413839041
2.193E9 0.6714487540834453 -0.4687365232780592 0.32855124591655477 0.4687365232780592 0.32855124591655477 0.4687365232780592 0.6714487540834453 -0.4687365232780592
2.26775E9 0.6560576729641728 -0.4740386870371085 0.3439423270358271 0.4740386870371085 0.3439423270358271 0.4740386870371085 0.6560576729641728 -0.4740386870371085
2.3425E9 0.6408170384416181 -0.4787438701244055 0.359182961558382 0.4787438701244055 0.359182961558382 0.4787438701244055 0.6408170384416181 -0.4787438701244055
2.41725E9 0.6257484272442491 -0.4828782111442451 0.3742515727557508 0.4828782111442451 0.3742515727557508 0.4828782111442451 0.6257484272442491 -0.4828782111442451
2.492E9 0.6108709563088066 -0.48646794685779987 0.3891290436911934 0.48646794685779987 0.3891290436911934 0.48646794685779987 0.6108709563088066 -0.48646794685779987
2.56675E9 0.5962014120510672 -0.4895392328687045 0.40379858794893286 0.4895392328687045 0.40379858794893286 0.4895392328687045 0.5962014120510672 -0.4895392328687045
2.6415E9 0.5817543858670521 -0.4921179870259686 0.41824561413294803 0.4921179870259686 0.41824561413294803 0.4921179870259686 0.5817543858670521 -0.4921179870259686
2.71625E9 0.5675424132256555 -0.49422975435146305 0.43245758677434454 0.49422975435146305 0.43245758677434454 0.49422975435146305 0.5675424132256555 -0.49422975435146305
2.791E9 0.5535761140775766 -0.4958995921275715 0.4464238859224234 0.4958995921275715 0.4464238859224234 0.4958995921275715 0.5535761140775766 -0.4958995921275715
2.86575E9 0.5398643326522883 -0.497151973668724 0.4601356673477117 0.497151973668724 0.4601356673477117 0.497151973668724 0.5398643326522883 -0.497151973668724
2.9405E9 0.5264142750389481 -0.4980107092395401 0.47358572496105183 0.4980107092395401 0.47358572496105183 0.4980107092395401 0.5264142750389481 -0.4980107092395401
3.01525E9 0.5132316432449477 -0.4984988825635805 0.4867683567550522 0.4984988825635805 0.4867683567550522 0.4984988825635805 0.5132316432449477 -0.4984988825635805
3.09E9 0.5003207646951033 -0.4986388013822712 0.49967923530489666 0.4986388013822712 0.49967923530489666 0.4986388013822712 0.5003207646951033 -0.4986388013822712
3.16475E9 0.4876847163745057 -0.49845196056613167 0.5123152836254943 0.49845196056613167 0.5123152836254943 0.49845196056613167 0.4876847163745057 -0.49845196056613167
3.2395E9 0.4753254430290243 -0.497959016343561 0.5246745569709756 0.497959016343561 0.5246745569709756 0.497959016343561 0.4753254430290243 -0.497959016343561
3.31425E9 0.4632438690203446 -0.49717977029048754 0.5367561309796555 0.49717977029048754 0.5367561309796555 0.49717977029048754 0.4632438690203446 -0.49717977029048754
3.389E9 0.4514400035888271 -0.49613316181237455 0.5485599964111729 0.49613316181237455 0.5485599964111729 0.49613316181237455 0.4514400035888271 -0.49613316181237455
3.46375E9 0.4399130394092753 -0.49483726794438754 0.5600869605907247 0.49483726794438754 0.5600869605907247 0.49483726794438754 0.4399130394092753 -0.49483726794438754
3.5385E9 0.428661444434089 -0.49330930939267903 0.5713385555659112 0.49330930939267903 0.5713385555659112 0.49330930939267903 0.428661444434089 -0.49330930939267903
3.61325E9 0.41768304710747456 -0.49156566183710787 0.5823169528925255 0.49156566183710787 0.5823169528925255 0.49156566183710787 0.41768304710747456 -0.49156566183710787
3.688E9 0.4069751151056886 -0.4896218716112259 0.5930248848943113 0.4896218716112259 0.5930248848943113 0.4896218716112259 0.4069751151056886 -0.4896218716112259
3.76275E9 0.39653442781385717 -0.48749267496747384 0.6034655721861429 0.48749267496747384 0.6034655721861429 0.48749267496747384 0.39653442781385717 -0.48749267496747384
3.8375E9 0.3863573427919073 -0.4851920202231232 0.6136426572080927 0.4851920202231232 0.6136426572080927 0.4851920202231232 0.3863573427919073 -0.4851920202231232
3.91225E9 0.37643985651245365 -0.48273309216478205 0.6235601434875463 0.48273309216478205 0.6235601434875463 0.48273309216478205 0.37643985651245365 -0.48273309216478205
3.987E9 0.36677765967393566 -0.48012833816579426 0.6332223403260645 0.48012833816579426 0.6332223403260645 0.48012833816579426 0.36677765967393566 -0.48012833816579426
4.06175E9 0.3573661874045208 -0.47738949554135207 0.6426338125954794 0.47738949554135207 0.6426338125954794 0.47738949554135207 0.3573661874045208 -0.47738949554135207
4.1365E9 0.3482006646776876 -0.47452761973055135 0.6517993353223124 0.47452761973055135 0.6517993353223124 0.47452761973055135 0.3482006646776876 -0.47452761973055135
4.21125E9 0.33927614726028954 -0.47155311295303726 0.6607238527397103 0.47155311295303726 0.6607238527397103 0.47155311295303726 0.33927614726028954 -0.47155311295303726
4.286E9 0.3305875585093756 -0.46847575304051525 0.6694124414906243 0.46847575304051525 0.6694124414906243 0.46847575304051525 0.3305875585093756 -0.46847575304051525
4.36075E9 0.32212972232605375 -0.46530472219049923 0.6778702776739463 0.46530472219049923 0.6778702776739463 0.46530472219049923 0.32212972232605375 -0.46530472219049923
4.4355E9 0.3138973925640805 -0.46204863543156877 0.6861026074359196 0.46204863543156877 0.6861026074359196 0.46204863543156877 0.3138973925640805 -0.46204863543156877
4.51025E9 0.3058852791783032 -0.45871556862646307 0.6941147208216968 0.45871556862646307 0.6941147208216968 0.45871556862646307 0.3058852791783032 -0.45871556862646307
4.585E9 0.29808807138418736 -0.455313085871924 0.7019119286158128 0.455313085871924 0.7019119286158128 0.455313085871924 0.29808807138418736 -0.455313085871924
4.65975E9 0.2905004580848845 -0.45184826618269647 0.7094995419151156 0.45184826618269647 0.7094995419151156 0.45184826618269647 0.2905004580848845 -0.45184826618269647
4.7345E9 0.2831171458070498 -0.44832772937186327 0.7168828541929503 0.44832772937186327 0.7168828541929503 0.44832772937186327 0.2831171458070498 -0.44832772937186327
4.80925E9 0.27593287437121844 -0.4447576610611124 0.7240671256287815 0.4447576610611124 0.7240671256287815 0.4447576610611124 0.27593287437121844 -0.4447576610611124
4.884E9 0.26894243050724154 -0.4411438367729261 0.7310575694927584 0.4411438367729261 0.7310575694927584 0.4411438367729261 0.26894243050724154 -0.4411438367729261
4.95875E9 0.2621406596102745 -0.4374916450723919 0.7378593403897257 0.4374916450723919 0.7378593403897257 0.4374916450723919 0.2621406596102745 -0.4374916450723919
5.0335E9 0.25552247581825765 -0.4338061097396486 0.7444775241817424 0.4338061097396486 0.7444775241817424 0.4338061097396486 0.25552247581825765 -0.4338061097396486
5.10825E9 0.2490828705778262 -0.43009191096518173 0.7509171294221738 0.43009191096518173 0.7509171294221738 0.43009191096518173 0.2490828705778262 -0.43009191096518173
5.183E9 0.24281691985223278 -0.42635340556952106 0.7571830801477671 0.42635340556952106 0.7571830801477671 0.42635340556952106 0.24281691985223278 -0.42635340556952106
5.25775E9 0.23671979011220828 -0.4225946462566131 0.7632802098877918 0.4225946462566131 0.7632802098877918 0.4225946462566131 0.23671979011220828 -0.4225946462566131
5.3325E9 0.23078674323874415 -0.4188193999164274 0.7692132567612558 0.4188193999164274 0.7692132567612558 0.4188193999164274 0.23078674323874415 -0.4188193999164274
5.40725E9 0.2250131404555897 -0.4150311649974279 0.7749868595444105 0.4150311649974279 0.7749868595444105 0.4150311649974279 0.2250131404555897 -0.4150311649974279
5.482E9 0.21939444539879588 -0.41123318797353225 0.7806055546012041 0.41123318797353225 0.7806055546012041 0.41123318797353225 0.21939444539879588 -0.41123318797353225
5.55675E9 0.21392622642090747 -0.4074284789332798 0.7860737735790924 0.4074284789332798 0.7860737735790924 0.4074284789332798 0.21392622642090747 -0.4074284789332798
5.6315E9 0.20860415821838343 -0.4036198263212222 0.7913958417816165 0.4036198263212222 0.7913958417816165 0.4036198263212222 0.20860415821838343 -0.4036198263212222
5.70625E9 0.20342402286248745 -0.39980981086320794 0.7965759771375126 0.39980981086320794 0.7965759771375126 0.39980981086320794 0.20342402286248745 -0.39980981086320794
5.781E9 0.19838171030619753 -0.39600081870829984 0.8016182896938024 0.39600081870829984 0.8016182896938024 0.39600081870829984 0.19838171030619753 -0.39600081870829984
5.85575E9 0.19347321843262685 -0.3921950538206875 0.8065267815673732 0.3921950538206875 0.8065267815673732 0.3921950538206875 0.19347321843262685 -0.3921950538206875
5.9305E9 0.18869465270395094 -0.38839454965516385 0.8113053472960491 0.38839454965516385 0.8113053472960491 0.38839454965516385 0.18869465270395094 -0.38839454965516385
6.00525E9 0.1840422254639176 -0.3846011801496381 0.8159577745360825 0.3846011801496381 0.8159577745360825 0.3846011801496381 0.1840422254639176 -0.3846011801496381
6.08E9 0.17951225494158426 -0.38081667006778 0.8204877450584158 0.38081667006778 0.8204877450584158 0.38081667006778 0.17951225494158426 -0.38081667006778
6.15475E9 0.17510116399899467 -0.37704260472430906 0.8248988360010054 0.37704260472430906 0.8248988360010054 0.37704260472430906 0.17510116399899467 -0.37704260472430906
6.2295E9 0.17080547866100518 -0.3732804391246843 0.8291945213389947 0.3732804391246843 0.8291945213389947 0.3732804391246843 0.17080547866100518 -0.3732804391246843
6.30425E9 0.16662182646138576 -0.3695315065500633 0.8333781735386143 0.3695315065500633 0.8333781735386143 0.3695315065500633 0.16662182646138576 -0.3695315065500633
6.379E9 0.16254693463561268 -0.36579702661740837 0.8374530653643874 0.36579702661740837 0.8374530653643874 0.36579702661740837 0.16254693463561268 -0.36579702661740837
6.45375E9 0.1585776281874146 -0.36207811284355707 0.8414223718125854 0.36207811284355707 0.8414223718125854 0.36207811284355707 0.1585776281874146 -0.36207811284355707
6.5285E9 0.1547108278530905 -0.3583757797409539 0.8452891721469096 0.3583757797409539 0.8452891721469096 0.3583757797409539 0.1547108278530905 -0.3583757797409539
6.60325E9 0.15094354798487855 -0.35469094947160223 0.8490564520151211 0.35469094947160223 0.8490564520151211 0.35469094947160223 0.15094354798487855 -0.35469094947160223
6.678E9 0.14727289437217578 -0.35102445808462196 0.8527271056278242 0.35102445808462196 0.8527271056278242 0.35102445808462196 0.14727289437217578 -0.35102445808462196
6.75275E9 0.14369606201717777 -0.34737706136164004 0.856303937982822 0.34737706136164004 0.856303937982822 0.34737706136164004 0.14369606201717777 -0.34737706136164004
6.8275E9 0.14021033287950493 -0.343749440293082 0.859789667120495 0.343749440293082 0.859789667120495 0.343749440293082 0.14021033287950493 -0.343749440293082
6.90225E9 0.13681307360256917 -0.34014220620728375 0.8631869263974309 0.34014220620728375 0.8631869263974309 0.34014220620728375 0.13681307360256917 -0.34014220620728375
6.977E9 0.13350173323282552 -0.3365559055732343 0.8664982667671746 0.3365559055732343 0.8664982667671746 0.3365559055732343 0.13350173323282552 -0.3365559055732343
7.05175E9 0.1302738409415946 -0.3329910244966604 0.8697261590584053 0.3329910244966604 0.8697261590584053 0.3329910244966604 0.1302738409415946 -0.3329910244966604
7.1265E9 0.12712700375784808 -0.32944799292811483 0.8728729962421521 0.32944799292811483 0.8728729962421521 0.32944799292811483 0.12712700375784808 -0.32944799292811483
7.20125E9 0.12405890431918258 -0.3259271886007019 0.8759410956808176 0.3259271886007019 0.8759410956808176 0.3259271886007019 0.12405890431918258 -0.3259271886007019
7.276E9 0.12106729864717806 -0.32242894071409883 0.878932701352822 0.32242894071409883 0.878932701352822 0.32242894071409883 0.12106729864717806 -0.32242894071409883
7.35075E9 0.1181500139524041 -0.3189535333805802 0.8818499860475957 0.3189535333805802 0.8818499860475957 0.3189535333805802 0.1181500139524041 -0.3189535333805802
7.4255E9 0.11530494647352295 -0.31550120884785826 0.884695053526477 0.31550120884785826 0.884695053526477 0.31550120884785826 0.11530494647352295 -0.31550120884785826
7.50025E9 0.11253005935420216 -0.3120721705126842 0.8874699406457978 0.3120721705126842 0.8874699406457978 0.3120721705126842 0.11253005935420216 -0.3120721705126842
7.575E9 0.10982338056090372 -0.30866658573833883 0.8901766194390963 0.30866658573833883 0.8901766194390963 0.30866658573833883 0.10982338056090372 -0.30866658573833883
7.64975E9 0.1071830008440416 -0.30528458848835727 0.8928169991559582 0.30528458848835727 0.8928169991559582 0.30528458848835727 0.1071830008440416 -0.30528458848835727
7.7245E9 0.10460707174449443 -0.30192628178809794 0.8953929282555056 0.30192628178809794 0.8953929282555056 0.30192628178809794 0.10460707174449443 -0.30192628178809794
7.79925E9 0.10209380364700933 -0.29859174002505307 0.8979061963529906 0.29859174002505307 0.8979061963529906 0.29859174002505307 0.10209380364700933 -0.29859174002505307
7.874E9 0.09964146388164352 -0.2952810110981466 0.9003585361183565 0.2952810110981466 0.9003585361183565 0.2952810110981466 0.09964146388164352 -0.2952810110981466
7.94875E9 0.09724837487404281 -0.2919941184256273 0.9027516251259572 0.2919941184256273 0.9027516251259572 0.2919941184256273 0.09724837487404281 -0.2919941184256273
8.0235E9 0.09491291234505449 -0.28873106282057553 0.9050870876549455 0.28873106282057553 0.9050870876549455 0.28873106282057553 0.09491291234505449 -0.28873106282057553
8.09825E9 0.09263350355991065 -0.28549182424248426 0.9073664964400894 0.28549182424248426 0.9073664964400894 0.28549182424248426 0.09263350355991065 -0.28549182424248426
8.173E9 0.09040862562698646 -0.2822763634328429 0.9095913743730137 0.2822763634328429 0.9095913743730137 0.2822763634328429 0.09040862562698646 -0.2822763634328429
8.24775E9 0.0882368038459443 -0.27908462344216306 0.9117631961540558 0.27908462344216306 0.9117631961540558 0.27908462344216306 0.0882368038459443 -0.27908462344216306
8.3225E9 0.0861166101048996 -0.27591653105540953 0.9138833898951005 0.27591653105540953 0.9138833898951005 0.27591653105540953 0.0861166101048996 -0.27591653105540953
8.39725E9 0.08404666132610258 -0.27277199812236763 0.9159533386738973 0.27277199812236763 0.9159533386738973 0.27277199812236763 0.08404666132610258 -0.27277199812236763
8.472E9 0.0820256179595052 -0.269650922799063 0.917974382040495 0.269650922799063 0.917974382040495 0.269650922799063 0.0820256179595052 -0.269650922799063
8.54675E9 0.08005218252347547 -0.2665531907059579 0.9199478174765244 0.2665531907059579 0.9199478174765244 0.2665531907059579 0.08005218252347547 -0.2665531907059579
8.6215E9 0.07812509819183819 -0.2634786760082924 0.9218749018081618 0.2634786760082924 0.9218749018081618 0.2634786760082924 0.07812509819183819 -0.2634786760082924
8.69625E9 0.07624314742634596 -0.26042724242358845 0.9237568525736539 0.26042724242358845 0.9237568525736539 0.26042724242358845 0.07624314742634596 -0.26042724242358845
8.771E9 0.07440515065362675 -0.2573987441610208 0.9255948493463733 0.2573987441610208 0.9255948493463733 0.2573987441610208 0.07440515065362675 -0.2573987441610208
