!Murata Part Number: GJM0225C1E3R0BB01
!These Parameters are Measured in Series Mode Connection
!       o--ll--o
!Port1            Port2
!       o------o
!Operation Temp=25[degC], DC Bias Voltage=0[V]
!Freq. Start=100[MHz] Stop=30[GHz], 401[Steps]
!Data Generated on Feb 1, 2023
# Hz S RI R 50
!Freq.(Hz) S11(Real) S11(Imag) S21(Real) S21(Imag) S12(Real) S12(Imag) S22(Real) S22(Imag)
1.0E8 0.9656064254105066 -0.18203709264076187 0.03439357458949341 0.18203709264076187 0.03439357458949341 0.18203709264076187 0.9656064254105066 -0.18203709264076187
1.7475E8 0.9018369419815497 -0.2971839331475846 0.09816305801845022 0.2971839331475846 0.09816305801845022 0.2971839331475846 0.9018369419815497 -0.2971839331475846
2.495E8 0.8182448696670135 -0.3851410176934732 0.18175513033298643 0.3851410176934732 0.18175513033298643 0.3851410176934732 0.8182448696670135 -0.3851410176934732
3.2425E8 0.7268908695578088 -0.44490398394993236 0.2731091304421912 0.44490398394993236 0.2731091304421912 0.44490398394993236 0.7268908695578088 -0.44490398394993236
3.99E8 0.636947452622973 -0.4800760013968889 0.36305254737702697 0.4800760013968889 0.36305254737702697 0.4800760013968889 0.636947452622973 -0.4800760013968889
4.7375E8 0.5539004284096359 -0.4961304790187921 0.446099571590364 0.4961304790187921 0.446099571590364 0.4961304790187921 0.5539004284096359 -0.4961304790187921
5.485E8 0.48020509790600746 -0.4984995592514169 0.5197949020939926 0.4984995592514169 0.5197949020939926 0.4984995592514169 0.48020509790600746 -0.4984995592514169
6.2325E8 0.41634887288146105 -0.49169087643506637 0.583651127118539 0.49169087643506637 0.583651127118539 0.49169087643506637 0.41634887288146105 -0.49169087643506637
6.98E8 0.36175602038336685 -0.4790922965418807 0.6382439796166333 0.4790922965418807 0.6382439796166333 0.4790922965418807 0.36175602038336685 -0.4790922965418807
7.7275E8 0.3153893423636456 -0.463098847855871 0.6846106576363544 0.463098847855871 0.6846106576363544 0.463098847855871 0.3153893423636456 -0.463098847855871
8.475E8 0.27609332093599526 -0.4453349383296798 0.7239066790640046 0.4453349383296798 0.7239066790640046 0.4453349383296798 0.27609332093599526 -0.4453349383296798
9.2225E8 0.24276531992324257 -0.4268677955623599 0.7572346800767573 0.4268677955623599 0.7572346800767573 0.4268677955623599 0.24276531992324257 -0.4268677955623599
9.97E8 0.2144269652610778 -0.40837821114614326 0.7855730347389221 0.40837821114614326 0.7855730347389221 0.40837821114614326 0.2144269652610778 -0.40837821114614326
1.07175E9 0.19024309538044995 -0.3902858854790185 0.8097569046195502 0.3902858854790185 0.8097569046195502 0.3902858854790185 0.19024309538044995 -0.3902858854790185
1.1465E9 0.1695158797969565 -0.3728372733670264 0.8304841202030434 0.3728372733670264 0.8304841202030434 0.3728372733670264 0.1695158797969565 -0.3728372733670264
1.22125E9 0.15166893211229796 -0.3561655317973495 0.848331067887702 0.3561655317973495 0.848331067887702 0.3561655317973495 0.15166893211229796 -0.3561655317973495
1.296E9 0.13622883331814298 -0.34033078606043704 0.8637711666818572 0.34033078606043704 0.8637711666818572 0.34033078606043704 0.13622883331814298 -0.34033078606043704
1.37075E9 0.12280746040279196 -0.3253469082013471 0.8771925395972081 0.3253469082013471 0.8771925395972081 0.3253469082013471 0.12280746040279196 -0.3253469082013471
1.4455E9 0.11108644738181424 -0.31119920119941435 0.8889135526181858 0.31119920119941435 0.8889135526181858 0.31119920119941435 0.11108644738181424 -0.31119920119941435
1.52025E9 0.10080410168050316 -0.29785600588060657 0.8991958983194969 0.29785600588060657 0.8991958983194969 0.29785600588060657 0.10080410168050316 -0.29785600588060657
1.595E9 0.09174465007146002 -0.2852762662516076 0.9082553499285398 0.2852762662516076 0.9082553499285398 0.2852762662516076 0.09174465007146002 -0.2852762662516076
1.66975E9 0.08372951820551844 -0.2734144141611837 0.9162704817944817 0.2734144141611837 0.9162704817944817 0.2734144141611837 0.08372951820551844 -0.2734144141611837
1.7445E9 0.07661031030551572 -0.26222347912567545 0.9233896896944843 0.26222347912567545 0.9233896896944843 0.26222347912567545 0.07661031030551572 -0.26222347912567545
1.81925E9 0.07026317625948422 -0.2516570253507043 0.9297368237405156 0.2516570253507043 0.9297368237405156 0.2516570253507043 0.07026317625948422 -0.2516570253507043
1.894E9 0.06458429533324998 -0.2416703160943283 0.93541570466675 0.2416703160943283 0.93541570466675 0.2416703160943283 0.06458429533324998 -0.2416703160943283
1.96875E9 0.059486251726741726 -0.23222097152998591 0.9405137482732583 0.23222097152998591 0.9405137482732583 0.23222097152998591 0.059486251726741726 -0.23222097152998591
2.0435E9 0.05489511978504386 -0.22326929728175687 0.9451048802149563 0.22326929728175687 0.9451048802149563 0.22326929728175687 0.05489511978504386 -0.22326929728175687
2.11825E9 0.050748113223557774 -0.21477840159843195 0.9492518867764421 0.21477840159843195 0.9492518867764421 0.21477840159843195 0.050748113223557774 -0.21477840159843195
2.193E9 0.046991682852430425 -0.2067141796492365 0.9530083171475697 0.2067141796492365 0.9530083171475697 0.2067141796492365 0.046991682852430425 -0.2067141796492365
2.26775E9 0.043579971548151596 -0.1990452170304866 0.9564200284518486 0.1990452170304866 0.9564200284518486 0.1990452170304866 0.043579971548151596 -0.1990452170304866
2.3425E9 0.04047355449591749 -0.19174264689272558 0.9595264455040825 0.19174264689272558 0.9595264455040825 0.19174264689272558 0.04047355449591749 -0.19174264689272558
2.41725E9 0.03763840791960249 -0.1847799832380557 0.9623615920803976 0.1847799832380557 0.9623615920803976 0.1847799832380557 0.03763840791960249 -0.1847799832380557
2.492E9 0.03504506144128609 -0.17813294497770454 0.9649549385587142 0.17813294497770454 0.9649549385587142 0.17813294497770454 0.03504506144128609 -0.17813294497770454
2.56675E9 0.032667898555788 -0.17177928000206694 0.9673321014442119 0.17177928000206694 0.9673321014442119 0.17177928000206694 0.032667898555788 -0.17177928000206694
2.6415E9 0.030484577025845352 -0.16569859494504594 0.9695154229741547 0.16569859494504594 0.9695154229741547 0.16569859494504594 0.030484577025845352 -0.16569859494504594
2.71625E9 0.028475546744790754 -0.15987219394798588 0.9715244532552092 0.15987219394798588 0.9715244532552092 0.15987219394798588 0.028475546744790754 -0.15987219394798588
2.791E9 0.026623647125013628 -0.15428292815945682 0.9733763528749866 0.15428292815945682 0.9733763528749866 0.15428292815945682 0.026623647125013628 -0.15428292815945682
2.86575E9 0.024913769624353443 -0.14891505668441152 0.9750862303756467 0.14891505668441152 0.9750862303756467 0.14891505668441152 0.024913769624353443 -0.14891505668441152
2.9405E9 0.023332573830211346 -0.14375411904263372 0.9766674261697886 0.14375411904263372 0.9766674261697886 0.14375411904263372 0.023332573830211346 -0.14375411904263372
3.01525E9 0.021868247746304786 -0.13878681879150268 0.9781317522536954 0.13878681879150268 0.9781317522536954 0.13878681879150268 0.021868247746304786 -0.13878681879150268
3.09E9 0.020510304696404507 -0.1340009177299069 0.9794896953035954 0.1340009177299069 0.9794896953035954 0.1340009177299069 0.020510304696404507 -0.1340009177299069
3.16475E9 0.01924941067131604 -0.12938513997273635 0.980750589328684 0.12938513997273635 0.980750589328684 0.12938513997273635 0.01924941067131604 -0.12938513997273635
3.2395E9 0.01807723707602631 -0.12492908513067354 0.9819227629239736 0.12492908513067354 0.9819227629239736 0.12492908513067354 0.01807723707602631 -0.12492908513067354
3.31425E9 0.01698633474260224 -0.12062314982207764 0.9830136652573978 0.12062314982207764 0.9830136652573978 0.12062314982207764 0.01698633474260224 -0.12062314982207764
3.389E9 0.015970025807302935 -0.11645845676502171 0.9840299741926969 0.11645845676502171 0.9840299741926969 0.11645845676502171 0.015970025807302935 -0.11645845676502171
3.46375E9 0.015022310643565422 -0.11242679073615668 0.9849776893564346 0.11242679073615668 0.9849776893564346 0.11242679073615668 0.015022310643565422 -0.11242679073615668
3.5385E9 0.014137787524359496 -0.10852054073110866 0.9858622124756407 0.10852054073110866 0.9858622124756407 0.10852054073110866 0.014137787524359496 -0.10852054073110866
3.61325E9 0.013311583080147163 -0.10473264771333861 0.9866884169198528 0.10473264771333861 0.9866884169198528 0.10473264771333861 0.013311583080147163 -0.10473264771333861
3.688E9 0.012539291939895466 -0.10105655739141489 0.9874607080601046 0.10105655739141489 0.9874607080601046 0.10105655739141489 0.012539291939895466 -0.10105655739141489
3.76275E9 0.011816924206187723 -0.09748617751635104 0.9881830757938123 0.09748617751635104 0.9881830757938123 0.09748617751635104 0.011816924206187723 -0.09748617751635104
3.8375E9 0.01114085963250142 -0.09401583923975716 0.9888591403674987 0.09401583923975716 0.9888591403674987 0.09401583923975716 0.01114085963250142 -0.09401583923975716
3.91225E9 0.010507807549976466 -0.09064026211935335 0.9894921924500234 0.09064026211935335 0.9894921924500234 0.09064026211935335 0.010507807549976466 -0.09064026211935335
3.987E9 0.00991477173952127 -0.08735452240056478 0.9900852282604788 0.08735452240056478 0.9900852282604788 0.08735452240056478 0.00991477173952127 -0.08735452240056478
4.06175E9 0.009359019568543639 -0.0841540242413982 0.9906409804314565 0.0841540242413982 0.9906409804314565 0.0841540242413982 0.009359019568543639 -0.0841540242413982
4.1365E9 0.008838054814491791 -0.0810344735826649 0.9911619451855083 0.0810344735826649 0.9911619451855083 0.0810344735826649 0.008838054814491791 -0.0810344735826649
4.21125E9 0.008349593683415852 -0.07799185439704166 0.9916504063165842 0.07799185439704166 0.9916504063165842 0.07799185439704166 0.008349593683415852 -0.07799185439704166
4.286E9 0.007891543603884619 -0.07502240707868603 0.9921084563961153 0.07502240707868603 0.9921084563961153 0.07502240707868603 0.007891543603884619 -0.07502240707868603
4.36075E9 0.007461984437229236 -0.07212260876039446 0.9925380155627708 0.07212260876039446 0.9925380155627708 0.07212260876039446 0.007461984437229236 -0.07212260876039446
4.4355E9 0.007059151796201608 -0.0692891553678713 0.9929408482037984 0.0692891553678713 0.9929408482037984 0.0692891553678713 0.007059151796201608 -0.0692891553678713
4.51025E9 0.006681422207340541 -0.0665189452408274 0.9933185777926596 0.0665189452408274 0.9933185777926596 0.0665189452408274 0.006681422207340541 -0.0665189452408274
4.585E9 0.006327299888948989 -0.06380906416858195 0.9936727001110511 0.06380906416858195 0.9936727001110511 0.06380906416858195 0.006327299888948989 -0.06380906416858195
4.65975E9 0.0059954049476866654 -0.06115677170383746 0.9940045950523135 0.06115677170383746 0.9940045950523135 0.06115677170383746 0.0059954049476866654 -0.06115677170383746
4.7345E9 0.0056844628232663175 -0.058559488632537175 0.9943155371767338 0.058559488632537175 0.9943155371767338 0.058559488632537175 0.0056844628232663175 -0.058559488632537175
4.80925E9 0.005393294833348378 -0.056014785490394584 0.9946067051666517 0.056014785490394584 0.9946067051666517 0.056014785490394584 0.005393294833348378 -0.056014785490394584
4.884E9 0.005120809690069221 -0.053520372027970775 0.994879190309931 0.053520372027970775 0.994879190309931 0.053520372027970775 0.005120809690069221 -0.053520372027970775
4.95875E9 0.004865995876222379 -0.0510740875362288 0.9951340041237776 0.0510740875362288 0.9951340041237776 0.0510740875362288 0.004865995876222379 -0.0510740875362288
5.0335E9 0.004627914783363535 -0.0486738919534507 0.9953720852166366 0.0486738919534507 0.9953720852166366 0.0486738919534507 0.004627914783363535 -0.0486738919534507
5.10825E9 0.004405694526382989 -0.04631785768238364 0.9955943054736169 0.04631785768238364 0.9955943054736169 0.04631785768238364 0.004405694526382989 -0.04631785768238364
5.183E9 0.004198524359680734 -0.044004162053603184 0.9958014756403195 0.044004162053603184 0.9958014756403195 0.044004162053603184 0.004198524359680734 -0.044004162053603184
5.25775E9 0.004005649629237548 -0.04173108037743245 0.9959943503707623 0.04173108037743245 0.9959943503707623 0.04173108037743245 0.004005649629237548 -0.04173108037743245
5.3325E9 0.003826367202810831 -0.039496979532432495 0.9961736327971891 0.039496979532432495 0.9961736327971891 0.039496979532432495 0.003826367202810831 -0.039496979532432495
5.40725E9 0.0036600213273722893 -0.03730031204354831 0.9963399786726276 0.03730031204354831 0.9963399786726276 0.03730031204354831 0.0036600213273722893 -0.03730031204354831
5.482E9 0.0035059998688957783 -0.035139610607531985 0.9964940001311042 0.035139610607531985 0.9964940001311042 0.035139610607531985 0.0035059998688957783 -0.035139610607531985
5.55675E9 0.003363730894823789 -0.03301348302732466 0.9966362691051761 0.03301348302732466 0.9966362691051761 0.03301348302732466 0.003363730894823789 -0.03301348302732466
5.6315E9 0.0032326795640977863 -0.03092060752071782 0.9967673204359023 0.03092060752071782 0.9967673204359023 0.03092060752071782 0.0032326795640977863 -0.03092060752071782
5.70625E9 0.00311234529362188 -0.028859728371875667 0.9968876547063782 0.028859728371875667 0.9968876547063782 0.028859728371875667 0.00311234529362188 -0.028859728371875667
5.781E9 0.0030022591735193557 -0.02682965189723107 0.9969977408264806 0.02682965189723107 0.9969977408264806 0.02682965189723107 0.0030022591735193557 -0.02682965189723107
5.85575E9 0.002901981606603419 -0.024829242699896868 0.9970980183933964 0.024829242699896868 0.9970980183933964 0.024829242699896868 0.002901981606603419 -0.024829242699896868
5.9305E9 0.0028111001501742662 -0.022857420189100634 0.9971888998498258 0.022857420189100634 0.9971888998498258 0.022857420189100634 0.0028111001501742662 -0.022857420189100634
6.00525E9 0.0027292275406229738 -0.020913155343280938 0.997270772459377 0.020913155343280938 0.997270772459377 0.020913155343280938 0.0027292275406229738 -0.020913155343280938
6.08E9 0.0026559998834104854 -0.01899546769740059 0.9973440001165896 0.01899546769740059 0.9973440001165896 0.01899546769740059 0.0026559998834104854 -0.01899546769740059
6.15475E9 0.0025910749928332363 -0.017103422536763013 0.9974089250071668 0.017103422536763013 0.9974089250071668 0.017103422536763013 0.0025910749928332363 -0.017103422536763013
6.2295E9 0.0025341308676168055 -0.015236128281178313 0.9974658691323832 0.015236128281178313 0.9974658691323832 0.015236128281178313 0.0025341308676168055 -0.015236128281178313
6.30425E9 0.002484864289822095 -0.013392734044736714 0.9975151357101777 0.013392734044736714 0.9975151357101777 0.013392734044736714 0.002484864289822095 -0.013392734044736714
6.379E9 0.0024429895358282117 -0.011572427357721562 0.9975570104641716 0.011572427357721562 0.9975570104641716 0.011572427357721562 0.0024429895358282117 -0.011572427357721562
6.45375E9 0.00240823718929255 -0.009774432038348971 0.9975917628107075 0.009774432038348971 0.9975917628107075 0.009774432038348971 0.00240823718929255 -0.009774432038348971
6.5285E9 0.002380353046998843 -0.007998006203065948 0.9976196469530013 0.007998006203065948 0.9976196469530013 0.007998006203065948 0.002380353046998843 -0.007998006203065948
6.60325E9 0.0023590971094035644 -0.006242440405087562 0.9976409028905963 0.006242440405087562 0.9976409028905963 0.006242440405087562 0.0023590971094035644 -0.006242440405087562
6.678E9 0.002344242648492909 -0.0045070558917128505 0.9976557573515071 0.0045070558917128505 0.9976557573515071 0.0045070558917128505 0.002344242648492909 -0.0045070558917128505
6.75275E9 0.002335575346278448 -0.0027912029717410657 0.9976644246537215 0.0027912029717410657 0.9976644246537215 0.0027912029717410657 0.002335575346278448 -0.0027912029717410657
6.8275E9 0.0023328924978993156 -0.0010942594850207226 0.9976671075021009 0.0010942594850207226 0.9976671075021009 0.0010942594850207226 0.0023328924978993156 -0.0010942594850207226
6.90225E9 0.0023360022738711512 5.843706331921563E-4 0.9976639977261287 -5.843706331921563E-4 0.9976639977261287 -5.843706331921563E-4 0.0023360022738711512 5.843706331921563E-4
6.977E9 0.002344723036535007 0.002245258699798796 0.997655276963465 -0.002245258699798796 0.997655276963465 -0.002245258699798796 0.002344723036535007 0.002245258699798796
7.05175E9 0.002358882706219317 0.0038889525495440663 0.9976411172937808 -0.0038889525495440663 0.9976411172937808 -0.0038889525495440663 0.002358882706219317 0.0038889525495440663
7.1265E9 0.002378318173041143 0.0055159777245322806 0.9976216818269592 -0.0055159777245322806 0.9976216818269592 -0.0055159777245322806 0.002378318173041143 0.0055159777245322806
7.20125E9 0.0024028747506442297 0.007126838592834483 0.997597125249356 -0.007126838592834483 0.997597125249356 -0.007126838592834483 0.0024028747506442297 0.007126838592834483
7.276E9 0.002432405668505573 0.008722019401041255 0.9975675943314943 -0.008722019401041255 0.9975675943314943 -0.008722019401041255 0.002432405668505573 0.008722019401041255
7.35075E9 0.0024667715997432663 0.010301985265241667 0.9975332284002568 -0.010301985265241667 0.9975332284002568 -0.010301985265241667 0.0024667715997432663 0.010301985265241667
7.4255E9 0.0025058402216299315 0.01186718310456817 0.9974941597783702 -0.01186718310456817 0.9974941597783702 -0.01186718310456817 0.0025058402216299315 0.01186718310456817
7.50025E9 0.002549485806261192 0.013418042521134516 0.9974505141937388 -0.013418042521134516 0.9974505141937388 -0.013418042521134516 0.002549485806261192 0.013418042521134516
7.575E9 0.0025975888390501506 0.01495497662990747 0.9974024111609499 -0.01495497662990747 0.9974024111609499 -0.01495497662990747 0.0025975888390501506 0.01495497662990747
7.64975E9 0.0026500356629192705 0.016478382841789374 0.9973499643370808 -0.016478382841789374 0.9973499643370808 -0.016478382841789374 0.0026500356629192705 0.016478382841789374
7.7245E9 0.0027067181462425423 0.017988643602949318 0.9972932818537575 -0.017988643602949318 0.9972932818537575 -0.017988643602949318 0.0027067181462425423 0.017988643602949318
7.79925E9 0.002767533372755301 0.01948612709321733 0.997232466627245 -0.01948612709321733 0.997232466627245 -0.01948612709321733 0.002767533372755301 0.01948612709321733
7.874E9 0.0028323833517982836 0.020971187886153497 0.9971676166482016 -0.020971187886153497 0.9971676166482016 -0.020971187886153497 0.0028323833517982836 0.020971187886153497
7.94875E9 0.0029011747473980526 0.02244416757321608 0.9970988252526017 -0.02244416757321608 0.9970988252526017 -0.02244416757321608 0.0029011747473980526 0.02244416757321608
8.0235E9 0.002973818624809098 0.023905395354280965 0.9970261813751911 -0.023905395354280965 0.9970261813751911 -0.023905395354280965 0.002973818624809098 0.023905395354280965
8.09825E9 0.003050230213254917 0.025355188596604628 0.9969497697867452 -0.025355188596604628 0.9969497697867452 -0.025355188596604628 0.003050230213254917 0.025355188596604628
8.173E9 0.003130328683707542 0.026793853364178423 0.9968696713162924 -0.026793853364178423 0.9968696713162924 -0.026793853364178423 0.003130328683707542 0.026793853364178423
8.24775E9 0.003214036940637805 0.028221684919284937 0.9967859630593623 -0.028221684919284937 0.9967859630593623 -0.028221684919284937 0.003214036940637805 0.028221684919284937
8.3225E9 0.0033012814267535944 0.0296389681979439 0.9966987185732462 -0.0296389681979439 0.9966987185732462 -0.0296389681979439 0.0033012814267535944 0.0296389681979439
8.39725E9 0.0033919919398206744 0.031045978260819652 0.9966080080601794 -0.031045978260819652 0.9966080080601794 -0.031045978260819652 0.0033919919398206744 0.031045978260819652
8.472E9 0.0034861014607314176 0.03244298072105515 0.9965138985392685 -0.03244298072105515 0.9965138985392685 -0.03244298072105515 0.0034861014607314176 0.03244298072105515
8.54675E9 0.0035835459920515378 0.033830232150400714 0.9964164540079484 -0.033830232150400714 0.9964164540079484 -0.033830232150400714 0.0035835459920515378 0.033830232150400714
