!Murata Part Number: GJM0225C1E1R7BB01
!These Parameters are Measured in Series Mode Connection
!       o--ll--o
!Port1            Port2
!       o------o
!Operation Temp=25[degC], DC Bias Voltage=0[V]
!Freq. Start=100[MHz] Stop=30[GHz], 401[Steps]
!Data Generated on Feb 1, 2023
# Hz S RI R 50
!Freq.(Hz) S11(Real) S11(Imag) S21(Real) S21(Imag) S12(Real) S12(Imag) S22(Real) S22(Imag)
1.0E8 0.988693237195933 -0.10561526626106228 0.011306762804066913 0.10561526626106228 0.011306762804066913 0.10561526626106228 0.988693237195933 -0.10561526626106228
1.7475E8 0.9662426470373064 -0.18040275890968135 0.03375735296269346 0.18040275890968135 0.03375735296269346 0.18040275890968135 0.9662426470373064 -0.18040275890968135
2.495E8 0.9334791047301098 -0.24890304952456907 0.06652089526989031 0.24890304952456907 0.06652089526989031 0.24890304952456907 0.9334791047301098 -0.24890304952456907
3.2425E8 0.8924933579090403 -0.3093826463873971 0.10750664209095985 0.3093826463873971 0.10750664209095985 0.3093826463873971 0.8924933579090403 -0.3093826463873971
3.99E8 0.8456044530387653 -0.3608674146321411 0.15439554696123475 0.3608674146321411 0.15439554696123475 0.3608674146321411 0.8456044530387653 -0.3608674146321411
4.7375E8 0.7950831690928777 -0.4030941277340778 0.20491683090712245 0.4030941277340778 0.20491683090712245 0.4030941277340778 0.7950831690928777 -0.4030941277340778
5.485E8 0.7429498171026582 -0.43637375523415267 0.2570501828973417 0.43637375523415267 0.2570501828973417 0.43637375523415267 0.7429498171026582 -0.43637375523415267
6.2325E8 0.6908615134571962 -0.46141772500196077 0.3091384865428038 0.46141772500196077 0.3091384865428038 0.46141772500196077 0.6908615134571962 -0.46141772500196077
6.98E8 0.6400784643432371 -0.47916905387684816 0.3599215356567628 0.47916905387684816 0.3599215356567628 0.47916905387684816 0.6400784643432371 -0.47916905387684816
7.7275E8 0.5914861573984703 -0.490663250248203 0.4085138426015298 0.490663250248203 0.4085138426015298 0.490663250248203 0.5914861573984703 -0.490663250248203
8.475E8 0.5456489030316851 -0.4969279378280406 0.4543510969683147 0.4969279378280406 0.4543510969683147 0.4969279378280406 0.5456489030316851 -0.4969279378280406
9.2225E8 0.502875050114576 -0.49891935389275494 0.497124949885424 0.49891935389275494 0.497124949885424 0.49891935389275494 0.502875050114576 -0.49891935389275494
9.97E8 0.4632809813365608 -0.49748856824614235 0.5367190186634392 0.49748856824614235 0.5367190186634392 0.49748856824614235 0.4632809813365608 -0.49748856824614235
1.07175E9 0.4268470276685562 -0.4933689503139836 0.5731529723314438 0.4933689503139836 0.5731529723314438 0.4933689503139836 0.4268470276685562 -0.4933689503139836
1.1465E9 0.39346274360068395 -0.4871772916399596 0.6065372563993158 0.4871772916399596 0.6065372563993158 0.4871772916399596 0.39346274360068395 -0.4871772916399596
1.22125E9 0.3629615680719382 -0.4794227138206567 0.6370384319280619 0.4794227138206567 0.6370384319280619 0.4794227138206567 0.3629615680719382 -0.4794227138206567
1.296E9 0.33514617714377254 -0.47051926805387745 0.6648538228562275 0.47051926805387745 0.6648538228562275 0.47051926805387745 0.33514617714377254 -0.47051926805387745
1.37075E9 0.3098062818004673 -0.46079961063290886 0.6901937181995326 0.46079961063290886 0.6901937181995326 0.46079961063290886 0.3098062818004673 -0.46079961063290886
1.4455E9 0.2867306107258802 -0.45052822964545525 0.7132693892741199 0.45052822964545525 0.7132693892741199 0.45052822964545525 0.2867306107258802 -0.45052822964545525
1.52025E9 0.26571459242737017 -0.43991343779504577 0.7342854075726298 0.43991343779504577 0.7342854075726298 0.43991343779504577 0.26571459242737017 -0.43991343779504577
1.595E9 0.24656495937361483 -0.4291178131054872 0.7534350406263851 0.4291178131054872 0.7534350406263851 0.4291178131054872 0.24656495937361483 -0.4291178131054872
1.66975E9 0.2291022136602941 -0.41826704318816194 0.7708977863397057 0.41826704318816194 0.7708977863397057 0.41826704318816194 0.2291022136602941 -0.41826704318816194
1.7445E9 0.2131616508657692 -0.4074572752473281 0.786838349134231 0.4074572752473281 0.786838349134231 0.4074572752473281 0.2131616508657692 -0.4074572752473281
1.81925E9 0.19859344455084943 -0.39676114110103183 0.8014065554491506 0.39676114110103183 0.8014065554491506 0.39676114110103183 0.19859344455084943 -0.39676114110103183
1.894E9 0.18526214541260308 -0.3862326469727375 0.8147378545873968 0.3862326469727375 0.8147378545873968 0.3862326469727375 0.18526214541260308 -0.3862326469727375
1.96875E9 0.17304583918770725 -0.375911112829829 0.8269541608122928 0.375911112829829 0.8269541608122928 0.375911112829829 0.17304583918770725 -0.375911112829829
2.0435E9 0.16183512794048252 -0.3658243286489018 0.8381648720595177 0.3658243286489018 0.8381648720595177 0.3658243286489018 0.16183512794048252 -0.3658243286489018
2.11825E9 0.15153204302419623 -0.35599107282458864 0.8484679569758036 0.35599107282458864 0.8484679569758036 0.35599107282458864 0.15153204302419623 -0.35599107282458864
2.193E9 0.14204895871255344 -0.34642311523927727 0.8579510412874465 0.34642311523927727 0.8579510412874465 0.34642311523927727 0.14204895871255344 -0.34642311523927727
2.26775E9 0.13330754853160307 -0.3371268064195027 0.8666924514683969 0.3371268064195027 0.8666924514683969 0.3371268064195027 0.13330754853160307 -0.3371268064195027
2.3425E9 0.12523780811853608 -0.3281043356422167 0.8747621918814639 0.3281043356422167 0.8747621918814639 0.3281043356422167 0.12523780811853608 -0.3281043356422167
2.41725E9 0.11777715637644882 -0.31935472505946616 0.8822228436235514 0.31935472505946616 0.8822228436235514 0.31935472505946616 0.11777715637644882 -0.31935472505946616
2.492E9 0.11086961889558648 -0.31087461376739906 0.8891303811044133 0.31087461376739906 0.8891303811044133 0.31087461376739906 0.11086961889558648 -0.31087461376739906
2.56675E9 0.10446509272909592 -0.30265887497604954 0.895534907270904 0.30265887497604954 0.895534907270904 0.30265887497604954 0.10446509272909592 -0.30265887497604954
2.6415E9 0.09851868870033396 -0.2947011007057322 0.9014813112996661 0.2947011007057322 0.9014813112996661 0.2947011007057322 0.09851868870033396 -0.2947011007057322
2.71625E9 0.09299014582127163 -0.28699398141153276 0.9070098541787285 0.28699398141153276 0.9070098541787285 0.28699398141153276 0.09299014582127163 -0.28699398141153276
2.791E9 0.08784331166316806 -0.27952960231586316 0.9121566883368321 0.27952960231586316 0.9121566883368321 0.27952960231586316 0.08784331166316806 -0.27952960231586316
2.86575E9 0.08304568233060798 -0.2722996737467498 0.9169543176693918 0.2722996737467498 0.9169543176693918 0.2722996737467498 0.08304568233060798 -0.2722996737467498
2.9405E9 0.07856799583760099 -0.2652957092144109 0.9214320041623991 0.2652957092144109 0.9214320041623991 0.2652957092144109 0.07856799583760099 -0.2652957092144109
3.01525E9 0.07438387302868978 -0.25850916212747854 0.9256161269713101 0.25850916212747854 0.9256161269713101 0.25850916212747854 0.07438387302868978 -0.25850916212747854
3.09E9 0.07046950063581783 -0.2519315298038253 0.9295304993641823 0.2519315298038253 0.9295304993641823 0.2519315298038253 0.07046950063581783 -0.2519315298038253
3.16475E9 0.06680335155279384 -0.24555443164917973 0.9331966484472062 0.24555443164917973 0.9331966484472062 0.24555443164917973 0.06680335155279384 -0.24555443164917973
3.2395E9 0.0633659379055766 -0.23936966696342563 0.9366340620944235 0.23936966696342563 0.9366340620944235 0.23936966696342563 0.0633659379055766 -0.23936966696342563
3.31425E9 0.06013959297530711 -0.2333692567131034 0.9398604070246928 0.2333692567131034 0.9398604070246928 0.2333692567131034 0.06013959297530711 -0.2333692567131034
3.389E9 0.057108278479019635 -0.22754547271839726 0.9428917215209803 0.22754547271839726 0.9428917215209803 0.22754547271839726 0.057108278479019635 -0.22754547271839726
3.46375E9 0.05425741412379567 -0.22189085699569255 0.9457425858762043 0.22189085699569255 0.9457425858762043 0.22189085699569255 0.05425741412379567 -0.22189085699569255
3.5385E9 0.05157372672149107 -0.21639823343455958 0.9484262732785089 0.21639823343455958 0.9484262732785089 0.21639823343455958 0.05157372672149107 -0.21639823343455958
3.61325E9 0.04904511648338227 -0.21106071354069336 0.9509548835166179 0.21106071354069336 0.9509548835166179 0.21106071354069336 0.04904511648338227 -0.21106071354069336
3.688E9 0.04666053840900001 -0.20587169762015065 0.953339461591 0.20587169762015065 0.953339461591 0.20587169762015065 0.04666053840900001 -0.20587169762015065
3.76275E9 0.04440989694374753 -0.20082487249638947 0.9555901030562526 0.20082487249638947 0.9555901030562526 0.20082487249638947 0.04440989694374753 -0.20082487249638947
3.8375E9 0.042283952308727085 -0.19591420662528788 0.9577160476912728 0.19591420662528788 0.9577160476912728 0.19591420662528788 0.042283952308727085 -0.19591420662528788
3.91225E9 0.0402742371067006 -0.19113394329272979 0.9597257628932994 0.19113394329272979 0.9597257628932994 0.19113394329272979 0.0402742371067006 -0.19113394329272979
3.987E9 0.0383729819834053 -0.1864785924352009 0.9616270180165947 0.1864785924352009 0.9616270180165947 0.1864785924352009 0.0383729819834053 -0.1864785924352009
4.06175E9 0.03657304927644855 -0.1819429215087386 0.9634269507235514 0.1819429215087386 0.9634269507235514 0.1819429215087386 0.03657304927644855 -0.1819429215087386
4.1365E9 0.03486787371741309 -0.17752194573966806 0.9651321262825868 0.17752194573966806 0.9651321262825868 0.17752194573966806 0.03486787371741309 -0.17752194573966806
4.21125E9 0.033251409369050314 -0.1732109180171763 0.9667485906309498 0.1732109180171763 0.9667485906309498 0.1732109180171763 0.033251409369050314 -0.1732109180171763
4.286E9 0.03171808208069735 -0.16900531862920654 0.9682819179193025 0.16900531862920654 0.9682819179193025 0.16900531862920654 0.03171808208069735 -0.16900531862920654
4.36075E9 0.030262746833256967 -0.16490084499644864 0.969737253166743 0.16490084499644864 0.969737253166743 0.16490084499644864 0.030262746833256967 -0.16490084499644864
4.4355E9 0.028880649421923577 -0.16089340152199322 0.9711193505780762 0.16089340152199322 0.9711193505780762 0.16089340152199322 0.028880649421923577 -0.16089340152199322
4.51025E9 0.027567391991814377 -0.15697908964462295 0.9724326080081857 0.15697908964462295 0.9724326080081857 0.15697908964462295 0.027567391991814377 -0.15697908964462295
4.585E9 0.026318902000067052 -0.15315419816022552 0.9736810979999326 0.15315419816022552 0.9736810979999326 0.15315419816022552 0.026318902000067052 -0.15315419816022552
4.65975E9 0.025131404228929656 -0.1494151938572231 0.9748685957710704 0.1494151938572231 0.9748685957710704 0.1494151938572231 0.025131404228929656 -0.1494151938572231
4.7345E9 0.024001395518871396 -0.1457587124972477 0.9759986044811285 0.1457587124972477 0.9759986044811285 0.1457587124972477 0.024001395518871396 -0.1457587124972477
4.80925E9 0.022925621929640164 -0.142181550160783 0.97707437807036 0.142181550160783 0.97707437807036 0.142181550160783 0.022925621929640164 -0.142181550160783
4.884E9 0.021901058071218445 -0.13868065496850374 0.9780989419287818 0.13868065496850374 0.9780989419287818 0.13868065496850374 0.021901058071218445 -0.13868065496850374
4.95875E9 0.020924888376425175 -0.1352531191820869 0.9790751116235749 0.1352531191820869 0.9790751116235749 0.1352531191820869 0.020924888376425175 -0.1352531191820869
5.0335E9 0.019994490113026713 -0.13189617168292195 0.9800055098869733 0.13189617168292195 0.9800055098869733 0.13189617168292195 0.019994490113026713 -0.13189617168292195
5.10825E9 0.019107417956136546 -0.12860717082310272 0.9808925820438634 0.12860717082310272 0.9808925820438634 0.12860717082310272 0.019107417956136546 -0.12860717082310272
5.183E9 0.01826138996181262 -0.12538359764006926 0.9817386100381874 0.12538359764006926 0.9817386100381874 0.12538359764006926 0.01826138996181262 -0.12538359764006926
5.25775E9 0.017454274800461904 -0.12222304942407108 0.9825457251995381 0.12222304942407108 0.9825457251995381 0.12222304942407108 0.017454274800461904 -0.12222304942407108
5.3325E9 0.016684080124245333 -0.1191232336260843 0.9833159198757545 0.1191232336260843 0.9833159198757545 0.1191232336260843 0.016684080124245333 -0.1191232336260843
5.40725E9 0.01594894195641015 -0.11608196209278576 0.9840510580435899 0.11608196209278576 0.9840510580435899 0.11608196209278576 0.01594894195641015 -0.11608196209278576
5.482E9 0.015247115002594633 -0.11309714561456317 0.9847528849974053 0.11309714561456317 0.9847528849974053 0.11309714561456317 0.015247115002594633 -0.11309714561456317
5.55675E9 0.014576963794855173 -0.11016678877223372 0.985423036205145 0.11016678877223372 0.985423036205145 0.11016678877223372 0.014576963794855173 -0.11016678877223372
5.6315E9 0.013936954588631879 -0.10728898506807735 0.9860630454113682 0.10728898506807735 0.9860630454113682 0.10728898506807735 0.013936954588631879 -0.10728898506807735
5.70625E9 0.013325647941250778 -0.10446191232691639 0.9866743520587492 0.10446191232691639 0.9866743520587492 0.10446191232691639 0.013325647941250778 -0.10446191232691639
5.781E9 0.012741691907989282 -0.1016838283532334 0.9872583080920108 0.1016838283532334 0.9872583080920108 0.1016838283532334 0.012741691907989282 -0.1016838283532334
5.85575E9 0.012183815798324907 -0.09895306683069331 0.987816184201675 0.09895306683069331 0.987816184201675 0.09895306683069331 0.012183815798324907 -0.09895306683069331
5.9305E9 0.011650824440842516 -0.09626803345087193 0.9883491755591575 0.09626803345087193 0.9883491755591575 0.09626803345087193 0.011650824440842516 -0.09626803345087193
6.00525E9 0.01114159291048541 -0.09362720225849645 0.9888584070895144 0.09362720225849645 0.9888584070895144 0.09362720225849645 0.01114159291048541 -0.09362720225849645
6.08E9 0.010655061676471919 -0.0910291122010266 0.989344938323528 0.0910291122010266 0.989344938323528 0.0910291122010266 0.010655061676471919 -0.0910291122010266
6.15475E9 0.010190232133333765 -0.08847236387095864 0.9898097678666662 0.08847236387095864 0.9898097678666662 0.08847236387095864 0.010190232133333765 -0.08847236387095864
6.2295E9 0.0097461624812199 -0.08595561642978737 0.9902538375187802 0.08595561642978737 0.9902538375187802 0.08595561642978737 0.0097461624812199 -0.08595561642978737
6.30425E9 0.009321963924905422 -0.08347758470312203 0.9906780360750946 0.08347758470312203 0.9906780360750946 0.08347758470312203 0.009321963924905422 -0.08347758470312203
6.379E9 0.00891679716389014 -0.08103703643699635 0.9910832028361098 0.08103703643699635 0.9910832028361098 0.08103703643699635 0.00891679716389014 -0.08103703643699635
6.45375E9 0.00852986914860981 -0.07863278970595511 0.9914701308513902 0.07863278970595511 0.9914701308513902 0.07863278970595511 0.00852986914860981 -0.07863278970595511
6.5285E9 0.008160430080145555 -0.07626371046401687 0.9918395699198544 0.07626371046401687 0.9918395699198544 0.07626371046401687 0.008160430080145555 -0.07626371046401687
6.60325E9 0.0078077706329372255 -0.07392871023011793 0.9921922293670629 0.07392871023011793 0.9921922293670629 0.07392871023011793 0.0078077706329372255 -0.07392871023011793
6.678E9 0.007471219381909962 -0.07162674390012548 0.9925287806180901 0.07162674390012548 0.9925287806180901 0.07162674390012548 0.007471219381909962 -0.07162674390012548
6.75275E9 0.00715014041713384 -0.06935680767796752 0.9928498595828662 0.06935680767796752 0.9928498595828662 0.06935680767796752 0.00715014041713384 -0.06935680767796752
6.8275E9 0.006843931130676126 -0.06711793711887053 0.9931560688693242 0.06711793711887053 0.9931560688693242 0.06711793711887053 0.006843931130676126 -0.06711793711887053
6.90225E9 0.006552020161691558 -0.06490920527810985 0.9934479798383085 0.06490920527810985 0.9934479798383085 0.06490920527810985 0.006552020161691558 -0.06490920527810985
6.977E9 0.006273865487046045 -0.06272972095907758 0.993726134512954 0.06272972095907758 0.993726134512954 0.06272972095907758 0.006273865487046045 -0.06272972095907758
7.05175E9 0.00600895264589646 -0.060578627054844854 0.9939910473541036 0.060578627054844854 0.9939910473541036 0.060578627054844854 0.00600895264589646 -0.060578627054844854
7.1265E9 0.005756793087667703 -0.05845509897775035 0.9942432069123323 0.05845509897775035 0.9942432069123323 0.05845509897775035 0.005756793087667703 -0.05845509897775035
7.20125E9 0.005516922633788636 -0.05635834317187974 0.9944830773662112 0.05635834317187974 0.9944830773662112 0.05635834317187974 0.005516922633788636 -0.05635834317187974
7.276E9 0.00528890004438165 -0.05428759570361653 0.9947110999556183 0.05428759570361653 0.9947110999556183 0.05428759570361653 0.00528890004438165 -0.05428759570361653
7.35075E9 0.00507230568185441 -0.052242120925736164 0.9949276943181454 0.052242120925736164 0.9949276943181454 0.052242120925736164 0.00507230568185441 -0.052242120925736164
7.4255E9 0.004866740264026746 -0.05022121021079897 0.9951332597359732 0.05022121021079897 0.9951332597359732 0.05022121021079897 0.004866740264026746 -0.05022121021079897
7.50025E9 0.004671823700045144 -0.04822418074985154 0.995328176299955 0.04822418074985154 0.995328176299955 0.04822418074985154 0.004671823700045144 -0.04822418074985154
7.575E9 0.004487194002900948 -0.04625037441269573 0.995512805997099 0.04625037441269573 0.995512805997099 0.04625037441269573 0.004487194002900948 -0.04625037441269573
7.64975E9 0.00431250627288001 -0.04429915666621205 0.99568749372712 0.04429915666621205 0.99568749372712 0.04429915666621205 0.00431250627288001 -0.04429915666621205
7.7245E9 0.00414743174673684 -0.042369915547438707 0.9958525682532635 0.042369915547438707 0.9958525682532635 0.042369915547438707 0.00414743174673684 -0.042369915547438707
7.79925E9 0.003991656907810103 -0.0404620606883105 0.9960083430921899 0.0404620606883105 0.9960083430921899 0.0404620606883105 0.003991656907810103 -0.0404620606883105
7.874E9 0.003844882652682214 -0.03857502238914986 0.9961551173473178 0.03857502238914986 0.9961551173473178 0.03857502238914986 0.003844882652682214 -0.03857502238914986
7.94875E9 0.0037068235103376195 -0.03670825073817984 0.9962931764896622 0.03670825073817984 0.9962931764896622 0.03670825073817984 0.0037068235103376195 -0.03670825073817984
8.0235E9 0.003577206910095347 -0.03486121477449358 0.9964227930899047 0.03486121477449358 0.9964227930899047 0.03486121477449358 0.003577206910095347 -0.03486121477449358
8.09825E9 0.00345577249488467 -0.03303340169207172 0.9965442275051152 0.03303340169207172 0.9965442275051152 0.03303340169207172 0.00345577249488467 -0.03303340169207172
8.173E9 0.0033422714767004686 -0.03122431608258283 0.9966577285232994 0.03122431608258283 0.9966577285232994 0.03122431608258283 0.0033422714767004686 -0.03122431608258283
8.24775E9 0.00323646603131991 -0.029433479214839117 0.9967635339686801 0.029433479214839117 0.9967635339686801 0.029433479214839117 0.00323646603131991 -0.029433479214839117
8.3225E9 0.003138128729586254 -0.027660428348907112 0.9968618712704136 0.027660428348907112 0.9968618712704136 0.027660428348907112 0.003138128729586254 -0.027660428348907112
8.39725E9 0.0030470420027708623 -0.02590471608299155 0.996952957997229 0.02590471608299155 0.996952957997229 0.02590471608299155 0.0030470420027708623 -0.02590471608299155
8.472E9 0.0029629976397127166 -0.02416590973132381 0.9970370023602871 0.02416590973132381 0.9970370023602871 0.02416590973132381 0.0029629976397127166 -0.02416590973132381
8.54675E9 0.002885796313607274 -0.022443590731389792 0.9971142036863929 0.022443590731389792 0.9971142036863929 0.022443590731389792 0.002885796313607274 -0.022443590731389792
8.6215E9 0.002815247136474911 -0.020737354078931125 0.997184752863525 0.020737354078931125 0.997184752863525 0.020737354078931125 0.002815247136474911 -0.020737354078931125
8.69625E9 0.002751167239484647 -0.019046807789244575 0.9972488327605153 0.019046807789244575 0.9972488327605153 0.019046807789244575 0.002751167239484647 -0.019046807789244575
