!Murata Part Number: GJM0225C1E7R1BB01
!These Parameters are Measured in Series Mode Connection
!       o--ll--o
!Port1            Port2
!       o------o
!Operation Temp=25[degC], DC Bias Voltage=0[V]
!Freq. Start=100[MHz] Stop=30[GHz], 401[Steps]
!Data Generated on Feb 1, 2023
# Hz S RI R 50
!Freq.(Hz) S11(Real) S11(Imag) S21(Real) S21(Imag) S12(Real) S12(Imag) S22(Real) S22(Imag)
1.0E8 0.8337864415486049 -0.37206015161704836 0.16621355845139502 0.37206015161704836 0.16621355845139502 0.37206015161704836 0.8337864415486049 -0.37206015161704836
1.7475E8 0.6212378209071517 -0.48470738671532404 0.37876217909284826 0.48470738671532404 0.37876217909284826 0.48470738671532404 0.6212378209071517 -0.48470738671532404
2.495E8 0.44528129678145745 -0.4964649379240795 0.5547187032185426 0.4964649379240795 0.5547187032185426 0.4964649379240795 0.44528129678145745 -0.4964649379240795
3.2425E8 0.32146442670670416 -0.46634434056060986 0.6785355732932958 0.46634434056060986 0.6785355732932958 0.46634434056060986 0.32146442670670416 -0.46634434056060986
3.99E8 0.23758736394058633 -0.4247460445507605 0.7624126360594138 0.4247460445507605 0.7624126360594138 0.4247460445507605 0.23758736394058633 -0.4247460445507605
4.7375E8 0.18031391603573016 -0.38342217550214724 0.8196860839642699 0.38342217550214724 0.8196860839642699 0.38342217550214724 0.18031391603573016 -0.38342217550214724
5.485E8 0.14028912109099306 -0.34608918667645694 0.8597108789090068 0.34608918667645694 0.8597108789090068 0.34608918667645694 0.14028912109099306 -0.34608918667645694
6.2325E8 0.11156223138485596 -0.3134545068728344 0.8884377686151441 0.3134545068728344 0.8884377686151441 0.3134545068728344 0.11156223138485596 -0.3134545068728344
6.98E8 0.0904043457817852 -0.28520799488209464 0.9095956542182146 0.28520799488209464 0.9095956542182146 0.28520799488209464 0.0904043457817852 -0.28520799488209464
7.7275E8 0.07444925208176205 -0.2607636752299456 0.925550747918238 0.2607636752299456 0.925550747918238 0.2607636752299456 0.07444925208176205 -0.2607636752299456
8.475E8 0.06216197971131345 -0.23952214469747657 0.9378380202886867 0.23952214469747657 0.9378380202886867 0.23952214469747657 0.06216197971131345 -0.23952214469747657
9.2225E8 0.05252202258595371 -0.22095311699566036 0.9474779774140463 0.22095311699566036 0.9474779774140463 0.22095311699566036 0.05252202258595371 -0.22095311699566036
9.97E8 0.04483423164771439 -0.20461208975704726 0.9551657683522856 0.20461208975704726 0.9551657683522856 0.20461208975704726 0.04483423164771439 -0.20461208975704726
1.07175E9 0.0386141189440688 -0.19013445146388971 0.9613858810559311 0.19013445146388971 0.9613858810559311 0.19013445146388971 0.0386141189440688 -0.19013445146388971
1.1465E9 0.03351680792324168 -0.17722334809130272 0.9664831920767584 0.17722334809130272 0.9664831920767584 0.17722334809130272 0.03351680792324168 -0.17722334809130272
1.22125E9 0.029292016067223814 -0.1656372207222687 0.9707079839327761 0.1656372207222687 0.9707079839327761 0.1656372207222687 0.029292016067223814 -0.1656372207222687
1.296E9 0.025754887978194262 -0.15517891055058164 0.9742451120218056 0.15517891055058164 0.9742451120218056 0.15517891055058164 0.025754887978194262 -0.15517891055058164
1.37075E9 0.022766691000636 -0.14568671355286258 0.9772333089993638 0.14568671355286258 0.9772333089993638 0.14568671355286258 0.022766691000636 -0.14568671355286258
1.4455E9 0.020221780334911944 -0.1370272370552622 0.979778219665088 0.1370272370552622 0.979778219665088 0.1370272370552622 0.020221780334911944 -0.1370272370552622
1.52025E9 0.018038632187187823 -0.12908976307022352 0.9819613678128122 0.12908976307022352 0.9819613678128122 0.12908976307022352 0.018038632187187823 -0.12908976307022352
1.595E9 0.01615356811271805 -0.12178181787348627 0.9838464318872822 0.12178181787348627 0.9838464318872822 0.12178181787348627 0.01615356811271805 -0.12178181787348627
1.66975E9 0.014516292267267649 -0.11502568789774566 0.9854837077327323 0.11502568789774566 0.9854837077327323 0.11502568789774566 0.014516292267267649 -0.11502568789774566
1.7445E9 0.013086670724538656 -0.10875567155809668 0.9869133292754612 0.10875567155809668 0.9869133292754612 0.10875567155809668 0.013086670724538656 -0.10875567155809668
1.81925E9 0.011832375248093498 -0.10291590193649361 0.9881676247519063 0.10291590193649361 0.9881676247519063 0.10291590193649361 0.011832375248093498 -0.10291590193649361
1.894E9 0.01072713757091935 -0.09745861271458414 0.9892728624290806 0.09745861271458414 0.9892728624290806 0.09745861271458414 0.01072713757091935 -0.09745861271458414
1.96875E9 0.00974944074393796 -0.0923427493257378 0.9902505592560621 0.0923427493257378 0.9902505592560621 0.0923427493257378 0.00974944074393796 -0.0923427493257378
2.0435E9 0.00888152737748623 -0.08753285013278397 0.991118472622514 0.08753285013278397 0.991118472622514 0.08753285013278397 0.00888152737748623 -0.08753285013278397
2.11825E9 0.00810864037428541 -0.08299813987439682 0.9918913596257147 0.08299813987439682 0.9918913596257147 0.08299813987439682 0.00810864037428541 -0.08299813987439682
2.193E9 0.00741843612428762 -0.07871179087767485 0.9925815638757122 0.07871179087767485 0.9925815638757122 0.07871179087767485 0.00741843612428762 -0.07871179087767485
2.26775E9 0.00680052695823895 -0.07465031760387186 0.9931994730417609 0.07465031760387186 0.9931994730417609 0.07465031760387186 0.00680052695823895 -0.07465031760387186
2.3425E9 0.006246121420199612 -0.07079307775697477 0.9937538785798004 0.07079307775697477 0.9937538785798004 0.07079307775697477 0.006246121420199612 -0.07079307775697477
2.41725E9 0.005747739240421472 -0.06712185903460696 0.9942522607595786 0.06712185903460696 0.9942522607595786 0.06712185903460696 0.005747739240421472 -0.06712185903460696
2.492E9 0.005298983841714018 -0.0636205350847408 0.9947010161582862 0.0636205350847408 0.9947010161582862 0.0636205350847408 0.005298983841714018 -0.0636205350847408
2.56675E9 0.004894359514047527 -0.06027477768476932 0.9951056404859525 0.06027477768476932 0.9951056404859525 0.06027477768476932 0.004894359514047527 -0.06027477768476932
2.6415E9 0.004529123531865172 -0.05707181483186525 0.9954708764681347 0.05707181483186525 0.9954708764681347 0.05707181483186525 0.004529123531865172 -0.05707181483186525
2.71625E9 0.004199165801615309 -0.05400022651238218 0.9958008341983846 0.05400022651238218 0.9958008341983846 0.05400022651238218 0.004199165801615309 -0.05400022651238218
2.791E9 0.003900910346056628 -0.05104977154358393 0.9960990896539431 0.05104977154358393 0.9960990896539431 0.05104977154358393 0.003900910346056628 -0.05104977154358393
2.86575E9 0.0036312342201284703 -0.048211240158673625 0.9963687657798717 0.048211240158673625 0.9963687657798717 0.048211240158673625 0.0036312342201284703 -0.048211240158673625
2.9405E9 0.0033874004262052287 -0.04547632801553689 0.9966125995737948 0.04547632801553689 0.9966125995737948 0.04547632801553689 0.0033874004262052287 -0.04547632801553689
3.01525E9 0.003167002137002318 -0.04283752811115841 0.9968329978629975 0.04283752811115841 0.9968329978629975 0.04283752811115841 0.003167002137002318 -0.04283752811115841
3.09E9 0.0029679161018722525 -0.0402880377232802 0.9970320838981276 0.0402880377232802 0.9970320838981276 0.0402880377232802 0.0029679161018722525 -0.0402880377232802
3.16475E9 0.002788263550073854 -0.03782167801371587 0.9972117364499262 0.03782167801371587 0.9972117364499262 0.03782167801371587 0.002788263550073854 -0.03782167801371587
3.2395E9 0.002626377244599661 -0.03543282434086413 0.9973736227554004 0.03543282434086413 0.9973736227554004 0.03543282434086413 0.002626377244599661 -0.03543282434086413
3.31425E9 0.0024807736057890885 -0.03311634566327601 0.9975192263942108 0.03311634566327601 0.9975192263942108 0.03311634566327601 0.0024807736057890885 -0.03311634566327601
3.389E9 0.0023501290327134485 -0.03086755168784981 0.9976498709672866 0.03086755168784981 0.9976498709672866 0.03086755168784981 0.0023501290327134485 -0.03086755168784981
3.46375E9 0.0022332597152898504 -0.028682146638012898 0.99776674028471 0.028682146638012898 0.99776674028471 0.028682146638012898 0.0022332597152898504 -0.028682146638012898
3.5385E9 0.0021291043611437323 -0.02655618869902305 0.9978708956388563 0.02655618869902305 0.9978708956388563 0.02655618869902305 0.0021291043611437323 -0.02655618869902305
3.61325E9 0.0020367093658944053 -0.024486054347092404 0.9979632906341057 0.024486054347092404 0.9979632906341057 0.024486054347092404 0.0020367093658944053 -0.024486054347092404
3.688E9 0.001955216039513414 -0.02246840689258461 0.9980447839604867 0.02246840689258461 0.9980447839604867 0.02246840689258461 0.001955216039513414 -0.02246840689258461
3.76275E9 0.0018838495691025595 -0.020500168669964604 0.9981161504308972 0.020500168669964604 0.9981161504308972 0.020500168669964604 0.0018838495691025595 -0.020500168669964604
3.8375E9 0.0018219094532573126 -0.01857849639240704 0.9981780905467426 0.01857849639240704 0.9981780905467426 0.01857849639240704 0.0018219094532573126 -0.01857849639240704
3.91225E9 0.0017687611877626938 -0.01670075926012684 0.9982312388122374 0.01670075926012684 0.9982312388122374 0.01670075926012684 0.0017687611877626938 -0.01670075926012684
3.987E9 0.0017238290187742 -0.01486451947110631 0.9982761709812259 0.01486451947110631 0.9982761709812259 0.01486451947110631 0.0017238290187742 -0.01486451947110631
4.06175E9 0.001686589609483393 -0.013067514832992086 0.9983134103905167 0.013067514832992086 0.9983134103905167 0.013067514832992086 0.001686589609483393 -0.013067514832992086
4.1365E9 0.001656566490831296 -0.011307643217172036 0.9983434335091689 0.011307643217172036 0.9983434335091689 0.011307643217172036 0.001656566490831296 -0.011307643217172036
4.21125E9 0.0016333251871224377 -0.009582948631758247 0.9983666748128776 0.009582948631758247 0.9983666748128776 0.009582948631758247 0.0016333251871224377 -0.009582948631758247
4.286E9 0.001616468924211183 -0.007891608720492755 0.9983835310757888 0.007891608720492755 0.9983835310757888 0.007891608720492755 0.001616468924211183 -0.007891608720492755
4.36075E9 0.0016056348419213138 -0.006231923520354132 0.9983943651580789 0.006231923520354132 0.9983943651580789 0.006231923520354132 0.0016056348419213138 -0.006231923520354132
4.4355E9 0.0016004906440340709 -0.004602305332613716 0.9983995093559661 0.004602305332613716 0.9983995093559661 0.004602305332613716 0.0016004906440340709 -0.004602305332613716
4.51025E9 0.0016007316289531756 -0.0030012695808756817 0.9983992683710469 0.0030012695808756817 0.9983992683710469 0.0030012695808756817 0.0016007316289531756 -0.0030012695808756817
4.585E9 0.0016060780523624312 -0.0014274265457411418 0.9983939219476377 0.0014274265457411418 0.9983939219476377 0.0014274265457411418 0.0016060780523624312 -0.0014274265457411418
4.65975E9 0.00161627278010393 1.2052612042307725E-4 0.9983837272198961 -1.2052612042307725E-4 0.9983837272198961 -1.2052612042307725E-4 0.00161627278010393 1.2052612042307725E-4
4.7345E9 0.0016310791953436448 0.001643810183206656 0.9983689208046563 -0.001643810183206656 0.9983689208046563 -0.001643810183206656 0.0016310791953436448 0.001643810183206656
4.80925E9 0.0016502793290368066 0.003143572994668143 0.9983497206709631 -0.003143572994668143 0.9983497206709631 -0.003143572994668143 0.0016502793290368066 0.003143572994668143
4.884E9 0.0016736721869060204 0.004620893106025809 0.998326327813094 -0.004620893106025809 0.998326327813094 -0.004620893106025809 0.0016736721869060204 0.004620893106025809
4.95875E9 0.0017010722497220023 0.006076785382186434 0.9982989277502781 -0.006076785382186434 0.9982989277502781 -0.006076785382186434 0.0017010722497220023 0.006076785382186434
5.0335E9 0.0017323081267307662 0.00751220566905293 0.998267691873269 -0.00751220566905293 0.998267691873269 -0.00751220566905293 0.0017323081267307662 0.00751220566905293
5.10825E9 0.001767221344684679 0.008928055058700151 0.9982327786553153 -0.008928055058700151 0.9982327786553153 -0.008928055058700151 0.001767221344684679 0.008928055058700151
5.183E9 0.00180566525717723 0.010325183792401348 0.9981943347428228 -0.010325183792401348 0.9981943347428228 -0.010325183792401348 0.00180566525717723 0.010325183792401348
5.25775E9 0.0018475040609096647 0.011704394837020649 0.9981524959390905 -0.011704394837020649 0.9981524959390905 -0.011704394837020649 0.0018475040609096647 0.011704394837020649
5.3325E9 0.0018926119071797595 0.01306644716637525 0.9981073880928201 -0.01306644716637525 0.9981073880928201 -0.01306644716637525 0.0018926119071797595 0.01306644716637525
5.40725E9 0.0019408720983187908 0.014412058775735091 0.9980591279016814 -0.014412058775735091 0.9980591279016814 -0.014412058775735091 0.0019408720983187908 0.014412058775735091
5.482E9 0.001992176360045912 0.01574190945460865 0.9980078236399541 -0.01574190945460865 0.9980078236399541 -0.01574190945460865 0.001992176360045912 0.01574190945460865
5.55675E9 0.0020464241817876555 0.017056643340302442 0.9979535758182121 -0.017056643340302442 0.9979535758182121 -0.017056643340302442 0.0020464241817876555 0.017056643340302442
5.6315E9 0.002103522217948012 0.018356871272394673 0.9978964777820519 -0.018356871272394673 0.9978964777820519 -0.018356871272394673 0.002103522217948012 0.018356871272394673
5.70625E9 0.0021633837439316607 0.01964317296618946 0.9978366162560685 -0.01964317296618946 0.9978366162560685 -0.01964317296618946 0.0021633837439316607 0.01964317296618946
5.781E9 0.0022259281614361707 0.020916099021380814 0.9977740718385638 -0.020916099021380814 0.9977740718385638 -0.020916099021380814 0.0022259281614361707 0.020916099021380814
5.85575E9 0.0022910805481531184 0.022176172780528133 0.997708919451847 -0.022176172780528133 0.997708919451847 -0.022176172780528133 0.0022910805481531184 0.022176172780528133
5.9305E9 0.0023587712475651064 0.023423892050499474 0.9976412287524348 -0.023423892050499474 0.9976412287524348 -0.023423892050499474 0.0023587712475651064 0.023423892050499474
6.00525E9 0.0024289354950062245 0.024659730698753275 0.9975710645049939 -0.024659730698753275 0.9975710645049939 -0.024659730698753275 0.0024289354950062245 0.024659730698753275
6.08E9 0.0025015130765765254 0.025884140135185692 0.9974984869234237 -0.025884140135185692 0.9974984869234237 -0.025884140135185692 0.0025015130765765254 0.025884140135185692
6.15475E9 0.00257644801787409 0.02709755068924933 0.9974235519821258 -0.02709755068924933 0.9974235519821258 -0.02709755068924933 0.00257644801787409 0.02709755068924933
6.2295E9 0.0026536882998381933 0.028300372891139874 0.9973463117001617 -0.028300372891139874 0.9973463117001617 -0.028300372891139874 0.0026536882998381933 0.028300372891139874
6.30425E9 0.0027331855992890892 0.029492998665032046 0.9972668144007107 -0.029492998665032046 0.9972668144007107 -0.029492998665032046 0.0027331855992890892 0.029492998665032046
6.379E9 0.002814895052009499 0.030675802441619146 0.9971851049479906 -0.030675802441619146 0.9971851049479906 -0.030675802441619146 0.002814895052009499 0.030675802441619146
6.45375E9 0.002898775036443657 0.031849142196557156 0.9971012249635562 -0.031849142196557156 0.9971012249635562 -0.031849142196557156 0.002898775036443657 0.031849142196557156
6.5285E9 0.0029847869762960003 0.033013360420831285 0.9970152130237039 -0.033013360420831285 0.9970152130237039 -0.033013360420831285 0.0029847869762960003 0.033013360420831285
6.60325E9 0.003072895160495854 0.034168785028535986 0.9969271048395042 -0.034168785028535986 0.9969271048395042 -0.034168785028535986 0.003072895160495854 0.034168785028535986
6.678E9 0.0031630665791602154 0.035315730207091 0.9968369334208398 -0.035315730207091 0.9968369334208398 -0.035315730207091 0.0031630665791602154 0.035315730207091
6.75275E9 0.0032552707743358205 0.03645449721449103 0.996744729225664 -0.03645449721449103 0.996744729225664 -0.03645449721449103 0.0032552707743358205 0.03645449721449103
6.8275E9 0.0033494797044366265 0.03758537512780668 0.9966505202955636 -0.03758537512780668 0.9966505202955636 -0.03758537512780668 0.0033494797044366265 0.03758537512780668
6.90225E9 0.003445667621415482 0.03870864154681313 0.9965543323785846 -0.03870864154681313 0.9965543323785846 -0.03870864154681313 0.003445667621415482 0.03870864154681313
6.977E9 0.003543810959820627 0.039824563256314935 0.9964561890401793 -0.039824563256314935 0.9964561890401793 -0.039824563256314935 0.003543810959820627 0.039824563256314935
7.05175E9 0.003643888236990526 0.04093339685045966 0.9963561117630095 -0.04093339685045966 0.9963561117630095 -0.04093339685045966 0.003643888236990526 0.04093339685045966
7.1265E9 0.0037458799637355164 0.04203538932208459 0.9962541200362646 -0.04203538932208459 0.9962541200362646 -0.04203538932208459 0.0037458799637355164 0.04203538932208459
7.20125E9 0.0038497685649433984 0.043130778619919395 0.9961502314350565 -0.043130778619919395 0.9961502314350565 -0.043130778619919395 0.0038497685649433984 0.043130778619919395
7.276E9 0.0039555383096291545 0.04421979417626699 0.996044461690371 -0.04421979417626699 0.996044461690371 -0.04421979417626699 0.0039555383096291545 0.04421979417626699
7.35075E9 0.004063175250028078 0.045302657407609026 0.9959368247499719 -0.045302657407609026 0.9959368247499719 -0.045302657407609026 0.004063175250028078 0.045302657407609026
7.4255E9 0.004172667169407118 0.04637958219042202 0.9958273328305929 -0.04637958219042202 0.9958273328305929 -0.04637958219042202 0.004172667169407118 0.04637958219042202
7.50025E9 0.004284003538342903 0.047450775314351934 0.9957159964616571 -0.047450775314351934 0.9957159964616571 -0.047450775314351934 0.004284003538342903 0.047450775314351934
7.575E9 0.004397175479287026 0.048516436914770894 0.9956028245207131 -0.048516436914770894 0.9956028245207131 -0.048516436914770894 0.004397175479287026 0.048516436914770894
7.64975E9 0.0045121757393110935 0.049576760886631176 0.9954878242606889 -0.049576760886631176 0.9954878242606889 -0.049576760886631176 0.0045121757393110935 0.049576760886631176
7.7245E9 0.004628998670997015 0.05063193528144155 0.995371001329003 -0.05063193528144155 0.995371001329003 -0.05063193528144155 0.004628998670997015 0.05063193528144155
7.79925E9 0.004747640221512242 0.05168214268910933 0.9952523597784877 -0.05168214268910933 0.9952523597784877 -0.05168214268910933 0.004747640221512242 0.05168214268910933
7.874E9 0.0048680979299874725 0.05272756060632952 0.9951319020700123 -0.05272756060632952 0.9951319020700123 -0.05272756060632952 0.0048680979299874725 0.05272756060632952
7.94875E9 0.004990370933395897 0.053768361793148714 0.9950096290666042 -0.053768361793148714 0.9950096290666042 -0.053768361793148714 0.004990370933395897 0.053768361793148714
8.0235E9 0.005114459981220381 0.05480471461929427 0.9948855400187798 -0.05480471461929427 0.9948855400187798 -0.05480471461929427 0.005114459981220381 0.05480471461929427
8.09825E9 0.005240367459289412 0.05583678340183407 0.9947596325407106 -0.05583678340183407 0.9947596325407106 -0.05583678340183407 0.005240367459289412 0.05583678340183407
8.173E9 0.005368097423265687 0.05686472873571833 0.9946319025767343 -0.05686472873571833 0.9946319025767343 -0.05686472873571833 0.005368097423265687 0.05686472873571833
8.24775E9 0.005497655642385377 0.05788870781875921 0.9945023443576145 -0.05788870781875921 0.9945023443576145 -0.05788870781875921 0.005497655642385377 0.05788870781875921
8.3225E9 0.005629049654172988 0.058908874772616186 0.994370950345827 -0.058908874772616186 0.994370950345827 -0.058908874772616186 0.005629049654172988 0.058908874772616186
8.39725E9 0.005762288830999787 0.05992538096138906 0.9942377111690002 -0.05992538096138906 0.9942377111690002 -0.05992538096138906 0.005762288830999787 0.05992538096138906
8.472E9 0.005897384459515269 0.06093837530946287 0.994102615540485 -0.06093837530946287 0.994102615540485 -0.06093837530946287 0.005897384459515269 0.06093837530946287
