!Murata Part Number: GJM0225C1E6R0BB01
!These Parameters are Measured in Series Mode Connection
!       o--ll--o
!Port1            Port2
!       o------o
!Operation Temp=25[degC], DC Bias Voltage=0[V]
!Freq. Start=100[MHz] Stop=30[GHz], 401[Steps]
!Data Generated on Feb 1, 2023
# Hz S RI R 50
!Freq.(Hz) S11(Real) S11(Imag) S21(Real) S21(Imag) S12(Real) S12(Imag) S22(Real) S22(Imag)
1.0E8 0.875352153631105 -0.33007395893518665 0.12464784636889495 0.33007395893518665 0.12464784636889495 0.33007395893518665 0.875352153631105 -0.33007395893518665
1.7475E8 0.6966633945982387 -0.45926998830602356 0.30333660540176144 0.45926998830602356 0.30333660540176144 0.45926998830602356 0.6966633945982387 -0.45926998830602356
2.495E8 0.5292777963399334 -0.4985271158839062 0.47072220366006645 0.4985271158839062 0.47072220366006645 0.4985271158839062 0.5292777963399334 -0.4985271158839062
3.2425E8 0.39901285013656346 -0.48889286302243523 0.6009871498634367 0.48889286302243523 0.6009871498634367 0.48889286302243523 0.39901285013656346 -0.48889286302243523
3.99E8 0.3040918022640361 -0.4590289875904853 0.6959081977359639 0.4590289875904853 0.6959081977359639 0.4590289875904853 0.3040918022640361 -0.4590289875904853
4.7375E8 0.23587350006758653 -0.42335745008525205 0.7641264999324135 0.42335745008525205 0.7641264999324135 0.42335745008525205 0.23587350006758653 -0.42335745008525205
5.485E8 0.18644772386662994 -0.3880844545722608 0.8135522761333701 0.3880844545722608 0.8135522761333701 0.3880844545722608 0.18644772386662994 -0.3880844545722608
6.2325E8 0.15004152048458605 -0.3555277649286781 0.8499584795154139 0.3555277649286781 0.8499584795154139 0.3555277649286781 0.15004152048458605 -0.3555277649286781
6.98E8 0.12271182752223059 -0.32631579529286586 0.8772881724777695 0.32631579529286586 0.8772881724777695 0.32631579529286586 0.12271182752223059 -0.32631579529286586
7.7275E8 0.10180520552179936 -0.30039043117868586 0.8981947944782006 0.30039043117868586 0.8981947944782006 0.30039043117868586 0.10180520552179936 -0.30039043117868586
8.475E8 0.08552641852910944 -0.27744503151676897 0.9144735814708904 0.27744503151676897 0.9144735814708904 0.27744503151676897 0.08552641852910944 -0.27744503151676897
9.2225E8 0.0726440816911885 -0.257109939650701 0.9273559183088115 0.257109939650701 0.9273559183088115 0.257109939650701 0.0726440816911885 -0.257109939650701
9.97E8 0.06229918025233126 -0.23902712931638034 0.9377008197476687 0.23902712931638034 0.9377008197476687 0.23902712931638034 0.06229918025233126 -0.23902712931638034
1.07175E9 0.053881784535750675 -0.22287670804828266 0.9461182154642495 0.22287670804828266 0.9461182154642495 0.22287670804828266 0.053881784535750675 -0.22287670804828266
1.1465E9 0.046951255203650184 -0.20838297489868438 0.9530487447963497 0.20838297489868438 0.9530487447963497 0.20838297489868438 0.046951255203650184 -0.20838297489868438
1.22125E9 0.04118396677725354 -0.19531226722163136 0.9588160332227464 0.19531226722163136 0.9588160332227464 0.19531226722163136 0.04118396677725354 -0.19531226722163136
1.296E9 0.036338539347922034 -0.1834679637000688 0.9636614606520779 0.1834679637000688 0.9636614606520779 0.1834679637000688 0.036338539347922034 -0.1834679637000688
1.37075E9 0.03223233987122933 -0.17268493832140597 0.9677676601287707 0.17268493832140597 0.9677676601287707 0.17268493832140597 0.03223233987122933 -0.17268493832140597
1.4455E9 0.02872534221823271 -0.16282438284117118 0.9712746577817671 0.16282438284117118 0.9712746577817671 0.16282438284117118 0.02872534221823271 -0.16282438284117118
1.52025E9 0.02570886671493102 -0.1537693041678173 0.9742911332850688 0.1537693041678173 0.9742911332850688 0.1537693041678173 0.02570886671493102 -0.1537693041678173
1.595E9 0.023097605723220924 -0.1454207406572547 0.9769023942767789 0.1454207406572547 0.9769023942767789 0.1454207406572547 0.023097605723220924 -0.1454207406572547
1.66975E9 0.02082389595923121 -0.13769463737781823 0.9791761040407687 0.13769463737781823 0.9791761040407687 0.13769463737781823 0.02082389595923121 -0.13769463737781823
1.7445E9 0.018833549497169245 -0.13051928745801825 0.9811664505028308 0.13051928745801825 0.9811664505028308 0.13051928745801825 0.018833549497169245 -0.13051928745801825
1.81925E9 0.01708278122185466 -0.12383324418489133 0.9829172187781454 0.12383324418489133 0.9829172187781454 0.12383324418489133 0.01708278122185466 -0.12383324418489133
1.894E9 0.01553591776528113 -0.11758361796284404 0.9844640822347186 0.11758361796284404 0.9844640822347186 0.11758361796284404 0.01553591776528113 -0.11758361796284404
1.96875E9 0.014163670381609544 -0.11172468518657716 0.9858363296183905 0.11172468518657716 0.9858363296183905 0.11172468518657716 0.014163670381609544 -0.11172468518657716
2.0435E9 0.012941819550016187 -0.1062167489357367 0.987058180449984 0.1062167489357367 0.987058180449984 0.1062167489357367 0.012941819550016187 -0.1062167489357367
2.11825E9 0.011850203496368238 -0.10102520279629319 0.9881497965036319 0.10102520279629319 0.9881497965036319 0.10102520279629319 0.011850203496368238 -0.10102520279629319
2.193E9 0.010871933384216497 -0.09611975869159825 0.9891280666157837 0.09611975869159825 0.9891280666157837 0.09611975869159825 0.010871933384216497 -0.09611975869159825
2.26775E9 0.009992779213302907 -0.0914738074288137 0.9900072207866972 0.0914738074288137 0.9900072207866972 0.0914738074288137 0.009992779213302907 -0.0914738074288137
2.3425E9 0.009200685463546973 -0.08706388695557106 0.990799314536453 0.08706388695557106 0.990799314536453 0.08706388695557106 0.009200685463546973 -0.08706388695557106
2.41725E9 0.008485386207105162 -0.08286923833466724 0.9915146137928947 0.08286923833466724 0.9915146137928947 0.08286923833466724 0.008485386207105162 -0.08286923833466724
2.492E9 0.007838097100820188 -0.07887143342338376 0.9921619028991797 0.07887143342338376 0.9921619028991797 0.07887143342338376 0.007838097100820188 -0.07887143342338376
2.56675E9 0.007251267260026936 -0.07505406139727704 0.9927487327399728 0.07505406139727704 0.9927487327399728 0.07505406139727704 0.007251267260026936 -0.07505406139727704
2.6415E9 0.006718378114173388 -0.07140246375809492 0.9932816218858266 0.07140246375809492 0.9932816218858266 0.07140246375809492 0.006718378114173388 -0.07140246375809492
2.71625E9 0.006233779378429437 -0.06790350945025246 0.9937662206215705 0.06790350945025246 0.9937662206215705 0.06790350945025246 0.006233779378429437 -0.06790350945025246
2.791E9 0.005792554539311168 -0.06454540328982848 0.9942074454606887 0.06454540328982848 0.9942074454606887 0.06454540328982848 0.005792554539311168 -0.06454540328982848
2.86575E9 0.005390409955177636 -0.061317522170680774 0.9946095900448222 0.061317522170680774 0.9946095900448222 0.061317522170680774 0.005390409955177636 -0.061317522170680774
2.9405E9 0.005023582963003889 -0.05821027452166231 0.9949764170369962 0.05821027452166231 0.9949764170369962 0.05821027452166231 0.005023582963003889 -0.05821027452166231
3.01525E9 0.004688765367974542 -0.05521497929993283 0.9953112346320256 0.05521497929993283 0.9953112346320256 0.05521497929993283 0.004688765367974542 -0.05521497929993283
3.09E9 0.004383039449618222 -0.052323761459344635 0.9956169605503816 0.052323761459344635 0.9956169605503816 0.052323761459344635 0.004383039449618222 -0.052323761459344635
3.16475E9 0.004103824203978284 -0.04952946136218597 0.9958961757960216 0.04952946136218597 0.9958961757960216 0.04952946136218597 0.004103824203978284 -0.04952946136218597
3.2395E9 0.0038488299973214396 -0.046825556032556274 0.9961511700026786 0.046825556032556274 0.9961511700026786 0.046825556032556274 0.0038488299973214396 -0.046825556032556274
3.31425E9 0.0036160201639898904 -0.0442060905002566 0.9963839798360101 0.0442060905002566 0.9963839798360101 0.0442060905002566 0.0036160201639898904 -0.0442060905002566
3.389E9 0.00340357836224964 -0.04166561777101352 0.9965964216377503 0.04166561777101352 0.9965964216377503 0.04166561777101352 0.00340357836224964 -0.04166561777101352
3.46375E9 0.003209880724699699 -0.03919914619453551 0.9967901192753003 0.03919914619453551 0.9967901192753003 0.03919914619453551 0.003209880724699699 -0.03919914619453551
3.5385E9 0.0030334720170872797 -0.03680209319617214 0.9969665279829126 0.03680209319617214 0.9969665279829126 0.03680209319617214 0.0030334720170872797 -0.03680209319617214
3.61325E9 0.002873045161196028 -0.03447024449864946 0.9971269548388038 0.03447024449864946 0.9971269548388038 0.03447024449864946 0.002873045161196028 -0.03447024449864946
3.688E9 0.002727423591473657 -0.03219971809373896 0.9972725764085263 0.03219971809373896 0.9972725764085263 0.03219971809373896 0.002727423591473657 -0.03219971809373896
3.76275E9 0.0025955460071217925 -0.029986932334805667 0.9974044539928784 0.029986932334805667 0.9974044539928784 0.029986932334805667 0.0025955460071217925 -0.029986932334805667
3.8375E9 0.0024764531560356046 -0.02782857761399349 0.9975235468439645 0.02782857761399349 0.9975235468439645 0.02782857761399349 0.0024764531560356046 -0.02782857761399349
3.91225E9 0.002369276347796538 -0.025721591165602187 0.9976307236522038 0.025721591165602187 0.9976307236522038 0.025721591165602187 0.002369276347796538 -0.025721591165602187
3.987E9 0.002273227442658416 -0.02366313460261696 0.9977267725573415 0.02366313460261696 0.9977267725573415 0.02366313460261696 0.002273227442658416 -0.02366313460261696
4.06175E9 0.0021875901043031496 -0.021650573848511327 0.9978124098956969 0.021650573848511327 0.9978124098956969 0.021650573848511327 0.0021875901043031496 -0.021650573848511327
4.1365E9 0.002111712137796159 -0.01968146117309333 0.9978882878622035 0.01968146117309333 0.9978882878622035 0.01968146117309333 0.002111712137796159 -0.01968146117309333
4.21125E9 0.002044998762007636 -0.017753519080733637 0.9979550012379923 0.017753519080733637 0.9979550012379923 0.017753519080733637 0.002044998762007636 -0.017753519080733637
4.286E9 0.0019869066888697677 -0.01586462583296599 0.9980130933111303 0.01586462583296599 0.9980130933111303 0.01586462583296599 0.0019869066888697677 -0.01586462583296599
4.36075E9 0.0019369389010813604 -0.014012802416149377 0.9980630610989186 0.014012802416149377 0.9980630610989186 0.014012802416149377 0.0019369389010813604 -0.014012802416149377
4.4355E9 0.0018946400359476294 -0.012196200789417924 0.9981053599640524 0.012196200789417924 0.9981053599640524 0.012196200789417924 0.0018946400359476294 -0.012196200789417924
4.51025E9 0.0018595922965170496 -0.010413093269177892 0.9981404077034829 0.010413093269177892 0.9981404077034829 0.010413093269177892 0.0018595922965170496 -0.010413093269177892
4.585E9 0.0018314118225045489 -0.008661862924483708 0.9981685881774954 0.008661862924483708 0.9981685881774954 0.008661862924483708 0.0018314118225045489 -0.008661862924483708
4.65975E9 0.0018097454630407435 -0.006940994873191669 0.9981902545369592 0.006940994873191669 0.9981902545369592 0.006940994873191669 0.0018097454630407435 -0.006940994873191669
4.7345E9 0.0017942679013620234 -0.005249068382229129 0.9982057320986379 0.005249068382229129 0.9982057320986379 0.005249068382229129 0.0017942679013620234 -0.005249068382229129
4.80925E9 0.0017846790884025942 -0.0035847496869459766 0.9982153209115974 0.0035847496869459766 0.9982153209115974 0.0035847496869459766 0.0017846790884025942 -0.0035847496869459766
4.884E9 0.0017807019480694261 -0.0019467854545983413 0.9982192980519305 0.0019467854545983413 0.9982192980519305 0.0019467854545983413 0.0017807019480694261 -0.0019467854545983413
4.95875E9 0.0017820803219410807 -3.33996825778173E-4 0.9982179196780591 3.33996825778173E-4 0.9982179196780591 3.33996825778173E-4 0.0017820803219410807 -3.33996825778173E-4
5.0335E9 0.0017885771253690415 0.0012547260247666885 0.9982114228746308 -0.0012547260247666885 0.9982114228746308 -0.0012547260247666885 0.0017885771253690415 0.0012547260247666885
5.10825E9 0.0017999726905894252 0.0028204288598190773 0.9982000273094105 -0.0028204288598190773 0.9982000273094105 -0.0028204288598190773 0.0017999726905894252 0.0028204288598190773
5.183E9 0.00181606327556838 0.004364097929960976 0.9981839367244317 -0.004364097929960976 0.9981839367244317 -0.004364097929960976 0.00181606327556838 0.004364097929960976
5.25775E9 0.0018366597199848636 0.0058866641434000295 0.9981633402800151 -0.0058866641434000295 0.9981633402800151 -0.0058866641434000295 0.0018366597199848636 0.0058866641434000295
5.3325E9 0.0018615862320657437 0.007389006891855454 0.9981384137679341 -0.007389006891855454 0.9981384137679341 -0.007389006891855454 0.0018615862320657437 0.007389006891855454
5.40725E9 0.0018906792919851988 0.008871957565070058 0.998109320708015 -0.008871957565070058 0.998109320708015 -0.008871957565070058 0.0018906792919851988 0.008871957565070058
5.482E9 0.0019237866592697096 0.010336302783050581 0.9980762133407302 -0.010336302783050581 0.9980762133407302 -0.010336302783050581 0.0019237866592697096 0.010336302783050581
5.55675E9 0.0019607664731503167 0.011782787372082236 0.9980392335268496 -0.011782787372082236 0.9980392335268496 -0.011782787372082236 0.0019607664731503167 0.011782787372082236
5.6315E9 0.0020014864361080683 0.013212117107860775 0.997998513563892 -0.013212117107860775 0.997998513563892 -0.013212117107860775 0.0020014864361080683 0.013212117107860775
5.70625E9 0.0020458230719947665 0.014624961246696894 0.9979541769280054 -0.014624961246696894 0.9979541769280054 -0.014624961246696894 0.0020458230719947665 0.014624961246696894
5.781E9 0.0020936610511023625 0.01602195486362607 0.9979063389488976 -0.01602195486362607 0.9979063389488976 -0.01602195486362607 0.0020936610511023625 0.01602195486362607
5.85575E9 0.0021448925754210366 0.01740370101437632 0.9978551074245791 -0.01740370101437632 0.9978551074245791 -0.01740370101437632 0.0021448925754210366 0.01740370101437632
5.9305E9 0.002199416818084951 0.018770772736472967 0.9978005831819151 -0.018770772736472967 0.9978005831819151 -0.018770772736472967 0.002199416818084951 0.018770772736472967
6.00525E9 0.002257139411670419 0.020123714903268884 0.9977428605883296 -0.020123714903268884 0.9977428605883296 -0.020123714903268884 0.002257139411670419 0.020123714903268884
6.08E9 0.0023179719805963227 0.021463045943360178 0.9976820280194035 -0.021463045943360178 0.9976820280194035 -0.021463045943360178 0.0023179719805963227 0.021463045943360178
6.15475E9 0.0023818317133915204 0.022789259436660166 0.9976181682866085 -0.022789259436660166 0.9976181682866085 -0.022789259436660166 0.0023818317133915204 0.022789259436660166
6.2295E9 0.0024486409710480052 0.024102825597343853 0.9975513590289521 -0.024102825597343853 0.9975513590289521 -0.024102825597343853 0.0024486409710480052 0.024102825597343853
6.30425E9 0.0025183269280793833 0.02540419265292383 0.9974816730719204 -0.02540419265292383 0.9974816730719204 -0.02540419265292383 0.0025183269280793833 0.02540419265292383
6.379E9 0.0025908212432588186 0.026693788127867924 0.9974091787567412 -0.026693788127867924 0.9974091787567412 -0.026693788127867924 0.0025908212432588186 0.026693788127867924
6.45375E9 0.002666059757324476 0.027972020039402384 0.9973339402426753 -0.027972020039402384 0.9973339402426753 -0.027972020039402384 0.002666059757324476 0.027972020039402384
6.5285E9 0.0027439822152191353 0.029239278012458455 0.9972560177847808 -0.029239278012458455 0.9972560177847808 -0.029239278012458455 0.0027439822152191353 0.029239278012458455
6.60325E9 0.002824532010677979 0.03049593432010058 0.9971754679893222 -0.03049593432010058 0.9971754679893222 -0.03049593432010058 0.002824532010677979 0.03049593432010058
6.678E9 0.0029076559511987325 0.03174234485521735 0.9970923440488012 -0.03174234485521735 0.9970923440488012 -0.03174234485521735 0.0029076559511987325 0.03174234485521735
6.75275E9 0.0029933040416244773 0.03297885003875394 0.9970066959583755 -0.03297885003875394 0.9970066959583755 -0.03297885003875394 0.0029933040416244773 0.03297885003875394
6.8275E9 0.003081429284744371 0.03420577566930996 0.9969185707152555 -0.03420577566930996 0.9969185707152555 -0.03420577566930996 0.003081429284744371 0.03420577566930996
6.90225E9 0.0031719874974740214 0.035423433718517534 0.9968280125025258 -0.035423433718517534 0.9968280125025258 -0.035423433718517534 0.0031719874974740214 0.035423433718517534
6.977E9 0.003264937141317016 0.036632123076241876 0.996735062858683 -0.036632123076241876 0.996735062858683 -0.036632123076241876 0.003264937141317016 0.036632123076241876
7.05175E9 0.0033602391659347023 0.03783213024931129 0.9966397608340655 -0.03783213024931129 0.9966397608340655 -0.03783213024931129 0.0033602391659347023 0.03783213024931129
7.1265E9 0.0034578568647637173 0.039023730017178106 0.9965421431352363 -0.039023730017178106 0.9965421431352363 -0.039023730017178106 0.0034578568647637173 0.039023730017178106
7.20125E9 0.0035577557417220836 0.040207186047635526 0.996442244258278 -0.040207186047635526 0.996442244258278 -0.040207186047635526 0.0035577557417220836 0.040207186047635526
7.276E9 0.003659903388135703 0.04138275147546375 0.9963400966118643 -0.04138275147546375 0.9963400966118643 -0.04138275147546375 0.003659903388135703 0.04138275147546375
7.35075E9 0.0037642693690993468 0.04255066944665082 0.9962357306309007 -0.04255066944665082 0.9962357306309007 -0.04255066944665082 0.0037642693690993468 0.04255066944665082
7.4255E9 0.0038708251185604597 0.04371117363062528 0.9961291748814395 -0.04371117363062528 0.9961291748814395 -0.04371117363062528 0.0038708251185604597 0.04371117363062528
7.50025E9 0.003979543842481287 0.04486448870274827 0.9960204561575186 -0.04486448870274827 0.9960204561575186 -0.04486448870274827 0.003979543842481287 0.04486448870274827
7.575E9 0.004090400429495939 0.046010830799141166 0.9959095995705042 -0.046010830799141166 0.9959095995705042 -0.046010830799141166 0.004090400429495939 0.046010830799141166
7.64975E9 0.00420337136853426 0.04715040794576607 0.9957966286314658 -0.04715040794576607 0.9957966286314658 -0.04715040794576607 0.00420337136853426 0.04715040794576607
7.7245E9 0.00431843467293518 0.048283420463535134 0.9956815653270649 -0.048283420463535134 0.9956815653270649 -0.048283420463535134 0.00431843467293518 0.048283420463535134
7.79925E9 0.0044355698106180765 0.049410061351091036 0.995564430189382 -0.049410061351091036 0.995564430189382 -0.049410061351091036 0.0044355698106180765 0.049410061351091036
7.874E9 0.004554757639923367 0.05053051664678403 0.9954452423600765 -0.05053051664678403 0.9954452423600765 -0.05053051664678403 0.004554757639923367 0.05053051664678403
7.94875E9 0.004675980350772253 0.05164496577126019 0.9953240196492276 -0.05164496577126019 0.9953240196492276 -0.05164496577126019 0.004675980350772253 0.05164496577126019
8.0235E9 0.004799221410831601 0.052753581851975734 0.9952007785891686 -0.052753581851975734 0.9952007785891686 -0.052753581851975734 0.004799221410831601 0.052753581851975734
8.09825E9 0.004924465516403328 0.053856532030861964 0.9950755344835968 -0.053856532030861964 0.9950755344835968 -0.053856532030861964 0.004924465516403328 0.053856532030861964
8.173E9 0.005051698547788712 0.054953977756281164 0.9949483014522111 -0.054953977756281164 0.9949483014522111 -0.054953977756281164 0.005051698547788712 0.054953977756281164
8.24775E9 0.005180907528907231 0.05604607506033858 0.9948190924710928 -0.05604607506033858 0.9948190924710928 -0.05604607506033858 0.005180907528907231 0.05604607506033858
8.3225E9 0.005312080590976968 0.05713297482254479 0.9946879194090228 -0.05713297482254479 0.9946879194090228 -0.05713297482254479 0.005312080590976968 0.05713297482254479
8.39725E9 0.005445206940089864 0.058214823020761586 0.9945547930599101 -0.058214823020761586 0.9945547930599101 -0.058214823020761586 0.005445206940089864 0.058214823020761586
8.472E9 0.005580276828539912 0.059291760970304044 0.99441972317146 -0.059291760970304044 0.99441972317146 -0.059291760970304044 0.005580276828539912 0.059291760970304044
