!Murata Part Number: GJM0225C1E5R3BB01
!These Parameters are Measured in Series Mode Connection
!       o--ll--o
!Port1            Port2
!       o------o
!Operation Temp=25[degC], DC Bias Voltage=0[V]
!Freq. Start=100[MHz] Stop=30[GHz], 401[Steps]
!Data Generated on Feb 1, 2023
# Hz S RI R 50
!Freq.(Hz) S11(Real) S11(Imag) S21(Real) S21(Imag) S12(Real) S12(Imag) S22(Real) S22(Imag)
1.0E8 0.899996997650808 -0.29975922662721954 0.10000300234919207 0.29975922662721954 0.10000300234919207 0.29975922662721954 0.899996997650808 -0.29975922662721954
1.7475E8 0.7464498024580228 -0.4346150434634398 0.2535501975419772 0.4346150434634398 0.2535501975419772 0.4346150434634398 0.7464498024580228 -0.4346150434634398
2.495E8 0.5904767177504658 -0.4911339733176533 0.40952328224953416 0.4911339733176533 0.40952328224953416 0.4911339733176533 0.5904767177504658 -0.4911339733176533
3.2425E8 0.4599924031484434 -0.4976003996903563 0.5400075968515565 0.4976003996903563 0.5400075968515565 0.4976003996903563 0.4599924031484434 -0.4976003996903563
3.99E8 0.3593843430807624 -0.47883803388702795 0.6406156569192376 0.47883803388702795 0.6406156569192376 0.47883803388702795 0.3593843430807624 -0.47883803388702795
4.7375E8 0.2839772218300445 -0.4497571545502037 0.7160227781699554 0.4497571545502037 0.7160227781699554 0.4497571545502037 0.2839772218300445 -0.4497571545502037
5.485E8 0.22762857025169114 -0.4179446127453085 0.7723714297483087 0.4179446127453085 0.7723714297483087 0.4179446127453085 0.22762857025169114 -0.4179446127453085
6.2325E8 0.1851614133920977 -0.38688159115522874 0.8148385866079023 0.38688159115522874 0.8148385866079023 0.38688159115522874 0.1851614133920977 -0.38688159115522874
6.98E8 0.15272719831642362 -0.35798563337145906 0.8472728016835761 0.35798563337145906 0.8472728016835761 0.35798563337145906 0.15272719831642362 -0.35798563337145906
7.7275E8 0.1275851863677071 -0.33169461262080685 0.8724148136322928 0.33169461262080685 0.8724148136322928 0.33169461262080685 0.1275851863677071 -0.33169461262080685
8.475E8 0.10780472636788005 -0.30800442906954983 0.89219527363212 0.30800442906954983 0.89219527363212 0.30800442906954983 0.10780472636788005 -0.30800442906954983
9.2225E8 0.0920213171305032 -0.2867276772018731 0.9079786828694968 0.2867276772018731 0.9079786828694968 0.2867276772018731 0.0920213171305032 -0.2867276772018731
9.97E8 0.07926107659007 -0.2676153153598175 0.92073892340993 0.2676153153598175 0.92073892340993 0.2676153153598175 0.07926107659007 -0.2676153153598175
1.07175E9 0.06882005807310893 -0.25041202778823585 0.931179941926891 0.25041202778823585 0.931179941926891 0.25041202778823585 0.06882005807310893 -0.25041202778823585
1.1465E9 0.06018242147541135 -0.23487973653330108 0.9398175785245887 0.23487973653330108 0.9398175785245887 0.23487973653330108 0.06018242147541135 -0.23487973653330108
1.22125E9 0.052964932392516276 -0.2208059946551404 0.9470350676074839 0.2208059946551404 0.9470350676074839 0.2208059946551404 0.052964932392516276 -0.2208059946551404
1.296E9 0.046879046932670365 -0.20800539366210946 0.9531209530673297 0.20800539366210946 0.9531209530673297 0.20800539366210946 0.046879046932670365 -0.20800539366210946
1.37075E9 0.04170473589234453 -0.19631793460669464 0.9582952641076554 0.19631793460669464 0.9582952641076554 0.19631793460669464 0.04170473589234453 -0.19631793460669464
1.4455E9 0.03727219436166796 -0.18560626384892892 0.9627278056383322 0.18560626384892892 0.9627278056383322 0.18560626384892892 0.03727219436166796 -0.18560626384892892
1.52025E9 0.03344889932652854 -0.17575266626269137 0.9665511006734713 0.17575266626269137 0.9665511006734713 0.17575266626269137 0.03344889932652854 -0.17575266626269137
1.595E9 0.030130335555440205 -0.16665621219954915 0.9698696644445599 0.16665621219954915 0.9698696644445599 0.16665621219954915 0.030130335555440205 -0.16665621219954915
1.66975E9 0.027233267958981355 -0.15823021209655527 0.9727667320410185 0.15823021209655527 0.9727667320410185 0.15823021209655527 0.027233267958981355 -0.15823021209655527
1.7445E9 0.024690803224503826 -0.15040001700043654 0.9753091967754961 0.15040001700043654 0.9753091967754961 0.15040001700043654 0.024690803224503826 -0.15040001700043654
1.81925E9 0.022448723778299172 -0.14310115098087126 0.9775512762217009 0.14310115098087126 0.9775512762217009 0.14310115098087126 0.022448723778299172 -0.14310115098087126
1.894E9 0.020462737016637606 -0.13627774044396657 0.9795372629833623 0.13627774044396657 0.9795372629833623 0.13627774044396657 0.020462737016637606 -0.13627774044396657
1.96875E9 0.01869639031529075 -0.12988119955146443 0.9813036096847092 0.12988119955146443 0.9813036096847092 0.12988119955146443 0.01869639031529075 -0.12988119955146443
2.0435E9 0.017119475508548986 -0.12386913211805621 0.982880524491451 0.12386913211805621 0.982880524491451 0.12386913211805621 0.017119475508548986 -0.12386913211805621
2.11825E9 0.015706796875688534 -0.1182044143976812 0.9842932031243116 0.1182044143976812 0.9842932031243116 0.1182044143976812 0.015706796875688534 -0.1182044143976812
2.193E9 0.014437211693157074 -0.11285442807132266 0.985562788306843 0.11285442807132266 0.985562788306843 0.11285442807132266 0.014437211693157074 -0.11285442807132266
2.26775E9 0.01329287703201194 -0.10779041757554243 0.986707122967988 0.10779041757554243 0.986707122967988 0.10779041757554243 0.01329287703201194 -0.10779041757554243
2.3425E9 0.012258653969933373 -0.10298695026717081 0.9877413460300668 0.10298695026717081 0.9877413460300668 0.10298695026717081 0.012258653969933373 -0.10298695026717081
2.41725E9 0.011321632934965164 -0.09842146167827834 0.9886783670650346 0.09842146167827834 0.9886783670650346 0.09842146167827834 0.011321632934965164 -0.09842146167827834
2.492E9 0.01047075298642911 -0.09407387127709152 0.9895292470135709 0.09407387127709152 0.9895292470135709 0.09407387127709152 0.01047075298642911 -0.09407387127709152
2.56675E9 0.009696494481175735 -0.08992625676997255 0.9903035055188243 0.08992625676997255 0.9903035055188243 0.08992625676997255 0.009696494481175735 -0.08992625676997255
2.6415E9 0.00899062947091535 -0.08596257713061607 0.9910093705290846 0.08596257713061607 0.9910093705290846 0.08596257713061607 0.00899062947091535 -0.08596257713061607
2.71625E9 0.008346017817356522 -0.08216843630002625 0.9916539821826436 0.08216843630002625 0.9916539821826436 0.08216843630002625 0.008346017817356522 -0.08216843630002625
2.791E9 0.007756439740179938 -0.07853088093299461 0.99224356025982 0.07853088093299461 0.99224356025982 0.07853088093299461 0.007756439740179938 -0.07853088093299461
2.86575E9 0.007216457572770593 -0.07503822673289938 0.9927835424272293 0.07503822673289938 0.9927835424272293 0.07503822673289938 0.007216457572770593 -0.07503822673289938
2.9405E9 0.006721301067121806 -0.0716799088664266 0.9932786989328783 0.0716799088664266 0.9932786989328783 0.0716799088664266 0.006721301067121806 -0.0716799088664266
3.01525E9 0.0062667717888202695 -0.06844635272428976 0.9937332282111797 0.06844635272428976 0.9937332282111797 0.06844635272428976 0.0062667717888202695 -0.06844635272428976
3.09E9 0.005849163067557449 -0.06532886192664639 0.9941508369324425 0.06532886192664639 0.9941508369324425 0.06532886192664639 0.005849163067557449 -0.06532886192664639
3.16475E9 0.005465192685707866 -0.062319520989766515 0.9945348073142923 0.062319520989766515 0.9945348073142923 0.062319520989766515 0.005465192685707866 -0.062319520989766515
3.2395E9 0.00511194604706376 -0.05941111049544951 0.9948880539529364 0.05941111049544951 0.9948880539529364 0.05941111049544951 0.00511194604706376 -0.05941111049544951
3.31425E9 0.004786828006947162 -0.05659703295429517 0.9952131719930526 0.05659703295429517 0.9952131719930526 0.05659703295429517 0.004786828006947162 -0.05659703295429517
3.389E9 0.004487521891450557 -0.05387124784236569 0.9955124781085494 0.05387124784236569 0.9955124781085494 0.05387124784236569 0.004487521891450557 -0.05387124784236569
3.46375E9 0.004211954508457663 -0.05122821452939986 0.9957880454915423 0.05122821452939986 0.9957880454915423 0.05122821452939986 0.004211954508457663 -0.05122821452939986
3.5385E9 0.003958266172278358 -0.048662842014740575 0.9960417338277217 0.048662842014740575 0.9960417338277217 0.048662842014740575 0.003958266172278358 -0.048662842014740575
3.61325E9 0.0037247849393373927 -0.04617044455189201 0.9962752150606627 0.04617044455189201 0.9962752150606627 0.04617044455189201 0.0037247849393373927 -0.04617044455189201
3.688E9 0.0035100043937062236 -0.04374670238012175 0.9964899956062936 0.04374670238012175 0.9964899956062936 0.04374670238012175 0.0035100043937062236 -0.04374670238012175
3.76275E9 0.0033125644355525338 -0.041387626896602046 0.9966874355644475 0.041387626896602046 0.9966874355644475 0.041387626896602046 0.0033125644355525338 -0.041387626896602046
3.8375E9 0.003131234618382569 -0.039089529699169255 0.9968687653816174 0.039089529699169255 0.9968687653816174 0.039089529699169255 0.003131234618382569 -0.039089529699169255
3.91225E9 0.002964899656618775 -0.036848995011079654 0.9970351003433813 0.036848995011079654 0.9970351003433813 0.036848995011079654 0.002964899656618775 -0.036848995011079654
3.987E9 0.002812546786997579 -0.034662855067750395 0.9971874532130023 0.034662855067750395 0.9971874532130023 0.034662855067750395 0.002812546786997579 -0.034662855067750395
4.06175E9 0.002673254718174349 -0.03252816810354339 0.9973267452818256 0.03252816810354339 0.9973267452818256 0.03252816810354339 0.002673254718174349 -0.03252816810354339
4.1365E9 0.002546183944906331 -0.03044219862592012 0.9974538160550936 0.03044219862592012 0.9974538160550936 0.03044219862592012 0.002546183944906331 -0.03044219862592012
4.21125E9 0.0024305682379360187 -0.02840239970621283 0.9975694317620641 0.02840239970621283 0.9975694317620641 0.02840239970621283 0.0024305682379360187 -0.02840239970621283
4.286E9 0.002325707149561492 -0.026406397052008153 0.9976742928504383 0.026406397052008153 0.9976742928504383 0.026406397052008153 0.002325707149561492 -0.026406397052008153
4.36075E9 0.0022309593989338255 -0.024451974656706284 0.9977690406010661 0.024451974656706284 0.9977690406010661 0.024451974656706284 0.0022309593989338255 -0.024451974656706284
4.4355E9 0.0021457370212306197 -0.022537061848016692 0.9978542629787693 0.022537061848016692 0.9978542629787693 0.022537061848016692 0.0021457370212306197 -0.022537061848016692
4.51025E9 0.0020695001817180535 -0.020659721579659042 0.9979304998182819 0.020659721579659042 0.9979304998182819 0.020659721579659042 0.0020695001817180535 -0.020659721579659042
4.585E9 0.0020017525698977703 -0.018818139829917917 0.9979982474301022 0.018818139829917917 0.9979982474301022 0.018818139829917917 0.0020017525698977703 -0.018818139829917917
4.65975E9 0.0019420373008995446 -0.017010615987425367 0.9980579626991002 0.017010615987425367 0.9980579626991002 0.017010615987425367 0.0019420373008995446 -0.017010615987425367
4.7345E9 0.0018899332614017818 -0.015235554119011346 0.9981100667385983 0.015235554119011346 0.9981100667385983 0.015235554119011346 0.0018899332614017818 -0.015235554119011346
4.80925E9 0.0018450518459465436 -0.013491455027000594 0.9981549481540535 0.013491455027000594 0.9981549481540535 0.013491455027000594 0.0018450518459465436 -0.013491455027000594
4.884E9 0.0018070340368165285 -0.01177690901422433 0.9981929659631835 0.01177690901422433 0.9981929659631835 0.01177690901422433 0.0018070340368165285 -0.01177690901422433
4.95875E9 0.0017755477868660137 -0.010090589284493603 0.9982244522131343 0.010090589284493603 0.9982244522131343 0.010090589284493603 0.0017755477868660137 -0.010090589284493603
5.0335E9 0.001750285670017957 -0.00843124591454582 0.9982497143299821 0.00843124591454582 0.9982497143299821 0.00843124591454582 0.001750285670017957 -0.00843124591454582
5.10825E9 0.0017309627686976302 -0.006797700340697401 0.9982690372313022 0.006797700340697401 0.9982690372313022 0.006797700340697401 0.0017309627686976302 -0.006797700340697401
5.183E9 0.0017173147713874404 -0.005188840309757029 0.9982826852286125 0.005188840309757029 0.9982826852286125 0.005188840309757029 0.0017173147713874404 -0.005188840309757029
5.25775E9 0.0017090962568566913 -0.003603615249297018 0.9982909037431433 0.003603615249297018 0.9982909037431433 0.003603615249297018 0.0017090962568566913 -0.003603615249297018
5.3325E9 0.0017060791445261125 -0.002041032017250633 0.9982939208554741 0.002041032017250633 0.9982939208554741 0.002041032017250633 0.0017060791445261125 -0.002041032017250633
5.40725E9 0.0017080512929391917 -5.001509950889948E-4 0.9982919487070611 5.001509950889948E-4 0.9982919487070611 5.001509950889948E-4 0.0017080512929391917 -5.001509950889948E-4
5.482E9 0.0017148152304884432 0.001019917507390412 0.9982851847695116 -0.001019917507390412 0.9982851847695116 -0.001019917507390412 0.0017148152304884432 0.001019917507390412
5.55675E9 0.0017261870044336567 0.0025200165642960508 0.9982738129955664 -0.0025200165642960508 0.9982738129955664 -0.0025200165642960508 0.0017261870044336567 0.0025200165642960508
5.6315E9 0.0017419951358919508 0.004000945688576502 0.9982580048641081 -0.004000945688576502 0.9982580048641081 -0.004000945688576502 0.0017419951358919508 0.004000945688576502
5.70625E9 0.001762079669910975 0.005463463652724904 0.9982379203300892 -0.005463463652724904 0.9982379203300892 -0.005463463652724904 0.001762079669910975 0.005463463652724904
5.781E9 0.001786291310986415 0.0069082910960028615 0.9982137086890134 -0.0069082910960028615 0.9982137086890134 -0.0069082910960028615 0.001786291310986415 0.0069082910960028615
5.85575E9 0.0018144906354780512 0.008336112936872595 0.998185509364522 -0.008336112936872595 0.998185509364522 -0.008336112936872595 0.0018144906354780512 0.008336112936872595
5.9305E9 0.0018465473733364907 0.009747580607494559 0.9981534526266637 -0.009747580607494559 0.9981534526266637 -0.009747580607494559 0.0018465473733364907 0.009747580607494559
6.00525E9 0.001882339752393481 0.011143314125512341 0.9981176602476065 -0.011143314125512341 0.9981176602476065 -0.011143314125512341 0.001882339752393481 0.011143314125512341
6.08E9 0.0019217538992080594 0.012523904016892183 0.9980782461007919 -0.012523904016892183 0.9980782461007919 -0.012523904016892183 0.0019217538992080594 0.012523904016892183
6.15475E9 0.0019646832911120273 0.01388991310227948 0.9980353167088879 -0.01388991310227948 0.9980353167088879 -0.01388991310227948 0.0019646832911120273 0.01388991310227948
6.2295E9 0.002011028254672894 0.015241878158172857 0.997988971745327 -0.015241878158172857 0.997988971745327 -0.015241878158172857 0.002011028254672894 0.015241878158172857
6.30425E9 0.0020606955063003146 0.01658031146317097 0.9979393044936999 -0.01658031146317097 0.9979393044936999 -0.01658031146317097 0.0020606955063003146 0.01658031146317097
6.379E9 0.0021135977311717347 0.017905702238613257 0.9978864022688284 -0.017905702238613257 0.9978864022688284 -0.017905702238613257 0.0021135977311717347 0.017905702238613257
6.45375E9 0.002169653197051709 0.01921851799209454 0.9978303468029484 -0.01921851799209454 0.9978303468029484 -0.01921851799209454 0.002169653197051709 0.01921851799209454
6.5285E9 0.0022287853999336904 0.020519205771579806 0.9977712146000665 -0.020519205771579806 0.9977712146000665 -0.020519205771579806 0.0022287853999336904 0.020519205771579806
6.60325E9 0.0022909227387483 0.02180819333716469 0.9977090772612518 -0.02180819333716469 0.9977090772612518 -0.02180819333716469 0.0022909227387483 0.02180819333716469
6.678E9 0.0023559982166632344 0.02308589025691634 0.9976440017833369 -0.02308589025691634 0.9976440017833369 -0.02308589025691634 0.0023559982166632344 0.02308589025691634
6.75275E9 0.002423949166750971 0.024352688932677488 0.9975760508332492 -0.024352688932677488 0.9975760508332492 -0.024352688932677488 0.002423949166750971 0.024352688932677488
6.8275E9 0.0024947170000250724 0.02560896556121767 0.9975052829999751 -0.02560896556121767 0.9975052829999751 -0.02560896556121767 0.0024947170000250724 0.02560896556121767
6.90225E9 0.0025682469740474024 0.0268550810356671 0.9974317530259528 -0.0268550810356671 0.9974317530259528 -0.0268550810356671 0.0025682469740474024 0.0268550810356671
6.977E9 0.0026444879804895134 0.028091381791761565 0.9973555120195106 -0.028091381791761565 0.9973555120195106 -0.028091381791761565 0.0026444879804895134 0.028091381791761565
7.05175E9 0.00272339235019459 0.029318200603058918 0.9972766076498052 -0.029318200603058918 0.9972766076498052 -0.029318200603058918 0.00272339235019459 0.029318200603058918
7.1265E9 0.0028049156744335245 0.030535857328954946 0.9971950843255666 -0.030535857328954946 0.9971950843255666 -0.030535857328954946 0.0028049156744335245 0.030535857328954946
7.20125E9 0.002889016641182091 0.03174465961902573 0.9971109833588178 -0.03174465961902573 0.9971109833588178 -0.03174465961902573 0.002889016641182091 0.03174465961902573
7.276E9 0.002975656885367266 0.03294490357694934 0.9970243431146326 -0.03294490357694934 0.9970243431146326 -0.03294490357694934 0.002975656885367266 0.03294490357694934
7.35075E9 0.003064800852141168 0.03413687438701368 0.9969351991478589 -0.03413687438701368 0.9969351991478589 -0.03413687438701368 0.003064800852141168 0.03413687438701368
7.4255E9 0.0031564156723421395 0.03532084690599217 0.9968435843276577 -0.03532084690599217 0.9968435843276577 -0.03532084690599217 0.0031564156723421395 0.03532084690599217
7.50025E9 0.0032504710493953975 0.036497086222966754 0.9967495289506049 -0.036497086222966754 0.9967495289506049 -0.036497086222966754 0.0032504710493953975 0.036497086222966754
7.575E9 0.0033469391569914283 0.03766584818949332 0.9966530608430085 -0.03766584818949332 0.9966530608430085 -0.03766584818949332 0.0033469391569914283 0.03766584818949332
7.64975E9 0.0034457945469601346 0.03882737992233836 0.9965542054530397 -0.03882737992233836 0.9965542054530397 -0.03882737992233836 0.0034457945469601346 0.03882737992233836
7.7245E9 0.003547014066833288 0.039981920280866175 0.9964529859331668 -0.039981920280866175 0.9964529859331668 -0.039981920280866175 0.003547014066833288 0.039981920280866175
7.79925E9 0.003650576786658101 0.04112970032101883 0.9963494232133422 -0.04112970032101883 0.9963494232133422 -0.04112970032101883 0.003650576786658101 0.04112970032101883
7.874E9 0.0037564639346915926 0.04227094372771104 0.9962435360653085 -0.04227094372771104 0.9962435360653085 -0.04227094372771104 0.0037564639346915926 0.04227094372771104
7.94875E9 0.0038646588416692577 0.04340586722735016 0.9961353411583307 -0.04340586722735016 0.9961353411583307 -0.04340586722735016 0.0038646588416692577 0.04340586722735016
8.0235E9 0.003975146893403774 0.04453468098209629 0.9960248531065963 -0.04453468098209629 0.9960248531065963 -0.04453468098209629 0.003975146893403774 0.04453468098209629
8.09825E9 0.004087915491529932 0.04565758896738794 0.9959120845084699 -0.04565758896738794 0.9959120845084699 -0.04565758896738794 0.004087915491529932 0.04565758896738794
8.173E9 0.004202954022272192 0.04677478933418385 0.9957970459777279 -0.04677478933418385 0.9957970459777279 -0.04677478933418385 0.004202954022272192 0.04677478933418385
8.24775E9 0.004320253833171357 0.04788647475730279 0.9956797461668286 -0.04788647475730279 0.9956797461668286 -0.04788647475730279 0.004320253833171357 0.04788647475730279
8.3225E9 0.004439808217768079 0.04899283277118692 0.9955601917822319 -0.04899283277118692 0.9955601917822319 -0.04899283277118692 0.004439808217768079 0.04899283277118692
8.39725E9 0.004561612408303403 0.050094046094363326 0.9954383875916968 -0.050094046094363326 0.9954383875916968 -0.050094046094363326 0.004561612408303403 0.050094046094363326
8.472E9 0.004685663576561933 0.05119029294383913 0.9953143364234381 -0.05119029294383913 0.9953143364234381 -0.05119029294383913 0.004685663576561933 0.05119029294383913
8.54675E9 0.004811960843051679 0.052281747340633 0.9951880391569482 -0.052281747340633 0.9951880391569482 -0.052281747340633 0.004811960843051679 0.052281747340633
