!Murata Part Number: GJM0225C1ER30WB01
!These Parameters are Measured in Series Mode Connection
!       o--ll--o
!Port1            Port2
!       o------o
!Operation Temp=25[degC], DC Bias Voltage=0[V]
!Freq. Start=100[MHz] Stop=30[GHz], 401[Steps]
!Data Generated on Feb 1, 2023
# Hz S RI R 50
!Freq.(Hz) S11(Real) S11(Imag) S21(Real) S21(Imag) S12(Real) S12(Imag) S22(Real) S22(Imag)
1.0E8 0.9996437350966425 -0.018843195108436846 3.5626490335752216E-4 0.018843195108436846 3.5626490335752216E-4 0.018843195108436846 0.9996437350966425 -0.018843195108436846
1.7475E8 0.9989127833641536 -0.03290567827781147 0.0010872166358464564 0.03290567827781147 0.0010872166358464564 0.03290567827781147 0.9989127833641536 -0.03290567827781147
2.495E8 0.9977859676374393 -0.04693101741110944 0.0022140323625607773 0.04693101741110944 0.0022140323625607773 0.04693101741110944 0.9977859676374393 -0.04693101741110944
3.2425E8 0.9962656761738354 -0.06090350083524295 0.0037343238261646505 0.06090350083524295 0.0037343238261646505 0.06090350083524295 0.9962656761738354 -0.06090350083524295
3.99E8 0.9943551198500203 -0.07480760228645074 0.0056448801499796005 0.07480760228645074 0.0056448801499796005 0.07480760228645074 0.9943551198500203 -0.07480760228645074
4.7375E8 0.9920583153459578 -0.08862803418384071 0.007941684654042215 0.08862803418384071 0.007941684654042215 0.08862803418384071 0.9920583153459578 -0.08862803418384071
5.485E8 0.9893800642484178 -0.10234979916323063 0.01061993575158213 0.10234979916323063 0.01061993575158213 0.10234979916323063 0.9893800642484178 -0.10234979916323063
6.2325E8 0.9863259282756333 -0.1159582395138407 0.013674071724366728 0.1159582395138407 0.013674071724366728 0.1159582395138407 0.9863259282756333 -0.1159582395138407
6.98E8 0.9829022008594651 -0.12943908418615505 0.017097799140534994 0.12943908418615505 0.017097799140534994 0.12943908418615505 0.9829022008594651 -0.12943908418615505
7.7275E8 0.9791158753526925 -0.1427784930687079 0.020884124647307503 0.1427784930687079 0.020884124647307503 0.1427784930687079 0.9791158753526925 -0.1427784930687079
8.475E8 0.9749746101562807 -0.15596309826412255 0.025025389843719187 0.15596309826412255 0.025025389843719187 0.15596309826412255 0.9749746101562807 -0.15596309826412255
9.2225E8 0.9704866910844017 -0.16898004212985768 0.02951330891559823 0.16898004212985768 0.02951330891559823 0.16898004212985768 0.9704866910844017 -0.16898004212985768
9.97E8 0.9656609913033622 -0.18181701188617605 0.03433900869663768 0.18181701188617605 0.03433900869663768 0.18181701188617605 0.9656609913033622 -0.18181701188617605
1.07175E9 0.9605069291942858 -0.19446227063221977 0.03949307080571412 0.19446227063221977 0.03949307080571412 0.19446227063221977 0.9605069291942858 -0.19446227063221977
1.1465E9 0.9550344244983555 -0.2069046846501182 0.04496557550164449 0.2069046846501182 0.04496557550164449 0.2069046846501182 0.9550344244983555 -0.2069046846501182
1.22125E9 0.9492538531077074 -0.21913374691615167 0.050746146892292586 0.21913374691615167 0.050746146892292586 0.21913374691615167 0.9492538531077074 -0.21913374691615167
1.296E9 0.9431760008647876 -0.2311395967765538 0.056823999135212445 0.2311395967765538 0.056823999135212445 0.2311395967765538 0.9431760008647876 -0.2311395967765538
1.37075E9 0.9368120167283606 -0.2429130357830013 0.0631879832716395 0.2429130357830013 0.0631879832716395 0.2429130357830013 0.9368120167283606 -0.2429130357830013
1.4455E9 0.9301733656556647 -0.25444553971870615 0.0698266343443353 0.25444553971870615 0.0698266343443353 0.25444553971870615 0.9301733656556647 -0.25444553971870615
1.52025E9 0.9232717815377757 -0.2657292668798388 0.0767282184622244 0.2657292668798388 0.0767282184622244 0.2657292668798388 0.9232717815377757 -0.2657292668798388
1.595E9 0.9161192205094496 -0.27675706270838873 0.08388077949055041 0.27675706270838873 0.08388077949055041 0.27675706270838873 0.9161192205094496 -0.27675706270838873
1.66975E9 0.908727814936002 -0.28752246090117894 0.09127218506399801 0.28752246090117894 0.09127218506399801 0.28752246090117894 0.908727814936002 -0.28752246090117894
1.7445E9 0.9011098283585586 -0.29801968114535604 0.0988901716414413 0.29801968114535604 0.0988901716414413 0.29801968114535604 0.9011098283585586 -0.29801968114535604
1.81925E9 0.8932776116557823 -0.3082436236530817 0.10672238834421768 0.3082436236530817 0.10672238834421768 0.3082436236530817 0.8932776116557823 -0.3082436236530817
1.894E9 0.8852435606553654 -0.31818986068724736 0.1147564393446347 0.31818986068724736 0.1147564393446347 0.31818986068724736 0.8852435606553654 -0.31818986068724736
1.96875E9 0.8770200754026648 -0.3278546252857775 0.1229799245973351 0.3278546252857775 0.1229799245973351 0.3278546252857775 0.8770200754026648 -0.3278546252857775
2.0435E9 0.868619521267271 -0.33723479740447926 0.13138047873272912 0.33723479740447926 0.13138047873272912 0.33723479740447926 0.868619521267271 -0.33723479740447926
2.11825E9 0.8600541920414634 -0.34632788770751527 0.13994580795853648 0.34632788770751527 0.13994580795853648 0.34632788770751527 0.8600541920414634 -0.34632788770751527
2.193E9 0.851336275157822 -0.3551320192405456 0.14866372484217807 0.3551320192405456 0.14866372484217807 0.3551320192405456 0.851336275157822 -0.3551320192405456
2.26775E9 0.8424778191270474 -0.36364590722454737 0.15752218087295256 0.36364590722454737 0.15752218087295256 0.36364590722454737 0.8424778191270474 -0.36364590722454737
2.3425E9 0.8334907032716734 -0.37186883720849423 0.16650929672832648 0.37186883720849423 0.16650929672832648 0.37186883720849423 0.8334907032716734 -0.37186883720849423
2.41725E9 0.8243866098070332 -0.3798006418166781 0.17561339019296682 0.3798006418166781 0.17561339019296682 0.3798006418166781 0.8243866098070332 -0.3798006418166781
2.492E9 0.8151769982978657 -0.387441676321728 0.1848230017021343 0.387441676321728 0.1848230017021343 0.387441676321728 0.8151769982978657 -0.387441676321728
2.56675E9 0.8058730824974675 -0.39479279326759537 0.19412691750253266 0.39479279326759537 0.19412691750253266 0.39479279326759537 0.8058730824974675 -0.39479279326759537
2.6415E9 0.796485809556466 -0.4018553163581938 0.20351419044353397 0.4018553163581938 0.20351419044353397 0.4018553163581938 0.796485809556466 -0.4018553163581938
2.71625E9 0.7870258415702354 -0.4086310138172793 0.21297415842976478 0.4086310138172793 0.21297415842976478 0.4086310138172793 0.7870258415702354 -0.4086310138172793
2.791E9 0.7775035394177359 -0.41512207141380203 0.22249646058226413 0.41512207141380203 0.22249646058226413 0.41512207141380203 0.7775035394177359 -0.41512207141380203
2.86575E9 0.7679289488301998 -0.42133106533461767 0.23207105116980015 0.42133106533461767 0.23207105116980015 0.42133106533461767 0.7679289488301998 -0.42133106533461767
2.9405E9 0.7583117886155749 -0.42726093507335255 0.24168821138442523 0.42726093507335255 0.24168821138442523 0.42726093507335255 0.7583117886155749 -0.42726093507335255
3.01525E9 0.7486614409539851 -0.43291495649061856 0.251338559046015 0.43291495649061856 0.251338559046015 0.43291495649061856 0.7486614409539851 -0.43291495649061856
3.09E9 0.7389869436705899 -0.4382967151868875 0.26101305632941013 0.4382967151868875 0.26101305632941013 0.4382967151868875 0.7389869436705899 -0.4382967151868875
3.16475E9 0.7292969843850647 -0.4434100803153384 0.27070301561493526 0.4434100803153384 0.27070301561493526 0.4434100803153384 0.7292969843850647 -0.4434100803153384
3.2395E9 0.7195998964314011 -0.44825917894809236 0.2804001035685988 0.44825917894809236 0.2804001035685988 0.44825917894809236 0.7195998964314011 -0.44825917894809236
3.31425E9 0.7099036564377145 -0.4528483710955769 0.2900963435622856 0.4528483710955769 0.2900963435622856 0.4528483710955769 0.7099036564377145 -0.4528483710955769
3.389E9 0.7002158834531572 -0.4571822254654638 0.29978411654684295 0.4571822254654638 0.29978411654684295 0.4571822254654638 0.7002158834531572 -0.4571822254654638
3.46375E9 0.6905438395077318 -0.4612654960348143 0.3094561604922682 0.4612654960348143 0.3094561604922682 0.4612654960348143 0.6905438395077318 -0.4612654960348143
3.5385E9 0.680894431490665 -0.46510309949683426 0.3191055685093349 0.46510309949683426 0.3191055685093349 0.46510309949683426 0.680894431490665 -0.46510309949683426
3.61325E9 0.6712742142339154 -0.468700093632058 0.3287257857660846 0.468700093632058 0.3287257857660846 0.468700093632058 0.6712742142339154 -0.468700093632058
3.688E9 0.6616893946892132 -0.4720616566429224 0.33831060531078677 0.4720616566429224 0.33831060531078677 0.4720616566429224 0.6616893946892132 -0.4720616566429224
3.76275E9 0.6521458370896601 -0.47519306748057316 0.3478541629103398 0.47519306748057316 0.3478541629103398 0.47519306748057316 0.6521458370896601 -0.47519306748057316
3.8375E9 0.6426490689902189 -0.478099687183408 0.357350931009781 0.478099687183408 0.357350931009781 0.478099687183408 0.6426490689902189 -0.478099687183408
3.91225E9 0.6332042880852936 -0.4807869412383221 0.3667957119147064 0.4807869412383221 0.3667957119147064 0.4807869412383221 0.6332042880852936 -0.4807869412383221
3.987E9 0.6238163697059395 -0.4832603029678587 0.3761836302940605 0.4832603029678587 0.3761836302940605 0.4832603029678587 0.6238163697059395 -0.4832603029678587
4.06175E9 0.6144898749039361 -0.48552527793950095 0.3855101250960638 0.48552527793950095 0.3855101250960638 0.48552527793950095 0.6144898749039361 -0.48552527793950095
4.1365E9 0.6052290590349251 -0.4875873893871248 0.394770940965075 0.4875873893871248 0.394770940965075 0.4875873893871248 0.6052290590349251 -0.4875873893871248
4.21125E9 0.5960378807579811 -0.4894521646291641 0.4039621192420189 0.4894521646291641 0.4039621192420189 0.4894521646291641 0.5960378807579811 -0.4894521646291641
4.286E9 0.5869200113742594 -0.49112512246327056 0.4130799886257407 0.49112512246327056 0.4130799886257407 0.49112512246327056 0.5869200113742594 -0.49112512246327056
4.36075E9 0.5778788444326872 -0.49261176151315506 0.4221211555673129 0.49261176151315506 0.4221211555673129 0.49261176151315506 0.5778788444326872 -0.49261176151315506
4.4355E9 0.5689175055359934 -0.49391754949983324 0.43108249446400654 0.49391754949983324 0.43108249446400654 0.49391754949983324 0.5689175055359934 -0.49391754949983324
4.51025E9 0.5600388622856253 -0.4950479134066234 0.43996113771437484 0.4950479134066234 0.43996113771437484 0.4950479134066234 0.5600388622856253 -0.4950479134066234
4.585E9 0.5512455343092659 -0.49600823050491333 0.44875446569073396 0.49600823050491333 0.44875446569073396 0.49600823050491333 0.5512455343092659 -0.49600823050491333
4.65975E9 0.5425399033196854 -0.49680382020589364 0.4574600966803147 0.49680382020589364 0.4574600966803147 0.49680382020589364 0.5425399033196854 -0.49680382020589364
4.7345E9 0.5339241231585082 -0.49743993670208064 0.4660758768414919 0.49743993670208064 0.4660758768414919 0.49743993670208064 0.5339241231585082 -0.49743993670208064
4.80925E9 0.5254001297831496 -0.49792176236150926 0.47459987021685024 0.49792176236150926 0.47459987021685024 0.49792176236150926 0.5254001297831496 -0.49792176236150926
4.884E9 0.5169696511596117 -0.4982544018368965 0.48303034884038837 0.4982544018368965 0.48303034884038837 0.4982544018368965 0.5169696511596117 -0.4982544018368965
4.95875E9 0.5086342170280586 -0.49844287685183153 0.49136578297194144 0.49844287685183153 0.49136578297194144 0.49844287685183153 0.5086342170280586 -0.49844287685183153
5.0335E9 0.500395168512086 -0.4984921216261093 0.499604831487914 0.4984921216261093 0.499604831487914 0.4984921216261093 0.500395168512086 -0.4984921216261093
5.10825E9 0.4922536675463342 -0.4984069789026244 0.5077463324536658 0.4984069789026244 0.5077463324536658 0.4984069789026244 0.4922536675463342 -0.4984069789026244
5.183E9 0.48421070610060674 -0.49819219653878566 0.5157892938993931 0.49819219653878566 0.5157892938993931 0.49819219653878566 0.48421070610060674 -0.49819219653878566
5.25775E9 0.47626711518192205 -0.49785242462613555 0.5237328848180779 0.49785242462613555 0.5237328848180779 0.49785242462613555 0.47626711518192205 -0.49785242462613555
5.3325E9 0.4684235735989299 -0.49739221310274384 0.5315764264010703 0.49739221310274384 0.5315764264010703 0.49739221310274384 0.4684235735989299 -0.49739221310274384
5.40725E9 0.4606806164759265 -0.49681600982397445 0.5393193835240736 0.49681600982397445 0.5393193835240736 0.49681600982397445 0.4606806164759265 -0.49681600982397445
5.482E9 0.45303864350624723 -0.49612815905835184 0.5469613564937528 0.49612815905835184 0.5469613564937528 0.49612815905835184 0.45303864350624723 -0.49612815905835184
5.55675E9 0.4454979269371494 -0.49533290037647554 0.5545020730628505 0.49533290037647554 0.5545020730628505 0.49533290037647554 0.4454979269371494 -0.49533290037647554
5.6315E9 0.4380586192804243 -0.494434367902216 0.5619413807195756 0.494434367902216 0.5619413807195756 0.494434367902216 0.4380586192804243 -0.494434367902216
5.70625E9 0.4307207607448909 -0.49343658989676237 0.5692792392551091 0.49343658989676237 0.5692792392551091 0.49343658989676237 0.4307207607448909 -0.49343658989676237
5.781E9 0.42348428638865093 -0.4923434886474524 0.576515713611349 0.4923434886474524 0.576515713611349 0.4923434886474524 0.42348428638865093 -0.4923434886474524
5.85575E9 0.41634903299053566 -0.4911588806347072 0.5836509670094642 0.4911588806347072 0.5836509670094642 0.4911588806347072 0.41634903299053566 -0.4911588806347072
5.9305E9 0.4093147456415331 -0.4898864769517713 0.590685254358467 0.4898864769517713 0.590685254358467 0.4898864769517713 0.4093147456415331 -0.4898864769517713
6.00525E9 0.40238108405822104 -0.48852988395334873 0.597618915941779 0.48852988395334873 0.597618915941779 0.48852988395334873 0.40238108405822104 -0.48852988395334873
6.08E9 0.3955476286212738 -0.48709260411059013 0.6044523713787262 0.48709260411059013 0.6044523713787262 0.48709260411059013 0.3955476286212738 -0.48709260411059013
6.15475E9 0.3888138861430572 -0.48557803705122576 0.6111861138569428 0.48557803705122576 0.6111861138569428 0.48557803705122576 0.3888138861430572 -0.48557803705122576
6.2295E9 0.382179295369113 -0.48398948076495746 0.617820704630887 0.48398948076495746 0.617820704630887 0.48398948076495746 0.382179295369113 -0.48398948076495746
6.30425E9 0.37564323221902607 -0.4823301329554962 0.624356767780974 0.4823301329554962 0.624356767780974 0.4823301329554962 0.37564323221902607 -0.4823301329554962
6.379E9 0.3692050147727382 -0.4806030925218713 0.6307949852272617 0.4806030925218713 0.6307949852272617 0.4806030925218713 0.3692050147727382 -0.4806030925218713
6.45375E9 0.36286390800885476 -0.4788113611528305 0.6371360919911453 0.4788113611528305 0.6371360919911453 0.4788113611528305 0.36286390800885476 -0.4788113611528305
6.5285E9 0.35661912830187215 -0.4769578450192967 0.6433808716981279 0.4769578450192967 0.6433808716981279 0.4769578450192967 0.35661912830187215 -0.4769578450192967
6.60325E9 0.35046984768557005 -0.47504535655094854 0.6495301523144301 0.47504535655094854 0.6495301523144301 0.47504535655094854 0.35046984768557005 -0.47504535655094854
6.678E9 0.3444151978900432 -0.4730766162840376 0.6555848021099566 0.4730766162840376 0.6555848021099566 0.4730766162840376 0.3444151978900432 -0.4730766162840376
6.75275E9 0.33845427416001694 -0.47105425476856166 0.6615457258399828 0.47105425476856166 0.6615457258399828 0.47105425476856166 0.33845427416001694 -0.47105425476856166
6.8275E9 0.33258613886220517 -0.4689808145238529 0.6674138611377948 0.4689808145238529 0.6674138611377948 0.4689808145238529 0.33258613886220517 -0.4689808145238529
6.90225E9 0.3268098248895277 -0.4668587520325469 0.6731901751104724 0.4668587520325469 0.6731901751104724 0.4668587520325469 0.3268098248895277 -0.4668587520325469
6.977E9 0.3211243388700177 -0.46469043976374275 0.6788756611299824 0.46469043976374275 0.6788756611299824 0.46469043976374275 0.3211243388700177 -0.46469043976374275
7.05175E9 0.31552866418822584 -0.46247816821696736 0.6844713358117741 0.46247816821696736 0.6844713358117741 0.46247816821696736 0.31552866418822584 -0.46247816821696736
7.1265E9 0.31002176382686253 -0.4602241479793058 0.6899782361731375 0.4602241479793058 0.6899782361731375 0.4602241479793058 0.31002176382686253 -0.4602241479793058
7.20125E9 0.30460258303633125 -0.4579305117887688 0.6953974169636687 0.4579305117887688 0.6953974169636687 0.4579305117887688 0.30460258303633125 -0.4579305117887688
7.276E9 0.2992700518396864 -0.45559931659762976 0.7007299481603136 0.45559931659762976 0.7007299481603136 0.45559931659762976 0.2992700518396864 -0.45559931659762976
7.35075E9 0.2940230873804078 -0.453232545630076 0.7059769126195922 0.453232545630076 0.7059769126195922 0.453232545630076 0.2940230873804078 -0.453232545630076
7.4255E9 0.28886059612022635 -0.4508321104291033 0.7111394038797736 0.4508321104291033 0.7111394038797736 0.4508321104291033 0.28886059612022635 -0.4508321104291033
7.50025E9 0.28378147589405756 -0.448399852888109 0.7162185241059426 0.448399852888109 0.7162185241059426 0.448399852888109 0.28378147589405756 -0.448399852888109
7.575E9 0.27878461782891445 -0.44593754726314444 0.7212153821710855 0.44593754726314444 0.7212153821710855 0.44593754726314444 0.27878461782891445 -0.44593754726314444
7.64975E9 0.2738689081334738 -0.44344690216224664 0.7261310918665262 0.44344690216224664 0.7261310918665262 0.44344690216224664 0.2738689081334738 -0.44344690216224664
7.7245E9 0.2690332297647583 -0.4409295625086925 0.7309667702352417 0.4409295625086925 0.7309667702352417 0.4409295625086925 0.2690332297647583 -0.4409295625086925
7.79925E9 0.264276463978196 -0.43838711147541964 0.735723536021804 0.43838711147541964 0.735723536021804 0.43838711147541964 0.264276463978196 -0.43838711147541964
7.874E9 0.25959749176708996 -0.43582107238821566 0.7404025082329099 0.43582107238821566 0.7404025082329099 0.43582107238821566 0.25959749176708996 -0.43582107238821566
7.94875E9 0.25499519519732533 -0.43323291059561503 0.7450048048026747 0.43323291059561503 0.7450048048026747 0.43323291059561503 0.25499519519732533 -0.43323291059561503
8.0235E9 0.25046845864291367 -0.4306240353037499 0.7495315413570862 0.4306240353037499 0.7495315413570862 0.4306240353037499 0.25046845864291367 -0.4306240353037499
8.09825E9 0.24601616992775915 -0.42799580137467946 0.7539838300722409 0.42799580137467946 0.7539838300722409 0.42799580137467946 0.24601616992775915 -0.42799580137467946
8.173E9 0.24163722137881566 -0.4253495110869847 0.7583627786211843 0.4253495110869847 0.7583627786211843 0.4253495110869847 0.24163722137881566 -0.4253495110869847
8.24775E9 0.2373305107955852 -0.42268641585764355 0.7626694892044149 0.42268641585764355 0.7626694892044149 0.42268641585764355 0.2373305107955852 -0.42268641585764355
8.3225E9 0.23309494234069997 -0.4200077179244206 0.7669050576593002 0.4200077179244206 0.7669050576593002 0.4200077179244206 0.23309494234069997 -0.4200077179244206
8.39725E9 0.22892942735612024 -0.41731457198819705 0.7710705726438797 0.41731457198819705 0.7710705726438797 0.41731457198819705 0.22892942735612024 -0.41731457198819705
8.472E9 0.22483288510927765 -0.41460808681484096 0.7751671148907223 0.41460808681484096 0.7751671148907223 0.41460808681484096 0.22483288510927765 -0.41460808681484096
8.54675E9 0.22080424347329664 -0.4118893267963781 0.7791957565267033 0.4118893267963781 0.7791957565267033 0.4118893267963781 0.22080424347329664 -0.4118893267963781
8.6215E9 0.21684243954522797 -0.4091593134713671 0.783157560454772 0.4091593134713671 0.783157560454772 0.4091593134713671 0.21684243954522797 -0.4091593134713671
8.69625E9 0.21294642020604707 -0.4064190270045077 0.7870535797939529 0.4064190270045077 0.7870535797939529 0.4064190270045077 0.21294642020604707 -0.4064190270045077
8.771E9 0.20911514262598405 -0.4036694076256297 0.7908848573740158 0.4036694076256297 0.7908848573740158 0.4036694076256297 0.20911514262598405 -0.4036694076256297
