!Murata Part Number: GJM0225C1E4R9BB01
!These Parameters are Measured in Series Mode Connection
!       o--ll--o
!Port1            Port2
!       o------o
!Operation Temp=25[degC], DC Bias Voltage=0[V]
!Freq. Start=100[MHz] Stop=30[GHz], 401[Steps]
!Data Generated on Feb 1, 2023
# Hz S RI R 50
!Freq.(Hz) S11(Real) S11(Imag) S21(Real) S21(Imag) S12(Real) S12(Imag) S22(Real) S22(Imag)
1.0E8 0.9132656226177813 -0.28121911511773734 0.08673437738221863 0.28121911511773734 0.08673437738221863 0.28121911511773734 0.9132656226177813 -0.28121911511773734
1.7475E8 0.7750131643178803 -0.41717790451620795 0.22498683568211966 0.41717790451620795 0.22498683568211966 0.41717790451620795 0.7750131643178803 -0.41717790451620795
2.495E8 0.6278820297195457 -0.48280391918784005 0.37211797028045435 0.48280391918784005 0.37211797028045435 0.48280391918784005 0.6278820297195457 -0.48280391918784005
3.2425E8 0.49925302818175277 -0.4992630923837979 0.500746971818247 0.4992630923837979 0.500746971818247 0.4992630923837979 0.49925302818175277 -0.4992630923837979
3.99E8 0.39641521266512547 -0.4882446020141023 0.6035847873348745 0.4882446020141023 0.6035847873348745 0.4882446020141023 0.39641521266512547 -0.4882446020141023
4.7375E8 0.3171435403045507 -0.4642832221808455 0.6828564596954492 0.4642832221808455 0.6828564596954492 0.4642832221808455 0.3171435403045507 -0.4642832221808455
5.485E8 0.25663346077925625 -0.435520682502104 0.7433665392207436 0.435520682502104 0.7433665392207436 0.435520682502104 0.25663346077925625 -0.435520682502104
6.2325E8 0.2102892944010756 -0.4060837304233665 0.7897107055989245 0.4060837304233665 0.7897107055989245 0.4060837304233665 0.2102892944010756 -0.4060837304233665
6.98E8 0.17445562534211226 -0.37789304422261905 0.8255443746578879 0.37789304422261905 0.8255443746578879 0.37789304422261905 0.17445562534211226 -0.37789304422261905
7.7275E8 0.1464126307178445 -0.3517321920299523 0.8535873692821555 0.3517321920299523 0.8535873692821555 0.3517321920299523 0.1464126307178445 -0.3517321920299523
8.475E8 0.12418427903634031 -0.32782273810592233 0.8758157209636597 0.32782273810592233 0.8758157209636597 0.32782273810592233 0.12418427903634031 -0.32782273810592233
9.2225E8 0.10634172805930008 -0.3061213624858513 0.8936582719407 0.3061213624858513 0.8936582719407 0.3061213624858513 0.10634172805930008 -0.3061213624858513
9.97E8 0.09184722934896089 -0.2864701018941128 0.908152770651039 0.2864701018941128 0.908152770651039 0.2864701018941128 0.09184722934896089 -0.2864701018941128
1.07175E9 0.0799403654742753 -0.2686708667381175 0.9200596345257248 0.2686708667381175 0.9200596345257248 0.2686708667381175 0.0799403654742753 -0.2686708667381175
1.1465E9 0.07005781674324904 -0.25252129207618956 0.9299421832567512 0.25252129207618956 0.9299421832567512 0.25252129207618956 0.07005781674324904 -0.25252129207618956
1.22125E9 0.061777365038344224 -0.2378309649634785 0.9382226349616558 0.2378309649634785 0.9382226349616558 0.2378309649634785 0.061777365038344224 -0.2378309649634785
1.296E9 0.05477880063481659 -0.22442779238279695 0.9452211993651832 0.22442779238279695 0.9452211993651832 0.22442779238279695 0.05477880063481659 -0.22442779238279695
1.37075E9 0.04881646958433917 -0.2121595224959985 0.951183530415661 0.2121595224959985 0.951183530415661 0.2121595224959985 0.04881646958433917 -0.2121595224959985
1.4455E9 0.04369982702450321 -0.200892991787638 0.9563001729754965 0.200892991787638 0.9563001729754965 0.200892991787638 0.04369982702450321 -0.200892991787638
1.52025E9 0.03927952176304137 -0.19051241046481723 0.9607204782369587 0.19051241046481723 0.9607204782369587 0.19051241046481723 0.03927952176304137 -0.19051241046481723
1.595E9 0.035437331854248084 -0.18091734439396295 0.9645626681457519 0.18091734439396295 0.9645626681457519 0.18091734439396295 0.035437331854248084 -0.18091734439396295
1.66975E9 0.03207880638241719 -0.17202071175033534 0.9679211936175829 0.17202071175033534 0.9679211936175829 0.17202071175033534 0.03207880638241719 -0.17202071175033534
1.7445E9 0.029127828238171734 -0.1637469364223903 0.9708721717618283 0.1637469364223903 0.9708721717618283 0.1637469364223903 0.029127828238171734 -0.1637469364223903
1.81925E9 0.026522554686645296 -0.156030310238321 0.9734774453133547 0.156030310238321 0.9734774453133547 0.156030310238321 0.026522554686645296 -0.156030310238321
1.894E9 0.024212356373632792 -0.14881357149480096 0.975787643626367 0.14881357149480096 0.975787643626367 0.14881357149480096 0.024212356373632792 -0.14881357149480096
1.96875E9 0.022155487213849513 -0.14204668651895472 0.9778445127861506 0.14204668651895472 0.9778445127861506 0.14204668651895472 0.022155487213849513 -0.14204668651895472
2.0435E9 0.020317294568722926 -0.13568581262302737 0.9796827054312772 0.13568581262302737 0.9796827054312772 0.13568581262302737 0.020317294568722926 -0.13568581262302737
2.11825E9 0.018668832603552548 -0.12969241870526071 0.9813311673964474 0.12969241870526071 0.9813311673964474 0.12969241870526071 0.018668832603552548 -0.12969241870526071
2.193E9 0.017185779236593198 -0.12403254065851822 0.9828142207634069 0.12403254065851822 0.9828142207634069 0.12403254065851822 0.017185779236593198 -0.12403254065851822
2.26775E9 0.015847583670528163 -0.11867615095722037 0.984152416329472 0.11867615095722037 0.984152416329472 0.11867615095722037 0.015847583670528163 -0.11867615095722037
2.3425E9 0.014636790499745091 -0.11359662441993182 0.9853632095002548 0.11359662441993182 0.9853632095002548 0.11359662441993182 0.014636790499745091 -0.11359662441993182
2.41725E9 0.013538500098491377 -0.10877028475289287 0.9864614999015087 0.10877028475289287 0.9864614999015087 0.10877028475289287 0.013538500098491377 -0.10877028475289287
2.492E9 0.012539934976661444 -0.1041760188707129 0.9874600650233386 0.1041760188707129 0.9874600650233386 0.1041760188707129 0.012539934976661444 -0.1041760188707129
2.56675E9 0.011630089118622034 -0.09979494809101347 0.9883699108813779 0.09979494809101347 0.9883699108813779 0.09979494809101347 0.011630089118622034 -0.09979494809101347
2.6415E9 0.01079944274562391 -0.09561014709986931 0.989200557254376 0.09561014709986931 0.989200557254376 0.09561014709986931 0.01079944274562391 -0.09561014709986931
2.71625E9 0.010039728990171963 -0.0916064031041148 0.9899602710098282 0.0916064031041148 0.9899602710098282 0.0916064031041148 0.010039728990171963 -0.0916064031041148
2.791E9 0.009343742013816733 -0.08777000885674092 0.9906562579861833 0.08777000885674092 0.9906562579861833 0.08777000885674092 0.009343742013816733 -0.08777000885674092
2.86575E9 0.008705178404207673 -0.08408858429746119 0.9912948215957923 0.08408858429746119 0.9912948215957923 0.08408858429746119 0.008705178404207673 -0.08408858429746119
2.9405E9 0.00811850544438454 -0.08055092242537105 0.9918814945556155 0.08055092242537105 0.9918814945556155 0.08055092242537105 0.00811850544438454 -0.08055092242537105
3.01525E9 0.0075788511960661 -0.07714685574434538 0.992421148803934 0.07714685574434538 0.992421148803934 0.07714685574434538 0.0075788511960661 -0.07714685574434538
3.09E9 0.007081912380634137 -0.07386714022028203 0.9929180876193658 0.07386714022028203 0.9929180876193658 0.07386714022028203 0.007081912380634137 -0.07386714022028203
3.16475E9 0.006623876851332128 -0.07070335418441281 0.9933761231486679 0.07070335418441281 0.9933761231486679 0.07070335418441281 0.006623876851332128 -0.07070335418441281
3.2395E9 0.006201358083298273 -0.06764781002694417 0.9937986419167018 0.06764781002694417 0.9937986419167018 0.06764781002694417 0.006201358083298273 -0.06764781002694417
3.31425E9 0.0058113396057746965 -0.0646934768653906 0.9941886603942254 0.0646934768653906 0.9941886603942254 0.0646934768653906 0.0058113396057746965 -0.0646934768653906
3.389E9 0.005451127694233704 -0.06183391265456974 0.9945488723057664 0.06183391265456974 0.9945488723057664 0.06183391265456974 0.005451127694233704 -0.06183391265456974
3.46375E9 0.00511831095270915 -0.05906320444053643 0.994881689047291 0.05906320444053643 0.994881689047291 0.05906320444053643 0.00511831095270915 -0.05906320444053643
3.5385E9 0.004810725666164744 -0.05637591565710294 0.9951892743338352 0.05637591565710294 0.9951892743338352 0.05637591565710294 0.004810725666164744 -0.05637591565710294
3.61325E9 0.0045264260029193645 -0.05376703952784136 0.9954735739970807 0.05376703952784136 0.9954735739970807 0.05376703952784136 0.0045264260029193645 -0.05376703952784136
3.688E9 0.004263658308478848 -0.05123195777418157 0.9957363416915214 0.05123195777418157 0.9957363416915214 0.05123195777418157 0.004263658308478848 -0.05123195777418157
3.76275E9 0.004020838862709029 -0.048766403945973535 0.9959791611372911 0.048766403945973535 0.9959791611372911 0.048766403945973535 0.004020838862709029 -0.048766403945973535
3.8375E9 0.0037965345784315577 -0.04636643078841345 0.9962034654215686 0.04636643078841345 0.9962034654215686 0.04636643078841345 0.0037965345784315577 -0.04636643078841345
3.91225E9 0.003589446206157741 -0.04402838114161992 0.9964105537938424 0.04402838114161992 0.9964105537938424 0.04402838114161992 0.003589446206157741 -0.04402838114161992
3.987E9 0.003398393680660148 -0.041748861938905805 0.9966016063193399 0.041748861938905805 0.9966016063193399 0.041748861938905805 0.003398393680660148 -0.041748861938905805
4.06175E9 0.003222303303464064 -0.03952472092900728 0.9967776966965357 0.03952472092900728 0.9967776966965357 0.03952472092900728 0.003222303303464064 -0.03952472092900728
4.1365E9 0.003060196503532988 -0.037353025797918216 0.996939803496467 0.037353025797918216 0.996939803496467 0.037353025797918216 0.003060196503532988 -0.037353025797918216
4.21125E9 0.002911179958342988 -0.03523104540895461 0.9970888200416571 0.03523104540895461 0.9970888200416571 0.03523104540895461 0.002911179958342988 -0.03523104540895461
4.286E9 0.002774436890721452 -0.033156232916415784 0.9972255631092785 0.033156232916415784 0.9972255631092785 0.033156232916415784 0.002774436890721452 -0.033156232916415784
4.36075E9 0.0026492193844951393 -0.031126210539693683 0.9973507806155049 0.031126210539693683 0.9973507806155049 0.031126210539693683 0.0026492193844951393 -0.031126210539693683
4.4355E9 0.002534841585138752 -0.02913875581172386 0.9974651584148614 0.02913875581172386 0.9974651584148614 0.02913875581172386 0.002534841585138752 -0.02913875581172386
4.51025E9 0.0024306736710371776 -0.027191789138946588 0.9975693263289626 0.027191789138946588 0.9975693263289626 0.027191789138946588 0.0024306736710371776 -0.027191789138946588
4.585E9 0.002336136497319768 -0.02528336253002741 0.9976638635026801 0.02528336253002741 0.9976638635026801 0.02528336253002741 0.002336136497319768 -0.02528336253002741
4.65975E9 0.0022506968280200518 -0.02341164936794286 0.9977493031719801 0.02341164936794286 0.9977493031719801 0.02341164936794286 0.0022506968280200518 -0.02341164936794286
4.7345E9 0.0021738630839895855 -0.021574935115075654 0.9978261369160104 0.021574935115075654 0.9978261369160104 0.021574935115075654 0.0021738630839895855 -0.021574935115075654
4.80925E9 0.0021051815439023344 -0.01977160885401607 0.997894818456098 0.01977160885401607 0.997894818456098 0.01977160885401607 0.0021051815439023344 -0.01977160885401607
4.884E9 0.0020442329441155535 -0.018000155578119587 0.9979557670558844 0.018000155578119587 0.9979557670558844 0.018000155578119587 0.0020442329441155535 -0.018000155578119587
4.95875E9 0.0019906294303433636 -0.016259149155765363 0.9980093705696568 0.016259149155765363 0.9980093705696568 0.016259149155765363 0.0019906294303433636 -0.016259149155765363
5.0335E9 0.0019440118202471287 -0.014547245900898885 0.9980559881797528 0.014547245900898885 0.9980559881797528 0.014547245900898885 0.0019440118202471287 -0.014547245900898885
5.10825E9 0.0019040471413161986 -0.012863178689999026 0.9980959528586838 0.012863178689999026 0.9980959528586838 0.012863178689999026 0.0019040471413161986 -0.012863178689999026
5.183E9 0.001870426412939227 -0.011205751572233007 0.9981295735870609 0.011205751572233007 0.9981295735870609 0.011205751572233007 0.001870426412939227 -0.011205751572233007
5.25775E9 0.0018428626454638512 -0.009573834825375598 0.9981571373545364 0.009573834825375598 0.9981571373545364 0.009573834825375598 0.0018428626454638512 -0.009573834825375598
5.3325E9 0.0018210890324055172 -0.00796636041518272 0.9981789109675945 0.00796636041518272 0.9981789109675945 0.00796636041518272 0.0018210890324055172 -0.00796636041518272
5.40725E9 0.0018048573148742942 -0.006382317820413122 0.9981951426851259 0.006382317820413122 0.9981951426851259 0.006382317820413122 0.0018048573148742942 -0.006382317820413122
5.482E9 0.0017939362998082868 -0.004820750189666018 0.9982060637001919 0.004820750189666018 0.9982060637001919 0.004820750189666018 0.0017939362998082868 -0.004820750189666018
5.55675E9 0.0017881105157900104 -0.0032807507997148675 0.99821188948421 0.0032807507997148675 0.99821188948421 0.0032807507997148675 0.0017881105157900104 -0.0032807507997148675
5.6315E9 0.0017871789921252573 -0.0017614597881261441 0.9982128210078747 0.0017614597881261441 0.9982128210078747 0.0017614597881261441 0.0017871789921252573 -0.0017614597881261441
5.70625E9 0.001790954148522766 -2.620611357085503E-4 0.9982090458514772 2.620611357085503E-4 0.9982090458514772 2.620611357085503E-4 0.001790954148522766 -2.620611357085503E-4
5.781E9 0.0017992607841614914 0.0012182201232154462 0.9982007392158386 -0.0012182201232154462 0.9982007392158386 -0.0012182201232154462 0.0017992607841614914 0.0012182201232154462
5.85575E9 0.0018119351561993687 0.002680120482547095 0.9981880648438007 -0.002680120482547095 0.9981880648438007 -0.002680120482547095 0.0018119351561993687 0.002680120482547095
5.9305E9 0.0018288241388879003 0.004124340356052901 0.9981711758611123 -0.004124340356052901 0.9981711758611123 -0.004124340356052901 0.0018288241388879003 0.004124340356052901
6.00525E9 0.001849784455431696 0.005551546295076447 0.9981502155445683 -0.005551546295076447 0.9981502155445683 -0.005551546295076447 0.001849784455431696 0.005551546295076447
6.08E9 0.001874681975589332 0.006962373046945606 0.9981253180244107 -0.006962373046945606 0.9981253180244107 -0.006962373046945606 0.001874681975589332 0.006962373046945606
6.15475E9 0.0019033910727668814 0.008357425467319395 0.9980966089272333 -0.008357425467319395 0.9980966089272333 -0.008357425467319395 0.0019033910727668814 0.008357425467319395
6.2295E9 0.00193579403502169 0.009737280298485949 0.9980642059649785 -0.009737280298485949 0.9980642059649785 -0.009737280298485949 0.00193579403502169 0.009737280298485949
6.30425E9 0.0019717805249825516 0.011102487824514637 0.9980282194750174 -0.011102487824514637 0.9980282194750174 -0.011102487824514637 0.0019717805249825516 0.011102487824514637
6.379E9 0.002011247084213488 0.012453573413173399 0.9979887529157865 -0.012453573413173399 0.9979887529157865 -0.012453573413173399 0.002011247084213488 0.012453573413173399
6.45375E9 0.0020540966780101433 0.013791038953629065 0.99794590332199 -0.013791038953629065 0.99794590332199 -0.013791038953629065 0.0020540966780101433 0.013791038953629065
6.5285E9 0.0021002382770278494 0.015115364198146256 0.9978997617229721 -0.015115364198146256 0.9978997617229721 -0.015115364198146256 0.0021002382770278494 0.015115364198146256
6.60325E9 0.002149586472505001 0.01642700801527632 0.997850413527495 -0.01642700801527632 0.997850413527495 -0.01642700801527632 0.002149586472505001 0.01642700801527632
6.678E9 0.002202061122170038 0.017726409561377155 0.99779793887783 -0.017726409561377155 0.99779793887783 -0.017726409561377155 0.002202061122170038 0.017726409561377155
6.75275E9 0.002257587024209925 0.01901398937671539 0.9977424129757902 -0.01901398937671539 0.9977424129757902 -0.01901398937671539 0.002257587024209925 0.01901398937671539
6.8275E9 0.0023160936169366562 0.02029015041187068 0.9976839063830635 -0.02029015041187068 0.9976839063830635 -0.02029015041187068 0.0023160936169366562 0.02029015041187068
6.90225E9 0.00237751470201976 0.021555278989682073 0.9976224852979801 -0.021555278989682073 0.9976224852979801 -0.021555278989682073 0.00237751470201976 0.021555278989682073
6.977E9 0.0024417881893600613 0.022809745707539693 0.9975582118106396 -0.022809745707539693 0.9975582118106396 -0.022809745707539693 0.0024417881893600613 0.022809745707539693
7.05175E9 0.0025088558618661357 0.024053906284431888 0.9974911441381339 -0.024053906284431888 0.9974911441381339 -0.024053906284431888 0.0025088558618661357 0.024053906284431888
7.1265E9 0.0025786631585621323 0.025288102356799392 0.9974213368414379 -0.025288102356799392 0.9974213368414379 -0.025288102356799392 0.0025786631585621323 0.025288102356799392
7.20125E9 0.0026511589746063455 0.026512662226924194 0.9973488410253936 -0.026512662226924194 0.9973488410253936 -0.026512662226924194 0.0026511589746063455 0.026512662226924194
7.276E9 0.0027262954769357787 0.027727901567284902 0.9972737045230642 -0.027727901567284902 0.9972737045230642 -0.027727901567284902 0.0027262954769357787 0.027727901567284902
7.35075E9 0.0028040279343749266 0.02893412408404388 0.9971959720656252 -0.02893412408404388 0.9971959720656252 -0.02893412408404388 0.0028040279343749266 0.02893412408404388
7.4255E9 0.0028843145611581944 0.03013162214258619 0.9971156854388419 -0.03013162214258619 0.9971156854388419 -0.03013162214258619 0.0028843145611581944 0.03013162214258619
7.50025E9 0.002967116372916492 0.03132067735780939 0.9970328836270835 -0.03132067735780939 0.9970328836270835 -0.03132067735780939 0.002967116372916492 0.03132067735780939
7.575E9 0.003052397054270519 0.03250156115166151 0.9969476029457296 -0.03250156115166151 0.9969476029457296 -0.03250156115166151 0.003052397054270519 0.03250156115166151
7.64975E9 0.003140122837257136 0.03367453528023961 0.9968598771627429 -0.03367453528023961 0.9968598771627429 -0.03367453528023961 0.003140122837257136 0.03367453528023961
7.7245E9 0.003230262389892109 0.03483985233259488 0.9967697376101079 -0.03483985233259488 0.9967697376101079 -0.03483985233259488 0.003230262389892109 0.03483985233259488
7.79925E9 0.0033227867142430743 0.03599775620323709 0.9966772132857569 -0.03599775620323709 0.9966772132857569 -0.03599775620323709 0.0033227867142430743 0.03599775620323709
7.874E9 0.0034176690534516085 0.037148482540192165 0.9965823309465484 -0.037148482540192165 0.9965823309465484 -0.037148482540192165 0.0034176690534516085 0.037148482540192165
7.94875E9 0.0035148848072035495 0.03829225917033999 0.9964851151927966 -0.03829225917033999 0.9964851151927966 -0.03829225917033999 0.0035148848072035495 0.03829225917033999
8.0235E9 0.0036144114552027935 0.03942930650364493 0.9963855885447971 -0.03942930650364493 0.9963855885447971 -0.03942930650364493 0.0036144114552027935 0.03942930650364493
8.09825E9 0.003716228488256183 0.040559837917785835 0.9962837715117439 -0.040559837917785835 0.9962837715117439 -0.040559837917785835 0.003716228488256183 0.040559837917785835
8.173E9 0.003820317346626452 0.04168406012459763 0.9961796826533734 -0.04168406012459763 0.9961796826533734 -0.04168406012459763 0.003820317346626452 0.04168406012459763
8.24775E9 0.003926661365357007 0.042802173519650516 0.9960733386346431 -0.042802173519650516 0.9960733386346431 -0.042802173519650516 0.003926661365357007 0.042802173519650516
8.3225E9 0.004035245726316878 0.043914372516213995 0.9959647542736831 -0.043914372516213995 0.9959647542736831 -0.043914372516213995 0.004035245726316878 0.043914372516213995
8.39725E9 0.004146057416757221 0.04502084586478316 0.9958539425832428 -0.04502084586478316 0.9958539425832428 -0.04502084586478316 0.004146057416757221 0.04502084586478316
8.472E9 0.004259085194212425 0.0461217769592808 0.9957409148057875 -0.0461217769592808 0.9957409148057875 -0.0461217769592808 0.004259085194212425 0.0461217769592808
8.54675E9 0.0043743195576198815 0.047217344130992905 0.9956256804423803 -0.047217344130992905 0.9956256804423803 -0.047217344130992905 0.0043743195576198815 0.047217344130992905
