!Murata Part Number: GJM0225C1E4R4BB01
!These Parameters are Measured in Series Mode Connection
!       o--ll--o
!Port1            Port2
!       o------o
!Operation Temp=25[degC], DC Bias Voltage=0[V]
!Freq. Start=100[MHz] Stop=30[GHz], 401[Steps]
!Data Generated on Feb 1, 2023
# Hz S RI R 50
!Freq.(Hz) S11(Real) S11(Imag) S21(Real) S21(Imag) S12(Real) S12(Imag) S22(Real) S22(Imag)
1.0E8 0.9288626444305397 -0.25683297650832304 0.07113735556946038 0.25683297650832304 0.07113735556946038 0.25683297650832304 0.9288626444305397 -0.25683297650832304
1.7475E8 0.8103203002155549 -0.39166087648124837 0.18967969978444504 0.39166087648124837 0.18967969978444504 0.39166087648124837 0.8103203002155549 -0.39166087648124837
2.495E8 0.6766729528128962 -0.4671937090278226 0.3233270471871038 0.4671937090278226 0.3233270471871038 0.4671937090278226 0.6766729528128962 -0.4671937090278226
3.2425E8 0.5529425662956392 -0.49646999712634077 0.4470574337043608 0.49646999712634077 0.4470574337043608 0.49646999712634077 0.5529425662956392 -0.49646999712634077
3.99E8 0.4490148000737634 -0.4965072586481114 0.5509851999262368 0.4965072586481114 0.5509851999262368 0.4965072586481114 0.4490148000737634 -0.4965072586481114
4.7375E8 0.3656565201794926 -0.4805591264781372 0.6343434798205075 0.4805591264781372 0.6343434798205075 0.4805591264781372 0.3656565201794926 -0.4805591264781372
5.485E8 0.30002049026778416 -0.45704257388714564 0.6999795097322157 0.45704257388714564 0.6999795097322157 0.45704257388714564 0.30002049026778416 -0.45704257388714564
6.2325E8 0.24852540069910542 -0.4307634873822728 0.7514745993008947 0.4307634873822728 0.7514745993008947 0.4307634873822728 0.24852540069910542 -0.4307634873822728
6.98E8 0.20795627176883105 -0.4042788497089684 0.7920437282311688 0.4042788497089684 0.7920437282311688 0.4042788497089684 0.20795627176883105 -0.4042788497089684
7.7275E8 0.17573740269156793 -0.3788564262412766 0.8242625973084321 0.3788564262412766 0.8242625973084321 0.3788564262412766 0.17573740269156793 -0.3788564262412766
8.475E8 0.1498995930081563 -0.35505733190514854 0.8501004069918439 0.35505733190514854 0.8501004069918439 0.35505733190514854 0.1498995930081563 -0.35505733190514854
9.2225E8 0.12896472652729238 -0.33306776652965125 0.8710352734727076 0.33306776652965125 0.8710352734727076 0.33306776652965125 0.12896472652729238 -0.33306776652965125
9.97E8 0.11182829594410393 -0.3128822678411933 0.888171704055896 0.3128822678411933 0.888171704055896 0.3128822678411933 0.11182829594410393 -0.3128822678411933
1.07175E9 0.09766276996418069 -0.29440322915319267 0.9023372300358193 0.29440322915319267 0.9023372300358193 0.29440322915319267 0.09766276996418069 -0.29440322915319267
1.1465E9 0.08584413859097868 -0.2774941592416535 0.9141558614090212 0.2774941592416535 0.9141558614090212 0.2774941592416535 0.08584413859097868 -0.2774941592416535
1.22125E9 0.07589791562894713 -0.26200760809591517 0.9241020843710531 0.26200760809591517 0.9241020843710531 0.26200760809591517 0.07589791562894713 -0.26200760809591517
1.296E9 0.06745996561481796 -0.2477992826420855 0.9325400343851821 0.2477992826420855 0.9325400343851821 0.2477992826420855 0.06745996561481796 -0.2477992826420855
1.37075E9 0.060248168927582724 -0.23473467810706847 0.9397518310724174 0.23473467810706847 0.9397518310724174 0.23473467810706847 0.060248168927582724 -0.23473467810706847
1.4455E9 0.05404187302247967 -0.22269169953419027 0.9459581269775204 0.22269169953419027 0.9459581269775204 0.22269169953419027 0.05404187302247967 -0.22269169953419027
1.52025E9 0.048666905389062334 -0.21156118391592 0.9513330946109376 0.21156118391592 0.9513330946109376 0.21156118391592 0.048666905389062334 -0.21156118391592
1.595E9 0.0439845620840622 -0.2012463720977852 0.9560154379159379 0.2012463720977852 0.9560154379159379 0.2012463720977852 0.0439845620840622 -0.2012463720977852
1.66975E9 0.039883450296323335 -0.19166190301505787 0.9601165497036765 0.19166190301505787 0.9601165497036765 0.19166190301505787 0.039883450296323335 -0.19166190301505787
1.7445E9 0.03627339285670359 -0.18273263810452905 0.9637266071432965 0.18273263810452905 0.9637266071432965 0.18273263810452905 0.03627339285670359 -0.18273263810452905
1.81925E9 0.03308083363993024 -0.17439247651486156 0.9669191663600699 0.17439247651486156 0.9669191663600699 0.17439247651486156 0.03308083363993024 -0.17439247651486156
1.894E9 0.03024534432861863 -0.16658324011448009 0.9697546556713815 0.16658324011448009 0.9697546556713815 0.16658324011448009 0.03024534432861863 -0.16658324011448009
1.96875E9 0.027716946114157336 -0.15925366247763637 0.9722830538858428 0.15925366247763637 0.9722830538858428 0.15925366247763637 0.027716946114157336 -0.15925366247763637
2.0435E9 0.025454039450883047 -0.1523584919187283 0.9745459605491169 0.1523584919187283 0.9745459605491169 0.1523584919187283 0.025454039450883047 -0.1523584919187283
2.11825E9 0.02342179125103844 -0.14585770617363072 0.9765782087489615 0.14585770617363072 0.9765782087489615 0.14585770617363072 0.02342179125103844 -0.14585770617363072
2.193E9 0.021590868991222475 -0.1397158303567762 0.9784091310087777 0.1397158303567762 0.9784091310087777 0.1397158303567762 0.021590868991222475 -0.1397158303567762
2.26775E9 0.01993643996539125 -0.1339013474328401 0.9800635600346087 0.1339013474328401 0.9800635600346087 0.1339013474328401 0.01993643996539125 -0.1339013474328401
2.3425E9 0.01843737471975744 -0.12838618997061937 0.9815626252802425 0.12838618997061937 0.9815626252802425 0.12838618997061937 0.01843737471975744 -0.12838618997061937
2.41725E9 0.0170756088627794 -0.1231453024526376 0.9829243911372205 0.1231453024526376 0.9829243911372205 0.1231453024526376 0.0170756088627794 -0.1231453024526376
2.492E9 0.015835628574522517 -0.11815626436903834 0.9841643714254775 0.11815626436903834 0.9841643714254775 0.11815626436903834 0.015835628574522517 -0.11815626436903834
2.56675E9 0.01470405337566935 -0.11339896543786389 0.9852959466243307 0.11339896543786389 0.9852959466243307 0.11339896543786389 0.01470405337566935 -0.11339896543786389
2.6415E9 0.013669295855433897 -0.10885532541148918 0.986330704144566 0.10885532541148918 0.986330704144566 0.10885532541148918 0.013669295855433897 -0.10885532541148918
2.71625E9 0.012721282666444091 -0.10450905197402052 0.987278717333556 0.10450905197402052 0.987278717333556 0.10450905197402052 0.012721282666444091 -0.10450905197402052
2.791E9 0.011851224578799101 -0.10034543117366237 0.9881487754212012 0.10034543117366237 0.9881487754212012 0.10034543117366237 0.011851224578799101 -0.10034543117366237
2.86575E9 0.011051426037160951 -0.09635114565806402 0.9889485739628391 0.09635114565806402 0.9889485739628391 0.09635114565806402 0.011051426037160951 -0.09635114565806402
2.9405E9 0.010315126695914919 -0.09251411669262033 0.9896848733040852 0.09251411669262033 0.9896848733040852 0.09251411669262033 0.010315126695914919 -0.09251411669262033
3.01525E9 0.009636368973053493 -0.08882336655078453 0.9903636310269462 0.08882336655078453 0.9903636310269462 0.08882336655078453 0.009636368973053493 -0.08882336655078453
3.09E9 0.009009886877474782 -0.0852688983831597 0.9909901131225253 0.0852688983831597 0.9909901131225253 0.0852688983831597 0.009009886877474782 -0.0852688983831597
3.16475E9 0.008431012311247554 -0.08184159111039661 0.9915689876887525 0.08184159111039661 0.9915689876887525 0.08184159111039661 0.008431012311247554 -0.08184159111039661
3.2395E9 0.007895595790992855 -0.07853310725502435 0.9921044042090074 0.07853310725502435 0.9921044042090074 0.07853310725502435 0.007895595790992855 -0.07853310725502435
3.31425E9 0.007399939118054545 -0.07533581193949407 0.9926000608819456 0.07533581193949407 0.9926000608819456 0.07533581193949407 0.007399939118054545 -0.07533581193949407
3.389E9 0.0069407379911816365 -0.07224270154089336 0.9930592620088184 0.07224270154089336 0.9930592620088184 0.07224270154089336 0.0069407379911816365 -0.07224270154089336
3.46375E9 0.006515032925050667 -0.06924734071473676 0.9934849670749494 0.06924734071473676 0.9934849670749494 0.06924734071473676 0.006515032925050667 -0.06924734071473676
3.5385E9 0.00612016713374137 -0.06634380668754586 0.9938798328662585 0.06634380668754586 0.9938798328662585 0.06634380668754586 0.00612016713374137 -0.06634380668754586
3.61325E9 0.005753750276077058 -0.06352663987618655 0.9942462497239231 0.06352663987618655 0.9942462497239231 0.06352663987618655 0.005753750276077058 -0.06352663987618655
3.688E9 0.005413627151764345 -0.060790800025810866 0.9945863728482355 0.060790800025810866 0.9945863728482355 0.060790800025810866 0.005413627151764345 -0.060790800025810866
3.76275E9 0.005097850592989193 -0.05813162717169583 0.9949021494070108 0.05813162717169583 0.9949021494070108 0.05813162717169583 0.005097850592989193 -0.05813162717169583
3.8375E9 0.004804657922927041 -0.055544806826554737 0.9951953420770728 0.055544806826554737 0.9951953420770728 0.055544806826554737 0.004804657922927041 -0.055544806826554737
3.91225E9 0.004532450456285849 -0.05302633887677105 0.9954675495437144 0.05302633887677105 0.9954675495437144 0.05302633887677105 0.004532450456285849 -0.05302633887677105
3.987E9 0.0042797756020671865 -0.050572509740749165 0.9957202243979327 0.050572509740749165 0.9957202243979327 0.050572509740749165 0.0042797756020671865 -0.050572509740749165
4.06175E9 0.004045311198796211 -0.048179867402114565 0.9959546888012036 0.048179867402114565 0.9959546888012036 0.048179867402114565 0.004045311198796211 -0.048179867402114565
4.1365E9 0.0038278517703854266 -0.04584519898140527 0.9961721482296146 0.04584519898140527 0.9961721482296146 0.04584519898140527 0.0038278517703854266 -0.04584519898140527
4.21125E9 0.0036262964388330894 -0.043565510553533894 0.9963737035611672 0.043565510553533894 0.9963737035611672 0.043565510553533894 0.0036262964388330894 -0.043565510553533894
4.286E9 0.0034396382699306946 -0.0413380089557596 0.9965603617300693 0.0413380089557596 0.9965603617300693 0.0413380089557596 0.0034396382699306946 -0.0413380089557596
4.36075E9 0.0032669548615262443 -0.03916008536314506 0.9967330451384738 0.03916008536314506 0.9967330451384738 0.03916008536314506 0.0032669548615262443 -0.03916008536314506
4.4355E9 0.0031074000118367644 -0.037029300436259245 0.9968925999881633 0.037029300436259245 0.9968925999881633 0.037029300436259245 0.0031074000118367644 -0.037029300436259245
4.51025E9 0.002960196328777716 -0.03494337086988892 0.9970398036712221 0.03494337086988892 0.9970398036712221 0.03494337086988892 0.002960196328777716 -0.03494337086988892
4.585E9 0.002824628661051349 -0.032900157192294395 0.9971753713389486 0.032900157192294395 0.9971753713389486 0.032900157192294395 0.002824628661051349 -0.032900157192294395
4.65975E9 0.002700038248440728 -0.03089765268255537 0.9972999617515592 0.03089765268255537 0.9972999617515592 0.03089765268255537 0.002700038248440728 -0.03089765268255537
4.7345E9 0.002585817502906394 -0.028933973289202053 0.9974141824970936 0.028933973289202053 0.9974141824970936 0.028933973289202053 0.002585817502906394 -0.028933973289202053
4.80925E9 0.0024814053441003475 -0.027007348446944777 0.9975185946558996 0.027007348446944777 0.9975185946558996 0.027007348446944777 0.0024814053441003475 -0.027007348446944777
4.884E9 0.0023862830231451853 -0.02511611270019138 0.9976137169768549 0.02511611270019138 0.9976137169768549 0.02511611270019138 0.0023862830231451853 -0.02511611270019138
4.95875E9 0.002299970377261198 -0.02325869805241549 0.9977000296227386 0.02325869805241549 0.9977000296227386 0.02325869805241549 0.002299970377261198 -0.02325869805241549
5.0335E9 0.0022220224652985264 -0.021433626969516582 0.9977779775347015 0.021433626969516582 0.9977779775347015 0.021433626969516582 0.0022220224652985264 -0.021433626969516582
5.10825E9 0.0021520265406419956 -0.01963950597327016 0.997847973459358 0.01963950597327016 0.997847973459358 0.01963950597327016 0.0021520265406419956 -0.01963950597327016
5.183E9 0.002089599323466856 -0.017875019767954622 0.9979104006765329 0.017875019767954622 0.9979104006765329 0.017875019767954622 0.002089599323466856 -0.017875019767954622
5.25775E9 0.0020343845390712978 -0.01613892584938696 0.9979656154609285 0.01613892584938696 0.9979656154609285 0.01613892584938696 0.0020343845390712978 -0.01613892584938696
5.3325E9 0.001986050693110536 -0.014430049551013987 0.9980139493068894 0.014430049551013987 0.9980139493068894 0.014430049551013987 0.001986050693110536 -0.014430049551013987
5.40725E9 0.001944289058103689 -0.012747279486484351 0.9980557109418962 0.012747279486484351 0.9980557109418962 0.012747279486484351 0.001944289058103689 -0.012747279486484351
5.482E9 0.0019088118486592141 -0.011089563352348553 0.9980911881513407 0.011089563352348553 0.9980911881513407 0.011089563352348553 0.0019088118486592141 -0.011089563352348553
5.55675E9 0.0018793505655353925 -0.009455904058272305 0.9981206494344647 0.009455904058272305 0.9981206494344647 0.009455904058272305 0.0018793505655353925 -0.009455904058272305
5.6315E9 0.0018556544909768351 -0.007845356155462606 0.9981443455090232 0.007845356155462606 0.9981443455090232 0.007845356155462606 0.0018556544909768351 -0.007845356155462606
5.70625E9 0.0018374893197948103 -0.006257022536946107 0.9981625106802053 0.006257022536946107 0.9981625106802053 0.006257022536946107 0.0018374893197948103 -0.006257022536946107
5.781E9 0.001824635912429835 -0.00469005138595645 0.9981753640875701 0.00469005138595645 0.9981753640875701 0.00469005138595645 0.001824635912429835 -0.00469005138595645
5.85575E9 0.001816889157784425 -0.003143633351014751 0.9981831108422156 0.003143633351014751 0.9981831108422156 0.003143633351014751 0.001816889157784425 -0.003143633351014751
5.9305E9 0.0018140569349722852 -0.0016169989283634839 0.9981859430650276 0.0016169989283634839 0.9981859430650276 0.0016169989283634839 0.0018140569349722852 -0.0016169989283634839
6.00525E9 0.001815959164323012 -1.0941603426838618E-4 0.998184040835677 1.0941603426838618E-4 0.998184040835677 1.0941603426838618E-4 0.001815959164323012 -1.0941603426838618E-4
6.08E9 0.0018224269390305513 0.0013798122486416138 0.9981775730609695 -0.0013798122486416138 0.9981775730609695 -0.0013798122486416138 0.0018224269390305513 0.0013798122486416138
6.15475E9 0.0018333017297580056 0.002851349765341593 0.9981666982702423 -0.002851349765341593 0.9981666982702423 -0.002851349765341593 0.0018333017297580056 0.002851349765341593
6.2295E9 0.0018484346553269424 0.004305829235702443 0.9981515653446731 -0.004305829235702443 0.9981515653446731 -0.004305829235702443 0.0018484346553269424 0.004305829235702443
6.30425E9 0.0018676858133402034 0.005743854066930462 0.9981323141866598 -0.005743854066930462 0.9981323141866598 -0.005743854066930462 0.0018676858133402034 0.005743854066930462
6.379E9 0.0018909236652251125 0.0071660000419076185 0.9981090763347746 -0.0071660000419076185 0.9981090763347746 -0.0071660000419076185 0.0018909236652251125 0.0071660000419076185
6.45375E9 0.0019180244707494925 0.008572816893219891 0.9980819755292506 -0.008572816893219891 0.9980819755292506 -0.008572816893219891 0.0019180244707494925 0.008572816893219891
6.5285E9 0.0019488717675648106 0.009964829771794302 0.9980511282324352 -0.009964829771794302 0.9980511282324352 -0.009964829771794302 0.0019488717675648106 0.009964829771794302
6.60325E9 0.0019833558917769444 0.011342540618280716 0.9980166441082231 -0.011342540618280716 0.9980166441082231 -0.011342540618280716 0.0019833558917769444 0.011342540618280716
6.678E9 0.002021373535942237 0.012706429444609993 0.9979786264640577 -0.012706429444609993 0.9979786264640577 -0.012706429444609993 0.002021373535942237 0.012706429444609993
6.75275E9 0.0020628273412404544 0.01405695553251957 0.9979371726587597 -0.01405695553251957 0.9979371726587597 -0.01405695553251957 0.0020628273412404544 0.01405695553251957
6.8275E9 0.002107625520892248 0.015394558555260939 0.9978923744791077 -0.015394558555260939 0.9978923744791077 -0.015394558555260939 0.002107625520892248 0.015394558555260939
6.90225E9 0.0021556815121710586 0.016719659628181113 0.997844318487829 -0.016719659628181113 0.997844318487829 -0.016719659628181113 0.0021556815121710586 0.016719659628181113
6.977E9 0.002206913654612012 0.01803266229339401 0.9977930863453881 -0.01803266229339401 0.9977930863453881 -0.01803266229339401 0.002206913654612012 0.01803266229339401
7.05175E9 0.002261244892246814 0.019333953443330113 0.9977387551077531 -0.019333953443330113 0.9977387551077531 -0.019333953443330113 0.002261244892246814 0.019333953443330113
7.1265E9 0.002318602497896597 0.0206239041875594 0.9976813975021035 -0.0206239041875594 0.9976813975021035 -0.0206239041875594 0.002318602497896597 0.0206239041875594
7.20125E9 0.002378917817737146 0.021902870666929437 0.997621082182263 -0.021902870666929437 0.997621082182263 -0.021902870666929437 0.002378917817737146 0.021902870666929437
7.276E9 0.002442126034514899 0.02317119481873564 0.9975578739654851 -0.02317119481873564 0.9975578739654851 -0.02317119481873564 0.002442126034514899 0.02317119481873564
7.35075E9 0.0025081659479397854 0.024429205096347332 0.9974918340520602 -0.024429205096347332 0.9974918340520602 -0.024429205096347332 0.0025081659479397854 0.024429205096347332
7.4255E9 0.0025769797709140493 0.025677217146443648 0.997423020229086 -0.025677217146443648 0.997423020229086 -0.025677217146443648 0.0025769797709140493 0.025677217146443648
7.50025E9 0.002648512940376379 0.026915534446769654 0.9973514870596234 -0.026915534446769654 0.9973514870596234 -0.026915534446769654 0.002648512940376379 0.026915534446769654
7.575E9 0.0027227139416491457 0.02814444890709803 0.9972772860583511 -0.02814444890709803 0.9972772860583511 -0.02814444890709803 0.0027227139416491457 0.02814444890709803
7.64975E9 0.002799534145274756 0.029364241435877823 0.9972004658547252 -0.029364241435877823 0.9972004658547252 -0.029364241435877823 0.002799534145274756 0.029364241435877823
7.7245E9 0.00287892765541611 0.030575182474864838 0.997121072344584 -0.030575182474864838 0.997121072344584 -0.030575182474864838 0.00287892765541611 0.030575182474864838
7.79925E9 0.00296085116897666 0.03177753250385587 0.9970391488310234 -0.03177753250385587 0.9970391488310234 -0.03177753250385587 0.00296085116897666 0.03177753250385587
7.874E9 0.003045263844669006 0.03297154251749413 0.9969547361553307 -0.03297154251749413 0.9969547361553307 -0.03297154251749413 0.003045263844669006 0.03297154251749413
7.94875E9 0.0031321271813272646 0.034157454475966416 0.9968678728186726 -0.034157454475966416 0.9968678728186726 -0.034157454475966416 0.0031321271813272646 0.034157454475966416
8.0235E9 0.003221404904819288 0.03533550173128342 0.9967785950951806 -0.03533550173128342 0.9967785950951806 -0.03533550173128342 0.003221404904819288 0.03533550173128342
8.09825E9 0.0033130628629698786 0.03650590943071135 0.9966869371370303 -0.03650590943071135 0.9966869371370303 -0.03650590943071135 0.0033130628629698786 0.03650590943071135
8.173E9 0.003407068927956637 0.03766889489881241 0.9965929310720437 -0.03766889489881241 0.9965929310720437 -0.03766889489881241 0.003407068927956637 0.03766889489881241
8.24775E9 0.003503392905686153 0.038824667999449315 0.9964966070943141 -0.038824667999449315 0.9964966070943141 -0.038824667999449315 0.003503392905686153 0.038824667999449315
8.3225E9 0.0036020064517004813 0.03997343147901473 0.9963979935482996 -0.03997343147901473 0.9963979935482996 -0.03997343147901473 0.0036020064517004813 0.03997343147901473
8.39725E9 0.0037028829932024983 0.04111538129205931 0.9962971170067974 -0.04111538129205931 0.9962971170067974 -0.04111538129205931 0.0037028829932024983 0.04111538129205931
8.472E9 0.003805997656824369 0.04225070691041322 0.9961940023431757 -0.04225070691041322 0.9961940023431757 -0.04225070691041322 0.003805997656824369 0.04225070691041322
8.54675E9 0.003911327201796071 0.04337959161682124 0.9960886727982038 -0.04337959161682124 0.9960886727982038 -0.04337959161682124 0.003911327201796071 0.04337959161682124
