!Murata Part Number: GJM0225C1E7R4BB01
!These Parameters are Measured in Series Mode Connection
!       o--ll--o
!Port1            Port2
!       o------o
!Operation Temp=25[degC], DC Bias Voltage=0[V]
!Freq. Start=100[MHz] Stop=30[GHz], 401[Steps]
!Data Generated on Feb 1, 2023
# Hz S RI R 50
!Freq.(Hz) S11(Real) S11(Imag) S21(Real) S21(Imag) S12(Real) S12(Imag) S22(Real) S22(Imag)
1.0E8 0.8219883988428944 -0.38230144849153186 0.1780116011571056 0.38230144849153186 0.1780116011571056 0.38230144849153186 0.8219883988428944 -0.38230144849153186
1.7475E8 0.6015348884754533 -0.489194945001285 0.39846511152454667 0.489194945001285 0.39846511152454667 0.489194945001285 0.6015348884754533 -0.489194945001285
2.495E8 0.4248554632746343 -0.49376626422619646 0.5751445367253658 0.49376626422619646 0.5751445367253658 0.49376626422619646 0.4248554632746343 -0.49376626422619646
3.2425E8 0.30355934278857505 -0.4590701219970847 0.696440657211425 0.4590701219970847 0.696440657211425 0.4590701219970847 0.30355934278857505 -0.4590701219970847
3.99E8 0.22276820612764436 -0.4152071100559236 0.7772317938723556 0.4152071100559236 0.7772317938723556 0.4152071100559236 0.22276820612764436 -0.4152071100559236
4.7375E8 0.16822840392648067 -0.37299633868619686 0.8317715960735192 0.37299633868619686 0.8317715960735192 0.37299633868619686 0.16822840392648067 -0.37299633868619686
5.485E8 0.13041191244701827 -0.33550365161966694 0.8695880875529817 0.33550365161966694 0.8695880875529817 0.33550365161966694 0.13041191244701827 -0.33550365161966694
6.2325E8 0.103420060227908 -0.30306992682483663 0.896579939772092 0.30306992682483663 0.896579939772092 0.30306992682483663 0.103420060227908 -0.30306992682483663
6.98E8 0.08362017290747098 -0.27519085114424985 0.9163798270925292 0.27519085114424985 0.9163798270925292 0.27519085114424985 0.08362017290747098 -0.27519085114424985
7.7275E8 0.0687343116335912 -0.2511796817704057 0.9312656883664087 0.2511796817704057 0.9312656883664087 0.2511796817704057 0.0687343116335912 -0.2511796817704057
8.475E8 0.05729727658816342 -0.2303854323339168 0.9427027234118366 0.2303854323339168 0.9427027234118366 0.2303854323339168 0.05729727658816342 -0.2303854323339168
9.2225E8 0.04834106094178744 -0.21225207021242154 0.9516589390582124 0.21225207021242154 0.9516589390582124 0.21225207021242154 0.04834106094178744 -0.21225207021242154
9.97E8 0.0412094284442905 -0.19632297471463087 0.9587905715557097 0.19632297471463087 0.9587905715557097 0.19632297471463087 0.0412094284442905 -0.19632297471463087
1.07175E9 0.03544671348257794 -0.18222861439384513 0.9645532865174221 0.18222861439384513 0.9645532865174221 0.18222861439384513 0.03544671348257794 -0.18222861439384513
1.1465E9 0.030729513540926356 -0.16967098748983647 0.9692704864590738 0.16967098748983647 0.9692704864590738 0.16967098748983647 0.030729513540926356 -0.16967098748983647
1.22125E9 0.02682368812830567 -0.1584093136935753 0.9731763118716945 0.1584093136935753 0.9731763118716945 0.1584093136935753 0.02682368812830567 -0.1584093136935753
1.296E9 0.023556639760957076 -0.14824813790213348 0.976443360239043 0.14824813790213348 0.976443360239043 0.14824813790213348 0.023556639760957076 -0.14824813790213348
1.37075E9 0.02079904281349371 -0.13902784191575113 0.9792009571865063 0.13902784191575113 0.9792009571865063 0.13902784191575113 0.02079904281349371 -0.13902784191575113
1.4455E9 0.018452547468301127 -0.13061720986561404 0.9815474525316988 0.13061720986561404 0.9815474525316988 0.13061720986561404 0.018452547468301127 -0.13061720986561404
1.52025E9 0.016441344502310298 -0.12290764003389956 0.9835586554976897 0.12290764003389956 0.9835586554976897 0.12290764003389956 0.016441344502310298 -0.12290764003389956
1.595E9 0.014706275390219039 -0.1158086405939492 0.9852937246097812 0.1158086405939492 0.9852937246097812 0.1158086405939492 0.014706275390219039 -0.1158086405939492
1.66975E9 0.013200652100234014 -0.1092443147135381 0.986799347899766 0.1092443147135381 0.986799347899766 0.1092443147135381 0.013200652100234014 -0.1092443147135381
1.7445E9 0.011887245381235602 -0.10315060508663582 0.9881127546187646 0.10315060508663582 0.9881127546187646 0.10315060508663582 0.011887245381235602 -0.10315060508663582
1.81925E9 0.010736084601879062 -0.09747312172580753 0.989263915398121 0.09747312172580753 0.989263915398121 0.09747312172580753 0.010736084601879062 -0.09747312172580753
1.894E9 0.009722829705537605 -0.09216541910743863 0.9902771702944626 0.09216541910743863 0.9902771702944626 0.09216541910743863 0.009722829705537605 -0.09216541910743863
1.96875E9 0.008827552109624975 -0.08718762109247699 0.991172447890375 0.08718762109247699 0.991172447890375 0.08718762109247699 0.008827552109624975 -0.08718762109247699
2.0435E9 0.00803381170147249 -0.08250531646627107 0.9919661882985275 0.08250531646627107 0.9919661882985275 0.08250531646627107 0.00803381170147249 -0.08250531646627107
2.11825E9 0.007327950806997833 -0.07808866629375047 0.992672049193002 0.07808866629375047 0.992672049193002 0.07808866629375047 0.007327950806997833 -0.07808866629375047
2.193E9 0.006698548938110903 -0.0739116780689279 0.993301451061889 0.0739116780689279 0.993301451061889 0.0739116780689279 0.006698548938110903 -0.0739116780689279
2.26775E9 0.006135997928180263 -0.06995161200849496 0.9938640020718197 0.06995161200849496 0.9938640020718197 0.06995161200849496 0.006135997928180263 -0.06995161200849496
2.3425E9 0.005632168096161395 -0.06618849267044523 0.9943678319038387 0.06618849267044523 0.9943678319038387 0.06618849267044523 0.005632168096161395 -0.06618849267044523
2.41725E9 0.005180143872662408 -0.0626047050189077 0.9948198561273376 0.0626047050189077 0.9948198561273376 0.0626047050189077 0.005180143872662408 -0.0626047050189077
2.492E9 0.004774012888192887 -0.059184658585363245 0.9952259871118072 0.059184658585363245 0.9952259871118072 0.059184658585363245 0.004774012888192887 -0.059184658585363245
2.56675E9 0.004408696542994192 -0.055914506848256745 0.9955913034570059 0.055914506848256745 0.9955913034570059 0.055914506848256745 0.004408696542994192 -0.055914506848256745
2.6415E9 0.004079813008524755 -0.05278191162941242 0.9959201869914751 0.05278191162941242 0.9959201869914751 0.05278191162941242 0.004079813008524755 -0.05278191162941242
2.71625E9 0.003783565767788994 -0.04977584438053841 0.9962164342322108 0.04977584438053841 0.9962164342322108 0.04977584438053841 0.003783565767788994 -0.04977584438053841
2.791E9 0.0035166524035611067 -0.046886417850718405 0.9964833475964388 0.046886417850718405 0.9964833475964388 0.046886417850718405 0.0035166524035611067 -0.046886417850718405
2.86575E9 0.00327618954309499 -0.04410474289391606 0.9967238104569051 0.04410474289391606 0.9967238104569051 0.04410474289391606 0.00327618954309499 -0.04410474289391606
2.9405E9 0.0030596507733272856 -0.041422806175069014 0.9969403492266727 0.041422806175069014 0.9969403492266727 0.041422806175069014 0.0030596507733272856 -0.041422806175069014
3.01525E9 0.002864815029148531 -0.03883336532538993 0.9971351849708515 0.03883336532538993 0.9971351849708515 0.03883336532538993 0.002864815029148531 -0.03883336532538993
3.09E9 0.002689723484722062 -0.036329858728330375 0.9973102765152778 0.036329858728330375 0.9973102765152778 0.036329858728330375 0.002689723484722062 -0.036329858728330375
3.16475E9 0.0025326433845420907 -0.03390632762262541 0.997467356615458 0.03390632762262541 0.997467356615458 0.03390632762262541 0.0025326433845420907 -0.03390632762262541
3.2395E9 0.0023920375665899356 -0.031557348614987775 0.9976079624334099 0.031557348614987775 0.9976079624334099 0.031557348614987775 0.0023920375665899356 -0.031557348614987775
3.31425E9 0.002266538676461633 -0.029277975023228056 0.9977334613235384 0.029277975023228056 0.9977334613235384 0.029277975023228056 0.002266538676461633 -0.029277975023228056
3.389E9 0.002154927264980893 -0.027063685736992315 0.9978450727350191 0.027063685736992315 0.9978450727350191 0.027063685736992315 0.002154927264980893 -0.027063685736992315
3.46375E9 0.002056113114771992 -0.02491034050051025 0.9979438868852278 0.02491034050051025 0.9979438868852278 0.02491034050051025 0.002056113114771992 -0.02491034050051025
3.5385E9 0.00196911926274051 -0.02281414069956884 0.9980308807372595 0.02281414069956884 0.9980308807372595 0.02281414069956884 0.00196911926274051 -0.02281414069956884
3.61325E9 0.0018930682823715798 -0.02077159488109929 0.9981069317176284 0.02077159488109929 0.9981069317176284 0.02077159488109929 0.0018930682823715798 -0.02077159488109929
3.688E9 0.0018271704675306805 -0.018779488354391912 0.9981728295324694 0.018779488354391912 0.9981728295324694 0.018779488354391912 0.0018271704675306805 -0.018779488354391912
3.76275E9 0.0017707136221305666 -0.01683485632287548 0.9982292863778695 0.01683485632287548 0.9982292863778695 0.01683485632287548 0.0017707136221305666 -0.01683485632287548
3.8375E9 0.0017230542107672822 -0.014934960078468174 0.9982769457892324 0.014934960078468174 0.9982769457892324 0.014934960078468174 0.0017230542107672822 -0.014934960078468174
3.91225E9 0.0016836096666802355 -0.013077265859813102 0.9983163903333196 0.013077265859813102 0.9983163903333196 0.013077265859813102 0.0016836096666802355 -0.013077265859813102
3.987E9 0.0016518516870691533 -0.011259426033728372 0.9983481483129311 0.011259426033728372 0.9983481483129311 0.011259426033728372 0.0016518516870691533 -0.011259426033728372
4.06175E9 0.0016273003734048185 -0.009479262307927826 0.9983726996265953 0.009479262307927826 0.9983726996265953 0.009479262307927826 0.0016273003734048185 -0.009479262307927826
4.1365E9 0.0016095190970832173 -0.007734750724121788 0.9983904809029168 0.007734750724121788 0.9983904809029168 0.007734750724121788 0.0016095190970832173 -0.007734750724121788
4.21125E9 0.001598109989529988 -0.0060240082153009975 0.99840189001047 0.0060240082153009975 0.99840189001047 0.0060240082153009975 0.001598109989529988 -0.0060240082153009975
4.286E9 0.0015927099714079928 -0.0043452805404133295 0.9984072900285921 0.0043452805404133295 0.9984072900285921 0.0043452805404133295 0.0015927099714079928 -0.0043452805404133295
4.36075E9 0.0015929872485096334 -0.002696931434639105 0.9984070127514901 0.002696931434639105 0.9984070127514901 0.002696931434639105 0.0015929872485096334 -0.002696931434639105
4.4355E9 0.0015986382127035664 -0.0010774328347772253 0.9984013617872964 0.0010774328347772253 0.9984013617872964 0.0010774328347772253 0.0015986382127035664 -0.0010774328347772253
4.51025E9 0.0016093846953361313 5.14643942537018E-4 0.9983906153046637 -5.14643942537018E-4 0.9983906153046637 -5.14643942537018E-4 0.0016093846953361313 5.14643942537018E-4
4.585E9 0.0016249715280709166 0.0020806361764570927 0.998375028471929 -0.0020806361764570927 0.998375028471929 -0.0020806361764570927 0.0016249715280709166 0.0020806361764570927
4.65975E9 0.0016451643725366276 0.0036217969646654556 0.9983548356274632 -0.0036217969646654556 0.9983548356274632 -0.0036217969646654556 0.0016451643725366276 0.0036217969646654556
4.7345E9 0.001669747785548294 0.005139301774958434 0.9983302522144518 -0.005139301774958434 0.9983302522144518 -0.005139301774958434 0.001669747785548294 0.005139301774958434
4.80925E9 0.0016985234912367058 0.006634254397442554 0.9983014765087633 -0.006634254397442554 0.9983014765087633 -0.006634254397442554 0.0016985234912367058 0.006634254397442554
4.884E9 0.0017313088353027033 0.008107692360490344 0.9982686911646972 -0.008107692360490344 0.9982686911646972 -0.008107692360490344 0.0017313088353027033 0.008107692360490344
4.95875E9 0.0017679353999189046 0.009560591866130634 0.9982320646000812 -0.009560591866130634 0.9982320646000812 -0.009560591866130634 0.0017679353999189046 0.009560591866130634
5.0335E9 0.0018082477606243565 0.010993872294054649 0.9981917522393756 -0.010993872294054649 0.9981917522393756 -0.010993872294054649 0.0018082477606243565 0.010993872294054649
5.10825E9 0.0018521023689741871 0.012408400317765304 0.9981478976310258 -0.012408400317765304 0.9981478976310258 -0.012408400317765304 0.0018521023689741871 0.012408400317765304
5.183E9 0.0018993665467800641 0.013804993671463857 0.9981006334532199 -0.013804993671463857 0.9981006334532199 -0.013804993671463857 0.0018993665467800641 0.013804993671463857
5.25775E9 0.0019499175795611517 0.015184424601955116 0.9980500824204388 -0.015184424601955116 0.9980500824204388 -0.015184424601955116 0.0019499175795611517 0.015184424601955116
5.3325E9 0.0020036418983634327 0.016547423036075485 0.9979963581016364 -0.016547423036075485 0.9979963581016364 -0.016547423036075485 0.0020036418983634327 0.016547423036075485
5.40725E9 0.0020604343404344765 0.017894679490832666 0.9979395656595654 -0.017894679490832666 0.9979395656595654 -0.017894679490832666 0.0020604343404344765 0.017894679490832666
5.482E9 0.002120197480392172 0.01922684775053239 0.9978798025196077 -0.01922684775053239 0.9978798025196077 -0.01922684775053239 0.002120197480392172 0.01922684775053239
5.55675E9 0.0021828410245254364 0.020544547332601273 0.9978171589754746 -0.020544547332601273 0.9978171589754746 -0.020544547332601273 0.0021828410245254364 0.020544547332601273
5.6315E9 0.002248281261734493 0.021848365761551053 0.9977517187382654 -0.021848365761551053 0.9977517187382654 -0.021848365761551053 0.002248281261734493 0.021848365761551053
5.70625E9 0.0023164405653765424 0.02313886066853017 0.9976835594346235 -0.02313886066853017 0.9976835594346235 -0.02313886066853017 0.0023164405653765424 0.02313886066853017
5.781E9 0.0023872469409451356 0.02441656173213827 0.997612753059055 -0.02441656173213827 0.997612753059055 -0.02441656173213827 0.0023872469409451356 0.02441656173213827
5.85575E9 0.0024606336150917174 0.025681972474610515 0.9975393663849083 -0.025681972474610515 0.9975393663849083 -0.025681972474610515 0.0024606336150917174 0.025681972474610515
5.9305E9 0.0025365386620070833 0.026935571926087764 0.9974634613379928 -0.026935571926087764 0.9974634613379928 -0.026935571926087764 0.0025365386620070833 0.026935571926087764
6.00525E9 0.0026149046636282807 0.02817781616844939 0.9973850953363719 -0.02817781616844939 0.9973850953363719 -0.02817781616844939 0.0026149046636282807 0.02817781616844939
6.08E9 0.0026956784005315176 0.029409139769086757 0.9973043215994685 -0.029409139769086757 0.9973043215994685 -0.029409139769086757 0.0026956784005315176 0.029409139769086757
6.15475E9 0.0027788105707205577 0.03062995711401215 0.9972211894292796 -0.03062995711401215 0.9972211894292796 -0.03062995711401215 0.0027788105707205577 0.03062995711401215
6.2295E9 0.002864255533829488 0.03184066364882456 0.9971357444661706 -0.03184066364882456 0.9971357444661706 -0.03184066364882456 0.002864255533829488 0.03184066364882456
6.30425E9 0.0029519710785334404 0.03304163703527116 0.9970480289214665 -0.03304163703527116 0.9970480289214665 -0.03304163703527116 0.0029519710785334404 0.03304163703527116
6.379E9 0.0030419182112058772 0.034233238230445474 0.9969580817887941 -0.034233238230445474 0.9969580817887941 -0.034233238230445474 0.0030419182112058772 0.034233238230445474
6.45375E9 0.003134060964079947 0.03541581249503809 0.9968659390359199 -0.03541581249503809 0.9968659390359199 -0.03541581249503809 0.003134060964079947 0.03541581249503809
6.5285E9 0.003228366221368084 0.03658969033649721 0.9967716337786318 -0.03658969033649721 0.9967716337786318 -0.03658969033649721 0.003228366221368084 0.03658969033649721
6.60325E9 0.003324803561971007 0.03775518839245467 0.996675196438029 -0.03775518839245467 0.996675196438029 -0.03775518839245467 0.003324803561971007 0.03775518839245467
6.678E9 0.003423345117567802 0.03891261025932572 0.9965766548824322 -0.03891261025932572 0.9965766548824322 -0.03891261025932572 0.003423345117567802 0.03891261025932572
6.75275E9 0.0035239654450247427 0.04006224727058864 0.9964760345549752 -0.04006224727058864 0.9964760345549752 -0.04006224727058864 0.0035239654450247427 0.04006224727058864
6.8275E9 0.003626641412194192 0.04120437922889017 0.9963733585878058 -0.04120437922889017 0.9963733585878058 -0.04120437922889017 0.003626641412194192 0.04120437922889017
6.90225E9 0.0037313520962985983 0.0423392750958029 0.9962686479037012 -0.0423392750958029 0.9962686479037012 -0.0423392750958029 0.0037313520962985983 0.0423392750958029
6.977E9 0.0038380786942091784 0.04346719364277109 0.996161921305791 -0.04346719364277109 0.996161921305791 -0.04346719364277109 0.0038380786942091784 0.04346719364277109
7.05175E9 0.003946804444037038 0.04458838406652757 0.996053195555963 -0.04458838406652757 0.996053195555963 -0.04458838406652757 0.003946804444037038 0.04458838406652757
7.1265E9 0.004057514557556684 0.045703086572034944 0.9959424854424436 -0.045703086572034944 0.9959424854424436 -0.045703086572034944 0.004057514557556684 0.045703086572034944
7.20125E9 0.004170196163080447 0.046811532925803985 0.9958298038369195 -0.046811532925803985 0.9958298038369195 -0.046811532925803985 0.004170196163080447 0.046811532925803985
7.276E9 0.0042848382584979835 0.04791394698226376 0.995715161741502 -0.04791394698226376 0.995715161741502 -0.04791394698226376 0.0042848382584979835 0.04791394698226376
7.35075E9 0.004401431674289696 0.04901054518570378 0.9955985683257104 -0.04901054518570378 0.9955985683257104 -0.04901054518570378 0.004401431674289696 0.04901054518570378
7.4255E9 0.004519969046417522 0.05010153705017366 0.9954800309535825 -0.05010153705017366 0.9954800309535825 -0.05010153705017366 0.004519969046417522 0.05010153705017366
7.50025E9 0.004640444799093047 0.0511871256196125 0.9953595552009071 -0.0511871256196125 0.9953595552009071 -0.0511871256196125 0.004640444799093047 0.0511871256196125
7.575E9 0.004762855137522334 0.05226750791038426 0.9952371448624777 -0.05226750791038426 0.9952371448624777 -0.05226750791038426 0.004762855137522334 0.05226750791038426
7.64975E9 0.004887198050831393 0.053342875338319 0.9951128019491686 -0.053342875338319 0.9951128019491686 -0.053342875338319 0.004887198050831393 0.053342875338319
7.7245E9 0.0050134733254872926 0.054413414132301385 0.9949865266745128 -0.054413414132301385 0.9949865266745128 -0.054413414132301385 0.0050134733254872926 0.054413414132301385
7.79925E9 0.005141682569649817 0.05547930573640632 0.9948583174303501 -0.05547930573640632 0.9948583174303501 -0.05547930573640632 0.005141682569649817 0.05547930573640632
7.874E9 0.005271829249019525 0.05654072720255937 0.9947281707509806 -0.05654072720255937 0.9947281707509806 -0.05654072720255937 0.005271829249019525 0.05654072720255937
7.94875E9 0.005403918734892778 0.05759785157569442 0.9945960812651072 -0.05759785157569442 0.9945960812651072 -0.05759785157569442 0.005403918734892778 0.05759785157569442
8.0235E9 0.00553795836529596 0.058650848273396256 0.9944620416347038 -0.058650848273396256 0.9944620416347038 -0.058650848273396256 0.00553795836529596 0.058650848273396256
8.09825E9 0.0056739575202529235 0.05969988346204882 0.994326042479747 -0.05969988346204882 0.994326042479747 -0.05969988346204882 0.0056739575202529235 0.05969988346204882
8.173E9 0.00581192771244676 0.060745120431567094 0.9941880722875533 -0.060745120431567094 0.9941880722875533 -0.060745120431567094 0.00581192771244676 0.060745120431567094
8.24775E9 0.005951882694773272 0.06178671997086736 0.9940481173052268 -0.06178671997086736 0.9940481173052268 -0.06178671997086736 0.005951882694773272 0.06178671997086736
8.3225E9 0.006093838586556076 0.06282484074633449 0.9939061614134438 -0.06282484074633449 0.9939061614134438 -0.06282484074633449 0.006093838586556076 0.06282484074633449
8.39725E9 0.006237814020508663 0.0638596396856751 0.9937621859794914 -0.0638596396856751 0.9937621859794914 -0.0638596396856751 0.006237814020508663 0.0638596396856751
8.472E9 0.006383830312895871 0.06489127236970511 0.9936161696871043 -0.06489127236970511 0.9936161696871043 -0.06489127236970511 0.006383830312895871 0.06489127236970511
