!Murata Part Number: GJM0225C1ER40WB01
!These Parameters are Measured in Series Mode Connection
!       o--ll--o
!Port1            Port2
!       o------o
!Operation Temp=25[degC], DC Bias Voltage=0[V]
!Freq. Start=100[MHz] Stop=30[GHz], 401[Steps]
!Data Generated on Feb 1, 2023
# Hz S RI R 50
!Freq.(Hz) S11(Real) S11(Imag) S21(Real) S21(Imag) S12(Real) S12(Imag) S22(Real) S22(Imag)
1.0E8 0.9993668834725016 -0.02511742713220994 6.331165274983412E-4 0.02511742713220994 6.331165274983412E-4 0.02511742713220994 0.9993668834725016 -0.02511742713220994
1.7475E8 0.9980689517541952 -0.04383784202611477 0.0019310482458046961 0.04383784202611477 0.0019310482458046961 0.04383784202611477 0.9980689517541952 -0.04383784202611477
2.495E8 0.9960708687000868 -0.062469067821462165 0.003929131299913218 0.062469067821462165 0.003929131299913218 0.062469067821462165 0.9960708687000868 -0.062469067821462165
3.2425E8 0.9933803891212795 -0.0809737335253144 0.006619610878720482 0.0809737335253144 0.006619610878720482 0.0809737335253144 0.9933803891212795 -0.0809737335253144
3.99E8 0.9900078874911374 -0.09931528031946907 0.009992112508862647 0.09931528031946907 0.009992112508862647 0.09931528031946907 0.9900078874911374 -0.09931528031946907
4.7375E8 0.9859662589145788 -0.11745818662299308 0.014033741085421351 0.11745818662299308 0.014033741085421351 0.11745818662299308 0.9859662589145788 -0.11745818662299308
5.485E8 0.981270797542316 -0.13536817944439825 0.018729202457684 0.13536817944439825 0.018729202457684 0.13536817944439825 0.981270797542316 -0.13536817944439825
6.2325E8 0.975939054543012 -0.1530124294919952 0.024060945456987986 0.1530124294919952 0.024060945456987986 0.1530124294919952 0.975939054543012 -0.1530124294919952
6.98E8 0.9699906780517269 -0.1703597278674996 0.030009321948273094 0.1703597278674996 0.030009321948273094 0.1703597278674996 0.9699906780517269 -0.1703597278674996
7.7275E8 0.9634472377535324 -0.18738064256199533 0.03655276224646783 0.18738064256199533 0.03655276224646783 0.18738064256199533 0.9634472377535324 -0.18738064256199533
8.475E8 0.9563320369325625 -0.2040476533923166 0.04366796306743747 0.2040476533923166 0.04366796306743747 0.2040476533923166 0.9563320369325625 -0.2040476533923166
9.2225E8 0.9486699149174357 -0.2203352644469519 0.05133008508256434 0.2203352644469519 0.05133008508256434 0.2203352644469519 0.9486699149174357 -0.2203352644469519
9.97E8 0.9404870428847271 -0.23622009354114495 0.059512957115273 0.23622009354114495 0.059512957115273 0.23622009354114495 0.9404870428847271 -0.23622009354114495
1.07175E9 0.9318107159461887 -0.2516809385991525 0.06818928405381125 0.2516809385991525 0.06818928405381125 0.2516809385991525 0.9318107159461887 -0.2516809385991525
1.1465E9 0.9226691443477986 -0.26669882127701316 0.07733085565220138 0.26669882127701316 0.07733085565220138 0.26669882127701316 0.9226691443477986 -0.26669882127701316
1.22125E9 0.9130912464563388 -0.2812570085025623 0.08690875354366119 0.2812570085025623 0.08690875354366119 0.2812570085025623 0.9130912464563388 -0.2812570085025623
1.296E9 0.9031064460101125 -0.29534101293344855 0.09689355398988757 0.29534101293344855 0.09689355398988757 0.29534101293344855 0.9031064460101125 -0.29534101293344855
1.37075E9 0.8927444758735259 -0.30893857361307975 0.1072555241264741 0.30893857361307975 0.1072555241264741 0.30893857361307975 0.8927444758735259 -0.30893857361307975
1.4455E9 0.882035190269933 -0.32203961833519656 0.11796480973006705 0.32203961833519656 0.11796480973006705 0.32203961833519656 0.882035190269933 -0.32203961833519656
1.52025E9 0.8710083871827108 -0.3346362094084383 0.12899161281728935 0.3346362094084383 0.12899161281728935 0.3346362094084383 0.8710083871827108 -0.3346362094084383
1.595E9 0.8596936423200549 -0.34672247464285244 0.14030635767994512 0.34672247464285244 0.14030635767994512 0.34672247464285244 0.8596936423200549 -0.34672247464285244
1.66975E9 0.8481201557428316 -0.3582945254623975 0.15187984425716847 0.3582945254623975 0.15187984425716847 0.3582945254623975 0.8481201557428316 -0.3582945254623975
1.7445E9 0.836316611964562 -0.369350364083949 0.16368338803543803 0.369350364083949 0.16368338803543803 0.369350364083949 0.836316611964562 -0.369350364083949
1.81925E9 0.8243110540547496 -0.3798897816980867 0.17568894594525036 0.3798897816980867 0.17568894594525036 0.3798897816980867 0.8243110540547496 -0.3798897816980867
1.894E9 0.812130772016658 -0.3899142495446978 0.18786922798334219 0.3899142495446978 0.18786922798334219 0.3899142495446978 0.812130772016658 -0.3899142495446978
1.96875E9 0.7998022054725311 -0.3994268047023888 0.200197794527469 0.3994268047023888 0.200197794527469 0.3994268047023888 0.7998022054725311 -0.3994268047023888
2.0435E9 0.7873508604761484 -0.4084319323103243 0.21264913952385145 0.4084319323103243 0.21264913952385145 0.4084319323103243 0.7873508604761484 -0.4084319323103243
2.11825E9 0.7748012400864552 -0.4169354458199058 0.2251987599135447 0.4169354458199058 0.2251987599135447 0.4169354458199058 0.7748012400864552 -0.4169354458199058
2.193E9 0.7621767881777466 -0.4249443667370288 0.23782321182225347 0.4249443667370288 0.23782321182225347 0.4249443667370288 0.7621767881777466 -0.4249443667370288
2.26775E9 0.7494998458315268 -0.43246680516855207 0.25050015416847327 0.43246680516855207 0.25050015416847327 0.43246680516855207 0.7494998458315268 -0.43246680516855207
2.3425E9 0.7367916195519794 -0.4395118423337078 0.2632083804480208 0.4395118423337078 0.2632083804480208 0.4395118423337078 0.7367916195519794 -0.4395118423337078
2.41725E9 0.7240721604696241 -0.44608941604658153 0.2759278395303761 0.44608941604658153 0.2759278395303761 0.44608941604658153 0.7240721604696241 -0.44608941604658153
2.492E9 0.7113603536443677 -0.4522102100230652 0.28863964635563244 0.4522102100230652 0.28863964635563244 0.4522102100230652 0.7113603536443677 -0.4522102100230652
2.56675E9 0.6986739165475826 -0.4578855477177981 0.30132608345241735 0.4578855477177981 0.30132608345241735 0.4578855477177981 0.6986739165475826 -0.4578855477177981
2.6415E9 0.6860294057906853 -0.4631272912559715 0.3139705942093148 0.4631272912559715 0.3139705942093148 0.4631272912559715 0.6860294057906853 -0.4631272912559715
2.71625E9 0.6734422311723931 -0.4679477458933237 0.32655776882760695 0.4679477458933237 0.32655776882760695 0.4679477458933237 0.6734422311723931 -0.4679477458933237
2.791E9 0.660926676135898 -0.47235957031653714 0.33907332386410205 0.47235957031653714 0.33907332386410205 0.47235957031653714 0.660926676135898 -0.47235957031653714
2.86575E9 0.6484959237580965 -0.47637569298642274 0.3515040762419034 0.47637569298642274 0.3515040762419034 0.47637569298642274 0.6484959237580965 -0.47637569298642274
2.9405E9 0.6361620874334197 -0.4800092346282189 0.36383791256658016 0.4800092346282189 0.36383791256658016 0.4800092346282189 0.6361620874334197 -0.4800092346282189
3.01525E9 0.6239362454624904 -0.4832734368871325 0.3760637545375097 0.4832734368871325 0.3760637545375097 0.4832734368871325 0.6239362454624904 -0.4832734368871325
3.09E9 0.6118284788088023 -0.48618159709274494 0.38817152119119785 0.48618159709274494 0.38817152119119785 0.48618159709274494 0.6118284788088023 -0.48618159709274494
3.16475E9 0.599847911343087 -0.488747009012662 0.40015208865691293 0.488747009012662 0.40015208865691293 0.488747009012662 0.599847911343087 -0.488747009012662
3.2395E9 0.5880027519533997 -0.4909829094232259 0.4119972480466004 0.4909829094232259 0.4119972480466004 0.4909829094232259 0.5880027519533997 -0.4909829094232259
3.31425E9 0.5763003379579278 -0.49290243028249003 0.42369966204207216 0.49290243028249003 0.42369966204207216 0.49290243028249003 0.5763003379579278 -0.49290243028249003
3.389E9 0.564747179315942 -0.4945185562571656 0.43525282068405813 0.4945185562571656 0.43525282068405813 0.4945185562571656 0.564747179315942 -0.4945185562571656
3.46375E9 0.5533490031892442 -0.49584408733002194 0.4466509968107558 0.49584408733002194 0.4466509968107558 0.49584408733002194 0.5533490031892442 -0.49584408733002194
3.5385E9 0.5421107984612286 -0.4968916061963646 0.4578892015387715 0.4968916061963646 0.4578892015387715 0.4968916061963646 0.5421107984612286 -0.4968916061963646
3.61325E9 0.5310368598726454 -0.49767345014684233 0.46896314012735457 0.49767345014684233 0.46896314012735457 0.49767345014684233 0.5310368598726454 -0.49767345014684233
3.688E9 0.5201308314819962 -0.4982016871280907 0.4798691685180037 0.4982016871280907 0.4798691685180037 0.4982016871280907 0.5201308314819962 -0.4982016871280907
3.76275E9 0.509395749203868 -0.49848809567178526 0.490604250796132 0.49848809567178526 0.490604250796132 0.49848809567178526 0.509395749203868 -0.49848809567178526
3.8375E9 0.49883408222031594 -0.49854414838578154 0.5011659177796841 0.49854414838578154 0.5011659177796841 0.49854414838578154 0.49883408222031594 -0.49854414838578154
3.91225E9 0.4884477730985435 -0.4983809987074696 0.5115522269014566 0.4983809987074696 0.5115522269014566 0.4983809987074696 0.4884477730985435 -0.4983809987074696
3.987E9 0.47823827648262385 -0.49800947062859646 0.5217617235173762 0.49800947062859646 0.5217617235173762 0.49800947062859646 0.47823827648262385 -0.49800947062859646
4.06175E9 0.46820659625796224 -0.4974400511120719 0.5317934037420378 0.4974400511120719 0.5317934037420378 0.4974400511120719 0.46820659625796224 -0.4974400511120719
4.1365E9 0.4583533211147017 -0.496682884934116 0.5416466788852984 0.496682884934116 0.5416466788852984 0.496682884934116 0.4583533211147017 -0.496682884934116
4.21125E9 0.44867865846053906 -0.4957477716991221 0.5513213415394611 0.4957477716991221 0.5513213415394611 0.4957477716991221 0.44867865846053906 -0.4957477716991221
4.286E9 0.4391824666546026 -0.49464416478937684 0.5608175333453974 0.49464416478937684 0.5608175333453974 0.49464416478937684 0.4391824666546026 -0.49464416478937684
4.36075E9 0.42986428555237005 -0.4933811720269877 0.5701357144476301 0.4933811720269877 0.5701357144476301 0.4933811720269877 0.42986428555237005 -0.4933811720269877
4.4355E9 0.4207233653673078 -0.49196755784072915 0.5792766346326921 0.49196755784072915 0.5792766346326921 0.49196755784072915 0.4207233653673078 -0.49196755784072915
4.51025E9 0.4117586938681916 -0.4904117467458043 0.5882413061318085 0.4904117467458043 0.5882413061318085 0.4904117467458043 0.4117586938681916 -0.4904117467458043
4.585E9 0.40296902194216305 -0.48872182795953817 0.597030978057837 0.48872182795953817 0.597030978057837 0.48872182795953817 0.40296902194216305 -0.48872182795953817
4.65975E9 0.39435288756270537 -0.48690556099062066 0.6056471124372945 0.48690556099062066 0.6056471124372945 0.48690556099062066 0.39435288756270537 -0.48690556099062066
4.7345E9 0.3859086382090731 -0.4849703820535917 0.6140913617909268 0.4849703820535917 0.6140913617909268 0.4849703820535917 0.3859086382090731 -0.4849703820535917
4.80925E9 0.3776344517895194 -0.4829234111737052 0.6223655482104806 0.4829234111737052 0.6223655482104806 0.4829234111737052 0.3776344517895194 -0.4829234111737052
4.884E9 0.3695283561250641 -0.4807714598600778 0.6304716438749359 0.4807714598600778 0.6304716438749359 0.4807714598600778 0.3695283561250641 -0.4807714598600778
4.95875E9 0.36158824705378445 -0.47852103923707084 0.6384117529462157 0.47852103923707084 0.6384117529462157 0.47852103923707084 0.36158824705378445 -0.47852103923707084
5.0335E9 0.35381190521774786 -0.47617836853513773 0.646188094782252 0.47617836853513773 0.646188094782252 0.47617836853513773 0.35381190521774786 -0.47617836853513773
5.10825E9 0.3461970115959997 -0.4737493838529137 0.6538029884040004 0.4737493838529137 0.6538029884040004 0.4737493838529137 0.3461970115959997 -0.4737493838529137
5.183E9 0.3387411618474991 -0.47123974711209393 0.6612588381525009 0.47123974711209393 0.6612588381525009 0.47123974711209393 0.3387411618474991 -0.47123974711209393
5.25775E9 0.33144187952776605 -0.4686548551356945 0.6685581204722338 0.4686548551356945 0.6685581204722338 0.4686548551356945 0.33144187952776605 -0.4686548551356945
5.3325E9 0.32429662824229616 -0.4659998487886006 0.6757033717577038 0.4659998487886006 0.6757033717577038 0.4659998487886006 0.32429662824229616 -0.4659998487886006
5.40725E9 0.3173028227986835 -0.46327962212693946 0.6826971772013165 0.46327962212693946 0.6826971772013165 0.46327962212693946 0.3173028227986835 -0.46327962212693946
5.482E9 0.3104578394178823 -0.46049883150976945 0.6895421605821177 0.46049883150976945 0.6895421605821177 0.46049883150976945 0.3104578394178823 -0.46049883150976945
5.55675E9 0.30375902506326347 -0.45766190463291767 0.6962409749367366 0.45766190463291767 0.6962409749367366 0.45766190463291767 0.30375902506326347 -0.45766190463291767
5.6315E9 0.297203705944112 -0.4547730494505353 0.7027962940558881 0.4547730494505353 0.7027962940558881 0.4547730494505353 0.297203705944112 -0.4547730494505353
5.70625E9 0.29078919524804275 -0.45183626295512597 0.7092108047519572 0.45183626295512597 0.7092108047519572 0.45183626295512597 0.29078919524804275 -0.45183626295512597
5.781E9 0.2845128001545128 -0.4488553397914696 0.715487199845487 0.4488553397914696 0.715487199845487 0.4488553397914696 0.2845128001545128 -0.4488553397914696
5.85575E9 0.27837182817925216 -0.4458338806840499 0.7216281718207479 0.4458338806840499 0.7216281718207479 0.4458338806840499 0.27837182817925216 -0.4458338806840499
5.9305E9 0.2723635928970077 -0.44277530066133225 0.7276364071029925 0.44277530066133225 0.7276364071029925 0.44277530066133225 0.2723635928970077 -0.44277530066133225
6.00525E9 0.2664854190875901 -0.4396828370635714 0.7335145809124098 0.4396828370635714 0.7335145809124098 0.4396828370635714 0.2664854190875901 -0.4396828370635714
6.08E9 0.2607346473477825 -0.43655955732377805 0.7392653526522176 0.43655955732377805 0.7392653526522176 0.43655955732377805 0.2607346473477825 -0.43655955732377805
6.15475E9 0.25510863820930607 -0.43340836651408543 0.744891361790694 0.43340836651408543 0.744891361790694 0.43340836651408543 0.25510863820930607 -0.43340836651408543
6.2295E9 0.24960477580069257 -0.43023201465205246 0.7503952241993074 0.43023201465205246 0.7503952241993074 0.43023201465205246 0.24960477580069257 -0.43023201465205246
6.30425E9 0.24422047108865466 -0.4270331037634478 0.7557795289113453 0.4270331037634478 0.7557795289113453 0.4270331037634478 0.24422047108865466 -0.4270331037634478
6.379E9 0.23895316473233671 -0.42381409469981024 0.7610468352676633 0.42381409469981024 0.7610468352676633 0.42381409469981024 0.23895316473233671 -0.42381409469981024
6.45375E9 0.2338003295817176 -0.42057731371060525 0.7661996704182824 0.42057731371060525 0.7661996704182824 0.42057731371060525 0.2338003295817176 -0.42057731371060525
6.5285E9 0.228759472849394 -0.417324958771094 0.7712405271506059 0.417324958771094 0.7712405271506059 0.417324958771094 0.228759472849394 -0.417324958771094
6.60325E9 0.22382813798303755 -0.4140591056681623 0.7761718620169624 0.4140591056681623 0.7761718620169624 0.4140591056681623 0.22382813798303755 -0.4140591056681623
6.678E9 0.21900390626395216 -0.41078171384729484 0.7809960937360478 0.41078171384729484 0.7809960937360478 0.41078171384729484 0.21900390626395216 -0.41078171384729484
6.75275E9 0.214284398155407 -0.4074946320246881 0.7857156018445928 0.4074946320246881 0.7857156018445928 0.4074946320246881 0.214284398155407 -0.4074946320246881
6.8275E9 0.20966727442274344 -0.4041996035691551 0.7903327255772566 0.4041996035691551 0.7903327255772566 0.4041996035691551 0.20966727442274344 -0.4041996035691551
6.90225E9 0.20515023704567484 -0.40089827165901537 0.7948497629543252 0.40089827165901537 0.7948497629543252 0.40089827165901537 0.20515023704567484 -0.40089827165901537
6.977E9 0.2007310299417136 -0.397592184219614 0.7992689700582865 0.397592184219614 0.7992689700582865 0.397592184219614 0.2007310299417136 -0.397592184219614
7.05175E9 0.19640743951825027 -0.3942827986474454 0.8035925604817497 0.3942827986474454 0.8035925604817497 0.3942827986474454 0.19640743951825027 -0.3942827986474454
7.1265E9 0.1921772950694997 -0.3909714863271332 0.8078227049305002 0.3909714863271332 0.8078227049305002 0.3909714863271332 0.1921772950694997 -0.3909714863271332
7.20125E9 0.18803846903328553 -0.3876595369476999 0.8119615309667145 0.3876595369476999 0.8119615309667145 0.3876595369476999 0.18803846903328553 -0.3876595369476999
7.276E9 0.1839888771214843 -0.3843481626246987 0.8160111228785157 0.3843481626246987 0.8160111228785157 0.3843481626246987 0.1839888771214843 -0.3843481626246987
7.35075E9 0.18002647833686475 -0.38103850183484644 0.8199735216631355 0.38103850183484644 0.8199735216631355 0.38103850183484644 0.18002647833686475 -0.38103850183484644
7.4255E9 0.17614927488804744 -0.377731623169831 0.8238507251119526 0.377731623169831 0.8238507251119526 0.377731623169831 0.17614927488804744 -0.377731623169831
7.50025E9 0.17235531201337334 -0.3744285289159535 0.8276446879866267 0.3744285289159535 0.8276446879866267 0.3744285289159535 0.17235531201337334 -0.3744285289159535
7.575E9 0.1686426777235845 -0.3711301584662142 0.8313573222764156 0.3711301584662142 0.8313573222764156 0.3711301584662142 0.1686426777235845 -0.3711301584662142
7.64975E9 0.16500950247241447 -0.3678373915713853 0.8349904975275854 0.3678373915713853 0.8349904975275854 0.3678373915713853 0.16500950247241447 -0.3678373915713853
7.7245E9 0.16145395876342136 -0.36455105143650346 0.8385460412365784 0.36455105143650346 0.8385460412365784 0.36455105143650346 0.16145395876342136 -0.36455105143650346
7.79925E9 0.15797426070069653 -0.36127190766910316 0.8420257392993034 0.36127190766910316 0.8420257392993034 0.36127190766910316 0.15797426070069653 -0.36127190766910316
7.874E9 0.1545686634904282 -0.35800067908536737 0.8454313365095719 0.35800067908536737 0.8454313365095719 0.35800067908536737 0.1545686634904282 -0.35800067908536737
7.94875E9 0.15123546289970075 -0.3547380363802294 0.8487645371002992 0.3547380363802294 0.8487645371002992 0.3547380363802294 0.15123546289970075 -0.3547380363802294
8.0235E9 0.14797299467834354 -0.3514846046672924 0.8520270053216564 0.3514846046672924 0.8520270053216564 0.3514846046672924 0.14797299467834354 -0.3514846046672924
8.09825E9 0.14477963394913518 -0.34824096589426595 0.8552203660508649 0.34824096589426595 0.8552203660508649 0.34824096589426595 0.14477963394913518 -0.34824096589426595
8.173E9 0.14165379457118762 -0.34500766113944525 0.8583462054288125 0.34500766113944525 0.8583462054288125 0.34500766113944525 0.14165379457118762 -0.34500766113944525
8.24775E9 0.1385939284808952 -0.34178519279457675 0.8614060715191048 0.34178519279457675 0.8614060715191048 0.34178519279457675 0.1385939284808952 -0.34178519279457675
8.3225E9 0.13559852501442898 -0.3385740266392717 0.864401474985571 0.3385740266392717 0.864401474985571 0.3385740266392717 0.13559852501442898 -0.3385740266392717
8.39725E9 0.13266611021538185 -0.3353745938119487 0.8673338897846182 0.3353745938119487 0.8673338897846182 0.3353745938119487 0.13266611021538185 -0.3353745938119487
8.472E9 0.12979524613082633 -0.33218729268209934 0.8702047538691734 0.33218729268209934 0.8702047538691734 0.33218729268209934 0.12979524613082633 -0.33218729268209934
8.54675E9 0.12698453009873142 -0.32901249062849336 0.8730154699012684 0.32901249062849336 0.8730154699012684 0.32901249062849336 0.12698453009873142 -0.32901249062849336
8.6215E9 0.12423259402939114 -0.3258505257277532 0.8757674059706086 0.3258505257277532 0.8757674059706086 0.3258505257277532 0.12423259402939114 -0.3258505257277532
8.69625E9 0.12153810368325278 -0.32270170835755635 0.8784618963167472 0.32270170835755635 0.8784618963167472 0.32270170835755635 0.12153810368325278 -0.32270170835755635
8.771E9 0.11889975794728884 -0.31956632271854807 0.881100242052711 0.31956632271854807 0.881100242052711 0.31956632271854807 0.11889975794728884 -0.31956632271854807
8.84575E9 0.11631628811182605 -0.31644462827887093 0.8836837118881739 0.31644462827887093 0.8836837118881739 0.31644462827887093 0.11631628811182605 -0.31644462827887093
