!Murata Part Number: GJM0225C1E3R1BB01
!These Parameters are Measured in Series Mode Connection
!       o--ll--o
!Port1            Port2
!       o------o
!Operation Temp=25[degC], DC Bias Voltage=0[V]
!Freq. Start=100[MHz] Stop=30[GHz], 401[Steps]
!Data Generated on Feb 1, 2023
# Hz S RI R 50
!Freq.(Hz) S11(Real) S11(Imag) S21(Real) S21(Imag) S12(Real) S12(Imag) S22(Real) S22(Imag)
1.0E8 0.9633604018633705 -0.187667812719059 0.036639598136629495 0.187667812719059 0.036639598136629495 0.187667812719059 0.9633604018633705 -0.187667812719059
1.7475E8 0.8958738915434474 -0.305061301898494 0.1041261084565525 0.305061301898494 0.1041261084565525 0.305061301898494 0.8958738915434474 -0.305061301898494
2.495E8 0.808279008282221 -0.39313643490450306 0.19172099171777904 0.39313643490450306 0.19172099171777904 0.39313643490450306 0.808279008282221 -0.39313643490450306
3.2425E8 0.7136609760831121 -0.45137552633914446 0.28633902391688787 0.45137552633914446 0.28633902391688787 0.45137552633914446 0.7136609760831121 -0.45137552633914446
3.99E8 0.6216171810899231 -0.4841530925269558 0.37838281891007686 0.4841530925269558 0.37838281891007686 0.4841530925269558 0.6216171810899231 -0.4841530925269558
4.7375E8 0.537594670852017 -0.4975968761305165 0.46240532914798294 0.4975968761305165 0.46240532914798294 0.4975968761305165 0.537594670852017 -0.4975968761305165
5.485E8 0.4637962590203786 -0.4975419710747331 0.5362037409796214 0.4975419710747331 0.5362037409796214 0.4975419710747331 0.4637962590203786 -0.4975419710747331
6.2325E8 0.4004223180461248 -0.4886796573849676 0.5995776819538754 0.4886796573849676 0.5995776819538754 0.4886796573849676 0.4004223180461248 -0.4886796573849676
6.98E8 0.34665743958984474 -0.4744414955549299 0.6533425604101555 0.4744414955549299 0.6533425604101555 0.4744414955549299 0.34665743958984474 -0.4744414955549299
7.7275E8 0.3012917457588285 -0.4571943097943822 0.6987082542411714 0.4571943097943822 0.6987082542411714 0.4571943097943822 0.3012917457588285 -0.4571943097943822
8.475E8 0.2630563359259277 -0.43850578971109494 0.7369436640740723 0.43850578971109494 0.7369436640740723 0.43850578971109494 0.2630563359259277 -0.43850578971109494
9.2225E8 0.2307794130317282 -0.4193811163635924 0.7692205869682719 0.4193811163635924 0.7692205869682719 0.4193811163635924 0.2307794130317282 -0.4193811163635924
9.97E8 0.20344356483021733 -0.4004442279448439 0.7965564351697825 0.4004442279448439 0.7965564351697825 0.4004442279448439 0.20344356483021733 -0.4004442279448439
1.07175E9 0.18019395252550974 -0.3820668331581063 0.8198060474744904 0.3820668331581063 0.8198060474744904 0.3820668331581063 0.18019395252550974 -0.3820668331581063
1.1465E9 0.16032496370517285 -0.364456634652642 0.8396750362948271 0.364456634652642 0.8396750362948271 0.364456634652642 0.16032496370517285 -0.364456634652642
1.22125E9 0.14325942176463397 -0.34771629329918824 0.856740578235366 0.34771629329918824 0.856740578235366 0.34771629329918824 0.14325942176463397 -0.34771629329918824
1.296E9 0.12852700254261704 -0.3318823022083836 0.871472997457383 0.3318823022083836 0.871472997457383 0.3318823022083836 0.12852700254261704 -0.3318823022083836
1.37075E9 0.11574464922435994 -0.31695039027130645 0.88425535077564 0.31695039027130645 0.88425535077564 0.31695039027130645 0.11574464922435994 -0.31695039027130645
1.4455E9 0.10459988593692261 -0.30289201036609076 0.8954001140630774 0.30289201036609076 0.8954001140630774 0.30289201036609076 0.10459988593692261 -0.30289201036609076
1.52025E9 0.09483706803591657 -0.2896649678915409 0.9051629319640832 0.2896649678915409 0.9051629319640832 0.2896649678915409 0.09483706803591657 -0.2896649678915409
1.595E9 0.08624625905357519 -0.27722021208868075 0.913753740946425 0.27722021208868075 0.913753740946425 0.27722021208868075 0.08624625905357519 -0.27722021208868075
1.66975E9 0.07865432157124007 -0.2655061199869613 0.92134567842876 0.2655061199869613 0.92134567842876 0.2655061199869613 0.07865432157124007 -0.2655061199869613
1.7445E9 0.07191781556631194 -0.2544711450979594 0.9280821844336878 0.2544711450979594 0.9280821844336878 0.2544711450979594 0.07191781556631194 -0.2544711450979594
1.81925E9 0.06591734629871285 -0.24406540256543854 0.9340826537012871 0.24406540256543854 0.9340826537012871 0.24406540256543854 0.06591734629871285 -0.24406540256543854
1.894E9 0.06055306330176614 -0.23424156578541205 0.9394469366982336 0.23424156578541205 0.9394469366982336 0.23424156578541205 0.06055306330176614 -0.23424156578541205
1.96875E9 0.05574106897763143 -0.22495532069941748 0.9442589310223686 0.22495532069941748 0.9442589310223686 0.22495532069941748 0.05574106897763143 -0.22495532069941748
2.0435E9 0.05141054466294703 -0.21616553946878245 0.9485894553370532 0.21616553946878245 0.9485894553370532 0.21616553946878245 0.05141054466294703 -0.21616553946878245
2.11825E9 0.04750144275660481 -0.2078342796792831 0.9524985572433953 0.2078342796792831 0.9524985572433953 0.2078342796792831 0.04750144275660481 -0.2078342796792831
2.193E9 0.0439626261829981 -0.19992667860119262 0.9560373738170023 0.19992667860119262 0.9560373738170023 0.19992667860119262 0.0439626261829981 -0.19992667860119262
2.26775E9 0.04075036227375049 -0.1924107878316954 0.9592496377262494 0.1924107878316954 0.9592496377262494 0.1924107878316954 0.04075036227375049 -0.1924107878316954
2.3425E9 0.03782709834846541 -0.18525737763261943 0.9621729016515346 0.18525737763261943 0.9621729016515346 0.18525737763261943 0.03782709834846541 -0.18525737763261943
2.41725E9 0.03516046200443848 -0.17843972967176253 0.9648395379955613 0.17843972967176253 0.9648395379955613 0.17843972967176253 0.03516046200443848 -0.17843972967176253
2.492E9 0.03272244135011122 -0.17193342985894783 0.9672775586498891 0.17193342985894783 0.9672775586498891 0.17193342985894783 0.03272244135011122 -0.17193342985894783
2.56675E9 0.03048870991677051 -0.1657161683370643 0.9695112900832296 0.1657161683370643 0.9695112900832296 0.1657161683370643 0.03048870991677051 -0.1657161683370643
2.6415E9 0.028438068373615732 -0.1597675506483181 0.9715619316263843 0.1597675506483181 0.9715619316263843 0.1597675506483181 0.028438068373615732 -0.1597675506483181
2.71625E9 0.02655198093290959 -0.15406892211785306 0.9734480190670903 0.15406892211785306 0.9734480190670903 0.15406892211785306 0.02655198093290959 -0.15406892211785306
2.791E9 0.024814188835635364 -0.14860320622786435 0.9751858111643645 0.14860320622786435 0.9751858111643645 0.14860320622786435 0.024814188835635364 -0.14860320622786435
2.86575E9 0.023210386839521504 -0.14335475695902927 0.9767896131604786 0.14335475695902927 0.9767896131604786 0.14335475695902927 0.023210386839521504 -0.14335475695902927
2.9405E9 0.021727951409827383 -0.13830922459389444 0.9782720485901729 0.13830922459389444 0.9782720485901729 0.13830922459389444 0.021727951409827383 -0.13830922459389444
3.01525E9 0.0203557115073355 -0.13345343420213898 0.9796442884926646 0.13345343420213898 0.9796442884926646 0.13345343420213898 0.0203557115073355 -0.13345343420213898
3.09E9 0.019083754606991032 -0.12877527588861373 0.9809162453930088 0.12877527588861373 0.9809162453930088 0.12877527588861373 0.019083754606991032 -0.12877527588861373
3.16475E9 0.017903261964189076 -0.12426360583345349 0.9820967380358108 0.12426360583345349 0.9820967380358108 0.12426360583345349 0.017903261964189076 -0.12426360583345349
3.2395E9 0.016806368250697742 -0.11990815715698912 0.9831936317493023 0.11990815715698912 0.9831936317493023 0.11990815715698912 0.016806368250697742 -0.11990815715698912
3.31425E9 0.015786041568082755 -0.11569945967898107 0.9842139584319171 0.11569945967898107 0.9842139584319171 0.11569945967898107 0.015786041568082755 -0.11569945967898107
3.389E9 0.014835980559409264 -0.11162876769749075 0.9851640194405908 0.11162876769749075 0.9851640194405908 0.11162876769749075 0.014835980559409264 -0.11162876769749075
3.46375E9 0.013950525915861173 -0.10768799497804303 0.9860494740841389 0.10768799497804303 0.9860494740841389 0.10768799497804303 0.013950525915861173 -0.10768799497804303
3.5385E9 0.013124584041801281 -0.10386965621253028 0.9868754159581987 0.10386965621253028 0.9868754159581987 0.10386965621253028 0.013124584041801281 -0.10386965621253028
3.61325E9 0.012353561021690274 -0.10016681427568845 0.9876464389783096 0.10016681427568845 0.9876464389783096 0.10016681427568845 0.012353561021690274 -0.10016681427568845
3.688E9 0.011633305342497362 -0.09657303267262837 0.9883666946575026 0.09657303267262837 0.9883666946575026 0.09657303267262837 0.011633305342497362 -0.09657303267262837
3.76275E9 0.010960058079428207 -0.09308233263248485 0.9890399419205719 0.09308233263248485 0.9890399419205719 0.09308233263248485 0.010960058079428207 -0.09308233263248485
3.8375E9 0.01033040946179216 -0.08968915436010376 0.9896695905382079 0.08968915436010376 0.9896695905382079 0.08968915436010376 0.01033040946179216 -0.08968915436010376
3.91225E9 0.009741260908234664 -0.08638832200958307 0.9902587390917654 0.08638832200958307 0.9902587390917654 0.08638832200958307 0.009741260908234664 -0.08638832200958307
3.987E9 0.009189791763238812 -0.08317501199046821 0.990810208236761 0.08317501199046821 0.990810208236761 0.08317501199046821 0.009189791763238812 -0.08317501199046821
4.06175E9 0.008673430085248764 -0.08004472425967624 0.9913265699147512 0.08004472425967624 0.9913265699147512 0.08004472425967624 0.008673430085248764 -0.08004472425967624
4.1365E9 0.008189826935403339 -0.07699325629009107 0.9918101730645965 0.07699325629009107 0.9918101730645965 0.07699325629009107 0.008189826935403339 -0.07699325629009107
4.21125E9 0.0077368336982494125 -0.07401667944057928 0.9922631663017508 0.07401667944057928 0.9922631663017508 0.07401667944057928 0.0077368336982494125 -0.07401667944057928
4.286E9 0.007312482034810574 -0.07111131748228343 0.9926875179651893 0.07111131748228343 0.9926875179651893 0.07111131748228343 0.007312482034810574 -0.07111131748228343
4.36075E9 0.006914966126351737 -0.06827372706282012 0.9930850338736482 0.06827372706282012 0.9930850338736482 0.06827372706282012 0.006914966126351737 -0.06827372706282012
4.4355E9 0.00654262691600535 -0.06550067991377792 0.9934573730839945 0.06550067991377792 0.9934573730839945 0.06550067991377792 0.00654262691600535 -0.06550067991377792
4.51025E9 0.006193938096660923 -0.06278914662800311 0.9938060619033391 0.06278914662800311 0.9938060619033391 0.06278914662800311 0.006193938096660923 -0.06278914662800311
4.585E9 0.0058674936284373765 -0.06013628185186793 0.9941325063715625 0.06013628185186793 0.9941325063715625 0.06013628185186793 0.0058674936284373765 -0.06013628185186793
4.65975E9 0.005561996598699584 -0.057539410754304555 0.9944380034013005 0.057539410754304555 0.9944380034013005 0.057539410754304555 0.005561996598699584 -0.057539410754304555
4.7345E9 0.005276249262806576 -0.05499601664910222 0.9947237507371935 0.05499601664910222 0.9947237507371935 0.05499601664910222 0.005276249262806576 -0.05499601664910222
4.80925E9 0.005009144125297709 -0.05250372966001519 0.9949908558747023 0.05250372966001519 0.9949908558747023 0.05250372966001519 0.005009144125297709 -0.05250372966001519
4.884E9 0.004759655939623199 -0.05006031632981379 0.9952403440603766 0.05006031632981379 0.9952403440603766 0.05006031632981379 0.004759655939623199 -0.05006031632981379
4.95875E9 0.00452683452029387 -0.04766367008469417 0.9954731654797061 0.04766367008469417 0.9954731654797061 0.04766367008469417 0.00452683452029387 -0.04766367008469417
5.0335E9 0.004309798274868837 -0.04531180247460213 0.9956902017251313 0.04531180247460213 0.9956902017251313 0.04531180247460213 0.004309798274868837 -0.04531180247460213
5.10825E9 0.0041077283748573975 -0.04300283511814963 0.9958922716251425 0.04300283511814963 0.9958922716251425 0.04300283511814963 0.0041077283748573975 -0.04300283511814963
5.183E9 0.003919863494667099 -0.040734992288033775 0.996080136505333 0.040734992288033775 0.996080136505333 0.040734992288033775 0.003919863494667099 -0.040734992288033775
5.25775E9 0.0037454950564210655 -0.038506594079303985 0.9962545049435788 0.038506594079303985 0.9962545049435788 0.038506594079303985 0.0037454950564210655 -0.038506594079303985
5.3325E9 0.0035839629259950194 -0.036316050108564056 0.9964160370740048 0.036316050108564056 0.9964160370740048 0.036316050108564056 0.0035839629259950194 -0.036316050108564056
5.40725E9 0.0034346515121559144 -0.03416185369731264 0.9965653484878443 0.03416185369731264 0.9965653484878443 0.03416185369731264 0.0034346515121559144 -0.03416185369731264
5.482E9 0.00329698622636276 -0.03204257649719855 0.9967030137736373 0.03204257649719855 0.9967030137736373 0.03204257649719855 0.00329698622636276 -0.03204257649719855
5.55675E9 0.0031704302657361537 -0.029956863519051996 0.9968295697342638 0.029956863519051996 0.9968295697342638 0.029956863519051996 0.0031704302657361537 -0.029956863519051996
5.6315E9 0.003054481686018875 -0.02790342853120878 0.9969455183139811 0.02790342853120878 0.9969455183139811 0.02790342853120878 0.003054481686018875 -0.02790342853120878
5.70625E9 0.0029486707351222465 -0.02588104979591671 0.9970513292648778 0.02588104979591671 0.9970513292648778 0.02588104979591671 0.0029486707351222465 -0.02588104979591671
5.781E9 0.0028525574211562795 -0.023888566115549084 0.9971474425788437 0.023888566115549084 0.9971474425788437 0.023888566115549084 0.0028525574211562795 -0.023888566115549084
5.85575E9 0.002765729291738761 -0.021924873162982066 0.9972342707082612 0.021924873162982066 0.9972342707082612 0.021924873162982066 0.002765729291738761 -0.021924873162982066
5.9305E9 0.0026877994039236496 -0.01998892007285736 0.9973122005960762 0.01998892007285736 0.9973122005960762 0.01998892007285736 0.0026877994039236496 -0.01998892007285736
6.00525E9 0.0026184044663288227 -0.018079706272578107 0.9973815955336712 0.018079706272578107 0.9973815955336712 0.018079706272578107 0.0026184044663288227 -0.018079706272578107
6.08E9 0.0025572031370169326 -0.01619627853379866 0.9974427968629832 0.01619627853379866 0.9974427968629832 0.01619627853379866 0.0025572031370169326 -0.01619627853379866
6.15475E9 0.0025038744624253546 -0.014337728226893321 0.9974961255375744 0.014337728226893321 0.9974961255375744 0.014337728226893321 0.0025038744624253546 -0.014337728226893321
6.2295E9 0.00245811644418111 -0.01250318876244166 0.9975418835558189 0.01250318876244166 0.9975418835558189 0.01250318876244166 0.00245811644418111 -0.01250318876244166
6.30425E9 0.0024196447220000005 -0.01069183320517235 0.9975803552779998 0.01069183320517235 0.9975803552779998 0.01069183320517235 0.0024196447220000005 -0.01069183320517235
6.379E9 0.00238819136207773 -0.008902872047073782 0.9976118086379225 0.008902872047073782 0.9976118086379225 0.008902872047073782 0.00238819136207773 -0.008902872047073782
6.45375E9 0.0023635037414537047 -0.007135551127525645 0.9976364962585463 0.007135551127525645 0.9976364962585463 0.007135551127525645 0.0023635037414537047 -0.007135551127525645
6.5285E9 0.0023453435197819707 -0.00538914968934325 0.997654656480218 0.00538914968934325 0.997654656480218 0.00538914968934325 0.0023453435197819707 -0.00538914968934325
6.60325E9 0.002333485690792741 -0.0036629785605663432 0.9976665143092073 0.0036629785605663432 0.9976665143092073 0.0036629785605663432 0.002333485690792741 -0.0036629785605663432
6.678E9 0.002327717706484693 -0.0019563784526752696 0.9976722822935151 0.0019563784526752696 0.9976722822935151 0.0019563784526752696 0.002327717706484693 -0.0019563784526752696
6.75275E9 0.0023278386677635437 -2.6871836669196475E-4 0.9976721613322365 2.6871836669196475E-4 0.9976721613322365 2.6871836669196475E-4 0.0023278386677635437 -2.6871836669196475E-4
6.8275E9 0.002333658575845846 0.0014006059006741913 0.997666341424154 -0.0014006059006741913 0.997666341424154 -0.0014006059006741913 0.002333658575845846 0.0014006059006741913
6.90225E9 0.0023449976392868584 0.00305217315803784 0.9976550023607133 -0.00305217315803784 0.9976550023607133 -0.00305217315803784 0.0023449976392868584 0.00305217315803784
6.977E9 0.002361685631974883 0.004686538134125249 0.9976383143680253 -0.004686538134125249 0.9976383143680253 -0.004686538134125249 0.002361685631974883 0.004686538134125249
7.05175E9 0.0023835612978681873 0.006304232712429322 0.9976164387021319 -0.006304232712429322 0.9976164387021319 -0.006304232712429322 0.0023835612978681873 0.006304232712429322
7.1265E9 0.0024104717986399345 0.007905767091338417 0.99758952820136 -0.007905767091338417 0.99758952820136 -0.007905767091338417 0.0024104717986399345 0.007905767091338417
7.20125E9 0.0024422722007465467 0.00949163087490658 0.9975577277992536 -0.00949163087490658 0.9975577277992536 -0.00949163087490658 0.0024422722007465467 0.00949163087490658
7.276E9 0.0024788249987497905 0.011062294099029302 0.9975211750012503 -0.011062294099029302 0.9975211750012503 -0.011062294099029302 0.0024788249987497905 0.011062294099029302
7.35075E9 0.0025199996720065743 0.012618208197421878 0.9974800003279937 -0.012618208197421878 0.9974800003279937 -0.012618208197421878 0.0025199996720065743 0.012618208197421878
7.4255E9 0.002565672272096202 0.01415980691146085 0.997434327727904 -0.01415980691146085 0.997434327727904 -0.01415980691146085 0.002565672272096202 0.01415980691146085
7.50025E9 0.0026157250385857576 0.015687507147641475 0.9973842749614142 -0.015687507147641475 0.9973842749614142 -0.015687507147641475 0.0026157250385857576 0.015687507147641475
7.575E9 0.0026700460409429276 0.017201709786122198 0.9973299539590571 -0.017201709786122198 0.9973299539590571 -0.017201709786122198 0.0026700460409429276 0.017201709786122198
7.64975E9 0.002728528844594272 0.01870280044356783 0.9972714711554056 -0.01870280044356783 0.9972714711554056 -0.01870280044356783 0.002728528844594272 0.01870280044356783
7.7245E9 0.002791072199297877 0.020191150193267258 0.997208927800702 -0.020191150193267258 0.997208927800702 -0.020191150193267258 0.002791072199297877 0.020191150193267258
7.79925E9 0.0028575797481541127 0.021667116245282485 0.9971424202518457 -0.021667116245282485 0.9971424202518457 -0.021667116245282485 0.0028575797481541127 0.021667116245282485
7.874E9 0.0029279597557187787 0.023131042589186704 0.9970720402442813 -0.023131042589186704 0.9970720402442813 -0.023131042589186704 0.0029279597557187787 0.023131042589186704
7.94875E9 0.003002124853810374 0.024583260601763676 0.9969978751461895 -0.024583260601763676 0.9969978751461895 -0.024583260601763676 0.003002124853810374 0.024583260601763676
8.0235E9 0.003079991803719281 0.026024089621873765 0.9969200081962808 -0.026024089621873765 0.9969200081962808 -0.026024089621873765 0.003079991803719281 0.026024089621873765
8.09825E9 0.0031614812736319373 0.027453837494532694 0.996838518726368 -0.027453837494532694 0.996838518726368 -0.027453837494532694 0.0031614812736319373 0.027453837494532694
8.173E9 0.0032465176301792777 0.02887280108610921 0.9967534823698208 -0.02887280108610921 0.9967534823698208 -0.02887280108610921 0.0032465176301792777 0.02887280108610921
8.24775E9 0.003335028743105995 0.030281266772411823 0.9966649712568941 -0.030281266772411823 0.9966649712568941 -0.030281266772411823 0.003335028743105995 0.030281266772411823
8.3225E9 0.0034269458021371573 0.031679510901315176 0.9965730541978626 -0.031679510901315176 0.9965730541978626 -0.031679510901315176 0.0034269458021371573 0.031679510901315176
8.39725E9 0.003522203145191411 0.03306780023146246 0.9964777968548088 -0.03306780023146246 0.9964777968548088 -0.03306780023146246 0.003522203145191411 0.03306780023146246
8.472E9 0.0036207380971565754 0.03444639234847569 0.9963792619028433 -0.03444639234847569 0.9963792619028433 -0.03444639234847569 0.0036207380971565754 0.03444639234847569
8.54675E9 0.003722490818504336 0.03581553606001092 0.9962775091814956 -0.03581553606001092 0.9962775091814956 -0.03581553606001092 0.003722490818504336 0.03581553606001092
