!Murata Part Number: GJM0225C1E9R4BB01
!These Parameters are Measured in Series Mode Connection
!       o--ll--o
!Port1            Port2
!       o------o
!Operation Temp=25[degC], DC Bias Voltage=0[V]
!Freq. Start=100[MHz] Stop=30[GHz], 401[Steps]
!Data Generated on Feb 1, 2023
# Hz S RI R 50
!Freq.(Hz) S11(Real) S11(Imag) S21(Real) S21(Imag) S12(Real) S12(Imag) S22(Real) S22(Imag)
1.0E8 0.7410307758411832 -0.43781665783768686 0.2589692241588169 0.43781665783768686 0.2589692241588169 0.43781665783768686 0.7410307758411832 -0.43781665783768686
1.7475E8 0.4832430268115286 -0.4992750103377425 0.5167569731884714 0.4992750103377425 0.5167569731884714 0.4992750103377425 0.4832430268115286 -0.4992750103377425
2.495E8 0.31381427929159794 -0.46339977016905315 0.6861857207084019 0.46339977016905315 0.6861857207084019 0.46339977016905315 0.31381427929159794 -0.46339977016905315
3.2425E8 0.21238669227945034 -0.4081488209854466 0.7876133077205496 0.4081488209854466 0.7876133077205496 0.4081488209854466 0.21238669227945034 -0.4081488209854466
3.99E8 0.15050419587477162 -0.35650062847175834 0.8494958041252284 0.35650062847175834 0.8494958041252284 0.35650062847175834 0.15050419587477162 -0.35650062847175834
4.7375E8 0.11103280154415959 -0.31288086140725413 0.8889671984558405 0.31288086140725413 0.8889671984558405 0.31288086140725413 0.11103280154415959 -0.31288086140725413
5.485E8 0.08468387977653646 -0.2768785424626924 0.9153161202234634 0.2768785424626924 0.9153161202234634 0.2768785424626924 0.08468387977653646 -0.2768785424626924
6.2325E8 0.06636782543201607 -0.24713798309832488 0.933632174567984 0.24713798309832488 0.933632174567984 0.24713798309832488 0.06636782543201607 -0.24713798309832488
6.98E8 0.053186838362354424 -0.22235196980735328 0.9468131616376457 0.22235196980735328 0.9468131616376457 0.22235196980735328 0.053186838362354424 -0.22235196980735328
7.7275E8 0.043418600339656284 -0.20146119456158362 0.9565813996603438 0.20146119456158362 0.9565813996603438 0.20146119456158362 0.043418600339656284 -0.20146119456158362
8.475E8 0.0359968214223946 -0.1836487925772615 0.9640031785776053 0.1836487925772615 0.9640031785776053 0.1836487925772615 0.0359968214223946 -0.1836487925772615
9.2225E8 0.0302366223356799 -0.16829255097921111 0.9697633776643203 0.16829255097921111 0.9697633776643203 0.16829255097921111 0.0302366223356799 -0.16829255097921111
9.97E8 0.02568353427420975 -0.15491760835882126 0.9743164657257903 0.15491760835882126 0.9743164657257903 0.15491760835882126 0.02568353427420975 -0.15491760835882126
1.07175E9 0.02202719794903416 -0.14315872104731323 0.9779728020509657 0.14315872104731323 0.9779728020509657 0.14315872104731323 0.02202719794903416 -0.14315872104731323
1.1465E9 0.019050233239536855 -0.132732093666451 0.980949766760463 0.132732093666451 0.980949766760463 0.132732093666451 0.019050233239536855 -0.132732093666451
1.22125E9 0.01659693721733374 -0.12341480417752831 0.9834030627826662 0.12341480417752831 0.9834030627826662 0.12341480417752831 0.01659693721733374 -0.12341480417752831
1.296E9 0.0145535455854486 -0.11502983727409141 0.9854464544145514 0.11502983727409141 0.9854464544145514 0.11502983727409141 0.0145535455854486 -0.11502983727409141
1.37075E9 0.012835449571660398 -0.10743515450691073 0.9871645504283396 0.10743515450691073 0.9871645504283396 0.10743515450691073 0.012835449571660398 -0.10743515450691073
1.4455E9 0.01137871600082365 -0.10051565058358389 0.9886212839991763 0.10051565058358389 0.9886212839991763 0.10051565058358389 0.01137871600082365 -0.10051565058358389
1.52025E9 0.010134338576376765 -0.09417717756300216 0.9898656614236233 0.09417717756300216 0.9898656614236233 0.09417717756300216 0.010134338576376765 -0.09417717756300216
1.595E9 0.009064263385403754 -0.08834206020024793 0.990935736614596 0.08834206020024793 0.990935736614596 0.08834206020024793 0.009064263385403754 -0.08834206020024793
1.66975E9 0.00813859158593992 -0.08294569577425065 0.99186140841406 0.08294569577425065 0.99186140841406 0.08294569577425065 0.00813859158593992 -0.08294569577425065
1.7445E9 0.00733357835487899 -0.07793395016933714 0.9926664216451209 0.07793395016933714 0.9926664216451209 0.07793395016933714 0.00733357835487899 -0.07793395016933714
1.81925E9 0.0066301800206102525 -0.0732611443647609 0.9933698199793898 0.0732611443647609 0.9933698199793898 0.0732611443647609 0.0066301800206102525 -0.0732611443647609
1.894E9 0.006012984746006307 -0.06888848301745143 0.9939870152539938 0.06888848301745143 0.9939870152539938 0.06888848301745143 0.006012984746006307 -0.06888848301745143
1.96875E9 0.005469415591337551 -0.0647828172696245 0.9945305844086625 0.0647828172696245 0.9945305844086625 0.0647828172696245 0.005469415591337551 -0.0647828172696245
2.0435E9 0.004989129678253043 -0.060915662580662784 0.9950108703217468 0.060915662580662784 0.9950108703217468 0.060915662580662784 0.004989129678253043 -0.060915662580662784
2.11825E9 0.0045635603371596434 -0.05726241288258664 0.9954364396628402 0.05726241288258664 0.9954364396628402 0.05726241288258664 0.0045635603371596434 -0.05726241288258664
2.193E9 0.00418556473891921 -0.05380170715197673 0.9958144352610806 0.05380170715197673 0.9958144352610806 0.05380170715197673 0.00418556473891921 -0.05380170715197673
2.26775E9 0.003849150199241047 -0.05051491526478326 0.996150849800759 0.05051491526478326 0.996150849800759 0.05051491526478326 0.003849150199241047 -0.05051491526478326
2.3425E9 0.0035492597575336863 -0.047385717917287226 0.9964507402424662 0.047385717917287226 0.9964507402424662 0.047385717917287226 0.0035492597575336863 -0.047385717917287226
2.41725E9 0.003281602839942177 -0.0443997612651967 0.996718397160058 0.0443997612651967 0.996718397160058 0.0443997612651967 0.003281602839942177 -0.0443997612651967
2.492E9 0.003042520518532761 -0.04154437132026913 0.9969574794814672 0.04154437132026913 0.9969574794814672 0.04154437132026913 0.003042520518532761 -0.04154437132026913
2.56675E9 0.002828877539768634 -0.038808316450637224 0.9971711224602317 0.038808316450637224 0.9971711224602317 0.038808316450637224 0.002828877539768634 -0.038808316450637224
2.6415E9 0.0026379752282696817 -0.03618160884286308 0.9973620247717304 0.03618160884286308 0.9973620247717304 0.03618160884286308 0.0026379752282696817 -0.03618160884286308
2.71625E9 0.0024674807894673645 -0.033655337706054556 0.9975325192105325 0.033655337706054556 0.9975325192105325 0.033655337706054556 0.0024674807894673645 -0.033655337706054556
2.791E9 0.002315369584084785 -0.0312215284800586 0.9976846304159153 0.0312215284800586 0.9976846304159153 0.0312215284800586 0.002315369584084785 -0.0312215284800586
2.86575E9 0.002179877730823716 -0.028873023459613012 0.997820122269176 0.028873023459613012 0.997820122269176 0.028873023459613012 0.002179877730823716 -0.028873023459613012
2.9405E9 0.0020594629833834643 -0.026603380144530644 0.9979405370166164 0.026603380144530644 0.9979405370166164 0.026603380144530644 0.0020594629833834643 -0.026603380144530644
3.01525E9 0.0019527722753050617 -0.02440678433197142 0.9980472277246949 0.02440678433197142 0.9980472277246949 0.02440678433197142 0.0019527722753050617 -0.02440678433197142
3.09E9 0.0018586146679891752 -0.022277975525066628 0.9981413853320106 0.022277975525066628 0.9981413853320106 0.022277975525066628 0.0018586146679891752 -0.022277975525066628
3.16475E9 0.0017759387002795576 -0.02021218267604215 0.9982240612997204 0.02021218267604215 0.9982240612997204 0.02021218267604215 0.0017759387002795576 -0.02021218267604215
3.2395E9 0.0017038133417412067 -0.01820506863687742 0.9982961866582587 0.01820506863687742 0.9982961866582587 0.01820506863687742 0.0017038133417412067 -0.01820506863687742
3.31425E9 0.0016414119105551798 -0.016252681975755086 0.9983585880894451 0.016252681975755086 0.9983585880894451 0.016252681975755086 0.0016414119105551798 -0.016252681975755086
3.389E9 0.0015879984414544775 -0.014351415047921581 0.9984120015585454 0.014351415047921581 0.9984120015585454 0.014351415047921581 0.0015879984414544775 -0.014351415047921581
3.46375E9 0.0015429160872982074 -0.012497967396528102 0.9984570839127017 0.012497967396528102 0.9984570839127017 0.012497967396528102 0.0015429160872982074 -0.012497967396528102
3.5385E9 0.0015055772157131293 -0.010689313711430382 0.998494422784287 0.010689313711430382 0.998494422784287 0.010689313711430382 0.0015055772157131293 -0.010689313711430382
3.61325E9 0.0014754549242578417 -0.008922675698721275 0.9985245450757423 0.008922675698721275 0.9985245450757423 0.008922675698721275 0.0014754549242578417 -0.008922675698721275
3.688E9 0.0014520757472402117 -0.007195497316383848 0.9985479242527596 0.007195497316383848 0.9985479242527596 0.007195497316383848 0.0014520757472402117 -0.007195497316383848
3.76275E9 0.0014350133672920548 -0.005505422916168864 0.9985649866327078 0.005505422916168864 0.9985649866327078 0.005505422916168864 0.0014350133672920548 -0.005505422916168864
3.8375E9 0.0014238831771177986 -0.0038502779020113905 0.9985761168228819 0.0038502779020113905 0.9985761168228819 0.0038502779020113905 0.0014238831771177986 -0.0038502779020113905
3.91225E9 0.0014183375630685195 -0.0022280515737079887 0.9985816624369312 0.0022280515737079887 0.9985816624369312 0.0022280515737079887 0.0014183375630685195 -0.0022280515737079887
3.987E9 0.001418061803582002 -6.368818733367576E-4 0.9985819381964177 6.368818733367576E-4 0.9985819381964177 6.368818733367576E-4 0.001418061803582002 -6.368818733367576E-4
4.06175E9 0.001422770493038929 9.249582072483466E-4 0.9985772295069609 -9.249582072483466E-4 0.9985772295069609 -9.249582072483466E-4 0.001422770493038929 9.249582072483466E-4
4.1365E9 0.00143220441597437 0.0024590727651837914 0.9985677955840259 -0.0024590727651837914 0.9985677955840259 -0.0024590727651837914 0.00143220441597437 0.0024590727651837914
4.21125E9 0.00144612780845303 0.00396695385000677 0.9985538721915469 -0.00396695385000677 0.9985538721915469 -0.00396695385000677 0.00144612780845303 0.00396695385000677
4.286E9 0.0014643259532429167 0.005449991205606123 0.9985356740467569 -0.005449991205606123 0.9985356740467569 -0.005449991205606123 0.0014643259532429167 0.005449991205606123
4.36075E9 0.001486603063585365 0.0069094810238376405 0.9985133969364147 -0.0069094810238376405 0.9985133969364147 -0.0069094810238376405 0.001486603063585365 0.0069094810238376405
4.4355E9 0.0015127804171642964 0.008346633825254666 0.9984872195828356 -0.008346633825254666 0.9984872195828356 -0.008346633825254666 0.0015127804171642964 0.008346633825254666
4.51025E9 0.0015426947075688137 0.009762581567328572 0.9984573052924312 -0.009762581567328572 0.9984573052924312 -0.009762581567328572 0.0015426947075688137 0.009762581567328572
4.585E9 0.0015761965853183589 0.011158384067637287 0.9984238034146818 -0.011158384067637287 0.9984238034146818 -0.011158384067637287 0.0015761965853183589 0.011158384067637287
4.65975E9 0.0016131493645387832 0.012535034818441062 0.9983868506354613 -0.012535034818441062 0.9983868506354613 -0.012535034818441062 0.0016131493645387832 0.012535034818441062
4.7345E9 0.001653427874770852 0.01389346625955733 0.998346572125229 -0.01389346625955733 0.998346572125229 -0.01389346625955733 0.001653427874770852 0.01389346625955733
4.80925E9 0.001696917440266187 0.015234554568253643 0.9983030825597339 -0.015234554568253643 0.9983030825597339 -0.015234554568253643 0.001696917440266187 0.015234554568253643
4.884E9 0.0017435129715663955 0.016559124017802223 0.9982564870284338 -0.016559124017802223 0.9982564870284338 -0.016559124017802223 0.0017435129715663955 0.016559124017802223
4.95875E9 0.0017931181562406216 0.017867950950215126 0.9982068818437594 -0.017867950950215126 0.9982068818437594 -0.017867950950215126 0.0017931181562406216 0.017867950950215126
5.0335E9 0.0018456447374338777 0.019161767403367433 0.998154355262566 -0.019161767403367433 0.998154355262566 -0.019161767403367433 0.0018456447374338777 0.019161767403367433
5.10825E9 0.0019010118704020542 0.02044126442809926 0.998098988129598 -0.02044126442809926 0.998098988129598 -0.02044126442809926 0.0019010118704020542 0.02044126442809926
5.183E9 0.001959145548519983 0.02170709512686885 0.99804085445148 -0.02170709512686885 0.99804085445148 -0.02170709512686885 0.001959145548519983 0.02170709512686885
5.25775E9 0.002019978091380016 0.02295987744202369 0.9979800219086201 -0.02295987744202369 0.9979800219086201 -0.02295987744202369 0.002019978091380016 0.02295987744202369
5.3325E9 0.0020834476885785384 0.02420019671869504 0.9979165523114214 -0.02420019671869504 0.9979165523114214 -0.02420019671869504 0.0020834476885785384 0.02420019671869504
5.40725E9 0.0021494979936404262 0.025428608064643473 0.9978505020063597 -0.025428608064643473 0.9978505020063597 -0.025428608064643473 0.0021494979936404262 0.025428608064643473
5.482E9 0.002218077763276552 0.02664563852703731 0.9977819222367235 -0.02664563852703731 0.9977819222367235 -0.02664563852703731 0.002218077763276552 0.02664563852703731
5.55675E9 0.002289140537824235 0.02785178910409071 0.997710859462176 -0.02785178910409071 0.997710859462176 -0.02785178910409071 0.002289140537824235 0.02785178910409071
5.6315E9 0.002362644359299273 0.029047536607684058 0.9976373556407008 -0.029047536607684058 0.9976373556407008 -0.029047536607684058 0.002362644359299273 0.029047536607684058
5.70625E9 0.0024385515240035885 0.030233335391507604 0.9975614484759964 -0.030233335391507604 0.9975614484759964 -0.030233335391507604 0.0024385515240035885 0.030233335391507604
5.781E9 0.0025168283670952054 0.031409618957880775 0.9974831716329049 -0.031409618957880775 0.9974831716329049 -0.031409618957880775 0.0025168283670952054 0.031409618957880775
5.85575E9 0.002597445076946828 0.032576801455181735 0.9974025549230531 -0.032576801455181735 0.9974025549230531 -0.032576801455181735 0.002597445076946828 0.032576801455181735
5.9305E9 0.002680375537504258 0.03373527907675748 0.9973196244624957 -0.03373527907675748 0.9973196244624957 -0.03373527907675748 0.002680375537504258 0.03373527907675748
6.00525E9 0.0027655971972136264 0.034885431371252065 0.9972344028027863 -0.034885431371252065 0.9972344028027863 -0.034885431371252065 0.0027655971972136264 0.034885431371252065
6.08E9 0.0028530909634243676 0.03602762247348192 0.9971469090365753 -0.03602762247348192 0.9971469090365753 -0.03602762247348192 0.0028530909634243676 0.03602762247348192
6.15475E9 0.002942841121499327 0.037162202264284724 0.9970571588785007 -0.037162202264284724 0.9970571588785007 -0.037162202264284724 0.002942841121499327 0.037162202264284724
6.2295E9 0.003034835278181083 0.03828950746716629 0.9969651647218187 -0.03828950746716629 0.9969651647218187 -0.03828950746716629 0.003034835278181083 0.03828950746716629
6.30425E9 0.00312906432908077 0.03940986268905812 0.9968709356709194 -0.03940986268905812 0.9968709356709194 -0.03940986268905812 0.00312906432908077 0.03940986268905812
6.379E9 0.0032255224504790557 0.04052358141206967 0.9967744775495211 -0.04052358141206967 0.9967744775495211 -0.04052358141206967 0.0032255224504790557 0.04052358141206967
6.45375E9 0.003324207115965525 0.04163096694277198 0.9966757928840345 -0.04163096694277198 0.9966757928840345 -0.04163096694277198 0.003324207115965525 0.04163096694277198
6.5285E9 0.003425119138799906 0.04273231332527419 0.9965748808612002 -0.04273231332527419 0.9965748808612002 -0.04273231332527419 0.003425119138799906 0.04273231332527419
6.60325E9 0.0035282627412650553 0.043827906224154424 0.9964717372587348 -0.043827906224154424 0.9964717372587348 -0.043827906224154424 0.0035282627412650553 0.043827906224154424
6.678E9 0.00363364565270677 0.044918023783177705 0.9963663543472933 -0.044918023783177705 0.9963663543472933 -0.044918023783177705 0.00363364565270677 0.044918023783177705
6.75275E9 0.003741279238430319 0.04600293746567471 0.9962587207615697 -0.04600293746567471 0.9962587207615697 -0.04600293746567471 0.003741279238430319 0.04600293746567471
6.8275E9 0.0038511786621614123 0.047082912882472384 0.9961488213378386 -0.047082912882472384 0.9961488213378386 -0.047082912882472384 0.0038511786621614123 0.047082912882472384
6.90225E9 0.003963363085395198 0.04815821061335879 0.9960366369146049 -0.04815821061335879 0.9960366369146049 -0.04815821061335879 0.003963363085395198 0.04815821061335879
6.977E9 0.004077855907669496 0.04922908702823586 0.9959221440923305 -0.04922908702823586 0.9959221440923305 -0.04922908702823586 0.004077855907669496 0.04922908702823586
7.05175E9 0.004194685052630487 0.050295795114373903 0.9958053149473695 -0.050295795114373903 0.9958053149473695 -0.050295795114373903 0.004194685052630487 0.050295795114373903
7.1265E9 0.004313883305737418 0.05135858531653188 0.9956861166942625 -0.05135858531653188 0.9956861166942625 -0.05135858531653188 0.004313883305737418 0.05135858531653188
7.20125E9 0.004435488710611766 0.0524177063971651 0.9955645112893884 -0.0524177063971651 0.9955645112893884 -0.0524177063971651 0.004435488710611766 0.0524177063971651
7.276E9 0.0045595450324166726 0.05347340632451105 0.9954404549675834 -0.05347340632451105 0.9954404549675834 -0.05347340632451105 0.0045595450324166726 0.05347340632451105
7.35075E9 0.004686102298306475 0.05452593319704483 0.9953138977016937 -0.05452593319704483 0.9953138977016937 -0.05452593319704483 0.004686102298306475 0.05452593319704483
7.4255E9 0.00481521742697771 0.05557553621364075 0.9951847825730223 -0.05557553621364075 0.9951847825730223 -0.05557553621364075 0.00481521742697771 0.05557553621364075
7.50025E9 0.004946954961762964 0.056622466699786475 0.9950530450382371 -0.056622466699786475 0.9950530450382371 -0.056622466699786475 0.004946954961762964 0.056622466699786475
7.575E9 0.005081387924639212 0.0576669792013948 0.994918612075361 -0.0576669792013948 0.994918612075361 -0.0576669792013948 0.005081387924639212 0.0576669792013948
7.64975E9 0.005218598812101005 0.05870933265916704 0.9947814011878989 -0.05870933265916704 0.9947814011878989 -0.05870933265916704 0.005218598812101005 0.05870933265916704
7.7245E9 0.005358680758240279 0.059749791678114346 0.9946413192417597 -0.059749791678114346 0.9946413192417597 -0.059749791678114346 0.005358680758240279 0.059749791678114346
7.79925E9 0.005501738895787305 0.060788627908764464 0.9944982611042127 -0.060788627908764464 0.9944982611042127 -0.060788627908764464 0.005501738895787305 0.060788627908764464
7.874E9 0.005647891952570079 0.06182612155880767 0.9943521080474298 -0.06182612155880767 0.9943521080474298 -0.06182612155880767 0.005647891952570079 0.06182612155880767
7.94875E9 0.0057972741291885165 0.06286256305649177 0.9942027258708114 -0.06286256305649177 0.9942027258708114 -0.06286256305649177 0.0057972741291885165 0.06286256305649177
8.0235E9 0.005950037314125165 0.06389825488999581 0.9940499626858746 -0.06389825488999581 0.9940499626858746 -0.06389825488999581 0.005950037314125165 0.06389825488999581
8.09825E9 0.006106353705610388 0.06493351365029854 0.9938936462943895 -0.06493351365029854 0.9938936462943895 -0.06493351365029854 0.006106353705610388 0.06493351365029854
8.173E9 0.0062664189260967715 0.06596867230871374 0.9937335810739033 -0.06596867230871374 0.9937335810739033 -0.06596867230871374 0.0062664189260967715 0.06596867230871374
8.24775E9 0.006430455736185187 0.06700408276423274 0.9935695442638148 -0.06700408276423274 0.9935695442638148 -0.06700408276423274 0.006430455736185187 0.06700408276423274
8.3225E9 0.006598718481626372 0.06804011869998668 0.9934012815183737 -0.06804011869998668 0.9934012815183737 -0.06804011869998668 0.006598718481626372 0.06804011869998668
8.39725E9 0.006771498441383612 0.06907717879228385 0.9932285015586165 -0.06907717879228385 0.9932285015586165 -0.06907717879228385 0.006771498441383612 0.06907717879228385
8.472E9 0.006949130289081595 0.07011569031938607 0.9930508697109183 -0.07011569031938607 0.9930508697109183 -0.07011569031938607 0.006949130289081595 0.07011569031938607
