!Murata Part Number: GJM0225C1E3R3BB01
!These Parameters are Measured in Series Mode Connection
!       o--ll--o
!Port1            Port2
!       o------o
!Operation Temp=25[degC], DC Bias Voltage=0[V]
!Freq. Start=100[MHz] Stop=30[GHz], 401[Steps]
!Data Generated on Feb 1, 2023
# Hz S RI R 50
!Freq.(Hz) S11(Real) S11(Imag) S21(Real) S21(Imag) S12(Real) S12(Imag) S22(Real) S22(Imag)
1.0E8 0.9586878365879624 -0.19880670087794894 0.041312163412037584 0.19880670087794894 0.041312163412037584 0.19880670087794894 0.9586878365879624 -0.19880670087794894
1.7475E8 0.8836331295968837 -0.32030680673913964 0.11636687040311644 0.32030680673913964 0.11636687040311644 0.32030680673913964 0.8836331295968837 -0.32030680673913964
2.495E8 0.7881721690613764 -0.40809266547843853 0.21182783093862348 0.40809266547843853 0.21182783093862348 0.40809266547843853 0.7881721690613764 -0.40809266547843853
3.2425E8 0.6874619304998919 -0.4628633519260739 0.31253806950010815 0.4628633519260739 0.31253806950010815 0.4628633519260739 0.6874619304998919 -0.4628633519260739
3.99E8 0.5918048053240922 -0.49068105202101736 0.40819519467590787 0.49068105202101736 0.40819519467590787 0.49068105202101736 0.5918048053240922 -0.49068105202101736
4.7375E8 0.5064080774214892 -0.49898565946418366 0.4935919225785107 0.49898565946418366 0.4935919225785107 0.49898565946418366 0.5064080774214892 -0.49898565946418366
5.485E8 0.4328706758965316 -0.4943444788493209 0.5671293241034683 0.4943444788493209 0.5671293241034683 0.4943444788493209 0.4328706758965316 -0.4943444788493209
6.2325E8 0.37078677543271593 -0.48173056271420084 0.6292132245672839 0.48173056271420084 0.6292132245672839 0.48173056271420084 0.37078677543271593 -0.48173056271420084
6.98E8 0.3188705434070375 -0.46459669378188245 0.6811294565929624 0.46459669378188245 0.6811294565929624 0.46459669378188245 0.3188705434070375 -0.46459669378188245
7.7275E8 0.2755926286406987 -0.445212148395341 0.7244073713593011 0.445212148395341 0.7244073713593011 0.445212148395341 0.2755926286406987 -0.445212148395341
8.475E8 0.2394858835601207 -0.4250100840909623 0.7605141164398792 0.4250100840909623 0.7605141164398792 0.4250100840909623 0.2394858835601207 -0.4250100840909623
9.2225E8 0.20926499880415012 -0.4048636185974189 0.79073500119585 0.4048636185974189 0.79073500119585 0.4048636185974189 0.20926499880415012 -0.4048636185974189
9.97E8 0.1838537964744626 -0.38528252889258063 0.8161462035255374 0.38528252889258063 0.8161462035255374 0.38528252889258063 0.1838537964744626 -0.38528252889258063
1.07175E9 0.16237216604292548 -0.36654585647777144 0.8376278339570746 0.36654585647777144 0.8376278339570746 0.36654585647777144 0.16237216604292548 -0.36654585647777144
1.1465E9 0.14410875569920625 -0.348788650292889 0.8558912443007938 0.348788650292889 0.8558912443007938 0.348788650292889 0.14410875569920625 -0.348788650292889
1.22125E9 0.1284914232024346 -0.3320577412571602 0.8715085767975654 0.3320577412571602 0.8715085767975654 0.3320577412571602 0.1284914232024346 -0.3320577412571602
1.296E9 0.11506033710624154 -0.3163472257046641 0.8849396628937586 0.3163472257046641 0.8849396628937586 0.3163472257046641 0.11506033710624154 -0.3163472257046641
1.37075E9 0.10344525989914839 -0.3016208627336758 0.8965547401008516 0.3016208627336758 0.8965547401008516 0.3016208627336758 0.10344525989914839 -0.3016208627336758
1.4455E9 0.09334707764089899 -0.28782610082582116 0.9066529223591009 0.28782610082582116 0.9066529223591009 0.28782610082582116 0.09334707764089899 -0.28782610082582116
1.52025E9 0.08452308157205554 -0.2749027722226471 0.9154769184279444 0.2749027722226471 0.9154769184279444 0.2749027722226471 0.08452308157205554 -0.2749027722226471
1.595E9 0.07677536049773166 -0.26278839884766825 0.9232246395022684 0.26278839884766825 0.9232246395022684 0.26278839884766825 0.07677536049773166 -0.26278839884766825
1.66975E9 0.06994168849618201 -0.2514213499569851 0.9300583115038179 0.2514213499569851 0.9300583115038179 0.2514213499569851 0.06994168849618201 -0.2514213499569851
1.7445E9 0.06388837891428266 -0.24074264261021755 0.9361116210857173 0.24074264261021755 0.9361116210857173 0.24074264261021755 0.06388837891428266 -0.24074264261021755
1.81925E9 0.05850467343077207 -0.23069689000002624 0.941495326569228 0.23069689000002624 0.941495326569228 0.23069689000002624 0.05850467343077207 -0.23069689000002624
1.894E9 0.05369832453704408 -0.22123272033896793 0.9463016754629561 0.22123272033896793 0.9463016754629561 0.22123272033896793 0.05369832453704408 -0.22123272033896793
1.96875E9 0.0493921049315948 -0.21230287251551355 0.9506078950684052 0.21230287251551355 0.9506078950684052 0.21230287251551355 0.0493921049315948 -0.21230287251551355
2.0435E9 0.045521037642757174 -0.2038641001042145 0.9544789623572429 0.2038641001042145 0.9544789623572429 0.2038641001042145 0.045521037642757174 -0.2038641001042145
2.11825E9 0.04203018795127042 -0.19587696737296367 0.9579698120487296 0.19587696737296367 0.9579698120487296 0.19587696737296367 0.04203018795127042 -0.19587696737296367
2.193E9 0.03887289471133236 -0.18830559006289357 0.9611271052886676 0.18830559006289357 0.9611271052886676 0.18830559006289357 0.03887289471133236 -0.18830559006289357
2.26775E9 0.03600934670029996 -0.18111735381879882 0.9639906532997001 0.18111735381879882 0.9639906532997001 0.18111735381879882 0.03600934670029996 -0.18111735381879882
2.3425E9 0.033405431069722914 -0.17428263032577168 0.966594568930277 0.17428263032577168 0.966594568930277 0.17428263032577168 0.033405431069722914 -0.17428263032577168
2.41725E9 0.031031797361889612 -0.1677745029651604 0.9689682026381103 0.1677745029651604 0.9689682026381103 0.1677745029651604 0.031031797361889612 -0.1677745029651604
2.492E9 0.028863093099563482 -0.16156850853271731 0.9711369069004367 0.16156850853271731 0.9711369069004367 0.16156850853271731 0.028863093099563482 -0.16156850853271731
2.56675E9 0.026877336576688872 -0.15564239822398285 0.9731226634233113 0.15564239822398285 0.9731226634233113 0.15564239822398285 0.026877336576688872 -0.15564239822398285
2.6415E9 0.025055399878050662 -0.1499759190108517 0.9749446001219494 0.1499759190108517 0.9749446001219494 0.1499759190108517 0.025055399878050662 -0.1499759190108517
2.71625E9 0.023380580868586357 -0.14455061526820276 0.9766194191314136 0.14455061526820276 0.9766194191314136 0.14455061526820276 0.023380580868586357 -0.14455061526820276
2.791E9 0.021838247320254366 -0.13934964977220005 0.9781617526797457 0.13934964977220005 0.9781617526797457 0.13934964977220005 0.021838247320254366 -0.13934964977220005
2.86575E9 0.02041553978947785 -0.1343576427934963 0.979584460210522 0.1343576427934963 0.979584460210522 0.1343576427934963 0.02041553978947785 -0.1343576427934963
2.9405E9 0.01910112255047846 -0.12956052782521213 0.9808988774495214 0.12956052782521213 0.9808988774495214 0.12956052782521213 0.01910112255047846 -0.12956052782521213
3.01525E9 0.01788497400289648 -0.12494542243605739 0.9821150259971033 0.12494542243605739 0.9821150259971033 0.12494542243605739 0.01788497400289648 -0.12494542243605739
3.09E9 0.01675820963777644 -0.12050051277029764 0.9832417903622236 0.12050051277029764 0.9832417903622236 0.12050051277029764 0.01675820963777644 -0.12050051277029764
3.16475E9 0.015712931964687718 -0.11621495029398594 0.9842870680353124 0.11621495029398594 0.9842870680353124 0.11621495029398594 0.015712931964687718 -0.11621495029398594
3.2395E9 0.014742102851204902 -0.11207875948882705 0.9852578971487953 0.11207875948882705 0.9852578971487953 0.11207875948882705 0.014742102851204902 -0.11207875948882705
3.31425E9 0.013839434563088159 -0.10808275530714531 0.9861605654369118 0.10808275530714531 0.9861605654369118 0.10808275530714531 0.013839434563088159 -0.10808275530714531
3.389E9 0.012999296464649103 -0.10421846931497225 0.987000703535351 0.10421846931497225 0.987000703535351 0.10421846931497225 0.012999296464649103 -0.10421846931497225
3.46375E9 0.012216634879052944 -0.10047808356004695 0.9877833651209469 0.10047808356004695 0.9877833651209469 0.10047808356004695 0.012216634879052944 -0.10047808356004695
3.5385E9 0.011486904044939721 -0.09685437130459747 0.9885130959550603 0.09685437130459747 0.9885130959550603 0.09685437130459747 0.011486904044939721 -0.09685437130459747
3.61325E9 0.010806006459990395 -0.09334064385768724 0.9891939935400096 0.09334064385768724 0.9891939935400096 0.09334064385768724 0.010806006459990395 -0.09334064385768724
3.688E9 0.010170241190547566 -0.08993070282814125 0.9898297588094522 0.08993070282814125 0.9898297588094522 0.08993070282814125 0.010170241190547566 -0.08993070282814125
3.76275E9 0.009576258962194283 -0.08661879719665329 0.9904237410378058 0.08661879719665329 0.9904237410378058 0.08661879719665329 0.009576258962194283 -0.08661879719665329
3.8375E9 0.009021023039610594 -0.08339958467500679 0.9909789769603895 0.08339958467500679 0.9909789769603895 0.08339958467500679 0.009021023039610594 -0.08339958467500679
3.91225E9 0.008501775063231678 -0.08026809688197752 0.9914982249367683 0.08026809688197752 0.9914982249367683 0.08026809688197752 0.008501775063231678 -0.08026809688197752
3.987E9 0.00801600514171943 -0.07721970792009106 0.9919839948582805 0.07721970792009106 0.9919839948582805 0.07721970792009106 0.00801600514171943 -0.07721970792009106
4.06175E9 0.007561425608210172 -0.0742501059856479 0.9924385743917898 0.0742501059856479 0.9924385743917898 0.0742501059856479 0.007561425608210172 -0.0742501059856479
4.1365E9 0.007135947938867262 -0.07135526768697761 0.9928640520611329 0.07135526768697761 0.9928640520611329 0.07135526768697761 0.007135947938867262 -0.07135526768697761
4.21125E9 0.006737662407782573 -0.06853143478336202 0.9932623375922174 0.06853143478336202 0.9932623375922174 0.06853143478336202 0.006737662407782573 -0.06853143478336202
4.286E9 0.006364820115426667 -0.06577509309006 0.9936351798845735 0.06577509309006 0.9936351798845735 0.06577509309006 0.006364820115426667 -0.06577509309006
4.36075E9 0.00601581708082017 -0.06308295332389643 0.9939841829191799 0.06308295332389643 0.9939841829191799 0.06308295332389643 0.00601581708082017 -0.06308295332389643
4.4355E9 0.005689180132157331 -0.06045193368942691 0.9943108198678425 0.06045193368942691 0.9943108198678425 0.06045193368942691 0.005689180132157331 -0.06045193368942691
4.51025E9 0.005383554368195788 -0.05787914402817137 0.994616445631804 0.05787914402817137 0.994616445631804 0.05787914402817137 0.005383554368195788 -0.05787914402817137
4.585E9 0.005097691994511907 -0.05536187137320801 0.9949023080054884 0.05536187137320801 0.9949023080054884 0.05536187137320801 0.005097691994511907 -0.05536187137320801
4.65975E9 0.0048304423656726275 -0.05289756676885952 0.9951695576343274 0.05289756676885952 0.9951695576343274 0.05289756676885952 0.0048304423656726275 -0.05289756676885952
4.7345E9 0.004580743087285512 -0.05048383323057866 0.9954192569127145 0.05048383323057866 0.9954192569127145 0.05048383323057866 0.004580743087285512 -0.05048383323057866
4.80925E9 0.004347612051412504 -0.0481184147337057 0.9956523879485875 0.0481184147337057 0.9956523879485875 0.0481184147337057 0.004347612051412504 -0.0481184147337057
4.884E9 0.004130140295510155 -0.04579918613174847 0.9958698597044897 0.04579918613174847 0.9958698597044897 0.04579918613174847 0.004130140295510155 -0.04579918613174847
4.95875E9 0.003927485589338155 -0.04352414391542505 0.9960725144106619 0.04352414391542505 0.9960725144106619 0.04352414391542505 0.003927485589338155 -0.04352414391542505
5.0335E9 0.0037388666665310205 -0.04129139773307352 0.9962611333334688 0.04129139773307352 0.9962611333334688 0.04129139773307352 0.0037388666665310205 -0.04129139773307352
5.10825E9 0.0035635580280660257 -0.039099162601332824 0.996436441971934 0.039099162601332824 0.996436441971934 0.039099162601332824 0.0035635580280660257 -0.039099162601332824
5.183E9 0.003400885253942583 -0.03694575174235031 0.9965991147460573 0.03694575174235031 0.9965991147460573 0.03694575174235031 0.003400885253942583 -0.03694575174235031
5.25775E9 0.0032502207672326163 -0.034829569990302726 0.9967497792327675 0.034829569990302726 0.9967497792327675 0.034829569990302726 0.0032502207672326163 -0.034829569990302726
5.3325E9 0.0031109800014497177 -0.03274910771581494 0.9968890199985503 0.03274910771581494 0.9968890199985503 0.03274910771581494 0.0031109800014497177 -0.03274910771581494
5.40725E9 0.0029826179280715544 -0.03070293522202184 0.9970173820719285 0.03070293522202184 0.9970173820719285 0.03070293522202184 0.0029826179280715544 -0.03070293522202184
5.482E9 0.002864625906164166 -0.02868969757061217 0.9971353740938357 0.02868969757061217 0.9971353740938357 0.02868969757061217 0.002864625906164166 -0.02868969757061217
5.55675E9 0.0027565288205084857 -0.026708109800288645 0.9972434711794914 0.026708109800288645 0.9972434711794914 0.026708109800288645 0.0027565288205084857 -0.026708109800288645
5.6315E9 0.0026578824785114924 -0.024756952503735222 0.9973421175214885 0.024756952503735222 0.9973421175214885 0.024756952503735222 0.0026578824785114924 -0.024756952503735222
5.70625E9 0.002568271239575683 -0.02283506773244676 0.9974317287604245 0.02283506773244676 0.9974317287604245 0.02283506773244676 0.002568271239575683 -0.02283506773244676
5.781E9 0.0024873058535684594 -0.02094135520169899 0.9975126941464316 0.02094135520169899 0.9975126941464316 0.02094135520169899 0.0024873058535684594 -0.02094135520169899
5.85575E9 0.002414621487634666 -0.01907476877055257 0.9975853785123654 0.01907476877055257 0.9975853785123654 0.01907476877055257 0.002414621487634666 -0.01907476877055257
5.9305E9 0.002349875922879898 -0.017234313174129337 0.9976501240771202 0.017234313174129337 0.9976501240771202 0.017234313174129337 0.002349875922879898 -0.017234313174129337
6.00525E9 0.002292747904461391 -0.015419040987504481 0.9977072520955387 0.015419040987504481 0.9977072520955387 0.015419040987504481 0.002292747904461391 -0.015419040987504481
6.08E9 0.0022429356303930764 -0.013628049802448465 0.9977570643696072 0.013628049802448465 0.9977570643696072 0.013628049802448465 0.0022429356303930764 -0.013628049802448465
6.15475E9 0.002200155365932789 -0.011860479599953174 0.9977998446340671 0.011860479599953174 0.9977998446340671 0.011860479599953174 0.002200155365932789 -0.011860479599953174
6.2295E9 0.002164140171799276 -0.010115510303007962 0.9978358598282007 0.010115510303007962 0.9978358598282007 0.010115510303007962 0.002164140171799276 -0.010115510303007962
6.30425E9 0.0021346387356873837 -0.008392359495470599 0.9978653612643127 0.008392359495470599 0.9978653612643127 0.008392359495470599 0.0021346387356873837 -0.008392359495470599
6.379E9 0.00211141429763169 -0.006690280294123138 0.9978885857023683 0.006690280294123138 0.9978885857023683 0.006690280294123138 0.00211141429763169 -0.006690280294123138
6.45375E9 0.0020942436607288032 -0.005008559362127042 0.9979057563392713 0.005008559362127042 0.9979057563392713 0.005008559362127042 0.0020942436607288032 -0.005008559362127042
6.5285E9 0.0020829162795816566 -0.003346515053107739 0.9979170837204184 0.003346515053107739 0.9979170837204184 0.003346515053107739 0.0020829162795816566 -0.003346515053107739
6.60325E9 0.0020772334195882274 -0.0017034956760188509 0.9979227665804119 0.0017034956760188509 0.9979227665804119 0.0017034956760188509 0.0020772334195882274 -0.0017034956760188509
6.678E9 0.0020770073808734617 -7.887787176852252E-5 0.9979229926191268 7.887787176852252E-5 0.9979229926191268 7.887787176852252E-5 0.0020770073808734617 -7.887787176852252E-5
6.75275E9 0.0020820607812665807 0.0015279349066536349 0.9979179392187334 -0.0015279349066536349 0.9979179392187334 -0.0015279349066536349 0.0020820607812665807 0.0015279349066536349
6.8275E9 0.0020922258932649846 0.003117513818125527 0.997907774106735 -0.003117513818125527 0.997907774106735 -0.003117513818125527 0.0020922258932649846 0.003117513818125527
6.90225E9 0.0021073440304079896 0.0046904059683724325 0.9978926559695923 -0.0046904059683724325 0.9978926559695923 -0.0046904059683724325 0.0021073440304079896 0.0046904059683724325
6.977E9 0.00212726497891539 0.006247135662364643 0.9978727350210846 -0.006247135662364643 0.9978727350210846 -0.006247135662364643 0.00212726497891539 0.006247135662364643
7.05175E9 0.002151846470832775 0.007788205580007172 0.9978481535291672 -0.007788205580007172 0.9978481535291672 -0.007788205580007172 0.002151846470832775 0.007788205580007172
7.1265E9 0.0021809536952729306 0.009314097880524652 0.9978190463047271 -0.009314097880524652 0.9978190463047271 -0.009314097880524652 0.0021809536952729306 0.009314097880524652
7.20125E9 0.0022144588446548073 0.010825275240518534 0.9977855411553452 -0.010825275240518534 0.9977855411553452 -0.010825275240518534 0.0022144588446548073 0.010825275240518534
7.276E9 0.0022522406931223004 0.012322181830282074 0.9977477593068775 -0.012322181830282074 0.9977477593068775 -0.012322181830282074 0.0022522406931223004 0.012322181830282074
7.35075E9 0.0022941842045779994 0.01380524423260382 0.9977058157954221 -0.01380524423260382 0.9977058157954221 -0.01380524423260382 0.0022941842045779994 0.01380524423260382
7.4255E9 0.0023401801679949967 0.015274872307963112 0.997659819832005 -0.015274872307963112 0.997659819832005 -0.015274872307963112 0.0023401801679949967 0.015274872307963112
7.50025E9 0.002390124857875674 0.01673146000972459 0.9976098751421242 -0.01673146000972459 0.9976098751421242 -0.01673146000972459 0.002390124857875674 0.01673146000972459
7.575E9 0.0024439197179121873 0.018175386152665562 0.9975560802820878 -0.018175386152665562 0.9975560802820878 -0.018175386152665562 0.0024439197179121873 0.018175386152665562
7.64975E9 0.0025014710660714954 0.019607015137919466 0.9974985289339287 -0.019607015137919466 0.9974985289339287 -0.019607015137919466 0.0025014710660714954 0.019607015137919466
7.7245E9 0.002562689819480004 0.021026697637191574 0.9974373101805201 -0.021026697637191574 0.9974373101805201 -0.021026697637191574 0.002562689819480004 0.021026697637191574
7.79925E9 0.002627491237620701 0.02243477123889074 0.9973725087623793 -0.02243477123889074 0.9973725087623793 -0.02243477123889074 0.002627491237620701 0.02243477123889074
7.874E9 0.0026957946824807894 0.02383156105862982 0.9973042053175194 -0.02383156105862982 0.9973042053175194 -0.02383156105862982 0.0026957946824807894 0.02383156105862982
7.94875E9 0.0027675233944013493 0.0252173803163686 0.9972324766055987 -0.0252173803163686 0.9972324766055987 -0.0252173803163686 0.0027675233944013493 0.0252173803163686
8.0235E9 0.0028426042824837763 0.026592530882311845 0.9971573957175164 -0.026592530882311845 0.9971573957175164 -0.026592530882311845 0.0028426042824837763 0.026592530882311845
8.09825E9 0.0029209677285015044 0.02795730379352218 0.9970790322714985 -0.02795730379352218 0.9970790322714985 -0.02795730379352218 0.0029209677285015044 0.02795730379352218
8.173E9 0.0030025474033511363 0.029311979743073004 0.996997452596649 -0.029311979743073004 0.996997452596649 -0.029311979743073004 0.0030025474033511363 0.029311979743073004
8.24775E9 0.0030872800951547642 0.030656829543435588 0.9969127199048452 -0.030656829543435588 0.9969127199048452 -0.030656829543435588 0.0030872800951547642 0.030656829543435588
8.3225E9 0.0031751055481964515 0.031992114565679894 0.9968248944518036 -0.031992114565679894 0.9968248944518036 -0.031992114565679894 0.0031751055481964515 0.031992114565679894
8.39725E9 0.0032659663119405558 0.03331808715595866 0.9967340336880595 -0.03331808715595866 0.9967340336880595 -0.03331808715595866 0.0032659663119405558 0.03331808715595866
8.472E9 0.003359807599438843 0.03463499103064453 0.9966401924005612 -0.03463499103064453 0.9966401924005612 -0.03463499103064453 0.003359807599438843 0.03463499103064453
8.54675E9 0.003456577154487535 0.03594306165139854 0.9965434228455122 -0.03594306165139854 0.9965434228455122 -0.03594306165139854 0.003456577154487535 0.03594306165139854
