!Murata Part Number: GJM0225C1E6R1BB01
!These Parameters are Measured in Series Mode Connection
!       o--ll--o
!Port1            Port2
!       o------o
!Operation Temp=25[degC], DC Bias Voltage=0[V]
!Freq. Start=100[MHz] Stop=30[GHz], 401[Steps]
!Data Generated on Feb 1, 2023
# Hz S RI R 50
!Freq.(Hz) S11(Real) S11(Imag) S21(Real) S21(Imag) S12(Real) S12(Imag) S22(Real) S22(Imag)
1.0E8 0.8716992904400265 -0.3341750283675528 0.12830070955997355 0.3341750283675528 0.12830070955997355 0.3341750283675528 0.8716992904400265 -0.3341750283675528
1.7475E8 0.6896274191646181 -0.46220958721300787 0.3103725808353821 0.46220958721300787 0.3103725808353821 0.46220958721300787 0.6896274191646181 -0.46220958721300787
2.495E8 0.5210227689533614 -0.4989326193316325 0.4789772310466387 0.4989326193316325 0.4789772310466387 0.4989326193316325 0.5210227689533614 -0.4989326193316325
3.2425E8 0.39109398306977333 -0.48717939946534194 0.6089060169302266 0.48717939946534194 0.6089060169302266 0.48717939946534194 0.39109398306977333 -0.48717939946534194
3.99E8 0.29711717181882047 -0.45597921824093146 0.7028828281811794 0.45597921824093146 0.7028828281811794 0.45597921824093146 0.29711717181882047 -0.45597921824093146
4.7375E8 0.22993816958447258 -0.41958686215563157 0.7700618304155273 0.41958686215563157 0.7700618304155273 0.41958686215563157 0.22993816958447258 -0.41958686215563157
5.485E8 0.1814526340870084 -0.38398638846198097 0.8185473659129916 0.38398638846198097 0.8185473659129916 0.38398638846198097 0.1814526340870084 -0.38398638846198097
6.2325E8 0.14583921600917782 -0.3513338666857894 0.8541607839908223 0.3513338666857894 0.8541607839908223 0.3513338666857894 0.14583921600917782 -0.3513338666857894
6.98E8 0.11916041487641427 -0.32215653153044455 0.8808395851235857 0.32215653153044455 0.8808395851235857 0.32215653153044455 0.11916041487641427 -0.32215653153044455
7.7275E8 0.09878399655473001 -0.29633623789060937 0.9012160034452702 0.29633623789060937 0.9012160034452702 0.29633623789060937 0.09878399655473001 -0.29633623789060937
8.475E8 0.08293747698088502 -0.27353143920952605 0.9170625230191151 0.27353143920952605 0.9170625230191151 0.27353143920952605 0.08293747698088502 -0.27353143920952605
9.2225E8 0.07040933997838439 -0.2533523773555858 0.9295906600216156 0.2533523773555858 0.9295906600216156 0.2533523773555858 0.07040933997838439 -0.2533523773555858
9.97E8 0.06035669481711407 -0.23542956585519764 0.939643305182886 0.23542956585519764 0.939643305182886 0.23542956585519764 0.06035669481711407 -0.23542956585519764
1.07175E9 0.05218231269088805 -0.2194366990139588 0.947817687309112 0.2194366990139588 0.947817687309112 0.2194366990139588 0.05218231269088805 -0.2194366990139588
1.1465E9 0.04545544850761378 -0.20509461984349944 0.954544551492386 0.20509461984349944 0.954544551492386 0.20509461984349944 0.04545544850761378 -0.20509461984349944
1.22125E9 0.03986016967903904 -0.19216794535238285 0.9601398303209611 0.19216794535238285 0.9601398303209611 0.19216794535238285 0.03986016967903904 -0.19216794535238285
1.296E9 0.03516109436712823 -0.18045934971092598 0.9648389056328717 0.18045934971092598 0.9648389056328717 0.18045934971092598 0.03516109436712823 -0.18045934971092598
1.37075E9 0.03118029101064405 -0.16980359045478088 0.968819708989356 0.16980359045478088 0.968819708989356 0.16980359045478088 0.03118029101064405 -0.16980359045478088
1.4455E9 0.02778144300700682 -0.16006207505951484 0.9722185569929932 0.16006207505951484 0.9722185569929932 0.16006207505951484 0.02778144300700682 -0.16006207505951484
1.52025E9 0.024858818651013092 -0.15111820470658555 0.975141181348987 0.15111820470658555 0.975141181348987 0.15111820470658555 0.024858818651013092 -0.15111820470658555
1.595E9 0.022329470432791255 -0.14287349844017028 0.9776705295672087 0.14287349844017028 0.9776705295672087 0.14287349844017028 0.022329470432791255 -0.14287349844017028
1.66975E9 0.02012763852349032 -0.13524441357879669 0.9798723614765098 0.13524441357879669 0.9798723614765098 0.13524441357879669 0.02012763852349032 -0.13524441357879669
1.7445E9 0.018200681215928494 -0.1281597549676281 0.9817993187840717 0.1281597549676281 0.9817993187840717 0.1281597549676281 0.018200681215928494 -0.1281597549676281
1.81925E9 0.016506078172091328 -0.12155856892203068 0.9834939218279087 0.12155856892203068 0.9834939218279087 0.12155856892203068 0.016506078172091328 -0.12155856892203068
1.894E9 0.015009197496882351 -0.11538843056902276 0.9849908025031174 0.11538843056902276 0.9849908025031174 0.11538843056902276 0.015009197496882351 -0.11538843056902276
1.96875E9 0.013681613504458044 -0.10960404830293084 0.986318386495542 0.10960404830293084 0.986318386495542 0.10960404830293084 0.013681613504458044 -0.10960404830293084
2.0435E9 0.012499826221593098 -0.10416612318982608 0.987500173778407 0.10416612318982608 0.987500173778407 0.10416612318982608 0.012499826221593098 -0.10416612318982608
2.11825E9 0.011444277228011765 -0.09904041333383777 0.9885557227719882 0.09904041333383777 0.9885557227719882 0.09904041333383777 0.011444277228011765 -0.09904041333383777
2.193E9 0.010498586375173962 -0.09419696328317476 0.9895014136248262 0.09419696328317476 0.9895014136248262 0.09419696328317476 0.010498586375173962 -0.09419696328317476
2.26775E9 0.00964895476055367 -0.08960946668183757 0.9903510452394464 0.08960946668183757 0.9903510452394464 0.08960946668183757 0.00964895476055367 -0.08960946668183757
2.3425E9 0.008883694002185435 -0.08525473685474136 0.9911163059978145 0.08525473685474136 0.9911163059978145 0.08525473685474136 0.008883694002185435 -0.08525473685474136
2.41725E9 0.008192852297916166 -0.08111226514868482 0.9918071477020838 0.08111226514868482 0.9918071477020838 0.08111226514868482 0.008192852297916166 -0.08111226514868482
2.492E9 0.007567915261806271 -0.07716385090739676 0.9924320847381938 0.07716385090739676 0.9924320847381938 0.07716385090739676 0.007567915261806271 -0.07716385090739676
2.56675E9 0.007001564983194266 -0.07339329016070778 0.9929984350168057 0.07339329016070778 0.9929984350168057 0.07339329016070778 0.007001564983194266 -0.07339329016070778
2.6415E9 0.0064874847516635786 -0.06978611263808487 0.9935125152483365 0.06978611263808487 0.9935125152483365 0.06978611263808487 0.0064874847516635786 -0.06978611263808487
2.71625E9 0.006020199848012012 -0.06632935872029118 0.993979800151988 0.06632935872029118 0.993979800151988 0.06632935872029118 0.006020199848012012 -0.06632935872029118
2.791E9 0.005594947006787828 -0.06301138953375812 0.994405052993212 0.06301138953375812 0.994405052993212 0.06301138953375812 0.005594947006787828 -0.06301138953375812
2.86575E9 0.005207566814153821 -0.059821724659426125 0.9947924331858462 0.059821724659426125 0.9947924331858462 0.059821724659426125 0.005207566814153821 -0.059821724659426125
2.9405E9 0.004854414561071583 -0.056750902940705505 0.9951455854389283 0.056750902940705505 0.9951455854389283 0.056750902940705505 0.004854414561071583 -0.056750902940705505
3.01525E9 0.00453228603040168 -0.05379036268783174 0.9954677139695985 0.05379036268783174 0.9954677139695985 0.05379036268783174 0.00453228603040168 -0.05379036268783174
3.09E9 0.00423835543305495 -0.05093233823031174 0.995761644566945 0.05093233823031174 0.995761644566945 0.05093233823031174 0.00423835543305495 -0.05093233823031174
3.16475E9 0.003970123277969737 -0.048169770298201256 0.9960298767220301 0.048169770298201256 0.9960298767220301 0.048169770298201256 0.003970123277969737 -0.048169770298201256
3.2395E9 0.003725372404013023 -0.045496228142281 0.996274627595987 0.045496228142281 0.996274627595987 0.045496228142281 0.003725372404013023 -0.045496228142281
3.31425E9 0.0035021307489872464 -0.042905841652942485 0.9964978692510129 0.042905841652942485 0.9964978692510129 0.042905841652942485 0.0035021307489872464 -0.042905841652942485
3.389E9 0.0032986397042160435 -0.04039324202357611 0.9967013602957838 0.04039324202357611 0.9967013602957838 0.04039324202357611 0.0032986397042160435 -0.04039324202357611
3.46375E9 0.00311332711954768 -0.03795350973897308 0.9968866728804523 0.03795350973897308 0.9968866728804523 0.03795350973897308 0.00311332711954768 -0.03795350973897308
3.5385E9 0.0029447841958088116 -0.03558212886259526 0.9970552158041912 0.03558212886259526 0.9970552158041912 0.03558212886259526 0.0029447841958088116 -0.03558212886259526
3.61325E9 0.0027917456394686985 -0.03327494675639957 0.9972082543605314 0.03327494675639957 0.9972082543605314 0.03327494675639957 0.0027917456394686985 -0.03327494675639957
3.688E9 0.0026530725649628736 -0.031028138499488447 0.9973469274350373 0.031028138499488447 0.9973469274350373 0.031028138499488447 0.0026530725649628736 -0.031028138499488447
3.76275E9 0.002527737719494239 -0.02883817538221918 0.9974722622805059 0.02883817538221918 0.9974722622805059 0.02883817538221918 0.002527737719494239 -0.02883817538221918
3.8375E9 0.0024148126776037566 -0.026701796944566328 0.9975851873223961 0.026701796944566328 0.9975851873223961 0.026701796944566328 0.0024148126776037566 -0.026701796944566328
3.91225E9 0.002313456711826234 -0.024615986104744997 0.9976865432881737 0.024615986104744997 0.9976865432881737 0.024615986104744997 0.002313456711826234 -0.024615986104744997
3.987E9 0.0022229070940114597 -0.022577946988993194 0.9977770929059886 0.022577946988993194 0.9977770929059886 0.022577946988993194 0.0022229070940114597 -0.022577946988993194
4.06175E9 0.0021424706215133994 -0.02058508512811285 0.9978575293784868 0.02058508512811285 0.9978575293784868 0.02058508512811285 0.0021424706215133994 -0.02058508512811285
4.1365E9 0.0020715161951002526 -0.018634989732614553 0.9979284838048998 0.018634989732614553 0.9979284838048998 0.018634989732614553 0.0020715161951002526 -0.018634989732614553
4.21125E9 0.0020094683024410747 -0.016725417797524417 0.9979905316975589 0.016725417797524417 0.9979905316975589 0.016725417797524417 0.0020094683024410747 -0.016725417797524417
4.286E9 0.0019558012834349214 -0.014854279821248744 0.9980441987165652 0.014854279821248744 0.9980441987165652 0.014854279821248744 0.0019558012834349214 -0.014854279821248744
4.36075E9 0.0019100342723102639 -0.013019626951315734 0.9980899657276898 0.013019626951315734 0.9980899657276898 0.013019626951315734 0.0019100342723102639 -0.013019626951315734
4.4355E9 0.0018717267270132402 -0.01121963939410775 0.998128273272987 0.01121963939410775 0.998128273272987 0.01121963939410775 0.0018717267270132402 -0.01121963939410775
4.51025E9 0.0018404744694693286 -0.00945261594651679 0.9981595255305307 0.00945261594651679 0.9981595255305307 0.00945261594651679 0.0018404744694693286 -0.00945261594651679
4.585E9 0.0018159061712865773 -0.007716964525341421 0.9981840938287132 0.007716964525341421 0.9981840938287132 0.007716964525341421 0.0018159061712865773 -0.007716964525341421
4.65975E9 0.0017976802287282202 -0.006011193585643632 0.9982023197712715 0.006011193585643632 0.9982023197712715 0.006011193585643632 0.0017976802287282202 -0.006011193585643632
4.7345E9 0.0017854819786114046 -0.0043339043325788485 0.9982145180213885 0.0043339043325788485 0.9982145180213885 0.0043339043325788485 0.0017854819786114046 -0.0043339043325788485
4.80925E9 0.0017790212134256975 -0.002683783642711642 0.9982209787865743 0.002683783642711642 0.9982209787865743 0.002683783642711642 0.0017790212134256975 -0.002683783642711642
4.884E9 0.0017780299596067257 -0.0010595976208001064 0.9982219700403934 0.0010595976208001064 0.9982219700403934 0.0010595976208001064 0.0017780299596067257 -0.0010595976208001064
4.95875E9 0.001782260487708035 5.398142733043003E-4 0.9982177395122918 -5.398142733043003E-4 0.9982177395122918 -5.398142733043003E-4 0.001782260487708035 5.398142733043003E-4
5.0335E9 0.0017914835273216939 0.002115544585452892 0.9982085164726784 -0.002115544585452892 0.9982085164726784 -0.002115544585452892 0.0017914835273216939 0.002115544585452892
5.10825E9 0.0018054866631155933 0.0036686227669228103 0.9981945133368845 -0.0036686227669228103 0.9981945133368845 -0.0036686227669228103 0.0018054866631155933 0.0036686227669228103
5.183E9 0.0018240728913747695 0.005200019658545434 0.9981759271086252 -0.005200019658545434 0.9981759271086252 -0.005200019658545434 0.0018240728913747695 0.005200019658545434
5.25775E9 0.0018470593190316167 0.006710651599681393 0.9981529406809684 -0.006710651599681393 0.9981529406809684 -0.006710651599681393 0.0018470593190316167 0.006710651599681393
5.3325E9 0.0018742759894095694 0.008201384198062678 0.9981257240105905 -0.008201384198062678 0.9981257240105905 -0.008201384198062678 0.0018742759894095694 0.008201384198062678
5.40725E9 0.0019055648208400186 0.009673035792636902 0.9980944351791599 -0.009673035792636902 0.9980944351791599 -0.009673035792636902 0.0019055648208400186 0.009673035792636902
5.482E9 0.0019407786459878485 0.011126380638126647 0.9980592213540124 -0.011126380638126647 0.9980592213540124 -0.011126380638126647 0.0019407786459878485 0.011126380638126647
5.55675E9 0.0019797803411747165 0.012562151836999715 0.9980202196588254 -0.012562151836999715 0.9980202196588254 -0.012562151836999715 0.0019797803411747165 0.012562151836999715
5.6315E9 0.0020224420362529175 0.013981044041877506 0.9979775579637472 -0.013981044041877506 0.9979775579637472 -0.013981044041877506 0.0020224420362529175 0.013981044041877506
5.70625E9 0.0020686443966833946 0.015383715949050763 0.9979313556033165 -0.015383715949050763 0.9979313556033165 -0.015383715949050763 0.0020686443966833946 0.015383715949050763
5.781E9 0.002118275970431823 0.016770792601677822 0.9978817240295681 -0.016770792601677822 0.9978817240295681 -0.016770792601677822 0.002118275970431823 0.016770792601677822
5.85575E9 0.0021712325931362957 0.018142867519384143 0.9978287674068637 -0.018142867519384143 0.9978287674068637 -0.018142867519384143 0.0021712325931362957 0.018142867519384143
5.9305E9 0.0022274168457353536 0.019500504669330974 0.9977725831542648 -0.019500504669330974 0.9977725831542648 -0.019500504669330974 0.0022274168457353536 0.019500504669330974
6.00525E9 0.0022867375593900374 0.020844240292348975 0.9977132624406099 -0.020844240292348975 0.9977132624406099 -0.020844240292348975 0.0022867375593900374 0.020844240292348975
6.08E9 0.0023491093631003886 0.02217458459642338 0.9976508906368997 -0.02217458459642338 0.9976508906368997 -0.02217458459642338 0.0023491093631003886 0.02217458459642338
6.15475E9 0.0024144522699155605 0.023492023328644234 0.9975855477300845 -0.023492023328644234 0.9975855477300845 -0.023492023328644234 0.0024144522699155605 0.023492023328644234
6.2295E9 0.0024826912980765296 0.024797019235690606 0.9975173087019236 -0.024797019235690606 0.9975173087019236 -0.024797019235690606 0.0024826912980765296 0.024797019235690606
6.30425E9 0.00255375612381853 0.026090013421977858 0.9974462438761817 -0.026090013421977858 0.9974462438761817 -0.026090013421977858 0.00255375612381853 0.026090013421977858
6.379E9 0.0026275807629038478 0.027371426613759037 0.9973724192370962 -0.027371426613759037 0.9973724192370962 -0.027371426613759037 0.0026275807629038478 0.027371426613759037
6.45375E9 0.002704103278259547 0.02864166033671491 0.9972958967217403 -0.02864166033671491 0.9972958967217403 -0.02864166033671491 0.002704103278259547 0.02864166033671491
6.5285E9 0.0027832655113646035 0.02990109801389053 0.9972167344886355 -0.02990109801389053 0.9972167344886355 -0.02990109801389053 0.0027832655113646035 0.02990109801389053
6.60325E9 0.0028650128352704757 0.03115010599022597 0.9971349871647294 -0.03115010599022597 0.9971349871647294 -0.03115010599022597 0.0028650128352704757 0.03115010599022597
6.678E9 0.0029492939273523364 0.03238903448937841 0.9970507060726476 -0.03238903448937841 0.9970507060726476 -0.03238903448937841 0.0029492939273523364 0.03238903448937841
6.75275E9 0.003036060560078167 0.0336182185080382 0.9969639394399219 -0.0336182185080382 0.9969639394399219 -0.0336182185080382 0.003036060560078167 0.0336182185080382
6.8275E9 0.003125267408252339 0.03483797865249267 0.9968747325917475 -0.03483797865249267 0.9968747325917475 -0.03483797865249267 0.003125267408252339 0.03483797865249267
6.90225E9 0.003216871871341851 0.03604862192178863 0.9967831281286582 -0.03604862192178863 0.9967831281286582 -0.03604862192178863 0.003216871871341851 0.03604862192178863
6.977E9 0.0033108339096287486 0.03725044244147612 0.9966891660903713 -0.03725044244147612 0.9966891660903713 -0.03725044244147612 0.0033108339096287486 0.03725044244147612
7.05175E9 0.003407115893053906 0.038443722151586986 0.9965928841069459 -0.038443722151586986 0.9965928841069459 -0.038443722151586986 0.003407115893053906 0.038443722151586986
7.1265E9 0.003505682461726206 0.03962873145219925 0.9964943175382737 -0.03962873145219925 0.9964943175382737 -0.03962873145219925 0.003505682461726206 0.03962873145219925
7.20125E9 0.003606500397169283 0.04080572980966673 0.9963934996028307 -0.04080572980966673 0.9963934996028307 -0.04080572980966673 0.003606500397169283 0.04080572980966673
7.276E9 0.003709538503466165 0.04197496632634481 0.9962904614965338 -0.04197496632634481 0.9962904614965338 -0.04197496632634481 0.003709538503466165 0.04197496632634481
7.35075E9 0.003814767497541831 0.04313668027641896 0.9961852325024579 -0.04313668027641896 0.9961852325024579 -0.04313668027641896 0.003814767497541831 0.04313668027641896
7.4255E9 0.003922159907895629 0.04429110161023704 0.9960778400921043 -0.04429110161023704 0.9960778400921043 -0.04429110161023704 0.003922159907895629 0.04429110161023704
7.50025E9 0.004031689981160567 0.04543845142935977 0.9959683100188395 -0.04543845142935977 0.9959683100188395 -0.04543845142935977 0.004031689981160567 0.04543845142935977
7.575E9 0.004143333595925711 0.046578942434374784 0.9958566664040743 -0.046578942434374784 0.9958566664040743 -0.046578942434374784 0.004143333595925711 0.046578942434374784
7.64975E9 0.004257068183311567 0.047712779347363475 0.9957429318166883 -0.047712779347363475 0.9957429318166883 -0.047712779347363475 0.004257068183311567 0.047712779347363475
7.7245E9 0.004372872653837387 0.048840159310769675 0.9956271273461627 -0.048840159310769675 0.9956271273461627 -0.048840159310769675 0.004372872653837387 0.048840159310769675
7.79925E9 0.004490727330164052 0.04996127226428883 0.9955092726698359 -0.04996127226428883 0.9955092726698359 -0.04996127226428883 0.004490727330164052 0.04996127226428883
7.874E9 0.00461061388533742 0.051076301301280436 0.9953893861146627 -0.051076301301280436 0.9953893861146627 -0.051076301301280436 0.00461061388533742 0.051076301301280436
7.94875E9 0.004732515286194612 0.05218542300609679 0.9952674847138053 -0.05218542300609679 0.9952674847138053 -0.05218542300609679 0.004732515286194612 0.05218542300609679
8.0235E9 0.004856415741630876 0.05328880777362453 0.9951435842583692 -0.05328880777362453 0.9951435842583692 -0.05328880777362453 0.004856415741630876 0.05328880777362453
8.09825E9 0.004982300655456872 0.054386620112244655 0.995017699344543 -0.054386620112244655 0.995017699344543 -0.054386620112244655 0.004982300655456872 0.054386620112244655
8.173E9 0.005110156583606635 0.05547901893133513 0.9948898434163934 -0.05547901893133513 0.9948898434163934 -0.05547901893133513 0.005110156583606635 0.05547901893133513
8.24775E9 0.005239971195484684 0.0565661578143651 0.9947600288045152 -0.0565661578143651 0.9947600288045152 -0.0565661578143651 0.005239971195484684 0.0565661578143651
8.3225E9 0.005371733239267672 0.057648185278561186 0.9946282667607322 -0.057648185278561186 0.9946282667607322 -0.057648185278561186 0.005371733239267672 0.057648185278561186
8.39725E9 0.005505432511001323 0.058725245022064804 0.9944945674889988 -0.058725245022064804 0.9944945674889988 -0.058725245022064804 0.005505432511001323 0.058725245022064804
8.472E9 0.005641059827357856 0.05979747615944111 0.9943589401726419 -0.05979747615944111 0.9943589401726419 -0.05979747615944111 0.005641059827357856 0.05979747615944111
