!Murata Part Number: GJM0225C1E1R9BB01
!These Parameters are Measured in Series Mode Connection
!       o--ll--o
!Port1            Port2
!       o------o
!Operation Temp=25[degC], DC Bias Voltage=0[V]
!Freq. Start=100[MHz] Stop=30[GHz], 401[Steps]
!Data Generated on Feb 1, 2023
# Hz S RI R 50
!Freq.(Hz) S11(Real) S11(Imag) S21(Real) S21(Imag) S12(Real) S12(Imag) S22(Real) S22(Imag)
1.0E8 0.9859187200879093 -0.11770997689695976 0.014081279912090747 0.11770997689695976 0.014081279912090747 0.11770997689695976 0.9859187200879093 -0.11770997689695976
1.7475E8 0.9581908777754838 -0.1999497428418787 0.04180912222451613 0.1999497428418787 0.04180912222451613 0.1999497428418787 0.9581908777754838 -0.1999497428418787
2.495E8 0.91827025837509 -0.2736625772204624 0.0817297416249099 0.2736625772204624 0.0817297416249099 0.2736625772204624 0.91827025837509 -0.2736625772204624
3.2425E8 0.8692197705289422 -0.3367827734920727 0.1307802294710578 0.3367827734920727 0.1307802294710578 0.3367827734920727 0.8692197705289422 -0.3367827734920727
3.99E8 0.8142808162161536 -0.3884155045005118 0.1857191837838464 0.3884155045005118 0.1857191837838464 0.3884155045005118 0.8142808162161536 -0.3884155045005118
4.7375E8 0.756444966687937 -0.42867524510966715 0.24355503331206296 0.42867524510966715 0.24355503331206296 0.42867524510966715 0.756444966687937 -0.42867524510966715
5.485E8 0.6981902083459499 -0.45840338930449037 0.3018097916540501 0.45840338930449037 0.3018097916540501 0.45840338930449037 0.6981902083459499 -0.45840338930449037
6.2325E8 0.641381410310453 -0.4788669551659516 0.358618589689547 0.4788669551659516 0.358618589689547 0.4788669551659516 0.641381410310453 -0.4788669551659516
6.98E8 0.5872919049633303 -0.4915046178107477 0.4127080950366698 0.4915046178107477 0.4127080950366698 0.4915046178107477 0.5872919049633303 -0.4915046178107477
7.7275E8 0.5366927718771723 -0.4977462869161428 0.4633072281228277 0.4977462869161428 0.4633072281228277 0.4977462869161428 0.5366927718771723 -0.4977462869161428
8.475E8 0.4899661101664726 -0.49890430395143537 0.5100338898335272 0.49890430395143537 0.5100338898335272 0.49890430395143537 0.4899661101664726 -0.49890430395143537
9.2225E8 0.4472146488614318 -0.4961208985748803 0.5527853511385683 0.4961208985748803 0.5527853511385683 0.4961208985748803 0.4472146488614318 -0.4961208985748803
9.97E8 0.4083542583621113 -0.4903537391753974 0.5916457416378887 0.4903537391753974 0.5916457416378887 0.4903537391753974 0.4083542583621113 -0.4903537391753974
1.07175E9 0.37318548295772197 -0.48238403103865274 0.6268145170422782 0.48238403103865274 0.6268145170422782 0.48238403103865274 0.37318548295772197 -0.48238403103865274
1.1465E9 0.341445397999141 -0.47283591316774765 0.6585546020008591 0.47283591316774765 0.6585546020008591 0.47283591316774765 0.341445397999141 -0.47283591316774765
1.22125E9 0.3128432381225987 -0.4621999338873519 0.6871567618774013 0.4621999338873519 0.6871567618774013 0.4621999338873519 0.3128432381225987 -0.4621999338873519
1.296E9 0.28708364814193266 -0.4508564531770805 0.7129163518580675 0.4508564531770805 0.7129163518580675 0.4508564531770805 0.28708364814193266 -0.4508564531770805
1.37075E9 0.26388099729291076 -0.4390968837599786 0.7361190027070892 0.4390968837599786 0.7361190027070892 0.4390968837599786 0.26388099729291076 -0.4390968837599786
1.4455E9 0.24296751124688076 -0.4271419469759321 0.7570324887531192 0.4271419469759321 0.7570324887531192 0.4271419469759321 0.24296751124688076 -0.4271419469759321
1.52025E9 0.22409728509457555 -0.41515682686416366 0.7759027149054244 0.41515682686416366 0.7759027149054244 0.41515682686416366 0.22409728509457555 -0.41515682686416366
1.595E9 0.20704765391233132 -0.40326345960636356 0.7929523460876686 0.40326345960636356 0.7929523460876686 0.40326345960636356 0.20704765391233132 -0.40326345960636356
1.66975E9 0.19161894193376142 -0.39155034055537735 0.8083810580662385 0.39155034055537735 0.8083810580662385 0.39155034055537735 0.19161894193376142 -0.39155034055537735
1.7445E9 0.17763327627863146 -0.38008026196466765 0.8223667237213687 0.38008026196466765 0.8223667237213687 0.38008026196466765 0.17763327627863146 -0.38008026196466765
1.81925E9 0.16493291376802566 -0.3688963687538063 0.8350670862319743 0.3688963687538063 0.8350670862319743 0.3688963687538063 0.16493291376802566 -0.3688963687538063
1.894E9 0.15337836572291058 -0.35802687017962936 0.8466216342770895 0.35802687017962936 0.8466216342770895 0.35802687017962936 0.15337836572291058 -0.35802687017962936
1.96875E9 0.14284649537968794 -0.347488689868824 0.8571535046203121 0.347488689868824 0.8571535046203121 0.347488689868824 0.14284649537968794 -0.347488689868824
2.0435E9 0.1332286897454049 -0.33729028404704137 0.8667713102545953 0.33729028404704137 0.8667713102545953 0.33729028404704137 0.1332286897454049 -0.33729028404704137
2.11825E9 0.12442916060881555 -0.3274338116617554 0.8755708393911845 0.3274338116617554 0.8755708393911845 0.3274338116617554 0.12442916060881555 -0.3274338116617554
2.193E9 0.11636339964778664 -0.3179168014501184 0.8836366003522134 0.3179168014501184 0.8836366003522134 0.3179168014501184 0.11636339964778664 -0.3179168014501184
2.26775E9 0.10895679430303522 -0.30873342954502214 0.8910432056969645 0.30873342954502214 0.8910432056969645 0.30873342954502214 0.10895679430303522 -0.30873342954502214
2.3425E9 0.10214340034167281 -0.29987549608145553 0.8978565996583272 0.29987549608145553 0.8978565996583272 0.29987549608145553 0.10214340034167281 -0.29987549608145553
2.41725E9 0.09586486112877979 -0.2913331694401003 0.9041351388712201 0.2913331694401003 0.9041351388712201 0.2913331694401003 0.09586486112877979 -0.2913331694401003
2.492E9 0.09006946077507548 -0.28309555125858504 0.9099305392249246 0.28309555125858504 0.9099305392249246 0.28309555125858504 0.09006946077507548 -0.28309555125858504
2.56675E9 0.08471129735773059 -0.27515110328140735 0.9152887026422694 0.27515110328140735 0.9152887026422694 0.27515110328140735 0.08471129735773059 -0.27515110328140735
2.6415E9 0.07974956255436995 -0.2674879677759888 0.9202504374456298 0.2674879677759888 0.9202504374456298 0.2674879677759888 0.07974956255436995 -0.2674879677759888
2.71625E9 0.07514791479609759 -0.2600942060196394 0.9248520852039025 0.2600942060196394 0.9248520852039025 0.2600942060196394 0.07514791479609759 -0.2600942060196394
2.791E9 0.07087393412389185 -0.25295797378607077 0.929126065876108 0.25295797378607077 0.929126065876108 0.25295797378607077 0.07087393412389185 -0.25295797378607077
2.86575E9 0.06689864813259845 -0.24606764845726917 0.9331013518674016 0.24606764845726917 0.9331013518674016 0.24606764845726917 0.06689864813259845 -0.24606764845726917
2.9405E9 0.06319611959374678 -0.23941191906610823 0.9368038804062534 0.23941191906610823 0.9368038804062534 0.23941191906610823 0.06319611959374678 -0.23941191906610823
3.01525E9 0.05974308749773975 -0.2329798480116241 0.9402569125022602 0.2329798480116241 0.9402569125022602 0.2329798480116241 0.05974308749773975 -0.2329798480116241
3.09E9 0.05651865431410486 -0.22676091120839129 0.9434813456858951 0.22676091120839129 0.9434813456858951 0.22676091120839129 0.05651865431410486 -0.22676091120839129
3.16475E9 0.05350401322131421 -0.2207450219000253 0.9464959867786857 0.2207450219000253 0.9464959867786857 0.2207450219000253 0.05350401322131421 -0.2207450219000253
3.2395E9 0.05068220990268365 -0.21492254218150128 0.9493177900973164 0.21492254218150128 0.9493177900973164 0.21492254218150128 0.05068220990268365 -0.21492254218150128
3.31425E9 0.04803793424624392 -0.20928428535661203 0.9519620657537562 0.20928428535661203 0.9519620657537562 0.20928428535661203 0.04803793424624392 -0.20928428535661203
3.389E9 0.04555733793196532 -0.20382151154467373 0.9544426620680347 0.20382151154467373 0.9544426620680347 0.20382151154467373 0.04555733793196532 -0.20382151154467373
3.46375E9 0.043227874448631756 -0.1985259183977819 0.9567721255513681 0.1985259183977819 0.9567721255513681 0.1985259183977819 0.043227874448631756 -0.1985259183977819
3.5385E9 0.041038158564709964 -0.19338962836051793 0.9589618414352901 0.19338962836051793 0.9589618414352901 0.19338962836051793 0.041038158564709964 -0.19338962836051793
3.61325E9 0.038977842692181984 -0.18840517357029288 0.961022157307818 0.18840517357029288 0.961022157307818 0.18840517357029288 0.038977842692181984 -0.18840517357029288
3.688E9 0.03703750793827558 -0.1835654792370799 0.9629624920617242 0.1835654792370799 0.9629624920617242 0.1835654792370799 0.03703750793827558 -0.1835654792370799
3.76275E9 0.035208567945286436 -0.17886384613959733 0.9647914320547135 0.17886384613959733 0.9647914320547135 0.17886384613959733 0.035208567945286436 -0.17886384613959733
3.8375E9 0.03348318388030429 -0.17429393271826166 0.9665168161196956 0.17429393271826166 0.9665168161196956 0.17429393271826166 0.03348318388030429 -0.17429393271826166
3.91225E9 0.03185418916083064 -0.1698497371235043 0.9681458108391693 0.1698497371235043 0.9681458108391693 0.1698497371235043 0.03185418916083064 -0.1698497371235043
3.987E9 0.030315022694401474 -0.16552557948364288 0.9696849773055987 0.16552557948364288 0.9696849773055987 0.16552557948364288 0.030315022694401474 -0.16552557948364288
4.06175E9 0.028859669575055934 -0.16131608458340885 0.971140330424944 0.16131608458340885 0.971140330424944 0.16131608458340885 0.028859669575055934 -0.16131608458340885
4.1365E9 0.027482608320824654 -0.15721616508780897 0.9725173916791755 0.15721616508780897 0.9725173916791755 0.15721616508780897 0.027482608320824654 -0.15721616508780897
4.21125E9 0.026178763857768808 -0.15322100540257566 0.9738212361422312 0.15322100540257566 0.9738212361422312 0.15322100540257566 0.026178763857768808 -0.15322100540257566
4.286E9 0.02494346556041089 -0.14932604622921702 0.9750565344395892 0.14932604622921702 0.9750565344395892 0.14932604622921702 0.02494346556041089 -0.14932604622921702
4.36075E9 0.023772409748151205 -0.14552696984737046 0.9762275902518487 0.14552696984737046 0.9762275902518487 0.14552696984737046 0.023772409748151205 -0.14552696984737046
4.4355E9 0.02266162611458137 -0.1418196861380596 0.9773383738854189 0.1418196861380596 0.9773383738854189 0.1418196861380596 0.02266162611458137 -0.1418196861380596
4.51025E9 0.021607447633295765 -0.13820031934718688 0.9783925523667044 0.13820031934718688 0.9783925523667044 0.13820031934718688 0.021607447633295765 -0.13820031934718688
4.585E9 0.020606483541398327 -0.1346651955780943 0.9793935164586016 0.1346651955780943 0.9793935164586016 0.1346651955780943 0.020606483541398327 -0.1346651955780943
4.65975E9 0.019655595051711185 -0.1312108309944437 0.9803444049482886 0.1312108309944437 0.9803444049482886 0.1312108309944437 0.019655595051711185 -0.1312108309944437
4.7345E9 0.018751873487827364 -0.12783392070935826 0.9812481265121725 0.12783392070935826 0.9812481265121725 0.12783392070935826 0.018751873487827364 -0.12783392070935826
4.80925E9 0.017892620573557453 -0.12453132833320203 0.9821073794264426 0.12453132833320203 0.9821073794264426 0.12453132833320203 0.017892620573557453 -0.12453132833320203
4.884E9 0.0170753306408057 -0.12130007615014857 0.9829246693591943 0.12130007615014857 0.9829246693591943 0.12130007615014857 0.0170753306408057 -0.12130007615014857
4.95875E9 0.01629767454816372 -0.11813733589248777 0.9837023254518362 0.11813733589248777 0.9837023254518362 0.11813733589248777 0.01629767454816372 -0.11813733589248777
5.0335E9 0.015557485127115094 -0.11504042008118803 0.984442514872885 0.11504042008118803 0.984442514872885 0.11504042008118803 0.015557485127115094 -0.11504042008118803
5.10825E9 0.014852743994204389 -0.11200677390137612 0.9851472560057958 0.11200677390137612 0.9851472560057958 0.11200677390137612 0.014852743994204389 -0.11200677390137612
5.183E9 0.014181569586266981 -0.1090339675819644 0.9858184304137331 0.1090339675819644 0.9858184304137331 0.1090339675819644 0.014181569586266981 -0.1090339675819644
5.25775E9 0.013542206292209846 -0.10611968924952639 0.98645779370779 0.10611968924952639 0.98645779370779 0.10611968924952639 0.013542206292209846 -0.10611968924952639
5.3325E9 0.012933014569192377 -0.10326173822760637 0.9870669854308076 0.10326173822760637 0.9870669854308076 0.10326173822760637 0.012933014569192377 -0.10326173822760637
5.40725E9 0.012352461943650183 -0.10045801875387053 0.98764753805635 0.10045801875387053 0.98764753805635 0.10045801875387053 0.012352461943650183 -0.10045801875387053
5.482E9 0.011799114808666905 -0.09770653408881844 0.9882008851913332 0.09770653408881844 0.9882008851913332 0.09770653408881844 0.011799114808666905 -0.09770653408881844
5.55675E9 0.011271630938927923 -0.09500538099112549 0.9887283690610721 0.09500538099112549 0.9887283690610721 0.09500538099112549 0.011271630938927923 -0.09500538099112549
5.6315E9 0.010768752653058461 -0.09235274453605138 0.9892312473469413 0.09235274453605138 0.9892312473469413 0.09235274453605138 0.010768752653058461 -0.09235274453605138
5.70625E9 0.010289300560705277 -0.08974689325470442 0.9897106994392947 0.08974689325470442 0.9897106994392947 0.08974689325470442 0.010289300560705277 -0.08974689325470442
5.781E9 0.009832167838394188 -0.08718617457327522 0.9901678321616061 0.08718617457327522 0.9901678321616061 0.08718617457327522 0.009832167838394188 -0.08718617457327522
5.85575E9 0.009396314984096234 -0.08466901053263852 0.9906036850159037 0.08466901053263852 0.9906036850159037 0.08466901053263852 0.009396314984096234 -0.08466901053263852
5.9305E9 0.008980765005659162 -0.08219389376995447 0.991019234994341 0.08219389376995447 0.991019234994341 0.08219389376995447 0.008980765005659162 -0.08219389376995447
6.00525E9 0.008584599002892239 -0.07975938374508157 0.9914154009971077 0.07975938374508157 0.9914154009971077 0.07975938374508157 0.008584599002892239 -0.07975938374508157
6.08E9 0.008206952107202679 -0.07736410319573325 0.9917930478927972 0.07736410319573325 0.9917930478927972 0.07736410319573325 0.008206952107202679 -0.07736410319573325
6.15475E9 0.007847009746335372 -0.07500673480637253 0.9921529902536647 0.07500673480637253 0.9921529902536647 0.07500673480637253 0.007847009746335372 -0.07500673480637253
6.2295E9 0.0075040042050174465 -0.07268601807683794 0.9924959957949825 0.07268601807683794 0.9924959957949825 0.07268601807683794 0.0075040042050174465 -0.07268601807683794
6.30425E9 0.007177211455205332 -0.07040074637763853 0.9928227885447946 0.07040074637763853 0.9928227885447946 0.07040074637763853 0.007177211455205332 -0.07040074637763853
6.379E9 0.0068659482322140095 -0.06814976417973627 0.9931340517677861 0.06814976417973627 0.9931340517677861 0.06814976417973627 0.0068659482322140095 -0.06814976417973627
6.45375E9 0.00656956933531438 -0.0659319644474641 0.9934304306646856 0.0659319644474641 0.9934304306646856 0.0659319644474641 0.00656956933531438 -0.0659319644474641
6.5285E9 0.006287465133446024 -0.06374628618400066 0.9937125348665539 0.06374628618400066 0.9937125348665539 0.06374628618400066 0.006287465133446024 -0.06374628618400066
6.60325E9 0.006019059258537434 -0.06159171211954578 0.9939809407414625 0.06159171211954578 0.9939809407414625 0.06159171211954578 0.006019059258537434 -0.06159171211954578
6.678E9 0.005763806470578637 -0.05946726653301455 0.9942361935294215 0.05946726653301455 0.9942361935294215 0.05946726653301455 0.005763806470578637 -0.05946726653301455
6.75275E9 0.00552119068007365 -0.0573720131986966 0.9944788093199264 0.0573720131986966 0.9944788093199264 0.0573720131986966 0.00552119068007365 -0.0573720131986966
6.8275E9 0.005290723114831162 -0.055305053449911955 0.9947092768851689 0.055305053449911955 0.9947092768851689 0.055305053449911955 0.005290723114831162 -0.055305053449911955
6.90225E9 0.005071940619248189 -0.05326552435223867 0.9949280593807518 0.05326552435223867 0.9949280593807518 0.05326552435223867 0.005071940619248189 -0.05326552435223867
6.977E9 0.004864404075317894 -0.05125259697939506 0.9951355959246823 0.05125259697939506 0.9951355959246823 0.05125259697939506 0.004864404075317894 -0.05125259697939506
7.05175E9 0.004667696935562088 -0.049265474785328736 0.995332303064438 0.049265474785328736 0.995332303064438 0.049265474785328736 0.004667696935562088 -0.049265474785328736
7.1265E9 0.004481423858963101 -0.04730339206650376 0.995518576141037 0.04730339206650376 0.995518576141037 0.04730339206650376 0.004481423858963101 -0.04730339206650376
7.20125E9 0.004305209441758274 -0.04536561250878271 0.9956947905582416 0.04536561250878271 0.9956947905582416 0.04536561250878271 0.004305209441758274 -0.04536561250878271
7.276E9 0.00413869703567297 -0.04345142781367981 0.995861302964327 0.04345142781367981 0.995861302964327 0.04345142781367981 0.00413869703567297 -0.04345142781367981
7.35075E9 0.0039815476468120095 -0.041560156399110766 0.9960184523531881 0.041560156399110766 0.9960184523531881 0.041560156399110766 0.0039815476468120095 -0.041560156399110766
7.4255E9 0.00383343890901263 -0.03969114217009311 0.9961665610909873 0.03969114217009311 0.9961665610909873 0.03969114217009311 0.00383343890901263 -0.03969114217009311
7.50025E9 0.0036940641259901002 -0.03784375335515294 0.9963059358740101 0.03784375335515294 0.9963059358740101 0.03784375335515294 0.0036940641259901002 -0.03784375335515294
7.575E9 0.0035631313770858536 -0.03601738140447518 0.996436868622914 0.03601738140447518 0.996436868622914 0.03601738140447518 0.0035631313770858536 -0.03601738140447518
7.64975E9 0.003440362681862818 -0.03421143994609869 0.9965596373181371 0.03421143994609869 0.9965596373181371 0.03421143994609869 0.003440362681862818 -0.03421143994609869
7.7245E9 0.003325493219186958 -0.0324253637966979 0.9966745067808132 0.0324253637966979 0.9966745067808132 0.0324253637966979 0.003325493219186958 -0.0324253637966979
7.79925E9 0.0032182705967930643 -0.030658608023721216 0.9967817294032071 0.030658608023721216 0.9967817294032071 0.030658608023721216 0.0032182705967930643 -0.030658608023721216
7.874E9 0.0031184541676591597 -0.02891064705586563 0.9968815458323407 0.02891064705586563 0.9968815458323407 0.02891064705586563 0.0031184541676591597 -0.02891064705586563
7.94875E9 0.0030258143898111716 -0.02718097383906357 0.9969741856101886 0.02718097383906357 0.9969741856101886 0.02718097383906357 0.0030258143898111716 -0.02718097383906357
8.0235E9 0.002940132226450363 -0.02546909903533857 0.9970598677735496 0.02546909903533857 0.9970598677735496 0.02546909903533857 0.002940132226450363 -0.02546909903533857
8.09825E9 0.0028611985835431714 -0.023774550262057874 0.9971388014164567 0.023774550262057874 0.9971388014164567 0.023774550262057874 0.0028611985835431714 -0.023774550262057874
8.173E9 0.0027888137822385676 -0.02209687136926538 0.9972111862177614 0.02209687136926538 0.9972111862177614 0.02209687136926538 0.0027888137822385676 -0.02209687136926538
8.24775E9 0.0027227870636841217 -0.020435621752927347 0.9972772129363161 0.020435621752927347 0.9972772129363161 0.020435621752927347 0.0027227870636841217 -0.020435621752927347
8.3225E9 0.0026629361240002817 -0.018790375702057993 0.9973370638759996 0.018790375702057993 0.9973370638759996 0.018790375702057993 0.0026629361240002817 -0.018790375702057993
8.39725E9 0.0026090866773447567 -0.017160721777820985 0.9973909133226552 0.017160721777820985 0.9973909133226552 0.017160721777820985 0.0026090866773447567 -0.017160721777820985
8.472E9 0.0025610720451566442 -0.015546262222820921 0.9974389279548435 0.015546262222820921 0.9974389279548435 0.015546262222820921 0.0025610720451566442 -0.015546262222820921
8.54675E9 0.0025187327698145273 -0.013946612398908861 0.9974812672301856 0.013946612398908861 0.9974812672301856 0.013946612398908861 0.0025187327698145273 -0.013946612398908861
8.6215E9 0.0024819162510753908 -0.012361400251931214 0.9975180837489248 0.012361400251931214 0.9975180837489248 0.012361400251931214 0.0024819162510753908 -0.012361400251931214
