!Murata Part Number: GJM0225C1E6R7BB01
!These Parameters are Measured in Series Mode Connection
!       o--ll--o
!Port1            Port2
!       o------o
!Operation Temp=25[degC], DC Bias Voltage=0[V]
!Freq. Start=100[MHz] Stop=30[GHz], 401[Steps]
!Data Generated on Feb 1, 2023
# Hz S RI R 50
!Freq.(Hz) S11(Real) S11(Imag) S21(Real) S21(Imag) S12(Real) S12(Imag) S22(Real) S22(Imag)
1.0E8 0.8492297644043102 -0.3575928989928928 0.15077023559568972 0.3575928989928928 0.15077023559568972 0.3575928989928928 0.8492297644043102 -0.3575928989928928
1.7475E8 0.6481156173116001 -0.477151519597451 0.3518843826884 0.477151519597451 0.3518843826884 0.477151519597451 0.6481156173116001 -0.477151519597451
2.495E8 0.47411108274537395 -0.49874569487902465 0.5258889172546262 0.49874569487902465 0.5258889172546262 0.49874569487902465 0.47411108274537395 -0.49874569487902465
3.2425E8 0.3473427209542316 -0.4753619345631038 0.6526572790457684 0.4753619345631038 0.6526572790457684 0.4753619345631038 0.3473427209542316 -0.4753619345631038
3.99E8 0.2593448594764384 -0.4373269921730472 0.7406551405235617 0.4373269921730472 0.7406551405235617 0.4373269921730472 0.2593448594764384 -0.4373269921730472
4.7375E8 0.1982432394454819 -0.3975390073111463 0.8017567605545179 0.3975390073111463 0.8017567605545179 0.3975390073111463 0.1982432394454819 -0.3975390073111463
5.485E8 0.15504508756352897 -0.36061539842517815 0.8449549124364711 0.36061539842517815 0.8449549124364711 0.36061539842517815 0.15504508756352897 -0.36061539842517815
6.2325E8 0.12378521823822451 -0.32780285825773814 0.8762147817617754 0.32780285825773814 0.8762147817617754 0.32780285825773814 0.12378521823822451 -0.32780285825773814
6.98E8 0.10062469464819625 -0.2990894095336325 0.8993753053518039 0.2990894095336325 0.8993753053518039 0.2990894095336325 0.10062469464819625 -0.2990894095336325
7.7275E8 0.08308264452010493 -0.27404964466753756 0.916917355479895 0.27404964466753756 0.916917355479895 0.27404964466753756 0.08308264452010493 -0.27404964466753756
8.475E8 0.06952852936810656 -0.25216955575012556 0.9304714706318934 0.25216955575012556 0.9304714706318934 0.25216955575012556 0.06952852936810656 -0.25216955575012556
9.2225E8 0.05886772243691833 -0.23296353534867933 0.9411322775630817 0.23296353534867933 0.9411322775630817 0.23296353534867933 0.05886772243691833 -0.23296353534867933
9.97E8 0.050349029914880564 -0.21600964999044622 0.9496509700851197 0.21600964999044622 0.9496509700851197 0.21600964999044622 0.050349029914880564 -0.21600964999044622
1.07175E9 0.043445855871876125 -0.20095380785647304 0.9565541441281238 0.20095380785647304 0.9565541441281238 0.20095380785647304 0.043445855871876125 -0.20095380785647304
1.1465E9 0.03778161171023409 -0.18750311698900557 0.9622183882897657 0.18750311698900557 0.9622183882897657 0.18750311698900557 0.03778161171023409 -0.18750311698900557
1.22125E9 0.033081975281080846 -0.17541645361938818 0.9669180247189192 0.17541645361938818 0.9669180247189192 0.17541645361938818 0.033081975281080846 -0.17541645361938818
1.296E9 0.029143712488454127 -0.1644952551478626 0.9708562875115456 0.1644952551478626 0.9708562875115456 0.1644952551478626 0.029143712488454127 -0.1644952551478626
1.37075E9 0.025813909331150426 -0.15457551955147414 0.9741860906688495 0.15457551955147414 0.9741860906688495 0.15457551955147414 0.025813909331150426 -0.15457551955147414
1.4455E9 0.022975875265737317 -0.14552118973745662 0.9770241247342626 0.14552118973745662 0.9770241247342626 0.14552118973745662 0.022975875265737317 -0.14552118973745662
1.52025E9 0.020539403731725043 -0.13721880816789586 0.9794605962682748 0.13721880816789586 0.9794605962682748 0.13721880816789586 0.020539403731725043 -0.13721880816789586
1.595E9 0.018433930725592837 -0.12957324255879346 0.9815660692744073 0.12957324255879346 0.9815660692744073 0.12957324255879346 0.018433930725592837 -0.12957324255879346
1.66975E9 0.016603654457863236 -0.12250428041886748 0.983396345542137 0.12250428041886748 0.983396345542137 0.12250428041886748 0.016603654457863236 -0.12250428041886748
1.7445E9 0.015004003741907359 -0.11594391526468344 0.9849959962580926 0.11594391526468344 0.9849959962580926 0.11594391526468344 0.015004003741907359 -0.11594391526468344
1.81925E9 0.01359904815888761 -0.10983417873791326 0.9864009518411124 0.10983417873791326 0.9864009518411124 0.10983417873791326 0.01359904815888761 -0.10983417873791326
1.894E9 0.012359575233491208 -0.10412540228415765 0.9876404247665088 0.10412540228415765 0.9876404247665088 0.10412540228415765 0.012359575233491208 -0.10412540228415765
1.96875E9 0.011261646323795149 -0.09877481695197768 0.9887383536762049 0.09877481695197768 0.9887383536762049 0.09877481695197768 0.011261646323795149 -0.09877481695197768
2.0435E9 0.010285500367871101 -0.09374541995085832 0.9897144996321289 0.09374541995085832 0.9897144996321289 0.09374541995085832 0.010285500367871101 -0.09374541995085832
2.11825E9 0.00941471334516934 -0.08900505241097402 0.9905852866548307 0.08900505241097402 0.9905852866548307 0.08900505241097402 0.00941471334516934 -0.08900505241097402
2.193E9 0.008635547766914381 -0.08452564507212645 0.9913644522330857 0.08452564507212645 0.9913644522330857 0.08452564507212645 0.008635547766914381 -0.08452564507212645
2.26775E9 0.007936444824320281 -0.0802825981224068 0.9920635551756798 0.0802825981224068 0.9920635551756798 0.0802825981224068 0.007936444824320281 -0.0802825981224068
2.3425E9 0.007307624657651207 -0.07625426872959228 0.9926923753423487 0.07625426872959228 0.9926923753423487 0.07625426872959228 0.007307624657651207 -0.07625426872959228
2.41725E9 0.006740769307066027 -0.07242154545979773 0.993259230692934 0.07242154545979773 0.993259230692934 0.07242154545979773 0.006740769307066027 -0.07242154545979773
2.492E9 0.006228769425933243 -0.06876749314925602 0.9937712305740668 0.06876749314925602 0.9937712305740668 0.06876749314925602 0.006228769425933243 -0.06876749314925602
2.56675E9 0.00576552055763544 -0.06527705518705555 0.9942344794423644 0.06527705518705555 0.9942344794423644 0.06527705518705555 0.00576552055763544 -0.06527705518705555
2.6415E9 0.0053457582276990705 -0.06193680280875015 0.9946542417723009 0.06193680280875015 0.9946542417723009 0.06193680280875015 0.0053457582276990705 -0.06193680280875015
2.71625E9 0.004964923649038705 -0.058734723067482 0.9950350763509614 0.058734723067482 0.9950350763509614 0.058734723067482 0.004964923649038705 -0.058734723067482
2.791E9 0.004619053732829072 -0.05566003877316519 0.9953809462671709 0.05566003877316519 0.9953809462671709 0.05566003877316519 0.004619053732829072 -0.05566003877316519
2.86575E9 0.004304690519229268 -0.052703054972125254 0.9956953094807707 0.052703054972125254 0.9956953094807707 0.052703054972125254 0.004304690519229268 -0.052703054972125254
2.9405E9 0.004018806217317671 -0.049855027556145674 0.9959811937826825 0.049855027556145674 0.9959811937826825 0.049855027556145674 0.004018806217317671 -0.049855027556145674
3.01525E9 0.003758740862680168 -0.04710805039978344 0.9962412591373199 0.04710805039978344 0.9962412591373199 0.04710805039978344 0.003758740862680168 -0.04710805039978344
3.09E9 0.0035221502295139677 -0.0444549580730638 0.9964778497704859 0.0444549580730638 0.9964778497704859 0.0444549580730638 0.0035221502295139677 -0.0444549580730638
3.16475E9 0.0033069621194834805 -0.04188924169786166 0.9966930378805166 0.04188924169786166 0.9966930378805166 0.04188924169786166 0.0033069621194834805 -0.04188924169786166
3.2395E9 0.003111339526850929 -0.0394049759371876 0.9968886604731491 0.0394049759371876 0.9968886604731491 0.0394049759371876 0.003111339526850929 -0.0394049759371876
3.31425E9 0.0029336494744581936 -0.036996755447983296 0.9970663505255417 0.036996755447983296 0.9970663505255417 0.036996755447983296 0.0029336494744581936 -0.036996755447983296
3.389E9 0.002772436547221503 -0.034659639406091146 0.9972275634527785 0.034659639406091146 0.9972275634527785 0.034659639406091146 0.002772436547221503 -0.034659639406091146
3.46375E9 0.0026264003333669387 -0.03238910293946588 0.9973735996666331 0.03238910293946588 0.9973735996666331 0.03238910293946588 0.0026264003333669387 -0.03238910293946588
3.5385E9 0.002494376129594711 -0.030180994492414338 0.9975056238704053 0.030180994492414338 0.9975056238704053 0.030180994492414338 0.002494376129594711 -0.030180994492414338
3.61325E9 0.002375318383005436 -0.02803149829755028 0.9976246816169945 0.02803149829755028 0.9976246816169945 0.02803149829755028 0.002375318383005436 -0.02803149829755028
3.688E9 0.0022682864362916877 -0.025937101259478505 0.9977317135637085 0.025937101259478505 0.9977317135637085 0.025937101259478505 0.0022682864362916877 -0.025937101259478505
3.76275E9 0.0021724322182671975 -0.023894563659943427 0.9978275677817328 0.023894563659943427 0.9978275677817328 0.023894563659943427 0.0021724322182671975 -0.023894563659943427
3.8375E9 0.002086989583043493 -0.021900893182268965 0.9979130104169565 0.021900893182268965 0.9979130104169565 0.021900893182268965 0.002086989583043493 -0.021900893182268965
3.91225E9 0.002011265050999034 -0.019953321826562984 0.9979887349490009 0.019953321826562984 0.9979887349490009 0.019953321826562984 0.002011265050999034 -0.019953321826562984
3.987E9 0.0019446297454085246 -0.018049285348936746 0.9980553702545915 0.018049285348936746 0.9980553702545915 0.018049285348936746 0.0019446297454085246 -0.018049285348936746
4.06175E9 0.0018865123520070133 -0.016186404909970118 0.9981134876479929 0.016186404909970118 0.9981134876479929 0.016186404909970118 0.0018865123520070133 -0.016186404909970118
4.1365E9 0.0018363929562729552 -0.014362470661528974 0.9981636070437273 0.014362470661528974 0.9981636070437273 0.014362470661528974 0.0018363929562729552 -0.014362470661528974
4.21125E9 0.0017937976359498641 -0.012575427038182607 0.9982062023640501 0.012575427038182607 0.9982062023640501 0.012575427038182607 0.0017937976359498641 -0.012575427038182607
4.286E9 0.0017582937051822385 -0.010823359551003043 0.9982417062948179 0.010823359551003043 0.9982417062948179 0.010823359551003043 0.0017582937051822385 -0.010823359551003043
4.36075E9 0.0017294855223326776 -0.009104482908374479 0.9982705144776672 0.009104482908374479 0.9982705144776672 0.009104482908374479 0.0017294855223326776 -0.009104482908374479
4.4355E9 0.0017070107866474205 -0.0074171303113580635 0.9982929892133524 0.0074171303113580635 0.9982929892133524 0.0074171303113580635 0.0017070107866474205 -0.0074171303113580635
4.51025E9 0.001690537259909088 -0.005759743790773058 0.9983094627400909 0.005759743790773058 0.9983094627400909 0.005759743790773058 0.001690537259909088 -0.005759743790773058
4.585E9 0.00167975985843199 -0.004130865469985769 0.9983202401415682 0.004130865469985769 0.9983202401415682 0.004130865469985769 0.00167975985843199 -0.004130865469985769
4.65975E9 0.0016743980685205156 -0.002529129651875517 0.9983256019314796 0.002529129651875517 0.9983256019314796 0.002529129651875517 0.0016743980685205156 -0.002529129651875517
4.7345E9 0.0016741936450718564 -9.532556409295942E-4 0.9983258063549283 9.532556409295942E-4 0.9983258063549283 9.532556409295942E-4 0.0016741936450718564 -9.532556409295942E-4
4.80925E9 0.001678908558562777 5.97958777792578E-4 0.9983210914414373 -5.97958777792578E-4 0.9983210914414373 -5.97958777792578E-4 0.001678908558562777 5.97958777792578E-4
4.884E9 0.0016883231603819103 0.0021256432717421587 0.9983116768396183 -0.0021256432717421587 0.9983116768396183 -0.0021256432717421587 0.0016883231603819103 0.0021256432717421587
4.95875E9 0.0017022345404904076 0.0036308603668149344 0.9982977654595094 -0.0036308603668149344 0.9982977654595094 -0.0036308603668149344 0.0017022345404904076 0.0036308603668149344
5.0335E9 0.0017204550548271876 0.00511461037988584 0.9982795449451728 -0.00511461037988584 0.9982795449451728 -0.00511461037988584 0.0017204550548271876 0.00511461037988584
5.10825E9 0.0017428110028135113 0.006577835925542497 0.9982571889971865 -0.006577835925542497 0.9982571889971865 -0.006577835925542497 0.0017428110028135113 0.006577835925542497
5.183E9 0.0017691414378325054 0.008021426039244845 0.9982308585621674 -0.008021426039244845 0.9982308585621674 -0.008021426039244845 0.0017691414378325054 0.008021426039244845
5.25775E9 0.0017992970957267601 0.009446219954436749 0.9982007029042734 -0.009446219954436749 0.9982007029042734 -0.009446219954436749 0.0017992970957267601 0.009446219954436749
5.3325E9 0.001833139428224968 0.010853010567014558 0.9981668605717751 -0.010853010567014558 0.9981668605717751 -0.010853010567014558 0.001833139428224968 0.010853010567014558
5.40725E9 0.0018705397298216686 0.012242547616936711 0.9981294602701782 -0.012242547616936711 0.9981294602701782 -0.012242547616936711 0.0018705397298216686 0.012242547616936711
5.482E9 0.001911378348030157 0.013615540613573758 0.9980886216519699 -0.013615540613573758 0.9980886216519699 -0.013615540613573758 0.001911378348030157 0.013615540613573758
5.55675E9 0.0019555439681392213 0.014972661528589686 0.998044456031861 -0.014972661528589686 0.998044456031861 -0.014972661528589686 0.0019555439681392213 0.014972661528589686
5.6315E9 0.0020029329646563425 0.016314547277666687 0.9979970670353436 -0.016314547277666687 0.9979970670353436 -0.016314547277666687 0.0020029329646563425 0.016314547277666687
5.70625E9 0.0020534488125358557 0.017641802010193053 0.9979465511874642 -0.017641802010193053 0.9979465511874642 -0.017641802010193053 0.0020534488125358557 0.017641802010193053
5.781E9 0.002107001552089521 0.018954999224091326 0.9978929984479101 -0.018954999224091326 0.9978929984479101 -0.018954999224091326 0.002107001552089521 0.018954999224091326
5.85575E9 0.0021635073021751424 0.020254683721241153 0.9978364926978249 -0.020254683721241153 0.9978364926978249 -0.020254683721241153 0.0021635073021751424 0.020254683721241153
5.9305E9 0.0022228878168703064 0.021541373417420538 0.9977771121831299 -0.021541373417420538 0.9977771121831299 -0.021541373417420538 0.0022228878168703064 0.021541373417420538
6.00525E9 0.0022850700813745383 0.022815561019326743 0.9977149299186255 -0.022815561019326743 0.9977149299186255 -0.022815561019326743 0.0022850700813745383 0.022815561019326743
6.08E9 0.0023499859433544225 0.02407771558002451 0.9976500140566454 -0.02407771558002451 0.9976500140566454 -0.02407771558002451 0.0023499859433544225 0.02407771558002451
6.15475E9 0.00241757177636115 0.02532828394308593 0.997582428223639 -0.02532828394308593 0.997582428223639 -0.02532828394308593 0.00241757177636115 0.02532828394308593
6.2295E9 0.002487768172315818 0.02656769208471911 0.9975122318276843 -0.02656769208471911 0.9975122318276843 -0.02656769208471911 0.002487768172315818 0.02656769208471911
6.30425E9 0.0025605196603810635 0.027796346362316544 0.9974394803396189 -0.027796346362316544 0.9974394803396189 -0.027796346362316544 0.0025605196603810635 0.027796346362316544
6.379E9 0.0026357744498237985 0.02901463467707916 0.9973642255501762 -0.02901463467707916 0.9973642255501762 -0.02901463467707916 0.0026357744498237985 0.02901463467707916
6.45375E9 0.0027134841947274667 0.030222927557675815 0.9972865158052727 -0.030222927557675815 0.9972865158052727 -0.030222927557675815 0.0027134841947274667 0.030222927557675815
6.5285E9 0.002793603778637785 0.03142157917127464 0.9972063962213623 -0.03142157917127464 0.9972063962213623 -0.03142157917127464 0.002793603778637785 0.03142157917127464
6.60325E9 0.0028760911174265254 0.032610928267720454 0.9971239088825735 -0.032610928267720454 0.9971239088825735 -0.032610928267720454 0.0028760911174265254 0.032610928267720454
6.678E9 0.002960906978836978 0.033791299062127834 0.9970390930211632 -0.033791299062127834 0.9970390930211632 -0.033791299062127834 0.002960906978836978 0.033791299062127834
6.75275E9 0.0030480148173348026 0.034963002060705115 0.9969519851826654 -0.034963002060705115 0.9969519851826654 -0.034963002060705115 0.0030480148173348026 0.034963002060705115
6.8275E9 0.003137380623031374 0.03612633483421355 0.9968626193769689 -0.03612633483421355 0.9968626193769689 -0.03612633483421355 0.003137380623031374 0.03612633483421355
6.90225E9 0.0032289727835756545 0.03728158274309704 0.9967710272164245 -0.03728158274309704 0.9967710272164245 -0.03728158274309704 0.0032289727835756545 0.03728158274309704
6.977E9 0.003322761958026691 0.03842901961798306 0.9966772380419732 -0.03842901961798306 0.9966772380419732 -0.03842901961798306 0.003322761958026691 0.03842901961798306
7.05175E9 0.003418720961823868 0.039568908398954133 0.9965812790381762 -0.039568908398954133 0.9965812790381762 -0.039568908398954133 0.003418720961823868 0.039568908398954133
7.1265E9 0.0035168246620671316 0.040701501736716175 0.9964831753379328 -0.040701501736716175 0.9964831753379328 -0.040701501736716175 0.0035168246620671316 0.040701501736716175
7.20125E9 0.0036170498824062147 0.04182704255854365 0.9963829501175939 -0.04182704255854365 0.9963829501175939 -0.04182704255854365 0.0036170498824062147 0.04182704255854365
7.276E9 0.003719375316917066 0.04294576460165775 0.9962806246830829 -0.04294576460165775 0.9962806246830829 -0.04294576460165775 0.003719375316917066 0.04294576460165775
7.35075E9 0.003823781452416706 0.044057892916492765 0.9961762185475831 -0.044057892916492765 0.9961762185475831 -0.044057892916492765 0.003823781452416706 0.044057892916492765
7.4255E9 0.003930250498735055 0.04516364434212241 0.9960697495012648 -0.04516364434212241 0.9960697495012648 -0.04516364434212241 0.003930250498735055 0.04516364434212241
7.50025E9 0.004038766326525174 0.046263227955953355 0.9959612336734747 -0.046263227955953355 0.9959612336734747 -0.046263227955953355 0.004038766326525174 0.046263227955953355
7.575E9 0.0041493144122521615 0.04735684549964403 0.995850685587748 -0.04735684549964403 0.995850685587748 -0.04735684549964403 0.0041493144122521615 0.04735684549964403
7.64975E9 0.004261881790056656 0.0484446917830713 0.9957381182099433 -0.0484446917830713 0.9957381182099433 -0.0484446917830713 0.004261881790056656 0.0484446917830713
7.7245E9 0.004376457010242282 0.04952695506804838 0.9956235429897574 -0.04952695506804838 0.9956235429897574 -0.04952695506804838 0.004376457010242282 0.04952695506804838
7.79925E9 0.004493030104187412 0.050603817433385156 0.9955069698958127 -0.050603817433385156 0.9955069698958127 -0.050603817433385156 0.004493030104187412 0.050603817433385156
7.874E9 0.004611592555532114 0.05167545512278798 0.9953884074444679 -0.05167545512278798 0.9953884074444679 -0.05167545512278798 0.004611592555532114 0.05167545512278798
7.94875E9 0.004732137277540386 0.05274203887700577 0.9952678627224597 -0.05274203887700577 0.9952678627224597 -0.05274203887700577 0.004732137277540386 0.05274203887700577
8.0235E9 0.00485465859658744 0.053803734251553416 0.9951453414034128 -0.053803734251553416 0.9951453414034128 -0.053803734251553416 0.00485465859658744 0.053803734251553416
8.09825E9 0.004979152241772019 0.05486070192127486 0.995020847758228 -0.05486070192127486 0.995020847758228 -0.05486070192127486 0.004979152241772019 0.05486070192127486
8.173E9 0.005105615340705199 0.05591309797294843 0.9948943846592949 -0.05591309797294843 0.9948943846592949 -0.05591309797294843 0.005105615340705199 0.05591309797294843
8.24775E9 0.005234046421580747 0.05696107418708498 0.9947659535784192 -0.05696107418708498 0.9947659535784192 -0.05696107418708498 0.005234046421580747 0.05696107418708498
8.3225E9 0.0053644454216886595 0.05800477831002774 0.9946355545783112 -0.05800477831002774 0.9946355545783112 -0.05800477831002774 0.0053644454216886595 0.05800477831002774
8.39725E9 0.005496813702593438 0.059044354317424226 0.9945031862974067 -0.059044354317424226 0.9945031862974067 -0.059044354317424226 0.005496813702593438 0.059044354317424226
8.472E9 0.005631154072263587 0.06007994267011393 0.9943688459277366 -0.06007994267011393 0.9943688459277366 -0.06007994267011393 0.005631154072263587 0.06007994267011393
