!Murata Part Number: GJM0225C1E3R2BB01
!These Parameters are Measured in Series Mode Connection
!       o--ll--o
!Port1            Port2
!       o------o
!Operation Temp=25[degC], DC Bias Voltage=0[V]
!Freq. Start=100[MHz] Stop=30[GHz], 401[Steps]
!Data Generated on Feb 1, 2023
# Hz S RI R 50
!Freq.(Hz) S11(Real) S11(Imag) S21(Real) S21(Imag) S12(Real) S12(Imag) S22(Real) S22(Imag)
1.0E8 0.9610579586467799 -0.19325853641120067 0.03894204135322014 0.19325853641120067 0.03894204135322014 0.19325853641120067 0.9610579586467799 -0.19325853641120067
1.7475E8 0.8898160201077285 -0.3127722414317985 0.11018397989227136 0.3127722414317985 0.11018397989227136 0.3127722414317985 0.8898160201077285 -0.3127722414317985
2.495E8 0.798273532484912 -0.4007937322108477 0.2017264675150881 0.4007937322108477 0.2017264675150881 0.4007937322108477 0.798273532484912 -0.4007937322108477
3.2425E8 0.700548753693391 -0.45737340253283193 0.299451246306609 0.45737340253283193 0.299451246306609 0.45737340253283193 0.700548753693391 -0.45737340253283193
3.99E8 0.6066158818241406 -0.48770712771980973 0.3933841181758593 0.48770712771980973 0.3933841181758593 0.48770712771980973 0.6066158818241406 -0.48770712771980973
4.7375E8 0.5218277940746324 -0.4985796543643321 0.4781722059253675 0.4985796543643321 0.4781722059253675 0.4985796543643321 0.5218277940746324 -0.4985796543643321
5.485E8 0.44809991716512937 -0.49620478755448244 0.5519000828348706 0.49620478755448244 0.5519000828348706 0.49620478755448244 0.44809991716512937 -0.49620478755448244
6.2325E8 0.38533331204947113 -0.4854282654564068 0.6146666879505288 0.4854282654564068 0.6146666879505288 0.4854282654564068 0.38533331204947113 -0.4854282654564068
6.98E8 0.3324750018323579 -0.46970219035552163 0.667524998167642 0.46970219035552163 0.667524998167642 0.46970219035552163 0.3324750018323579 -0.46970219035552163
7.7275E8 0.28815078337378175 -0.4513503971423364 0.7118492166262181 0.4513503971423364 0.7118492166262181 0.4513503971423364 0.28815078337378175 -0.4513503971423364
8.475E8 0.2509879730661066 -0.4318759718781477 0.7490120269338935 0.4318759718781477 0.7490120269338935 0.4318759718781477 0.2509879730661066 -0.4318759718781477
9.2225E8 0.21975415154608297 -0.41221878891172975 0.7802458484539171 0.41221878891172975 0.7802458484539171 0.41221878891172975 0.21975415154608297 -0.41221878891172975
9.97E8 0.19339962713269845 -0.3929453892920048 0.8066003728673016 0.3929453892920048 0.8066003728673016 0.3929453892920048 0.19339962713269845 -0.3929453892920048
1.07175E9 0.1710548889575108 -0.3743803587460244 0.8289451110424891 0.3743803587460244 0.8289451110424891 0.3743803587460244 0.1710548889575108 -0.3743803587460244
1.1465E9 0.15201009022154147 -0.3566941338604014 0.8479899097784588 0.3566941338604014 0.8479899097784588 0.3566941338604014 0.15201009022154147 -0.3566941338604014
1.22125E9 0.1356896962652106 -0.33996053759958905 0.8643103037347895 0.33996053759958905 0.8643103037347895 0.33996053759958905 0.1356896962652106 -0.33996053759958905
1.296E9 0.12162809599650458 -0.3241940328419109 0.8783719040034953 0.3241940328419109 0.8783719040034953 0.3241940328419109 0.12162809599650458 -0.3241940328419109
1.37075E9 0.10944834080223974 -0.3093736481769872 0.8905516591977602 0.3093736481769872 0.8905516591977602 0.3093736481769872 0.10944834080223974 -0.3093736481769872
1.4455E9 0.09884448764616238 -0.2954582358315606 0.9011555123538377 0.2954582358315606 0.9011555123538377 0.2954582358315606 0.09884448764616238 -0.2954582358315606
1.52025E9 0.08956731060086243 -0.28239612248187257 0.9104326893991378 0.28239612248187257 0.9104326893991378 0.28239612248187257 0.08956731060086243 -0.28239612248187257
1.595E9 0.08141289853209004 -0.2701311433019013 0.9185871014679099 0.2701311433019013 0.9185871014679099 0.2701311433019013 0.08141289853209004 -0.2701311433019013
1.66975E9 0.0742136196364971 -0.2586063478419719 0.9257863803635029 0.2586063478419719 0.9257863803635029 0.2586063478419719 0.0742136196364971 -0.2586063478419719
1.7445E9 0.06783098127399376 -0.24776621095563411 0.9321690187260061 0.24776621095563411 0.9321690187260061 0.24776621095563411 0.06783098127399376 -0.24776621095563411
1.81925E9 0.06214998781890793 -0.23755788773100026 0.937850012181092 0.23755788773100026 0.937850012181092 0.23755788773100026 0.06214998781890793 -0.23755788773100026
1.894E9 0.05707467461751984 -0.22793186135829038 0.9429253253824802 0.22793186135829038 0.9429253253824802 0.22793186135829038 0.05707467461751984 -0.22793186135829038
1.96875E9 0.05252456277127736 -0.21884220998832954 0.9474754372287226 0.21884220998832954 0.9474754372287226 0.21884220998832954 0.05252456277127736 -0.21884220998832954
2.0435E9 0.048431834718454046 -0.2102466389914015 0.9515681652815459 0.2102466389914015 0.9515681652815459 0.2102466389914015 0.048431834718454046 -0.2102466389914015
2.11825E9 0.04473907486103407 -0.20210637326237307 0.9552609251389659 0.20210637326237307 0.9552609251389659 0.20210637326237307 0.04473907486103407 -0.20210637326237307
2.193E9 0.04139745428010607 -0.19438597049086115 0.958602545719894 0.19438597049086115 0.958602545719894 0.19438597049086115 0.04139745428010607 -0.19438597049086115
2.26775E9 0.03836526563381374 -0.1870530942981244 0.9616347343661863 0.1870530942981244 0.9616347343661863 0.1870530942981244 0.03836526563381374 -0.1870530942981244
2.3425E9 0.035606735239802886 -0.18007827175713578 0.9643932647601972 0.18007827175713578 0.9643932647601972 0.18007827175713578 0.035606735239802886 -0.18007827175713578
2.41725E9 0.033091055463734045 -0.17343465041920741 0.966908944536266 0.17343465041920741 0.966908944536266 0.17343465041920741 0.033091055463734045 -0.17343465041920741
2.492E9 0.03079159295938319 -0.167097763853362 0.9692084070406168 0.167097763853362 0.9692084070406168 0.167097763853362 0.03079159295938319 -0.167097763853362
2.56675E9 0.0286852378924605 -0.1610453107424529 0.9713147621075395 0.1610453107424529 0.9713147621075395 0.1610453107424529 0.0286852378924605 -0.1610453107424529
2.6415E9 0.026751866693547188 -0.15525695003756199 0.9732481333064528 0.15525695003756199 0.9732481333064528 0.15525695003756199 0.026751866693547188 -0.15525695003756199
2.71625E9 0.024973896634605367 -0.1497141130652069 0.9750261033653946 0.1497141130652069 0.9750261033653946 0.1497141130652069 0.024973896634605367 -0.1497141130652069
2.791E9 0.023335914996852516 -0.14439983249035174 0.9766640850031477 0.14439983249035174 0.9766640850031477 0.14439983249035174 0.023335914996852516 -0.14439983249035174
2.86575E9 0.02182436909124404 -0.1392985874500971 0.9781756309087559 0.1392985874500971 0.9781756309087559 0.1392985874500971 0.02182436909124404 -0.1392985874500971
2.9405E9 0.02042730613157149 -0.13439616384743353 0.9795726938684286 0.13439616384743353 0.9795726938684286 0.13439616384743353 0.02042730613157149 -0.13439616384743353
3.01525E9 0.01913415411588155 -0.12967952863808677 0.9808658458841184 0.12967952863808677 0.9808658458841184 0.12967952863808677 0.01913415411588155 -0.12967952863808677
3.09E9 0.017935536575570985 -0.12513671689417297 0.9820644634244289 0.12513671689417297 0.9820644634244289 0.12513671689417297 0.017935536575570985 -0.12513671689417297
3.16475E9 0.016823115403408195 -0.12075673044502205 0.9831768845965918 0.12075673044502205 0.9831768845965918 0.12075673044502205 0.016823115403408195 -0.12075673044502205
3.2395E9 0.015789457048866192 -0.11652944695104228 0.984210542951134 0.11652944695104228 0.984210542951134 0.11652944695104228 0.015789457048866192 -0.11652944695104228
3.31425E9 0.01482791823083041 -0.11244553834318681 0.9851720817691694 0.11244553834318681 0.9851720817691694 0.11244553834318681 0.01482791823083041 -0.11244553834318681
3.389E9 0.013932548009807382 -0.10849639764702435 0.9860674519901927 0.10849639764702435 0.9860674519901927 0.10849639764702435 0.013932548009807382 -0.10849639764702435
3.46375E9 0.013098003619770813 -0.10467407329938233 0.9869019963802291 0.10467407329938233 0.9869019963802291 0.10467407329938233 0.013098003619770813 -0.10467407329938233
3.5385E9 0.012319477911431464 -0.10097121015258595 0.9876805220885684 0.10097121015258595 0.9876805220885684 0.10097121015258595 0.012319477911431464 -0.10097121015258595
3.61325E9 0.011592636625651326 -0.09738099644385811 0.9884073633743486 0.09738099644385811 0.9884073633743486 0.09738099644385811 0.011592636625651326 -0.09738099644385811
3.688E9 0.010913564014925882 -0.09389711608410173 0.9890864359850742 0.09389711608410173 0.9890864359850742 0.09389711608410173 0.010913564014925882 -0.09389711608410173
3.76275E9 0.010278715575703645 -0.09051370569044069 0.9897212844242963 0.09051370569044069 0.9897212844242963 0.09051370569044069 0.010278715575703645 -0.09051370569044069
3.8375E9 0.009684876855375767 -0.0872253158504496 0.9903151231446241 0.0872253158504496 0.9903151231446241 0.0872253158504496 0.009684876855375767 -0.0872253158504496
3.91225E9 0.009129127463438476 -0.08402687616313893 0.9908708725365614 0.08402687616313893 0.9908708725365614 0.08402687616313893 0.009129127463438476 -0.08402687616313893
3.987E9 0.008608809553290072 -0.08091366365285507 0.99139119044671 0.08091366365285507 0.99139119044671 0.08091366365285507 0.008608809553290072 -0.08091366365285507
4.06175E9 0.008121500154711336 -0.07788127419775304 0.9918784998452885 0.07788127419775304 0.9918784998452885 0.07788127419775304 0.008121500154711336 -0.07788127419775304
4.1365E9 0.007664986831577282 -0.07492559665490499 0.9923350131684228 0.07492559665490499 0.9923350131684228 0.07492559665490499 0.007664986831577282 -0.07492559665490499
4.21125E9 0.007237246218205073 -0.07204278939990727 0.9927627537817947 0.07204278939990727 0.9927627537817947 0.07204278939990727 0.007237246218205073 -0.07204278939990727
4.286E9 0.006836425053743096 -0.06922925903053212 0.9931635749462568 0.06922925903053212 0.9931635749462568 0.06922925903053212 0.006836425053743096 -0.06922925903053212
4.36075E9 0.006460823389402435 -0.06648164101197161 0.9935391766105978 0.06648164101197161 0.9935391766105978 0.06648164101197161 0.006460823389402435 -0.06648164101197161
4.4355E9 0.0061088796899605785 -0.06379678206597025 0.9938911203100396 0.06379678206597025 0.9938911203100396 0.06379678206597025 0.0061088796899605785 -0.06379678206597025
4.51025E9 0.005779157590320152 -0.06117172412799845 0.9942208424096799 0.06117172412799845 0.9942208424096799 0.06117172412799845 0.005779157590320152 -0.06117172412799845
4.585E9 0.0054703341012075305 -0.058603689715930454 0.9945296658987923 0.058603689715930454 0.9945296658987923 0.058603689715930454 0.0054703341012075305 -0.058603689715930454
4.65975E9 0.005181189086349359 -0.05609006857075313 0.9948188109136505 0.05609006857075313 0.9948188109136505 0.05609006857075313 0.005181189086349359 -0.05609006857075313
4.7345E9 0.00491059585749482 -0.05362840544491479 0.9950894041425051 0.05362840544491479 0.9950894041425051 0.05362840544491479 0.00491059585749482 -0.05362840544491479
4.80925E9 0.004657512754139265 -0.051216388927265516 0.9953424872458608 0.051216388927265516 0.9953424872458608 0.051216388927265516 0.004657512754139265 -0.051216388927265516
4.884E9 0.004420975592313589 -0.04885184120534673 0.9955790244076864 0.04885184120534673 0.9955790244076864 0.04885184120534673 0.004420975592313589 -0.04885184120534673
4.95875E9 0.004200090881801575 -0.04653270867624843 0.9957999091181984 0.04653270867624843 0.9957999091181984 0.04653270867624843 0.004200090881801575 -0.04653270867624843
5.0335E9 0.0039940297240225985 -0.04425705332652076 0.9960059702759776 0.04425705332652076 0.9960059702759776 0.04425705332652076 0.0039940297240225985 -0.04425705332652076
5.10825E9 0.0038020223138950883 -0.0420230448098553 0.996197977686105 0.0420230448098553 0.996197977686105 0.0420230448098553 0.0038020223138950883 -0.0420230448098553
5.183E9 0.0036233529785469508 -0.03982895315855468 0.996376647021453 0.03982895315855468 0.996376647021453 0.03982895315855468 0.0036233529785469508 -0.03982895315855468
5.25775E9 0.0034573556939913614 -0.037673142071303324 0.9965426443060087 0.037673142071303324 0.9965426443060087 0.037673142071303324 0.0034573556939913614 -0.037673142071303324
5.3325E9 0.003303410028030157 -0.035554062725530126 0.9966965899719699 0.035554062725530126 0.9966965899719699 0.035554062725530126 0.003303410028030157 -0.035554062725530126
5.40725E9 0.0031609374638440946 -0.033470248067801106 0.9968390625361558 0.033470248067801106 0.9968390625361558 0.033470248067801106 0.0031609374638440946 -0.033470248067801106
5.482E9 0.0030293980641146225 -0.031420307540267596 0.9969706019358853 0.031420307540267596 0.9969706019358853 0.031420307540267596 0.0030293980641146225 -0.031420307540267596
5.55675E9 0.0029082874402113494 -0.029402922205292982 0.9970917125597885 0.029402922205292982 0.9970917125597885 0.029402922205292982 0.0029082874402113494 -0.029402922205292982
5.6315E9 0.002797133995069708 -0.0274168402340396 0.9972028660049302 0.0274168402340396 0.9972028660049302 0.0274168402340396 0.002797133995069708 -0.0274168402340396
5.70625E9 0.0026954964119577543 -0.02546087272807091 0.9973045035880421 0.02546087272807091 0.9973045035880421 0.02546087272807091 0.0026954964119577543 -0.02546087272807091
5.781E9 0.002602961364459972 -0.023533889845954562 0.9973970386355399 0.023533889845954562 0.9973970386355399 0.023533889845954562 0.002602961364459972 -0.023533889845954562
5.85575E9 0.0025191414257494963 -0.0216348172094804 0.9974808585742505 0.0216348172094804 0.9974808585742505 0.0216348172094804 0.0025191414257494963 -0.0216348172094804
5.9305E9 0.0024436731576296827 -0.019762632566461786 0.9975563268423702 0.019762632566461786 0.9975563268423702 0.019762632566461786 0.0024436731576296827 -0.019762632566461786
6.00525E9 0.002376215361945807 -0.017916362689208896 0.9976237846380539 0.017916362689208896 0.9976237846380539 0.017916362689208896 0.002376215361945807 -0.017916362689208896
6.08E9 0.0023164474788351912 -0.016095080489663186 0.9976835525211649 0.016095080489663186 0.9976835525211649 0.016095080489663186 0.0023164474788351912 -0.016095080489663186
6.15475E9 0.002264068117932252 -0.014297902333897822 0.9977359318820676 0.014297902333897822 0.9977359318820676 0.014297902333897822 0.002264068117932252 -0.014297902333897822
6.2295E9 0.0022187937101014106 -0.012523985540230808 0.9977812062898984 0.012523985540230808 0.9977812062898984 0.012523985540230808 0.0022187937101014106 -0.012523985540230808
6.30425E9 0.002180357268559925 -0.010772526046590796 0.9978196427314401 0.010772526046590796 0.9978196427314401 0.010772526046590796 0.002180357268559925 -0.010772526046590796
6.379E9 0.0021485072493952514 -0.009042756234031167 0.9978514927506049 0.009042756234031167 0.9978514927506049 0.009042756234031167 0.0021485072493952514 -0.009042756234031167
6.45375E9 0.0021230065024956807 -0.0073339428944250275 0.9978769934975042 0.0073339428944250275 0.9978769934975042 0.0073339428944250275 0.0021230065024956807 -0.0073339428944250275
6.5285E9 0.0021036313048142627 -0.005645385331399489 0.9978963686951859 0.005645385331399489 0.9978963686951859 0.005645385331399489 0.0021036313048142627 -0.005645385331399489
6.60325E9 0.002090170468688219 -0.003976413584499122 0.9979098295313119 0.003976413584499122 0.9979098295313119 0.003976413584499122 0.002090170468688219 -0.003976413584499122
6.678E9 0.0020824245186508855 -0.0023263867674100844 0.9979175754813491 0.0023263867674100844 0.9979175754813491 0.0023263867674100844 0.0020824245186508855 -0.0023263867674100844
6.75275E9 0.002080204930811033 -6.946915118421694E-4 0.9979197950691889 6.946915118421694E-4 0.9979197950691889 6.946915118421694E-4 0.002080204930811033 -6.946915118421694E-4
6.8275E9 0.0020833334294443127 9.192594906403189E-4 0.9979166665705558 -9.192594906403189E-4 0.9979166665705558 -9.192594906403189E-4 0.0020833334294443127 9.192594906403189E-4
6.90225E9 0.0020916413359512672 0.00251602885591752 0.9979083586640486 -0.00251602885591752 0.9979083586640486 -0.00251602885591752 0.0020916413359512672 0.00251602885591752
6.977E9 0.002104968965792915 0.004096155790246091 0.9978950310342071 -0.004096155790246091 0.9978950310342071 -0.004096155790246091 0.002104968965792915 0.004096155790246091
7.05175E9 0.0021231650694242096 0.0056601572948071785 0.9978768349305758 -0.0056601572948071785 0.9978768349305758 -0.0056601572948071785 0.0021231650694242096 0.0056601572948071785
7.1265E9 0.002146086313613144 0.007208529297374952 0.997853913686387 -0.007208529297374952 0.997853913686387 -0.007208529297374952 0.002146086313613144 0.007208529297374952
7.20125E9 0.002173596799863516 0.008741747716178354 0.9978264032001366 -0.008741747716178354 0.9978264032001366 -0.008741747716178354 0.002173596799863516 0.008741747716178354
7.276E9 0.0022055676169564628 0.010260269460630191 0.9977944323830437 -0.010260269460630191 0.9977944323830437 -0.010260269460630191 0.0022055676169564628 0.010260269460630191
7.35075E9 0.002241876424893466 0.01176453337323782 0.9977581235751065 -0.01176453337323782 0.9977581235751065 -0.01176453337323782 0.002241876424893466 0.01176453337323782
7.4255E9 0.002282407067764851 0.013254961116676895 0.997717592932235 -0.013254961116676895 0.997717592932235 -0.013254961116676895 0.002282407067764851 0.013254961116676895
7.50025E9 0.0023270492132855185 0.01473195800970796 0.9976729507867146 -0.01473195800970796 0.9976729507867146 -0.01473195800970796 0.0023270492132855185 0.01473195800970796
7.575E9 0.002375698016936502 0.016195913815338223 0.9976243019830634 -0.016195913815338223 0.9976243019830634 -0.016195913815338223 0.002375698016936502 0.016195913815338223
7.64975E9 0.0024282538088288173 0.017647203484375804 0.9975717461911711 -0.017647203484375804 0.9975717461911711 -0.017647203484375804 0.0024282538088288173 0.017647203484375804
7.7245E9 0.002484621801567262 0.019086187857292 0.9975153781984327 -0.019086187857292 0.9975153781984327 -0.019086187857292 0.002484621801567262 0.019086187857292
7.79925E9 0.002544711817537804 0.02051321432709191 0.9974552881824623 -0.02051321432709191 0.9974552881824623 -0.02051321432709191 0.002544711817537804 0.02051321432709191
7.874E9 0.0026084380341746447 0.02192861746569838 0.9973915619658255 -0.02192861746569838 0.9973915619658255 -0.02192861746569838 0.0026084380341746447 0.02192861746569838
7.94875E9 0.002675718745883301 0.02333271961617224 0.9973242812541165 -0.02333271961617224 0.9973242812541165 -0.02333271961617224 0.002675718745883301 0.02333271961617224
8.0235E9 0.0027464761414053643 0.02472583145292768 0.9972535238585949 -0.02472583145292768 0.9972535238585949 -0.02472583145292768 0.0027464761414053643 0.02472583145292768
8.09825E9 0.002820636095509941 0.026108252511945613 0.9971793639044898 -0.026108252511945613 0.9971793639044898 -0.026108252511945613 0.002820636095509941 0.026108252511945613
8.173E9 0.002898127973987418 0.027480271692850812 0.9971018720260126 -0.027480271692850812 0.9971018720260126 -0.027480271692850812 0.002898127973987418 0.027480271692850812
8.24775E9 0.0029788844510035186 0.028842167734584964 0.9970211155489964 -0.028842167734584964 0.9970211155489964 -0.028842167734584964 0.0029788844510035186 0.028842167734584964
8.3225E9 0.003062841337947022 0.030194209666290866 0.9969371586620531 -0.030194209666290866 0.9969371586620531 -0.030194209666290866 0.003062841337947022 0.030194209666290866
8.39725E9 0.0031499374229730596 0.031536657234910684 0.996850062577027 -0.031536657234910684 0.996850062577027 -0.031536657234910684 0.0031499374229730596 0.031536657234910684
8.472E9 0.0032401143205067428 0.03286976131089982 0.9967598856794931 -0.03286976131089982 0.9967598856794931 -0.03286976131089982 0.0032401143205067428 0.03286976131089982
8.54675E9 0.0033333163300292494 0.03419376427336355 0.9966666836699706 -0.03419376427336355 0.9966666836699706 -0.03419376427336355 0.0033333163300292494 0.03419376427336355
