!Murata Part Number: GJM0225C1E3R7BB01
!These Parameters are Measured in Series Mode Connection
!       o--ll--o
!Port1            Port2
!       o------o
!Operation Temp=25[degC], DC Bias Voltage=0[V]
!Freq. Start=100[MHz] Stop=30[GHz], 401[Steps]
!Data Generated on Feb 1, 2023
# Hz S RI R 50
!Freq.(Hz) S11(Real) S11(Imag) S21(Real) S21(Imag) S12(Real) S12(Imag) S22(Real) S22(Imag)
1.0E8 0.9486143089118266 -0.22056233086742502 0.05138569108817346 0.22056233086742502 0.05138569108817346 0.22056233086742502 0.9486143089118266 -0.22056233086742502
1.7475E8 0.857965078132766 -0.34869989267396523 0.14203492186723385 0.34869989267396523 0.14203492186723385 0.34869989267396523 0.857965078132766 -0.34869989267396523
2.495E8 0.7474543195061992 -0.43392088744471397 0.2525456804938007 0.43392088744471397 0.2525456804938007 0.43392088744471397 0.7474543195061992 -0.43392088744471397
3.2425E8 0.6362998473887107 -0.4803461349275291 0.36370015261128924 0.4803461349275291 0.36370015261128924 0.4803461349275291 0.6362998473887107 -0.4803461349275291
3.99E8 0.5355381721656222 -0.49785119416240553 0.46446182783437784 0.49785119416240553 0.46446182783437784 0.49785119416240553 0.5355381721656222 -0.49785119416240553
4.7375E8 0.4492940347899912 -0.49637067436580945 0.5507059652100088 0.49637067436580945 0.5507059652100088 0.49637067436580945 0.4492940347899912 -0.49637067436580945
5.485E8 0.37767132843097595 -0.48358500321704895 0.6223286715690238 0.48358500321704895 0.6223286715690238 0.48358500321704895 0.37767132843097595 -0.48358500321704895
6.2325E8 0.31901614500517916 -0.4647062911158008 0.6809838549948207 0.4647062911158008 0.6809838549948207 0.4647062911158008 0.31901614500517916 -0.4647062911158008
6.98E8 0.2711889624018719 -0.44301399117091145 0.7288110375981282 0.44301399117091145 0.7288110375981282 0.44301399117091145 0.2711889624018719 -0.44301399117091145
7.7275E8 0.23214151711194803 -0.4204677090506654 0.767858482888052 0.4204677090506654 0.767858482888052 0.4204677090506654 0.23214151711194803 -0.4204677090506654
8.475E8 0.2001201027153396 -0.39818580893669 0.7998798972846605 0.39818580893669 0.7998798972846605 0.39818580893669 0.2001201027153396 -0.39818580893669
9.2225E8 0.1736984322806715 -0.3767709670724584 0.8263015677193285 0.3767709670724584 0.8263015677193285 0.3767709670724584 0.1736984322806715 -0.3767709670724584
9.97E8 0.1517446842271099 -0.3565177446123876 0.8482553157728902 0.3565177446123876 0.8482553157728902 0.3565177446123876 0.1517446842271099 -0.3565177446123876
1.07175E9 0.13337033469101428 -0.33754062542978464 0.8666296653089857 0.33754062542978464 0.8666296653089857 0.33754062542978464 0.13337033469101428 -0.33754062542978464
1.1465E9 0.11788001998971859 -0.319851579265172 0.8821199800102812 0.319851579265172 0.8821199800102812 0.319851579265172 0.11788001998971859 -0.319851579265172
1.22125E9 0.10472882685379317 -0.3034065171005113 0.8952711731462071 0.3034065171005113 0.8952711731462071 0.3034065171005113 0.10472882685379317 -0.3034065171005113
1.296E9 0.09348807317709733 -0.28813284464064476 0.9065119268229026 0.28813284464064476 0.9065119268229026 0.28813284464064476 0.09348807317709733 -0.28813284464064476
1.37075E9 0.08381869575079348 -0.27394560720706906 0.9161813042492066 0.27394560720706906 0.9161813042492066 0.27394560720706906 0.08381869575079348 -0.27394560720706906
1.4455E9 0.07545084781925554 -0.2607567726252713 0.9245491521807445 0.2607567726252713 0.9245491521807445 0.2607567726252713 0.07545084781925554 -0.2607567726252713
1.52025E9 0.06816834839679617 -0.24848039916818673 0.9318316516032038 0.24848039916818673 0.9318316516032038 0.24848039916818673 0.06816834839679617 -0.24848039916818673
1.595E9 0.06179684025897534 -0.23703534755980105 0.9382031597410245 0.23703534755980105 0.9382031597410245 0.23703534755980105 0.06179684025897534 -0.23703534755980105
1.66975E9 0.05619475344348288 -0.22634653992509254 0.943805246556517 0.22634653992509254 0.943805246556517 0.22634653992509254 0.05619475344348288 -0.22634653992509254
1.7445E9 0.05124638277040875 -0.21634537246317284 0.948753617229591 0.21634537246317284 0.948753617229591 0.21634537246317284 0.05124638277040875 -0.21634537246317284
1.81925E9 0.04685655833084621 -0.2069696487655572 0.9531434416691541 0.2069696487655572 0.9531434416691541 0.2069696487655572 0.04685655833084621 -0.2069696487655572
1.894E9 0.04294651921876732 -0.19816325494916212 0.9570534807812325 0.19816325494916212 0.9570534807812325 0.19816325494916212 0.04294651921876732 -0.19816325494916212
1.96875E9 0.039450699696386114 -0.18987570892660205 0.9605493003036139 0.18987570892660205 0.9605493003036139 0.18987570892660205 0.039450699696386114 -0.18987570892660205
2.0435E9 0.03631421063230133 -0.18206166187122885 0.9636857893676984 0.18206166187122885 0.9636857893676984 0.18206166187122885 0.03631421063230133 -0.18206166187122885
2.11825E9 0.03349085361016486 -0.17468039679039227 0.9665091463898352 0.17468039679039227 0.9665091463898352 0.17468039679039227 0.03349085361016486 -0.17468039679039227
2.193E9 0.0309415454752976 -0.16769534893430824 0.9690584545247023 0.16769534893430824 0.9690584545247023 0.16769534893430824 0.0309415454752976 -0.16769534893430824
2.26775E9 0.02863306099736447 -0.16107366055923764 0.9713669390026356 0.16107366055923764 0.9713669390026356 0.16107366055923764 0.02863306099736447 -0.16107366055923764
2.3425E9 0.026537023553716396 -0.15478577527590834 0.9734629764462835 0.15478577527590834 0.9734629764462835 0.15478577527590834 0.026537023553716396 -0.15478577527590834
2.41725E9 0.024629090320124343 -0.1488050729616371 0.9753709096798756 0.1488050729616371 0.9753709096798756 0.1488050729616371 0.024629090320124343 -0.1488050729616371
2.492E9 0.02288829088424083 -0.1431075438289383 0.9771117091157591 0.1431075438289383 0.9771117091157591 0.1431075438289383 0.02288829088424083 -0.1431075438289383
2.56675E9 0.021296487559784038 -0.13767149899816014 0.978703512440216 0.13767149899816014 0.978703512440216 0.13767149899816014 0.021296487559784038 -0.13767149899816014
2.6415E9 0.019837932769915544 -0.13247731436455334 0.9801620672300847 0.13247731436455334 0.9801620672300847 0.13247731436455334 0.019837932769915544 -0.13247731436455334
2.71625E9 0.0184989042671682 -0.12750720439960522 0.9815010957328316 0.12750720439960522 0.9815010957328316 0.12750720439960522 0.0184989042671682 -0.12750720439960522
2.791E9 0.01726740309062797 -0.12274502260773969 0.982732596909372 0.12274502260773969 0.982732596909372 0.12274502260773969 0.01726740309062797 -0.12274502260773969
2.86575E9 0.01613290234277783 -0.11817608556488964 0.9838670976572219 0.11817608556488964 0.9838670976572219 0.11817608556488964 0.01613290234277783 -0.11817608556488964
2.9405E9 0.015086137330760927 -0.11378701772935687 0.9849138626692389 0.11378701772935687 0.9849138626692389 0.11378701772935687 0.015086137330760927 -0.11378701772935687
3.01525E9 0.01411892953254206 -0.10956561449858652 0.9858810704674578 0.10956561449858652 0.9858810704674578 0.10956561449858652 0.01411892953254206 -0.10956561449858652
3.09E9 0.01322403834660782 -0.10550072126531074 0.9867759616533922 0.10550072126531074 0.9867759616533922 0.10550072126531074 0.01322403834660782 -0.10550072126531074
3.16475E9 0.012395035761381776 -0.10158212649055177 0.9876049642386183 0.10158212649055177 0.9876049642386183 0.10158212649055177 0.012395035761381776 -0.10158212649055177
3.2395E9 0.01162620001061341 -0.09780046705311979 0.9883737999893865 0.09780046705311979 0.9883737999893865 0.09780046705311979 0.01162620001061341 -0.09780046705311979
3.31425E9 0.010912425019140748 -0.09414714435320982 0.9890875749808593 0.09414714435320982 0.9890875749808593 0.09414714435320982 0.010912425019140748 -0.09414714435320982
3.389E9 0.010249143031956665 -0.09061424984144074 0.9897508569680433 0.09061424984144074 0.9897508569680433 0.09061424984144074 0.010249143031956665 -0.09061424984144074
3.46375E9 0.009632258290862198 -0.08719449881537987 0.9903677417091379 0.08719449881537987 0.9903677417091379 0.08719449881537987 0.009632258290862198 -0.08719449881537987
3.5385E9 0.009058090002142364 -0.0838811714750763 0.9909419099978576 0.0838811714750763 0.9909419099978576 0.0838811714750763 0.009058090002142364 -0.0838811714750763
3.61325E9 0.008523323144974943 -0.08066806035947865 0.991476676855025 0.08066806035947865 0.991476676855025 0.08066806035947865 0.008523323144974943 -0.08066806035947865
3.688E9 0.008024965918697922 -0.07754942339894728 0.9919750340813022 0.07754942339894728 0.9919750340813022 0.07754942339894728 0.008024965918697922 -0.07754942339894728
3.76275E9 0.007560312829345926 -0.07451994191743316 0.992439687170654 0.07451994191743316 0.992439687170654 0.07451994191743316 0.007560312829345926 -0.07451994191743316
3.8375E9 0.007126912581216503 -0.07157468300316353 0.9928730874187836 0.07157468300316353 0.9928730874187836 0.07157468300316353 0.007126912581216503 -0.07157468300316353
3.91225E9 0.006722540074888282 -0.0687090657405515 0.9932774599251116 0.0687090657405515 0.9932774599251116 0.0687090657405515 0.006722540074888282 -0.0687090657405515
3.987E9 0.006345171924815437 -0.06591883086005239 0.9936548280751845 0.06591883086005239 0.9936548280751845 0.06591883086005239 0.006345171924815437 -0.06591883086005239
4.06175E9 0.005992965001916632 -0.06320001341815111 0.9940070349980833 0.06320001341815111 0.9940070349980833 0.06320001341815111 0.005992965001916632 -0.06320001341815111
4.1365E9 0.0056642375830914735 -0.06054891816775498 0.9943357624169086 0.06054891816775498 0.9943357624169086 0.06054891816775498 0.0056642375830914735 -0.06054891816775498
4.21125E9 0.005357452753236873 -0.05796209732099026 0.9946425472467633 0.05796209732099026 0.9946425472467633 0.05796209732099026 0.005357452753236873 -0.05796209732099026
4.286E9 0.005071203758433783 -0.05543633044263662 0.9949287962415662 0.05543633044263662 0.9949287962415662 0.05543633044263662 0.005071203758433783 -0.05543633044263662
4.36075E9 0.0048042010534130025 -0.052968606243936754 0.9951957989465868 0.052968606243936754 0.9951957989465868 0.052968606243936754 0.0048042010534130025 -0.052968606243936754
4.4355E9 0.004555260823709594 -0.050556106073935944 0.9954447391762906 0.050556106073935944 0.9954447391762906 0.050556106073935944 0.004555260823709594 -0.050556106073935944
4.51025E9 0.0043232947943153055 -0.048196188929398795 0.9956767052056847 0.048196188929398795 0.9956767052056847 0.048196188929398795 0.0043232947943153055 -0.048196188929398795
4.585E9 0.004107301163144723 -0.045886377825199116 0.9958926988368553 0.045886377825199116 0.9958926988368553 0.045886377825199116 0.004107301163144723 -0.045886377825199116
4.65975E9 0.003906356520066194 -0.04362434738529112 0.9960936434799337 0.04362434738529112 0.9960936434799337 0.04362434738529112 0.003906356520066194 -0.04362434738529112
4.7345E9 0.003719608631288721 -0.0414079125303068 0.9962803913687113 0.0414079125303068 0.9962803913687113 0.0414079125303068 0.003719608631288721 -0.0414079125303068
4.80925E9 0.0035462699850953433 -0.03923501815178482 0.9964537300149048 0.03923501815178482 0.9964537300149048 0.03923501815178482 0.0035462699850953433 -0.03923501815178482
4.884E9 0.003385612008730263 -0.03710372967528435 0.9966143879912699 0.03710372967528435 0.9966143879912699 0.03710372967528435 0.003385612008730263 -0.03710372967528435
4.95875E9 0.003236959878059859 -0.0350122244253981 0.9967630401219403 0.0350122244253981 0.9967630401219403 0.0350122244253981 0.003236959878059859 -0.0350122244253981
5.0335E9 0.0030996878517508394 -0.03295878371514651 0.9969003121482491 0.03295878371514651 0.9969003121482491 0.03295878371514651 0.0030996878517508394 -0.03295878371514651
5.10825E9 0.0029732150704035675 -0.03094178559057502 0.9970267849295963 0.03094178559057502 0.9970267849295963 0.03094178559057502 0.0029732150704035675 -0.03094178559057502
5.183E9 0.0028570017685631867 -0.028959698168736718 0.9971429982314368 0.028959698168736718 0.9971429982314368 0.028959698168736718 0.0028570017685631867 -0.028959698168736718
5.25775E9 0.0027505458539875843 -0.02701107351374332 0.9972494541460122 0.02701107351374332 0.9972494541460122 0.02701107351374332 0.0027505458539875843 -0.02701107351374332
5.3325E9 0.0026533798141325903 -0.02509454200132018 0.9973466201858674 0.02509454200132018 0.9973466201858674 0.02509454200132018 0.0026533798141325903 -0.02509454200132018
5.40725E9 0.0025650679146493128 -0.023208807127396824 0.9974349320853507 0.023208807127396824 0.9974349320853507 0.023208807127396824 0.0025650679146493128 -0.023208807127396824
5.482E9 0.0024852036588845897 -0.021352640720785986 0.9975147963411155 0.021352640720785986 0.9975147963411155 0.021352640720785986 0.0024852036588845897 -0.021352640720785986
5.55675E9 0.00241340748102422 -0.019524878524018817 0.997586592518976 0.019524878524018817 0.997586592518976 0.019524878524018817 0.00241340748102422 -0.019524878524018817
5.6315E9 0.0023493246486976883 -0.01772441610997808 0.9976506753513024 0.01772441610997808 0.9976506753513024 0.01772441610997808 0.0023493246486976883 -0.01772441610997808
5.70625E9 0.002292623353637579 -0.015950205105150744 0.9977073766463624 0.015950205105150744 0.9977073766463624 0.015950205105150744 0.002292623353637579 -0.015950205105150744
5.781E9 0.002242992971412977 -0.014201249693159765 0.9977570070285869 0.014201249693159765 0.9977570070285869 0.014201249693159765 0.002242992971412977 -0.014201249693159765
5.85575E9 0.0022001424733811025 -0.012476603374768913 0.9977998575266187 0.012476603374768913 0.9977998575266187 0.012476603374768913 0.0022001424733811025 -0.012476603374768913
5.9305E9 0.0021637989758657057 -0.010775365962817385 0.9978362010241344 0.010775365962817385 0.9978362010241344 0.010775365962817385 0.0021637989758657057 -0.010775365962817385
6.00525E9 0.0021337064132093226 -0.009096680792571357 0.9978662935867906 0.009096680792571357 0.9978662935867906 0.009096680792571357 0.0021337064132093226 -0.009096680792571357
6.08E9 0.0021096243227886153 -0.00743973212979372 0.9978903756772114 0.00743973212979372 0.9978903756772114 0.00743973212979372 0.0021096243227886153 -0.00743973212979372
6.15475E9 0.002091326731353607 -0.005803742760466198 0.9979086732686462 0.005803742760466198 0.9979086732686462 0.005803742760466198 0.002091326731353607 -0.005803742760466198
6.2295E9 0.002078601133174329 -0.004187971747560332 0.997921398866826 0.004187971747560332 0.997921398866826 0.004187971747560332 0.002078601133174329 -0.004187971747560332
6.30425E9 0.002071247551471234 -0.0025917123415731993 0.9979287524485289 0.0025917123415731993 0.9979287524485289 0.0025917123415731993 0.002071247551471234 -0.0025917123415731993
6.379E9 0.0020690776754850254 -0.0010142900327274624 0.997930922324515 0.0010142900327274624 0.997930922324515 0.0010142900327274624 0.0020690776754850254 -0.0010142900327274624
6.45375E9 0.002071914066321324 5.449392661939026E-4 0.9979280859336787 -5.449392661939026E-4 0.9979280859336787 -5.449392661939026E-4 0.002071914066321324 5.449392661939026E-4
6.5285E9 0.00207958942539819 0.0020865909164446313 0.9979204105746019 -0.0020865909164446313 0.9979204105746019 -0.0020865909164446313 0.00207958942539819 0.0020865909164446313
6.60325E9 0.0020919459199404216 0.003611253138538381 0.9979080540800596 -0.003611253138538381 0.9979080540800596 -0.003611253138538381 0.0020919459199404216 0.003611253138538381
6.678E9 0.002108834560513066 0.005119488494505135 0.9978911654394871 -0.005119488494505135 0.9978911654394871 -0.005119488494505135 0.002108834560513066 0.005119488494505135
6.75275E9 0.0021301146260756633 0.0066118352748747245 0.9978698853739244 -0.0066118352748747245 0.9978698853739244 -0.0066118352748747245 0.0021301146260756633 0.0066118352748747245
6.8275E9 0.0021556531324754373 0.008088808797434866 0.9978443468675244 -0.008088808797434866 0.9978443468675244 -0.008088808797434866 0.0021556531324754373 0.008088808797434866
6.90225E9 0.0021853243406880388 0.009550902624225843 0.997814675659312 -0.009550902624225843 0.997814675659312 -0.009550902624225843 0.0021853243406880388 0.009550902624225843
6.977E9 0.002219009301463855 0.010998589702700772 0.997780990698536 -0.010998589702700772 0.997780990698536 -0.010998589702700772 0.002219009301463855 0.010998589702700772
7.05175E9 0.002256595433351038 0.012432323436498636 0.997743404566649 -0.012432323436498636 0.997743404566649 -0.012432323436498636 0.002256595433351038 0.012432323436498636
7.1265E9 0.0022979761313473472 0.013852538690835315 0.9977020238686526 -0.013852538690835315 0.9977020238686526 -0.013852538690835315 0.0022979761313473472 0.013852538690835315
7.20125E9 0.0023430504036852633 0.01525965273711969 0.9976569495963148 -0.01525965273711969 0.9976569495963148 -0.01525965273711969 0.0023430504036852633 0.01525965273711969
7.276E9 0.0023917225344817494 0.01665406614103513 0.9976082774655183 -0.01665406614103513 0.9976082774655183 -0.01665406614103513 0.0023917225344817494 0.01665406614103513
7.35075E9 0.002443901770188363 0.018036163597995404 0.9975560982298114 -0.018036163597995404 0.9975560982298114 -0.018036163597995404 0.002443901770188363 0.018036163597995404
7.4255E9 0.0024995020279615274 0.019406314719579206 0.9975004979720384 -0.019406314719579206 0.9975004979720384 -0.019406314719579206 0.0024995020279615274 0.019406314719579206
7.50025E9 0.002558441624238915 0.020764874774270504 0.9974415583757611 -0.020764874774270504 0.9974415583757611 -0.020764874774270504 0.002558441624238915 0.020764874774270504
7.575E9 0.00262064302195794 0.02211218538557825 0.997379356978042 -0.02211218538557825 0.997379356978042 -0.02211218538557825 0.00262064302195794 0.02211218538557825
7.64975E9 0.002686032594987969 0.023448575190375735 0.9973139674050122 -0.023448575190375735 0.9973139674050122 -0.023448575190375735 0.002686032594987969 0.023448575190375735
7.7245E9 0.0027545404084707275 0.024774360460088903 0.9972454595915292 -0.024774360460088903 0.9972454595915292 -0.024774360460088903 0.0027545404084707275 0.024774360460088903
7.79925E9 0.0028261000138744942 0.026089845687165943 0.9971738999861256 -0.026089845687165943 0.9971738999861256 -0.026089845687165943 0.0028261000138744942 0.026089845687165943
7.874E9 0.0029006482576686356 0.027395324139083112 0.9970993517423313 -0.027395324139083112 0.9970993517423313 -0.027395324139083112 0.0029006482576686356 0.027395324139083112
7.94875E9 0.0029781251026165536 0.028691078381976626 0.9970218748973837 -0.028691078381976626 0.9970218748973837 -0.028691078381976626 0.0029781251026165536 0.028691078381976626
8.0235E9 0.0030584734607683327 0.029977380775840206 0.9969415265392317 -0.029977380775840206 0.9969415265392317 -0.029977380775840206 0.0030584734607683327 0.029977380775840206
8.09825E9 0.0031416390373100525 0.03125449394308848 0.9968583609626899 -0.03125449394308848 0.9968583609626899 -0.03125449394308848 0.0031416390373100525 0.03125449394308848
8.173E9 0.003227570184495592 0.03252267121215924 0.9967724298155045 -0.03252267121215924 0.9967724298155045 -0.03252267121215924 0.003227570184495592 0.03252267121215924
8.24775E9 0.003316217764949587 0.033782157037710196 0.9966837822350503 -0.033782157037710196 0.9966837822350503 -0.033782157037710196 0.003316217764949587 0.033782157037710196
8.3225E9 0.003407535023687393 0.035033187398856726 0.9965924649763125 -0.035033187398856726 0.9965924649763125 -0.035033187398856726 0.003407535023687393 0.035033187398856726
8.39725E9 0.003501477468250258 0.036275990176798736 0.9964985225317498 -0.036275990176798736 0.9964985225317498 -0.036275990176798736 0.003501477468250258 0.036275990176798736
8.472E9 0.0035980027564016027 0.03751078551309065 0.9964019972435985 -0.03751078551309065 0.9964019972435985 -0.03751078551309065 0.0035980027564016027 0.03751078551309065
8.54675E9 0.003697070590874129 0.03873778614972607 0.9963029294091258 -0.03873778614972607 0.9963029294091258 -0.03873778614972607 0.003697070590874129 0.03873778614972607
