!Murata Part Number: GJM0225C1E8R6BB01
!These Parameters are Measured in Series Mode Connection
!       o--ll--o
!Port1            Port2
!       o------o
!Operation Temp=25[degC], DC Bias Voltage=0[V]
!Freq. Start=100[MHz] Stop=30[GHz], 401[Steps]
!Data Generated on Feb 1, 2023
# Hz S RI R 50
!Freq.(Hz) S11(Real) S11(Imag) S21(Real) S21(Imag) S12(Real) S12(Imag) S22(Real) S22(Imag)
1.0E8 0.7736893822841298 -0.4181989044200548 0.2263106177158703 0.4181989044200548 0.2263106177158703 0.4181989044200548 0.7736893822841298 -0.4181989044200548
1.7475E8 0.5277323082163774 -0.4988029546997245 0.4722676917836226 0.4988029546997245 0.4722676917836226 0.4988029546997245 0.5277323082163774 -0.4988029546997245
2.495E8 0.3534275273855824 -0.47742008233338157 0.6465724726144175 0.47742008233338157 0.6465724726144175 0.47742008233338157 0.3534275273855824 -0.47742008233338157
3.2425E8 0.2438006113504359 -0.42856942957260136 0.7561993886495642 0.42856942957260136 0.7561993886495642 0.42856942957260136 0.2438006113504359 -0.42856942957260136
3.99E8 0.17484611585013968 -0.3788355646918482 0.8251538841498602 0.3788355646918482 0.8251538841498602 0.3788355646918482 0.17484611585013968 -0.3788355646918482
4.7375E8 0.13000843980242305 -0.33511131337070965 0.869991560197577 0.33511131337070965 0.869991560197577 0.33511131337070965 0.13000843980242305 -0.33511131337070965
5.485E8 0.09969340204115325 -0.29818075124819143 0.9003065979588467 0.29818075124819143 0.9003065979588467 0.29818075124819143 0.09969340204115325 -0.29818075124819143
6.2325E8 0.07843308817855131 -0.2672252601517594 0.9215669118214488 0.2672252601517594 0.9215669118214488 0.2672252601517594 0.07843308817855131 -0.2672252601517594
6.98E8 0.06303460521421726 -0.24117306253087992 0.9369653947857827 0.24117306253087992 0.9369653947857827 0.24117306253087992 0.06303460521421726 -0.24117306253087992
7.7275E8 0.05156730769190499 -0.21906446947478522 0.9484326923080951 0.21906446947478522 0.9484326923080951 0.21906446947478522 0.05156730769190499 -0.21906446947478522
8.475E8 0.04282121737460426 -0.20012083370081743 0.9571787826253958 0.20012083370081743 0.9571787826253958 0.20012083370081743 0.04282121737460426 -0.20012083370081743
9.2225E8 0.03601212912426761 -0.18373041480088662 0.9639878708757323 0.18373041480088662 0.9639878708757323 0.18373041480088662 0.03601212912426761 -0.18373041480088662
9.97E8 0.030616089923040234 -0.16941656303312064 0.9693839100769596 0.16941656303312064 0.9693839100769596 0.16941656303312064 0.030616089923040234 -0.16941656303312064
1.07175E9 0.026273369877018744 -0.15680720548893148 0.9737266301229813 0.15680720548893148 0.9737266301229813 0.15680720548893148 0.026273369877018744 -0.15680720548893148
1.1465E9 0.02273092313803863 -0.145610050009824 0.9772690768619614 0.145610050009824 0.9772690768619614 0.145610050009824 0.02273092313803863 -0.145610050009824
1.22125E9 0.01980685511569122 -0.13559355765852257 0.9801931448843088 0.13559355765852257 0.9801931448843088 0.13559355765852257 0.01980685511569122 -0.13559355765852257
1.296E9 0.017367862637243145 -0.12657264603716514 0.9826321373627568 0.12657264603716514 0.9826321373627568 0.12657264603716514 0.017367862637243145 -0.12657264603716514
1.37075E9 0.015314543986772015 -0.11839800722780515 0.9846854560132281 0.11839800722780515 0.9846854560132281 0.11839800722780515 0.015314543986772015 -0.11839800722780515
1.4455E9 0.013571611012576671 -0.11094811222679084 0.9864283889874234 0.11094811222679084 0.9864283889874234 0.11094811222679084 0.013571611012576671 -0.11094811222679084
1.52025E9 0.01208122967514841 -0.10412319329446307 0.9879187703248515 0.10412319329446307 0.9879187703248515 0.10412319329446307 0.01208122967514841 -0.10412319329446307
1.595E9 0.01079840199131892 -0.09784068155297389 0.989201598008681 0.09784068155297389 0.989201598008681 0.09784068155297389 0.01079840199131892 -0.09784068155297389
1.66975E9 0.009687707438093295 -0.09203171940617788 0.9903122925619068 0.09203171940617788 0.9903122925619068 0.09203171940617788 0.009687707438093295 -0.09203171940617788
1.7445E9 0.008720966741004754 -0.08663847176313792 0.9912790332589951 0.08663847176313792 0.9912790332589951 0.08663847176313792 0.008720966741004754 -0.08663847176313792
1.81925E9 0.007875542320189222 -0.08161203536922108 0.9921244576798107 0.08161203536922108 0.9921244576798107 0.08161203536922108 0.007875542320189222 -0.08161203536922108
1.894E9 0.007133085171814134 -0.07691079957964697 0.992866914828186 0.07691079957964697 0.992866914828186 0.07691079957964697 0.007133085171814134 -0.07691079957964697
1.96875E9 0.0064785993941312 -0.072499150684492 0.9935214006058688 0.072499150684492 0.9935214006058688 0.072499150684492 0.0064785993941312 -0.072499150684492
2.0435E9 0.005899735790381405 -0.06834643982576433 0.9941002642096187 0.06834643982576433 0.9941002642096187 0.06834643982576433 0.005899735790381405 -0.06834643982576433
2.11825E9 0.0053862527548651585 -0.06442615478353518 0.994613747245135 0.06442615478353518 0.994613747245135 0.06442615478353518 0.0053862527548651585 -0.06442615478353518
2.193E9 0.004929600745640948 -0.06071525066897169 0.995070399254359 0.06071525066897169 0.995070399254359 0.06071525066897169 0.004929600745640948 -0.06071525066897169
2.26775E9 0.00452259905537622 -0.0571936054081868 0.9954774009446238 0.0571936054081868 0.9954774009446238 0.0571936054081868 0.00452259905537622 -0.0571936054081868
2.3425E9 0.004159182213340892 -0.05384357393086881 0.9958408177866591 0.05384357393086881 0.9958408177866591 0.05384357393086881 0.004159182213340892 -0.05384357393086881
2.41725E9 0.0038341994170206415 -0.05064962096821214 0.9961658005829794 0.05064962096821214 0.9961658005829794 0.05064962096821214 0.0038341994170206415 -0.05064962096821214
2.492E9 0.0035432547091555967 -0.047598016867506546 0.9964567452908444 0.047598016867506546 0.9964567452908444 0.047598016867506546 0.0035432547091555967 -0.047598016867506546
2.56675E9 0.0032825787228409555 -0.04467658424036585 0.9967174212771591 0.04467658424036585 0.9967174212771591 0.04467658424036585 0.0032825787228409555 -0.04467658424036585
2.6415E9 0.0030489250761817728 -0.04187448586198421 0.9969510749238184 0.04187448586198421 0.9969510749238184 0.04187448586198421 0.0030489250761817728 -0.04187448586198421
2.71625E9 0.002839486156309695 -0.03918204623587101 0.9971605138436903 0.03918204623587101 0.9971605138436903 0.03918204623587101 0.002839486156309695 -0.03918204623587101
2.791E9 0.0026518242611805656 -0.03659060078253126 0.9973481757388194 0.03659060078253126 0.9973481757388194 0.03659060078253126 0.0026518242611805656 -0.03659060078253126
2.86575E9 0.0024838149857154793 -0.03409236781203672 0.9975161850142846 0.03409236781203672 0.9975161850142846 0.03409236781203672 0.0024838149857154793 -0.03409236781203672
2.9405E9 0.002333600430603495 -0.03168033938118255 0.9976663995693965 0.03168033938118255 0.9976663995693965 0.03168033938118255 0.002333600430603495 -0.03168033938118255
3.01525E9 0.00219955033731915 -0.029348187876935734 0.997800449662681 0.029348187876935734 0.997800449662681 0.029348187876935734 0.00219955033731915 -0.029348187876935734
3.09E9 0.0020802296546425757 -0.027090185754911858 0.9979197703453575 0.027090185754911858 0.9979197703453575 0.027090185754911858 0.0020802296546425757 -0.027090185754911858
3.16475E9 0.0019743713513905832 -0.02490113632923083 0.9980256286486093 0.02490113632923083 0.9980256286486093 0.02490113632923083 0.0019743713513905832 -0.02490113632923083
3.2395E9 0.0018808535299684119 -0.02277631388456159 0.9981191464700315 0.02277631388456159 0.9981191464700315 0.02277631388456159 0.0018808535299684119 -0.02277631388456159
3.31425E9 0.0017986800825281059 -0.020711411682552888 0.998201319917472 0.020711411682552888 0.998201319917472 0.020711411682552888 0.0017986800825281059 -0.020711411682552888
3.389E9 0.0017269642784366137 -0.018702496678604963 0.9982730357215632 0.018702496678604963 0.9982730357215632 0.018702496678604963 0.0017269642784366137 -0.018702496678604963
3.46375E9 0.0016649147877348897 -0.01674596996300726 0.998335085212265 0.01674596996300726 0.998335085212265 0.01674596996300726 0.0016649147877348897 -0.01674596996300726
3.5385E9 0.001611823737324372 -0.014838532102138867 0.9983881762626757 0.014838532102138867 0.9983881762626757 0.014838532102138867 0.001611823737324372 -0.014838532102138867
3.61325E9 0.001567056470065384 -0.012977152687960368 0.9984329435299347 0.012977152687960368 0.9984329435299347 0.012977152687960368 0.001567056470065384 -0.012977152687960368
3.688E9 0.001530042735866386 -0.011159043513120866 0.9984699572641337 0.011159043513120866 0.9984699572641337 0.011159043513120866 0.001530042735866386 -0.011159043513120866
3.76275E9 0.0015002690912928292 -0.009381634879167277 0.9984997309087071 0.009381634879167277 0.9984997309087071 0.009381634879167277 0.0015002690912928292 -0.009381634879167277
3.8375E9 0.0014772723226280748 -0.007642554620145246 0.9985227276773718 0.007642554620145246 0.9985227276773718 0.007642554620145246 0.0014772723226280748 -0.007642554620145246
3.91225E9 0.0014606337385369543 -0.005939609486168758 0.998539366261463 0.005939609486168758 0.998539366261463 0.005939609486168758 0.0014606337385369543 -0.005939609486168758
3.987E9 0.00144997420396599 -0.004270768583588569 0.998550025796034 0.004270768583588569 0.998550025796034 0.004270768583588569 0.00144997420396599 -0.004270768583588569
4.06175E9 0.0014449498078001799 -0.0026341486120371642 0.9985550501921997 0.0026341486120371642 0.9985550501921997 0.0026341486120371642 0.0014449498078001799 -0.0026341486120371642
4.1365E9 0.001445248073980165 -0.0010280006753498874 0.9985547519260198 0.0010280006753498874 0.9985547519260198 0.0010280006753498874 0.001445248073980165 -0.0010280006753498874
4.21125E9 0.0014505846399742119 5.493015256454989E-4 0.9985494153600256 -5.493015256454989E-4 0.9985494153600256 -5.493015256454989E-4 0.0014505846399742119 5.493015256454989E-4
4.286E9 0.0014607003382600212 0.0020992722842397143 0.9985392996617399 -0.0020992722842397143 0.9985392996617399 -0.0020992722842397143 0.0014607003382600212 0.0020992722842397143
4.36075E9 0.0014753586262515458 0.0036233234063439037 0.9985246413737483 -0.0036233234063439037 0.9985246413737483 -0.0036233234063439037 0.0014753586262515458 0.0036233234063439037
4.4355E9 0.0014943433182662154 0.00512277278090103 0.9985056566817339 -0.00512277278090103 0.9985056566817339 -0.00512277278090103 0.0014943433182662154 0.00512277278090103
4.51025E9 0.001517456579958332 0.006598852110526409 0.9984825434200418 -0.006598852110526409 0.9984825434200418 -0.006598852110526409 0.001517456579958332 0.006598852110526409
4.585E9 0.0015445171513792085 0.008052713896826557 0.9984554828486208 -0.008052713896826557 0.9984554828486208 -0.008052713896826557 0.0015445171513792085 0.008052713896826557
4.65975E9 0.0015753587696540933 0.009485437762941229 0.9984246412303457 -0.009485437762941229 0.9984246412303457 -0.009485437762941229 0.0015753587696540933 0.009485437762941229
4.7345E9 0.0016098287663445917 0.010898036185607553 0.9983901712336553 -0.010898036185607553 0.9983901712336553 -0.010898036185607553 0.0016098287663445917 0.010898036185607553
4.80925E9 0.0016477868180196104 0.012291459700208774 0.9983522131819805 -0.012291459700208774 0.9983522131819805 -0.012291459700208774 0.0016477868180196104 0.012291459700208774
4.884E9 0.001689103831491362 0.013666601634628649 0.9983108961685088 -0.013666601634628649 0.9983108961685088 -0.013666601634628649 0.001689103831491362 0.013666601634628649
4.95875E9 0.0017336609476706847 0.015024302421111968 0.9982663390523294 -0.015024302421111968 0.9982663390523294 -0.015024302421111968 0.0017336609476706847 0.015024302421111968
5.0335E9 0.0017813486501282055 0.016365353529580837 0.9982186513498718 -0.016365353529580837 0.9982186513498718 -0.016365353529580837 0.0017813486501282055 0.016365353529580837
5.10825E9 0.0018320659662727226 0.01769050106085272 0.9981679340337274 -0.01769050106085272 0.9981679340337274 -0.01769050106085272 0.0018320659662727226 0.01769050106085272
5.183E9 0.0018857197506237577 0.01900044903384168 0.9981142802493763 -0.01900044903384168 0.9981142802493763 -0.01900044903384168 0.0018857197506237577 0.01900044903384168
5.25775E9 0.0019422240410017634 0.020295862397011987 0.9980577759589984 -0.020295862397011987 0.9980577759589984 -0.020295862397011987 0.0019422240410017634 0.020295862397011987
5.3325E9 0.0020014994796203204 0.021577369791014763 0.9979985005203796 -0.021577369791014763 0.9979985005203796 -0.021577369791014763 0.0020014994796203204 0.021577369791014763
5.40725E9 0.0020634727920678963 0.022845566086511147 0.9979365272079322 -0.022845566086511147 0.9979365272079322 -0.022845566086511147 0.0020634727920678963 0.022845566086511147
5.482E9 0.0021280763180359197 0.02410101471861388 0.9978719236819641 -0.02410101471861388 0.9978719236819641 -0.02410101471861388 0.0021280763180359197 0.02410101471861388
5.55675E9 0.00219524758840477 0.025344249837116306 0.9978047524115953 -0.025344249837116306 0.9978047524115953 -0.025344249837116306 0.00219524758840477 0.025344249837116306
5.6315E9 0.002264928943956507 0.02657577828968255 0.9977350710560435 -0.02657577828968255 0.9977350710560435 -0.02657577828968255 0.002264928943956507 0.02657577828968255
5.70625E9 0.0023370671915570254 0.02779608145341293 0.9976629328084429 -0.02779608145341293 0.9976629328084429 -0.02779608145341293 0.0023370671915570254 0.02779608145341293
5.781E9 0.0024116132941526297 0.029005616928641856 0.9975883867058476 -0.029005616928641856 0.9975883867058476 -0.029005616928641856 0.0024116132941526297 0.029005616928641856
5.85575E9 0.0024885220913671686 0.030204820107447964 0.9975114779086327 -0.030204820107447964 0.9975114779086327 -0.030204820107447964 0.0024885220913671686 0.030204820107447964
5.9305E9 0.002567752047874568 0.03139410562813679 0.9974322479521256 -0.03139410562813679 0.9974322479521256 -0.03139410562813679 0.002567752047874568 0.03139410562813679
6.00525E9 0.0026492650270652247 0.03257386872587231 0.9973507349729347 -0.03257386872587231 0.9973507349729347 -0.03257386872587231 0.0026492650270652247 0.03257386872587231
6.08E9 0.002733026087829925 0.03374448648867408 0.9972669739121699 -0.03374448648867408 0.9972669739121699 -0.03374448648867408 0.002733026087829925 0.03374448648867408
6.15475E9 0.0028190033025571526 0.03490631902714159 0.9971809966974425 -0.03490631902714159 0.9971809966974425 -0.03490631902714159 0.0028190033025571526 0.03490631902714159
6.2295E9 0.002907167594683871 0.036059710565510134 0.997092832405316 -0.036059710565510134 0.997092832405316 -0.036059710565510134 0.002907167594683871 0.036059710565510134
6.30425E9 0.002997492594360232 0.03720499046096656 0.99700250740564 -0.03720499046096656 0.99700250740564 -0.03720499046096656 0.002997492594360232 0.03720499046096656
6.379E9 0.0030899545109890855 0.038342474157555304 0.996910045489011 -0.038342474157555304 0.996910045489011 -0.038342474157555304 0.0030899545109890855 0.038342474157555304
6.45375E9 0.003184532021584923 0.039472464080471614 0.996815467978415 -0.039472464080471614 0.996815467978415 -0.039472464080471614 0.003184532021584923 0.039472464080471614
6.5285E9 0.0032812061740671297 0.04059525047606743 0.9967187938259326 -0.04059525047606743 0.9967187938259326 -0.04059525047606743 0.0032812061740671297 0.04059525047606743
6.60325E9 0.00337996030476186 0.04171111220247696 0.9966200396952382 -0.04171111220247696 0.9966200396952382 -0.04171111220247696 0.00337996030476186 0.04171111220247696
6.678E9 0.0034807799695381774 0.042820317475400486 0.9965192200304618 -0.042820317475400486 0.9965192200304618 -0.042820317475400486 0.0034807799695381774 0.042820317475400486
6.75275E9 0.0035836528881497813 0.043923124573259344 0.9964163471118502 -0.043923124573259344 0.9964163471118502 -0.043923124573259344 0.0035836528881497813 0.043923124573259344
6.8275E9 0.0036885689014961236 0.04501978250565271 0.9963114310985038 -0.04501978250565271 0.9963114310985038 -0.04501978250565271 0.0036885689014961236 0.04501978250565271
6.90225E9 0.003795519941658481 0.0461105316488 0.9962044800583414 -0.0461105316488 0.9962044800583414 -0.0461105316488 0.003795519941658481 0.0461105316488
6.977E9 0.0039045000147099225 0.047195604351442 0.99609549998529 -0.047195604351442 0.99609549998529 -0.047195604351442 0.0039045000147099225 0.047195604351442
7.05175E9 0.004015505196445975 0.048275225514496194 0.9959844948035539 -0.048275225514496194 0.9959844948035539 -0.048275225514496194 0.004015505196445975 0.048275225514496194
7.1265E9 0.004128533641337666 0.04934961314761512 0.9958714663586624 -0.04934961314761512 0.9958714663586624 -0.04934961314761512 0.004128533641337666 0.04934961314761512
7.20125E9 0.004243585605173783 0.050418978905680346 0.995756414394826 -0.050418978905680346 0.995756414394826 -0.050418978905680346 0.004243585605173783 0.050418978905680346
7.276E9 0.004360663482037971 0.05148352860817786 0.9956393365179619 -0.05148352860817786 0.9956393365179619 -0.05148352860817786 0.004360663482037971 0.05148352860817786
7.35075E9 0.004479771856462791 0.052543462744344405 0.9955202281435372 -0.052543462744344405 0.9955202281435372 -0.052543462744344405 0.004479771856462791 0.052543462744344405
7.4255E9 0.004600917571821038 0.053598976966943324 0.9953990824281793 -0.053598976966943324 0.9953990824281793 -0.053598976966943324 0.004600917571821038 0.053598976966943324
7.50025E9 0.004724109816260853 0.05465026257753509 0.9952758901837393 -0.05465026257753509 0.9952758901837393 -0.05465026257753509 0.004724109816260853 0.05465026257753509
7.575E9 0.00484936022777017 0.05569750700613666 0.9951506397722297 -0.05569750700613666 0.9951506397722297 -0.05569750700613666 0.00484936022777017 0.05569750700613666
7.64975E9 0.004976683020276611 0.05674089428823286 0.9950233169797233 -0.05674089428823286 0.9950233169797233 -0.05674089428823286 0.004976683020276611 0.05674089428823286
7.7245E9 0.005106095133059097 0.05778060554220329 0.9948939048669407 -0.05778060554220329 0.9948939048669407 -0.05778060554220329 0.005106095133059097 0.05778060554220329
7.79925E9 0.005237616406177979 0.058816819450366965 0.994762383593822 -0.058816819450366965 0.994762383593822 -0.058816819450366965 0.005237616406177979 0.058816819450366965
7.874E9 0.005371269785134705 0.05984971274702849 0.9946287302148652 -0.05984971274702849 0.9946287302148652 -0.05984971274702849 0.005371269785134705 0.05984971274702849
7.94875E9 0.005507081558565184 0.06087946071713379 0.9944929184414346 -0.06087946071713379 0.9944929184414346 -0.06087946071713379 0.005507081558565184 0.06087946071713379
8.0235E9 0.005645081633472845 0.06190623770942181 0.9943549183665272 -0.06190623770942181 0.9943549183665272 -0.06190623770942181 0.005645081633472845 0.06190623770942181
8.09825E9 0.005785303853341197 0.0629302176682887 0.9942146961466586 -0.0629302176682887 0.9942146961466586 -0.0629302176682887 0.005785303853341197 0.0629302176682887
8.173E9 0.005927786365461266 0.06395157468897902 0.9940722136345387 -0.06395157468897902 0.9940722136345387 -0.06395157468897902 0.005927786365461266 0.06395157468897902
8.24775E9 0.006072572045002407 0.06497048360118243 0.9939274279549979 -0.06497048360118243 0.9939274279549979 -0.06497048360118243 0.006072572045002407 0.06497048360118243
8.3225E9 0.006219708984791329 0.06598712058666137 0.9937802910152087 -0.06598712058666137 0.9937802910152087 -0.06598712058666137 0.006219708984791329 0.06598712058666137
8.39725E9 0.006369251061500138 0.06700166383716917 0.9936307489384998 -0.06700166383716917 0.9936307489384998 -0.06700166383716917 0.006369251061500138 0.06700166383716917
8.472E9 0.006521258591050472 0.06801429425965079 0.9934787414089495 -0.06801429425965079 0.9934787414089495 -0.06801429425965079 0.006521258591050472 0.06801429425965079
8.54675E9 0.006675799088607697 0.0690251962365634 0.9933242009113924 -0.0690251962365634 0.9933242009113924 -0.0690251962365634 0.006675799088607697 0.0690251962365634
