!Murata Part Number: GJM0225C1E200GB01
!These Parameters are Measured in Series Mode Connection
!       o--ll--o
!Port1            Port2
!       o------o
!Operation Temp=25[degC], DC Bias Voltage=0[V]
!Freq. Start=100[MHz] Stop=30[GHz], 401[Steps]
!Data Generated on Feb 1, 2023
# Hz S RI R 50
!Freq.(Hz) S11(Real) S11(Imag) S21(Real) S21(Imag) S12(Real) S12(Imag) S22(Real) S22(Imag)
1.0E8 0.3871763328727558 -0.48674726509291105 0.6128236671272442 0.48674726509291105 0.6128236671272442 0.48674726509291105 0.3871763328727558 -0.48674726509291105
1.7475E8 0.17091596176776355 -0.3758059799537746 0.8290840382322364 0.3758059799537746 0.8290840382322364 0.3758059799537746 0.17091596176776355 -0.3758059799537746
2.495E8 0.09138565937509224 -0.2872464382408074 0.9086143406249075 0.2872464382408074 0.9086143406249075 0.2872464382408074 0.09138565937509224 -0.2872464382408074
3.2425E8 0.055816379719719825 -0.22836352249983968 0.9441836202802801 0.22836352249983968 0.9441836202802801 0.22836352249983968 0.055816379719719825 -0.22836352249983968
3.99E8 0.03724800359054917 -0.1878569471916666 0.962751996409451 0.1878569471916666 0.962751996409451 0.1878569471916666 0.03724800359054917 -0.1878569471916666
4.7375E8 0.026434079520126948 -0.1585822597802783 0.9735659204798731 0.1585822597802783 0.9735659204798731 0.1585822597802783 0.026434079520126948 -0.1585822597802783
5.485E8 0.019618132366148528 -0.13649295444797113 0.9803818676338514 0.13649295444797113 0.9803818676338514 0.13649295444797113 0.019618132366148528 -0.13649295444797113
6.2325E8 0.015060811600839233 -0.11922622982994623 0.9849391883991607 0.11922622982994623 0.9849391883991607 0.11922622982994623 0.015060811600839233 -0.11922622982994623
6.98E8 0.01187217398864562 -0.10533459247427482 0.9881278260113542 0.10533459247427482 0.9881278260113542 0.10533459247427482 0.01187217398864562 -0.10533459247427482
7.7275E8 0.009560045141500474 -0.09388967166900712 0.9904399548584994 0.09388967166900712 0.9904399548584994 0.09388967166900712 0.009560045141500474 -0.09388967166900712
8.475E8 0.007834820728547215 -0.08427161144712943 0.992165179271453 0.08427161144712943 0.992165179271453 0.08427161144712943 0.007834820728547215 -0.08427161144712943
9.2225E8 0.006517268567035378 -0.07605199370682936 0.9934827314329647 0.07605199370682936 0.9934827314329647 0.07605199370682936 0.006517268567035378 -0.07605199370682936
9.97E8 0.005491722268545308 -0.06892580462785423 0.9945082777314549 0.06892580462785423 0.9945082777314549 0.06892580462785423 0.005491722268545308 -0.06892580462785423
1.07175E9 0.004680858275417337 -0.0626702688021476 0.9953191417245826 0.0626702688021476 0.9953191417245826 0.0626702688021476 0.004680858275417337 -0.0626702688021476
1.1465E9 0.004031405766130261 -0.05711902846619451 0.9959685942338697 0.05711902846619451 0.9959685942338697 0.05711902846619451 0.004031405766130261 -0.05711902846619451
1.22125E9 0.003505698192918881 -0.052145425040399186 0.996494301807081 0.052145425040399186 0.996494301807081 0.052145425040399186 0.003505698192918881 -0.052145425040399186
1.296E9 0.0030764918394002774 -0.04765136613904887 0.9969235081605997 0.04765136613904887 0.9969235081605997 0.04765136613904887 0.0030764918394002774 -0.04765136613904887
1.37075E9 0.002723685003160265 -0.04355972528168777 0.9972763149968398 0.04355972528168777 0.9972763149968398 0.04355972528168777 0.002723685003160265 -0.04355972528168777
1.4455E9 0.0024321816034690684 -0.03980903714655557 0.9975678183965309 0.03980903714655557 0.9975678183965309 0.03980903714655557 0.0024321816034690684 -0.03980903714655557
1.52025E9 0.002190465076242309 -0.036349720977397824 0.9978095349237575 0.036349720977397824 0.9978095349237575 0.036349720977397824 0.002190465076242309 -0.036349720977397824
1.595E9 0.0019896251135401973 -0.03314134363985772 0.9980103748864598 0.03314134363985772 0.9980103748864598 0.03314134363985772 0.0019896251135401973 -0.03314134363985772
1.66975E9 0.0018226801261888113 -0.03015060398785005 0.9981773198738113 0.03015060398785005 0.9981773198738113 0.03015060398785005 0.0018226801261888113 -0.03015060398785005
1.7445E9 0.0016840970336526027 -0.027349826642354393 0.9983159029663471 0.027349826642354393 0.9983159029663471 0.027349826642354393 0.0016840970336526027 -0.027349826642354393
1.81925E9 0.00156944531646232 -0.024715821390645532 0.9984305546835377 0.024715821390645532 0.9984305546835377 0.024715821390645532 0.00156944531646232 -0.024715821390645532
1.894E9 0.0014751440545308788 -0.022229008898912446 0.9985248559454689 0.022229008898912446 0.9985248559454689 0.022229008898912446 0.0014751440545308788 -0.022229008898912446
1.96875E9 0.0013982744151446237 -0.01987274304134707 0.998601725584855 0.01987274304134707 0.998601725584855 0.01987274304134707 0.0013982744151446237 -0.01987274304134707
2.0435E9 0.0013364388981572585 -0.017632780202208764 0.9986635611018432 0.017632780202208764 0.9986635611018432 0.017632780202208764 0.0013364388981572585 -0.017632780202208764
2.11825E9 0.0012876544450345865 -0.015496859706679226 0.9987123455549654 0.015496859706679226 0.9987123455549654 0.015496859706679226 0.0012876544450345865 -0.015496859706679226
2.193E9 0.0012502703866345295 -0.013454369172654036 0.9987497296133654 0.013454369172654036 0.9987497296133654 0.013454369172654036 0.0012502703866345295 -0.013454369172654036
2.26775E9 0.0012229048258143363 -0.011496075397024897 0.9987770951741856 0.011496075397024897 0.9987770951741856 0.011496075397024897 0.0012229048258143363 -0.011496075397024897
2.3425E9 0.0012043948531802531 -0.009613906280084282 0.9987956051468198 0.009613906280084282 0.9987956051468198 0.009613906280084282 0.0012043948531802531 -0.009613906280084282
2.41725E9 0.0011937572502532406 -0.0078007728386064925 0.9988062427497466 0.0078007728386064925 0.9988062427497466 0.0078007728386064925 0.0011937572502532406 -0.0078007728386064925
2.492E9 0.0011901572206506417 -0.0060504229591261385 0.9988098427793494 0.0060504229591261385 0.9988098427793494 0.0060504229591261385 0.0011901572206506417 -0.0060504229591261385
2.56675E9 0.0011928833227354064 -0.004357320469796073 0.9988071166772645 0.004357320469796073 0.9988071166772645 0.004357320469796073 0.0011928833227354064 -0.004357320469796073
2.6415E9 0.0012013272340400845 -0.002716544550374614 0.9987986727659599 0.002716544550374614 0.9987986727659599 0.002716544550374614 0.0012013272340400845 -0.002716544550374614
2.71625E9 0.0012149673109994273 -0.0011237055874853395 0.9987850326890008 0.0011237055874853395 0.9987850326890008 0.0011237055874853395 0.0012149673109994273 -0.0011237055874853395
2.791E9 0.0012333551529582936 4.251255900096002E-4 0.9987666448470417 -4.251255900096002E-4 0.9987666448470417 -4.251255900096002E-4 0.0012333551529582936 4.251255900096002E-4
2.86575E9 0.0012561045618687335 0.0019334775257738221 0.9987438954381311 -0.0019334775257738221 0.9987438954381311 -0.0019334775257738221 0.0012561045618687335 0.0019334775257738221
2.9405E9 0.0012828824259140507 0.003404528940484455 0.9987171175740859 -0.003404528940484455 0.9987171175740859 -0.003404528940484455 0.0012828824259140507 0.003404528940484455
3.01525E9 0.0013134011587753772 0.004841152083766849 0.9986865988412246 -0.004841152083766849 0.9986865988412246 -0.004841152083766849 0.0013134011587753772 0.004841152083766849
3.09E9 0.0013474124051538817 0.00624594989214073 0.9986525875948463 -0.00624594989214073 0.9986525875948463 -0.00624594989214073 0.0013474124051538817 0.00624594989214073
3.16475E9 0.001384701783796686 0.007621287975712373 0.9986152982162032 -0.007621287975712373 0.9986152982162032 -0.007621287975712373 0.001384701783796686 0.007621287975712373
3.2395E9 0.0014250844862407567 0.008969322269349546 0.9985749155137592 -0.008969322269349546 0.9985749155137592 -0.008969322269349546 0.0014250844862407567 0.008969322269349546
3.31425E9 0.0014684015861558084 0.010292023034988022 0.9985315984138441 -0.010292023034988022 0.9985315984138441 -0.010292023034988022 0.0014684015861558084 0.010292023034988022
3.389E9 0.0015145169430277484 0.011591195782252177 0.998485483056972 -0.011591195782252177 0.998485483056972 -0.011591195782252177 0.0015145169430277484 0.011591195782252177
3.46375E9 0.001563314606839113 0.012868499578401707 0.9984366853931609 -0.012868499578401707 0.9984366853931609 -0.012868499578401707 0.001563314606839113 0.012868499578401707
3.5385E9 0.0016146966487745463 0.014125463140882148 0.9983853033512254 -0.014125463140882148 0.9983853033512254 -0.014125463140882148 0.0016146966487745463 0.014125463140882148
3.61325E9 0.0016685813578756112 0.015363499042709818 0.9983314186421245 -0.015363499042709818 0.9983314186421245 -0.015363499042709818 0.0016685813578756112 0.015363499042709818
3.688E9 0.0017249017558139197 0.016583916309654678 0.9982750982441861 -0.016583916309654678 0.9982750982441861 -0.016583916309654678 0.0017249017558139197 0.016583916309654678
3.76275E9 0.0017836043921909668 0.017787931646436335 0.9982163956078091 -0.017787931646436335 0.9982163956078091 -0.017787931646436335 0.0017836043921909668 0.017787931646436335
3.8375E9 0.0018446483915253954 0.018976679495158275 0.9981553516084746 -0.018976679495158275 0.9981553516084746 -0.018976679495158275 0.0018446483915253954 0.018976679495158275
3.91225E9 0.0019080047307821473 0.02015122110160231 0.9980919952692179 -0.02015122110160231 0.9980919952692179 -0.02015122110160231 0.0019080047307821473 0.02015122110160231
3.987E9 0.0019736557333026447 0.02131255274272663 0.9980263442666973 -0.02131255274272663 0.9980263442666973 -0.02131255274272663 0.0019736557333026447 0.02131255274272663
4.06175E9 0.002041594771647149 0.022461613250942935 0.9979584052283531 -0.022461613250942935 0.9979584052283531 -0.022461613250942935 0.002041594771647149 0.022461613250942935
4.1365E9 0.002111826178487047 0.023599290956881198 0.9978881738215132 -0.023599290956881198 0.9978881738215132 -0.023599290956881198 0.002111826178487047 0.023599290956881198
4.21125E9 0.002184365371628136 0.02472643016194815 0.9978156346283719 -0.02472643016194815 0.9978156346283719 -0.02472643016194815 0.002184365371628136 0.02472643016194815
4.286E9 0.0022592392068896015 0.02584383724476343 0.9977407607931105 -0.02584383724476343 0.9977407607931105 -0.02584383724476343 0.0022592392068896015 0.02584383724476343
4.36075E9 0.0023364865813647667 0.02695228650137547 0.9976635134186351 -0.02695228650137547 0.9976635134186351 -0.02695228650137547 0.0023364865813647667 0.02695228650137547
4.4355E9 0.0024161593201214946 0.028052525818015286 0.9975838406798785 -0.028052525818015286 0.9975838406798785 -0.028052525818015286 0.0024161593201214946 0.028052525818015286
4.51025E9 0.0024983233924066174 0.029145282277187826 0.9975016766075934 -0.029145282277187826 0.9975016766075934 -0.029145282277187826 0.0024983233924066174 0.029145282277187826
4.585E9 0.002583060519894214 0.030231267803438214 0.9974169394801056 -0.030231267803438214 0.9974169394801056 -0.030231267803438214 0.002583060519894214 0.030231267803438214
4.65975E9 0.002670470260818445 0.031311184964665124 0.9973295297391814 -0.031311184964665124 0.9973295297391814 -0.031311184964665124 0.002670470260818445 0.031311184964665124
4.7345E9 0.0027606726818394946 0.032385733059121874 0.9972393273181607 -0.032385733059121874 0.9972393273181607 -0.032385733059121874 0.0027606726818394946 0.032385733059121874
4.80925E9 0.0028538117668535953 0.03345561463826601 0.9971461882331466 -0.03345561463826601 0.9971461882331466 -0.03345561463826601 0.0028538117668535953 0.03345561463826601
4.884E9 0.002950059762447644 0.034521542642773115 0.9970499402375521 -0.034521542642773115 0.9970499402375521 -0.034521542642773115 0.002950059762447644 0.034521542642773115
4.95875E9 0.0030496227287577045 0.035584248365143345 0.9969503772712422 -0.035584248365143345 0.9969503772712422 -0.035584248365143345 0.0030496227287577045 0.035584248365143345
5.0335E9 0.003152747660064458 0.03664449049977871 0.9968472523399357 -0.03664449049977871 0.9968472523399357 -0.03664449049977871 0.003152747660064458 0.03664449049977871
5.10825E9 0.003259731673290563 0.03770306560321184 0.9967402683267094 -0.03770306560321184 0.9967402683267094 -0.03770306560321184 0.003259731673290563 0.03770306560321184
5.183E9 0.0033709339522324895 0.03876082036704004 0.9966290660477675 -0.03876082036704004 0.9966290660477675 -0.03876082036704004 0.0033709339522324895 0.03876082036704004
5.25775E9 0.0034867914075201274 0.0398186662083755 0.9965132085924796 -0.0398186662083755 0.9965132085924796 -0.0398186662083755 0.0034867914075201274 0.0398186662083755
5.3325E9 0.0036078394079388384 0.04087759681171821 0.9963921605920611 -0.04087759681171821 0.9963921605920611 -0.04087759681171821 0.0036078394079388384 0.04087759681171821
5.40725E9 0.0037347395218013586 0.041938709415361354 0.9962652604781986 -0.041938709415361354 0.9962652604781986 -0.041938709415361354 0.0037347395218013586 0.041938709415361354
5.482E9 0.0038683170787432958 0.04300323082362816 0.9961316829212568 -0.04300323082362816 0.9961316829212568 -0.04300323082362816 0.0038683170787432958 0.04300323082362816
5.55675E9 0.0040096126854079804 0.04407254933047974 0.9959903873145921 -0.04407254933047974 0.9959903873145921 -0.04407254933047974 0.0040096126854079804 0.04407254933047974
5.6315E9 0.004159953868945705 0.04514825391902541 0.9958400461310543 -0.04514825391902541 0.9958400461310543 -0.04514825391902541 0.004159953868945705 0.04514825391902541
5.70625E9 0.004321056221709721 0.04623218214875903 0.9956789437782902 -0.04623218214875903 0.9956789437782902 -0.04623218214875903 0.004321056221709721 0.04623218214875903
5.781E9 0.0044951685240098 0.0473264778045279 0.9955048314759901 -0.0473264778045279 0.9955048314759901 -0.0473264778045279 0.0044951685240098 0.0473264778045279
5.85575E9 0.004685284604663083 0.04843365807399753 0.995314715395337 -0.04843365807399753 0.995314715395337 -0.04843365807399753 0.004685284604663083 0.04843365807399753
5.9305E9 0.0048954583706945385 0.04955668640832397 0.9951045416293056 -0.04955668640832397 0.9951045416293056 -0.04955668640832397 0.0048954583706945385 0.04955668640832397
6.00525E9 0.005131281348016972 0.050699038238211855 0.9948687186519832 -0.050699038238211855 0.9948687186519832 -0.050699038238211855 0.005131281348016972 0.050699038238211855
6.08E9 0.005400620890481525 0.05186472523392864 0.9945993791095187 -0.05186472523392864 0.9945993791095187 -0.05186472523392864 0.005400620890481525 0.05186472523392864
6.15475E9 0.005714783084307412 0.05305819291885477 0.9942852169156925 -0.05305819291885477 0.9942852169156925 -0.05305819291885477 0.005714783084307412 0.05305819291885477
6.2295E9 0.006090373985922629 0.054283885308792454 0.9939096260140775 -0.054283885308792454 0.9939096260140775 -0.054283885308792454 0.006090373985922629 0.054283885308792454
6.30425E9 0.0065523021840165376 0.0555449782094795 0.9934476978159833 -0.0555449782094795 0.9934476978159833 -0.0555449782094795 0.0065523021840165376 0.0555449782094795
6.379E9 0.0071385655010584095 0.056840070486532786 0.9928614344989414 -0.056840070486532786 0.9928614344989414 -0.056840070486532786 0.0071385655010584095 0.056840070486532786
6.45375E9 0.007907405228650317 0.05815489027057317 0.9920925947713495 -0.05815489027057317 0.9920925947713495 -0.05815489027057317 0.007907405228650317 0.05815489027057317
6.5285E9 0.00894563483180134 0.059442071709959056 0.9910543651681984 -0.059442071709959056 0.9910543651681984 -0.059442071709959056 0.00894563483180134 0.059442071709959056
6.60325E9 0.010367508012961575 0.06057466393630312 0.9896324919870384 -0.06057466393630312 0.9896324919870384 -0.06057466393630312 0.010367508012961575 0.06057466393630312
6.678E9 0.012257942769054994 0.06125802804379073 0.9877420572309451 -0.06125802804379073 0.9877420572309451 -0.06125802804379073 0.012257942769054994 0.06125802804379073
6.75275E9 0.014437016548166594 0.060965703323604306 0.9855629834518336 -0.060965703323604306 0.9855629834518336 -0.060965703323604306 0.014437016548166594 0.060965703323604306
6.8275E9 0.016038445517532352 0.05929448128301614 0.9839615544824675 -0.05929448128301614 0.9839615544824675 -0.05929448128301614 0.016038445517532352 0.05929448128301614
6.90225E9 0.015873210911218672 0.05699204741073163 0.9841267890887812 -0.05699204741073163 0.9841267890887812 -0.05699204741073163 0.015873210911218672 0.05699204741073163
6.977E9 0.014110037241866363 0.0556604541639288 0.9858899627581335 -0.0556604541639288 0.9858899627581335 -0.0556604541639288 0.014110037241866363 0.0556604541639288
7.05175E9 0.012054240844429971 0.055781837717938196 0.9879457591555701 -0.055781837717938196 0.9879457591555701 -0.055781837717938196 0.012054240844429971 0.055781837717938196
7.1265E9 0.010461426005014363 0.056797107490013696 0.9895385739949857 -0.056797107490013696 0.9895385739949857 -0.056797107490013696 0.010461426005014363 0.056797107490013696
7.20125E9 0.009405216609583551 0.05816603155282341 0.9905947833904166 -0.05816603155282341 0.9905947833904166 -0.05816603155282341 0.009405216609583551 0.05816603155282341
7.276E9 0.00875026789877762 0.059620782958268996 0.9912497321012221 -0.059620782958268996 0.9912497321012221 -0.059620782958268996 0.00875026789877762 0.059620782958268996
7.35075E9 0.00836412767098901 0.061059582416383186 0.9916358723290111 -0.061059582416383186 0.9916358723290111 -0.061059582416383186 0.00836412767098901 0.061059582416383186
7.4255E9 0.008155044842132314 0.062452147776788154 0.9918449551578677 -0.062452147776788154 0.9918449551578677 -0.062452147776788154 0.008155044842132314 0.062452147776788154
7.50025E9 0.008064659888275568 0.06379503059771757 0.9919353401117244 -0.06379503059771757 0.9919353401117244 -0.06379503059771757 0.008064659888275568 0.06379503059771757
7.575E9 0.00805643723156763 0.06509369963904367 0.9919435627684322 -0.06509369963904367 0.9919435627684322 -0.06509369963904367 0.00805643723156763 0.06509369963904367
7.64975E9 0.008107341536445633 0.06635582102241598 0.9918926584635545 -0.06635582102241598 0.9918926584635545 -0.06635582102241598 0.008107341536445633 0.06635582102241598
7.7245E9 0.008202659696281384 0.06758890315370922 0.9917973403037187 -0.06758890315370922 0.9917973403037187 -0.06758890315370922 0.008202659696281384 0.06758890315370922
7.79925E9 0.008332894246389149 0.06879959474318874 0.991667105753611 -0.06879959474318874 0.991667105753611 -0.06879959474318874 0.008332894246389149 0.06879959474318874
7.874E9 0.008491901689394779 0.06999358695325635 0.9915080983106052 -0.06999358695325635 0.9915080983106052 -0.06999358695325635 0.008491901689394779 0.06999358695325635
7.94875E9 0.008675764377084241 0.07117571725067545 0.9913242356229158 -0.07117571725067545 0.9913242356229158 -0.07117571725067545 0.008675764377084241 0.07117571725067545
8.0235E9 0.008882097543966674 0.0723501232772276 0.9911179024560334 -0.0723501232772276 0.9911179024560334 -0.0723501232772276 0.008882097543966674 0.0723501232772276
8.09825E9 0.00910961936863681 0.07352039257171565 0.990890380631363 -0.07352039257171565 0.990890380631363 -0.07352039257171565 0.00910961936863681 0.07352039257171565
8.173E9 0.009357884229878427 0.07468969161730728 0.9906421157701214 -0.07468969161730728 0.9906421157701214 -0.07468969161730728 0.009357884229878427 0.07468969161730728
8.24775E9 0.009627120632992347 0.0758608716878783 0.9903728793670078 -0.0758608716878783 0.9903728793670078 -0.0758608716878783 0.009627120632992347 0.0758608716878783
8.3225E9 0.00991813920748577 0.07703655360698924 0.9900818607925141 -0.07703655360698924 0.9900818607925141 -0.07703655360698924 0.00991813920748577 0.07703655360698924
8.39725E9 0.010232290359721386 0.07821919450673873 0.9897677096402785 -0.07821919450673873 0.9897677096402785 -0.07821919450673873 0.010232290359721386 0.07821919450673873
8.472E9 0.010571459852804931 0.07941113924532739 0.9894285401471953 -0.07941113924532739 0.9894285401471953 -0.07941113924532739 0.010571459852804931 0.07941113924532739
