!Murata Part Number: GJM0225C1E5R8BB01
!These Parameters are Measured in Series Mode Connection
!       o--ll--o
!Port1            Port2
!       o------o
!Operation Temp=25[degC], DC Bias Voltage=0[V]
!Freq. Start=100[MHz] Stop=30[GHz], 401[Steps]
!Data Generated on Feb 1, 2023
# Hz S RI R 50
!Freq.(Hz) S11(Real) S11(Imag) S21(Real) S21(Imag) S12(Real) S12(Imag) S22(Real) S22(Imag)
1.0E8 0.8825567447226783 -0.3216798527558221 0.11744325527732166 0.3216798527558221 0.11744325527732166 0.3216798527558221 0.8825567447226783 -0.3216798527558221
1.7475E8 0.7108260997675687 -0.45291035935873264 0.2891739002324312 0.45291035935873264 0.2891739002324312 0.45291035935873264 0.7108260997675687 -0.45291035935873264
2.495E8 0.5462430698523774 -0.49718732006771144 0.45375693014762253 0.49718732006771144 0.45375693014762253 0.49718732006771144 0.5462430698523774 -0.49718732006771144
3.2425E8 0.4155914414295656 -0.49195195215470905 0.5844085585704344 0.49195195215470905 0.5844085585704344 0.49195195215470905 0.4155914414295656 -0.49195195215470905
3.99E8 0.31893399212213697 -0.46498844821978147 0.6810660078778631 0.46498844821978147 0.6810660078778631 0.46498844821978147 0.31893399212213697 -0.46498844821978147
4.7375E8 0.24869363913782613 -0.4309762580412352 0.751306360862174 0.4309762580412352 0.751306360862174 0.4309762580412352 0.24869363913782613 -0.4309762580412352
5.485E8 0.1973908275448576 -0.3965438715091064 0.8026091724551424 0.3965438715091064 0.8026091724551424 0.3965438715091064 0.1973908275448576 -0.3965438715091064
6.2325E8 0.15937662346565723 -0.3643327859353547 0.8406233765343428 0.3643327859353547 0.8406233765343428 0.3643327859353547 0.15937662346565723 -0.3643327859353547
6.98E8 0.13071161359145983 -0.3351800441536525 0.8692883864085402 0.3351800441536525 0.8692883864085402 0.3351800441536525 0.13071161359145983 -0.3351800441536525
7.7275E8 0.10870735561548105 -0.3091540213866835 0.891292644384519 0.3091540213866835 0.891292644384519 0.3091540213866835 0.10870735561548105 -0.3091540213866835
8.475E8 0.09152661080565391 -0.2860230130717701 0.9084733891943461 0.2860230130717701 0.9084733891943461 0.2860230130717701 0.09152661080565391 -0.2860230130717701
9.2225E8 0.07789978389001626 -0.26546132297751346 0.9221002161099837 0.26546132297751346 0.9221002161099837 0.26546132297751346 0.07789978389001626 -0.26546132297751346
9.97E8 0.06693617293289272 -0.2471365146265592 0.9330638270671073 0.2471365146265592 0.9330638270671073 0.2471365146265592 0.06693617293289272 -0.2471365146265592
1.07175E9 0.05800055209588517 -0.23074340132337293 0.9419994479041147 0.23074340132337293 0.9419994479041147 0.23074340132337293 0.05800055209588517 -0.23074340132337293
1.1465E9 0.05063239846373753 -0.21601452003410196 0.9493676015362623 0.21601452003410196 0.9493676015362623 0.21601452003410196 0.05063239846373753 -0.21601452003410196
1.22125E9 0.04449252974253584 -0.202720591876523 0.9555074702574644 0.202720591876523 0.9555074702574644 0.202720591876523 0.04449252974253584 -0.202720591876523
1.296E9 0.039327382143988295 -0.19066708346854694 0.9606726178560117 0.19066708346854694 0.9606726178560117 0.19066708346854694 0.039327382143988295 -0.19066708346854694
1.37075E9 0.034944741656848105 -0.17968959763369086 0.965055258343152 0.17968959763369086 0.965055258343152 0.17968959763369086 0.034944741656848105 -0.17968959763369086
1.4455E9 0.03119700505102208 -0.16964926301644193 0.9688029949489777 0.16964926301644193 0.9688029949489777 0.16964926301644193 0.03119700505102208 -0.16964926301644193
1.52025E9 0.02796946102026544 -0.16042857654464923 0.9720305389797347 0.16042857654464923 0.9720305389797347 0.16042857654464923 0.02796946102026544 -0.16042857654464923
1.595E9 0.02517196718249943 -0.15192782998017693 0.9748280328175007 0.15192782998017693 0.9748280328175007 0.15192782998017693 0.02517196718249943 -0.15192782998017693
1.66975E9 0.022732957506676768 -0.14406211283820017 0.9772670424933232 0.14406211283820017 0.9772670424933232 0.14406211283820017 0.022732957506676768 -0.14406211283820017
1.7445E9 0.020595071522329797 -0.1367588304082076 0.9794049284776704 0.1367588304082076 0.9794049284776704 0.1367588304082076 0.020595071522329797 -0.1367588304082076
1.81925E9 0.018711927383120726 -0.12995566090433713 0.9812880726168793 0.12995566090433713 0.9812880726168793 0.12995566090433713 0.018711927383120726 -0.12995566090433713
1.894E9 0.017045712051883447 -0.12359887782617034 0.9829542879481166 0.12359887782617034 0.9829542879481166 0.12359887782617034 0.017045712051883447 -0.12359887782617034
1.96875E9 0.015565362295923356 -0.11764197204899428 0.9844346377040765 0.11764197204899428 0.9844346377040765 0.11764197204899428 0.015565362295923356 -0.11764197204899428
2.0435E9 0.01424517776264986 -0.11204451823800302 0.9857548222373503 0.11204451823800302 0.9857548222373503 0.11204451823800302 0.01424517776264986 -0.11204451823800302
2.11825E9 0.013063753470245354 -0.10677123984734939 0.9869362465297545 0.10677123984734939 0.9869362465297545 0.10677123984734939 0.013063753470245354 -0.10677123984734939
2.193E9 0.012003150833993425 -0.10179123545496016 0.9879968491660066 0.10179123545496016 0.9879968491660066 0.10179123545496016 0.012003150833993425 -0.10179123545496016
2.26775E9 0.011048248540885985 -0.09707733631776547 0.9889517514591141 0.09707733631776547 0.9889517514591141 0.09707733631776547 0.011048248540885985 -0.09707733631776547
2.3425E9 0.010186230253186393 -0.09260557088218296 0.9898137697468138 0.09260557088218296 0.9898137697468138 0.09260557088218296 0.010186230253186393 -0.09260557088218296
2.41725E9 0.009406177301985905 -0.0883547167167943 0.990593822698014 0.0883547167167943 0.990593822698014 0.0883547167167943 0.009406177301985905 -0.0883547167167943
2.492E9 0.00869874259095007 -0.08430592413289033 0.9913012574090498 0.08430592413289033 0.9913012574090498 0.08430592413289033 0.00869874259095007 -0.08430592413289033
2.56675E9 0.008055887795848026 -0.08044239879646638 0.991944112204152 0.08044239879646638 0.991944112204152 0.08044239879646638 0.008055887795848026 -0.08044239879646638
2.6415E9 0.007470670253400466 -0.07674913306145159 0.9925293297465995 0.07674913306145159 0.9925293297465995 0.07674913306145159 0.007470670253400466 -0.07674913306145159
2.71625E9 0.006937069124589069 -0.0732126776921623 0.993062930875411 0.0732126776921623 0.993062930875411 0.0732126776921623 0.006937069124589069 -0.0732126776921623
2.791E9 0.00644984280169814 -0.06982094719348 0.9935501571983019 0.06982094719348 0.9935501571983019 0.06982094719348 0.00644984280169814 -0.06982094719348
2.86575E9 0.0060044113233185285 -0.06656305321025999 0.9939955886766814 0.06656305321025999 0.9939955886766814 0.06656305321025999 0.0060044113233185285 -0.06656305321025999
2.9405E9 0.00559675892305114 -0.06342916145659992 0.9944032410769489 0.06342916145659992 0.9944032410769489 0.06342916145659992 0.00559675892305114 -0.06342916145659992
3.01525E9 0.005223352877736962 -0.06041036844108988 0.9947766471222631 0.06041036844108988 0.9947766471222631 0.06041036844108988 0.005223352877736962 -0.06041036844108988
3.09E9 0.004881075620988734 -0.05749859490563921 0.9951189243790112 0.05749859490563921 0.9951189243790112 0.05749859490563921 0.004881075620988734 -0.05749859490563921
3.16475E9 0.004567167707036992 -0.05468649342415129 0.9954328322929628 0.05468649342415129 0.9954328322929628 0.05468649342415129 0.004567167707036992 -0.05468649342415129
3.2395E9 0.0042791796922165195 -0.05196736803781657 0.9957208203077835 0.05196736803781657 0.9957208203077835 0.05196736803781657 0.0042791796922165195 -0.05196736803781657
3.31425E9 0.004014931379302536 -0.04933510415556382 0.9959850686206975 0.04933510415556382 0.9959850686206975 0.04933510415556382 0.004014931379302536 -0.04933510415556382
3.389E9 0.003772477167641488 -0.04678410723664966 0.9962275228323586 0.04678410723664966 0.9962275228323586 0.04678410723664966 0.003772477167641488 -0.04678410723664966
3.46375E9 0.003550076487874268 -0.04430924900969055 0.9964499235121256 0.04430924900969055 0.9964499235121256 0.04430924900969055 0.003550076487874268 -0.04430924900969055
3.5385E9 0.003346168487848003 -0.04190582017837811 0.9966538315121521 0.04190582017837811 0.9966538315121521 0.04190582017837811 0.003346168487848003 -0.04190582017837811
3.61325E9 0.0031593502865877557 -0.03956948872642764 0.9968406497134124 0.03956948872642764 0.9968406497134124 0.03956948872642764 0.0031593502865877557 -0.03956948872642764
3.688E9 0.002988358234019504 -0.03729626306920296 0.9970116417659806 0.03729626306920296 0.9970116417659806 0.03729626306920296 0.002988358234019504 -0.03729626306920296
3.76275E9 0.002832051711717441 -0.0350824594119375 0.9971679482882826 0.0350824594119375 0.9971679482882826 0.0350824594119375 0.002832051711717441 -0.0350824594119375
3.8375E9 0.0026893990891054937 -0.032924672768544806 0.9973106009108945 0.032924672768544806 0.9973106009108945 0.032924672768544806 0.0026893990891054937 -0.032924672768544806
3.91225E9 0.0025594655140246366 -0.030819751173942415 0.9974405344859754 0.030819751173942415 0.9974405344859754 0.030819751173942415 0.0025594655140246366 -0.030819751173942415
3.987E9 0.0024414022693166415 -0.028764772689232845 0.9975585977306833 0.028764772689232845 0.9975585977306833 0.028764772689232845 0.0024414022693166415 -0.028764772689232845
4.06175E9 0.002334437470377771 -0.026757024855142728 0.9976655625296222 0.026757024855142728 0.9976655625296222 0.026757024855142728 0.002334437470377771 -0.026757024855142728
4.1365E9 0.0022378679143241296 -0.024793986296568225 0.9977621320856758 0.024793986296568225 0.9977621320856758 0.024793986296568225 0.0022378679143241296 -0.024793986296568225
4.21125E9 0.0021510519209290446 -0.022873310221343108 0.997848948079071 0.022873310221343108 0.997848948079071 0.022873310221343108 0.0021510519209290446 -0.022873310221343108
4.286E9 0.0020734030299935503 -0.02099280959061757 0.9979265969700064 0.02099280959061757 0.9979265969700064 0.02099280959061757 0.0020734030299935503 -0.02099280959061757
4.36075E9 0.0020043844402149683 -0.019150443767475333 0.9979956155597849 0.019150443767475333 0.9979956155597849 0.019150443767475333 0.0020043844402149683 -0.019150443767475333
4.4355E9 0.001943504091665934 -0.0173443064754325 0.9980564959083342 0.0173443064754325 0.9980564959083342 0.0173443064754325 0.001943504091665934 -0.0173443064754325
4.51025E9 0.0018903103082836743 -0.015572614919911633 0.9981096896917167 0.015572614919911633 0.9981096896917167 0.015572614919911633 0.0018903103082836743 -0.015572614919911633
4.585E9 0.0018443879287799423 -0.0138336999442251 0.9981556120712202 0.0138336999442251 0.9981556120712202 0.0138336999442251 0.0018443879287799423 -0.0138336999442251
4.65975E9 0.0018053548645081657 -0.012125997107490292 0.9981946451354916 0.012125997107490292 0.9981946451354916 0.012125997107490292 0.0018053548645081657 -0.012125997107490292
4.7345E9 0.0017728590313858658 -0.010448038585621603 0.9982271409686141 0.010448038585621603 0.9982271409686141 0.010448038585621603 0.0017728590313858658 -0.010448038585621603
4.80925E9 0.0017465756102288312 -0.008798445808420405 0.9982534243897712 0.008798445808420405 0.9982534243897712 0.008798445808420405 0.0017465756102288312 -0.008798445808420405
4.884E9 0.001726204596023621 -0.007175922756086317 0.9982737954039764 0.007175922756086317 0.9982737954039764 0.007175922756086317 0.001726204596023621 -0.007175922756086317
4.95875E9 0.0017114686019232268 -0.005579249847428217 0.9982885313980768 0.005579249847428217 0.9982885313980768 0.005579249847428217 0.0017114686019232268 -0.005579249847428217
5.0335E9 0.0017021108882432996 -0.004007278359852153 0.9982978891117567 0.004007278359852153 0.9982978891117567 0.004007278359852153 0.0017021108882432996 -0.004007278359852153
5.10825E9 0.0016978935905838136 -0.002458925328011128 0.9983021064094162 0.002458925328011128 0.9983021064094162 0.002458925328011128 0.0016978935905838136 -0.002458925328011128
5.183E9 0.0016985961245038932 -9.331688739535011E-4 0.9983014038754964 9.331688739535011E-4 0.9983014038754964 9.331688739535011E-4 0.0016985961245038932 -9.331688739535011E-4
5.25775E9 0.0017040137470192786 5.709560731785798E-4 0.9982959862529808 -5.709560731785798E-4 0.9982959862529808 -5.709560731785798E-4 0.0017040137470192786 5.709560731785798E-4
5.3325E9 0.0017139562576423712 0.0020543617052728967 0.9982860437423576 -0.0020543617052728967 0.9982860437423576 -0.0020543617052728967 0.0017139562576423712 0.0020543617052728967
5.40725E9 0.0017282468238023685 0.0035179109445404935 0.9982717531761977 -0.0035179109445404935 0.9982717531761977 -0.0035179109445404935 0.0017282468238023685 0.0035179109445404935
5.482E9 0.0017467209173168193 0.004962420763782443 0.998253279082683 -0.004962420763782443 0.998253279082683 -0.004962420763782443 0.0017467209173168193 0.004962420763782443
5.55675E9 0.0017692253501771624 0.006388665244306831 0.9982307746498227 -0.006388665244306831 0.9982307746498227 -0.006388665244306831 0.0017692253501771624 0.006388665244306831
5.6315E9 0.0017956173992944152 0.007797378395408642 0.9982043826007057 -0.007797378395408642 0.9982043826007057 -0.007797378395408642 0.0017956173992944152 0.007797378395408642
5.70625E9 0.0018257640110564935 0.009189256756880277 0.9981742359889435 -0.009189256756880277 0.9981742359889435 -0.009189256756880277 0.0018257640110564935 0.009189256756880277
5.781E9 0.0018595410776007307 0.010564961803851225 0.9981404589223993 -0.010564961803851225 0.9981404589223993 -0.010564961803851225 0.0018595410776007307 0.010564961803851225
5.85575E9 0.001896832777625076 0.011925122171330469 0.9981031672223746 -0.011925122171330469 0.9981031672223746 -0.011925122171330469 0.001896832777625076 0.011925122171330469
5.9305E9 0.0019375309753675019 0.013270335714113204 0.9980624690246322 -0.013270335714113204 0.9980624690246322 -0.013270335714113204 0.0019375309753675019 0.013270335714113204
6.00525E9 0.0019815346720903813 0.014601171416189012 0.9980184653279096 -0.014601171416189012 0.9980184653279096 -0.014601171416189012 0.0019815346720903813 0.014601171416189012
6.08E9 0.0020287495050285522 0.015918171162429755 0.9979712504949715 -0.015918171162429755 0.9979712504949715 -0.015918171162429755 0.0020287495050285522 0.015918171162429755
6.15475E9 0.0020790872893074112 0.017221851384120558 0.9979209127106927 -0.017221851384120558 0.9979209127106927 -0.017221851384120558 0.0020790872893074112 0.017221851384120558
6.2295E9 0.00213246559882064 0.018512704588813624 0.9978675344011796 -0.018512704588813624 0.9978675344011796 -0.018512704588813624 0.00213246559882064 0.018512704588813624
6.30425E9 0.0021888073824841443 0.01979120078401143 0.9978111926175157 -0.01979120078401143 0.9978111926175157 -0.01979120078401143 0.0021888073824841443 0.01979120078401143
6.379E9 0.0022480406126609218 0.02105778880331654 0.9977519593873392 -0.02105778880331654 0.9977519593873392 -0.02105778880331654 0.0022480406126609218 0.02105778880331654
6.45375E9 0.0023100979628867036 0.022312897542902187 0.997689902037113 -0.022312897542902187 0.997689902037113 -0.022312897542902187 0.0023100979628867036 0.022312897542902187
6.5285E9 0.0023749165123242446 0.02355693711545746 0.9976250834876759 -0.02355693711545746 0.9976250834876759 -0.02355693711545746 0.0023749165123242446 0.02355693711545746
6.60325E9 0.0024424374746390065 0.024790299928127184 0.997557562525361 -0.024790299928127184 0.997557562525361 -0.024790299928127184 0.0024424374746390065 0.024790299928127184
6.678E9 0.002512605949225491 0.026013361690400184 0.9974873940507744 -0.026013361690400184 0.9974873940507744 -0.026013361690400184 0.002512605949225491 0.026013361690400184
6.75275E9 0.0025853706929245004 0.027226482357385482 0.9974146293070755 -0.027226482357385482 0.9974146293070755 -0.027226482357385482 0.0025853706929245004 0.027226482357385482
6.8275E9 0.0026606839105606096 0.028430007013453995 0.9973393160894393 -0.028430007013453995 0.9973393160894393 -0.028430007013453995 0.0026606839105606096 0.028430007013453995
6.90225E9 0.002738501062798688 0.029624266700806517 0.9972614989372013 -0.029624266700806517 0.9972614989372013 -0.029624266700806517 0.002738501062798688 0.029624266700806517
6.977E9 0.0028187806899706547 0.030809579197150272 0.9971812193100295 -0.030809579197150272 0.9971812193100295 -0.030809579197150272 0.0028187806899706547 0.030809579197150272
7.05175E9 0.0029014842506610507 0.03198624974632634 0.9970985157493388 -0.03198624974632634 0.9970985157493388 -0.03198624974632634 0.0029014842506610507 0.03198624974632634
7.1265E9 0.002986575973964139 0.03315457174542048 0.9970134240260358 -0.03315457174542048 0.9970134240260358 -0.03315457174542048 0.002986575973964139 0.03315457174542048
7.20125E9 0.0030740227244377334 0.034314827391611014 0.9969259772755621 -0.034314827391611014 0.9969259772755621 -0.034314827391611014 0.0030740227244377334 0.034314827391611014
7.276E9 0.0031637938788813265 0.0354672882917539 0.9968362061211187 -0.0354672882917539 0.9968362061211187 -0.0354672882917539 0.0031637938788813265 0.0354672882917539
7.35075E9 0.003255861214159455 0.03661221603747576 0.9967441387858406 -0.03661221603747576 0.9967441387858406 -0.03661221603747576 0.003255861214159455 0.03661221603747576
7.4255E9 0.003350198805376916 0.037749862748337776 0.9966498011946229 -0.037749862748337776 0.9966498011946229 -0.037749862748337776 0.003350198805376916 0.037749862748337776
7.50025E9 0.0034467829337913075 0.038880471585445 0.9965532170662086 -0.038880471585445 0.9965532170662086 -0.038880471585445 0.0034467829337913075 0.038880471585445
7.575E9 0.003545592003921438 0.040004277237704965 0.9964544079960787 -0.040004277237704965 0.9964544079960787 -0.040004277237704965 0.003545592003921438 0.040004277237704965
7.64975E9 0.0036466064693782135 0.04112150638278496 0.9963533935306218 -0.04112150638278496 0.9963533935306218 -0.04112150638278496 0.0036466064693782135 0.04112150638278496
7.7245E9 0.0037498087670085984 0.04223237812467828 0.9962501912329915 -0.04223237812467828 0.9962501912329915 -0.04223237812467828 0.0037498087670085984 0.04223237812467828
7.79925E9 0.0038551832590035242 0.04333710440966238 0.9961448167409963 -0.04333710440966238 0.9961448167409963 -0.04333710440966238 0.0038551832590035242 0.04333710440966238
7.874E9 0.003962716182678505 0.04443589042231998 0.9960372838173216 -0.04443589042231998 0.9960372838173216 -0.04443589042231998 0.003962716182678505 0.04443589042231998
7.94875E9 0.004072395607691022 0.045528934963189896 0.995927604392309 -0.045528934963189896 0.995927604392309 -0.045528934963189896 0.004072395607691022 0.045528934963189896
8.0235E9 0.004184211400513062 0.04661643080952504 0.9958157885994869 -0.04661643080952504 0.9958157885994869 -0.04661643080952504 0.004184211400513062 0.04661643080952504
8.09825E9 0.004298155196030182 0.047698565060551444 0.9957018448039695 -0.047698565060551444 0.9957018448039695 -0.047698565060551444 0.004298155196030182 0.047698565060551444
8.173E9 0.004414220376191681 0.048775519468551395 0.9955857796238085 -0.048775519468551395 0.9955857796238085 -0.048775519468551395 0.004414220376191681 0.048775519468551395
8.24775E9 0.004532402055689717 0.04984747075702896 0.9954675979443105 -0.04984747075702896 0.9954675979443105 -0.04984747075702896 0.004532402055689717 0.04984747075702896
8.3225E9 0.004652697074699838 0.050914590927161954 0.9953473029253002 -0.050914590927161954 0.9953473029253002 -0.050914590927161954 0.004652697074699838 0.050914590927161954
8.39725E9 0.004775103998771651 0.051977047553696365 0.9952248960012283 -0.051977047553696365 0.9952248960012283 -0.051977047553696365 0.004775103998771651 0.051977047553696365
8.472E9 0.004899623126017199 0.053035004071399494 0.9951003768739828 -0.053035004071399494 0.9951003768739828 -0.053035004071399494 0.004899623126017199 0.053035004071399494
