!Murata Part Number: GJM0225C1ER20WB01
!These Parameters are Measured in Series Mode Connection
!       o--ll--o
!Port1            Port2
!       o------o
!Operation Temp=25[degC], DC Bias Voltage=0[V]
!Freq. Start=100[MHz] Stop=30[GHz], 401[Steps]
!Data Generated on Feb 1, 2023
# Hz S RI R 50
!Freq.(Hz) S11(Real) S11(Imag) S21(Real) S21(Imag) S12(Real) S12(Imag) S22(Real) S22(Imag)
1.0E8 0.9998415349023352 -0.012564537572092492 1.584650976647415E-4 0.012564537572092492 1.584650976647415E-4 0.012564537572092492 0.9998415349023352 -0.012564537572092492
1.7475E8 0.999516238559634 -0.021949954276160692 4.8376144036605014E-4 0.021949954276160692 4.8376144036605014E-4 0.021949954276160692 0.999516238559634 -0.021949954276160692
2.495E8 0.9990142863305083 -0.031324647734705995 9.857136694917895E-4 0.031324647734705995 9.857136694917895E-4 0.031324647734705995 0.9990142863305083 -0.031324647734705995
3.2425E8 0.9983361238830795 -0.04068405229318651 0.0016638761169204311 0.04068405229318651 0.0016638761169204311 0.04068405229318651 0.9983361238830795 -0.04068405229318651
3.99E8 0.9974823524583475 -0.050023624691195 0.0025176475416525427 0.050023624691195 0.0025176475416525427 0.050023624691195 0.9974823524583475 -0.050023624691195
4.7375E8 0.9964537275524437 -0.0593388506571775 0.0035462724475564104 0.0593388506571775 0.0035462724475564104 0.0593388506571775 0.9964537275524437 -0.0593388506571775
5.485E8 0.9952511572653744 -0.06862525141442324 0.004748842734625745 0.06862525141442324 0.004748842734625745 0.06862525141442324 0.9952511572653744 -0.06862525141442324
6.2325E8 0.9938757003229686 -0.07787839007879897 0.006124299677031522 0.07787839007879897 0.006124299677031522 0.07787839007879897 0.9938757003229686 -0.07787839007879897
6.98E8 0.9923285637800435 -0.0870938779292655 0.007671436219956541 0.0870938779292655 0.007671436219956541 0.0870938779292655 0.9923285637800435 -0.0870938779292655
7.7275E8 0.9906111004140405 -0.09626738053287222 0.009388899585959504 0.09626738053287222 0.009388899585959504 0.09626738053287222 0.9906111004140405 -0.09626738053287222
8.475E8 0.9887248058195665 -0.10539462370667604 0.011275194180433497 0.10539462370667604 0.011275194180433497 0.10539462370667604 0.9887248058195665 -0.10539462370667604
9.2225E8 0.9866713152153918 -0.11447139929986361 0.013328684784608278 0.11447139929986361 0.013328684784608278 0.11447139929986361 0.9866713152153918 -0.11447139929986361
9.97E8 0.9844523999764963 -0.12349357078026701 0.015547600023503713 0.12349357078026701 0.015547600023503713 0.12349357078026701 0.9844523999764963 -0.12349357078026701
1.07175E9 0.9820699639047218 -0.1324570786104446 0.017930036095278157 0.1324570786104446 0.017930036095278157 0.1324570786104446 0.9820699639047218 -0.1324570786104446
1.1465E9 0.9795260392524633 -0.14135794539954388 0.020473960747536712 0.14135794539954388 0.020473960747536712 0.14135794539954388 0.9795260392524633 -0.14135794539954388
1.22125E9 0.9768227825146271 -0.15019228081826372 0.02317721748537302 0.15019228081826372 0.02317721748537302 0.15019228081826372 0.9768227825146271 -0.15019228081826372
1.296E9 0.9739624700047803 -0.15895628626538053 0.0260375299952196 0.15895628626538053 0.0260375299952196 0.15895628626538053 0.9739624700047803 -0.15895628626538053
1.37075E9 0.9709474932320227 -0.16764625927549004 0.02905250676797726 0.16764625927549004 0.02905250676797726 0.16764625927549004 0.9709474932320227 -0.16764625927549004
1.4455E9 0.9677803540956139 -0.17625859765883364 0.032219645904386085 0.17625859765883364 0.032219645904386085 0.17625859765883364 0.9677803540956139 -0.17625859765883364
1.52025E9 0.9644636599148083 -0.1847898033653184 0.03553634008519152 0.1847898033653184 0.03553634008519152 0.1847898033653184 0.9644636599148083 -0.1847898033653184
1.595E9 0.9610001183116542 -0.19323648606609142 0.03899988168834586 0.19323648606609142 0.03899988168834586 0.19323648606609142 0.9610001183116542 -0.19323648606609142
1.66975E9 0.957392531964728 -0.20159536644728931 0.04260746803527213 0.20159536644728931 0.04260746803527213 0.20159536644728931 0.957392531964728 -0.20159536644728931
1.7445E9 0.9536437932519003 -0.2098632792118387 0.04635620674809971 0.2098632792118387 0.04635620674809971 0.2098632792118387 0.9536437932519003 -0.2098632792118387
1.81925E9 0.9497568788002424 -0.21803717578642903 0.05024312119975763 0.21803717578642903 0.05024312119975763 0.21803717578642903 0.9497568788002424 -0.21803717578642903
1.894E9 0.9457348439611201 -0.22611412673200412 0.05426515603888009 0.22611412673200412 0.05426515603888009 0.22611412673200412 0.9457348439611201 -0.22611412673200412
1.96875E9 0.9415808172283621 -0.23409132385732387 0.05841918277163802 0.23409132385732387 0.05841918277163802 0.23409132385732387 0.9415808172283621 -0.23409132385732387
2.0435E9 0.9372979946171477 -0.24196608203631398 0.06270200538285245 0.24196608203631398 0.06270200538285245 0.24196608203631398 0.9372979946171477 -0.24196608203631398
2.11825E9 0.932889634020931 -0.249735840731052 0.067110365979069 0.249735840731052 0.067110365979069 0.249735840731052 0.932889634020931 -0.249735840731052
2.193E9 0.9283590495633254 -0.2573981652233286 0.07164095043667454 0.2573981652233286 0.07164095043667454 0.2573981652233286 0.9283590495633254 -0.2573981652233286
2.26775E9 0.9237096059613935 -0.26495074755875664 0.07629039403860655 0.26495074755875664 0.07629039403860655 0.26495074755875664 0.9237096059613935 -0.26495074755875664
2.3425E9 0.9189447129162571 -0.2723914072083855 0.08105528708374282 0.2723914072083855 0.08105528708374282 0.2723914072083855 0.9189447129162571 -0.2723914072083855
2.41725E9 0.9140678195463441 -0.27971809145370535 0.08593218045365586 0.27971809145370535 0.08593218045365586 0.27971809145370535 0.9140678195463441 -0.27971809145370535
2.492E9 0.9090824088779338 -0.2869288755017869 0.09091759112206622 0.2869288755017869 0.09091759112206622 0.2869288755017869 0.9090824088779338 -0.2869288755017869
2.56675E9 0.9039919924069729 -0.29402196233810585 0.09600800759302704 0.29402196233810585 0.09600800759302704 0.29402196233810585 0.9039919924069729 -0.29402196233810585
2.6415E9 0.8988001047453877 -0.30099568232533286 0.10119989525461215 0.30099568232533286 0.10119989525461215 0.30099568232533286 0.8988001047453877 -0.30099568232533286
2.71625E9 0.8935102983643461 -0.30784849255703434 0.10648970163565398 0.30784849255703434 0.10648970163565398 0.30784849255703434 0.8935102983643461 -0.30784849255703434
2.791E9 0.8881261384461164 -0.31457897597582996 0.11187386155388357 0.31457897597582996 0.11187386155388357 0.31457897597582996 0.8881261384461164 -0.31457897597582996
2.86575E9 0.8826511978553496 -0.3211858402660743 0.11734880214465035 0.3211858402660743 0.11734880214465035 0.3211858402660743 0.8826511978553496 -0.3211858402660743
2.9405E9 0.8770890522397558 -0.32766791653159033 0.12291094776024425 0.32766791653159033 0.12291094776024425 0.32766791653159033 0.8770890522397558 -0.32766791653159033
3.01525E9 0.8714432752692989 -0.33402415776937144 0.1285567247307011 0.33402415776937144 0.1285567247307011 0.33402415776937144 0.8714432752692989 -0.33402415776937144
3.09E9 0.8657174340221707 -0.34025363715048584 0.1342825659778293 0.34025363715048584 0.1342825659778293 0.34025363715048584 0.8657174340221707 -0.34025363715048584
3.16475E9 0.859915084524937 -0.3463555461196722 0.14008491547506302 0.3463555461196722 0.14008491547506302 0.3463555461196722 0.859915084524937 -0.3463555461196722
3.2395E9 0.8540397674533997 -0.35232919232530485 0.1459602325466003 0.35232919232530485 0.1459602325466003 0.35232919232530485 0.8540397674533997 -0.35232919232530485
3.31425E9 0.8480950039998629 -0.3581739973915312 0.15190499600013715 0.3581739973915312 0.15190499600013715 0.3581739973915312 0.8480950039998629 -0.3581739973915312
3.389E9 0.8420842919116609 -0.3638894945444497 0.15791570808833919 0.3638894945444497 0.15791570808833919 0.3638894945444497 0.8420842919116609 -0.3638894945444497
3.46375E9 0.836011101704986 -0.36947532610420786 0.16398889829501398 0.36947532610420786 0.16398889829501398 0.36947532610420786 0.836011101704986 -0.36947532610420786
3.5385E9 0.8298788730572615 -0.37493124085485063 0.17012112694273845 0.37493124085485063 0.17012112694273845 0.37493124085485063 0.8298788730572615 -0.37493124085485063
3.61325E9 0.8236910113805299 -0.38025709130365365 0.17630898861947011 0.38025709130365365 0.17630898861947011 0.38025709130365365 0.8236910113805299 -0.38025709130365365
3.688E9 0.817450884577587 -0.3854528308415327 0.18254911542241306 0.3854528308415327 0.18254911542241306 0.3854528308415327 0.817450884577587 -0.3854528308415327
3.76275E9 0.8111618199818783 -0.3905185108159287 0.18883818001812164 0.3905185108159287 0.18883818001812164 0.3905185108159287 0.8111618199818783 -0.3905185108159287
3.8375E9 0.8048271014814931 -0.39545427752734136 0.195172898518507 0.39545427752734136 0.195172898518507 0.39545427752734136 0.8048271014814931 -0.39545427752734136
3.91225E9 0.7984499668269438 -0.40026036916041263 0.20155003317305623 0.40026036916041263 0.20155003317305623 0.40026036916041263 0.7984499668269438 -0.40026036916041263
3.987E9 0.7920336051218134 -0.4049371126601683 0.2079663948781867 0.4049371126601683 0.2079663948781867 0.4049371126601683 0.7920336051218134 -0.4049371126601683
4.06175E9 0.7855811544947732 -0.4094849205636875 0.21441884550522675 0.4094849205636875 0.21441884550522675 0.4094849205636875 0.7855811544947732 -0.4094849205636875
4.1365E9 0.7790956999509432 -0.41390428779712146 0.22090430004905684 0.41390428779712146 0.22090430004905684 0.41390428779712146 0.7790956999509432 -0.41390428779712146
4.21125E9 0.7725802714000677 -0.418195788447597 0.22741972859993223 0.418195788447597 0.22741972859993223 0.418195788447597 0.7725802714000677 -0.418195788447597
4.286E9 0.7660378418585234 -0.4223600725191471 0.2339621581414766 0.4223600725191471 0.2339621581414766 0.4223600725191471 0.7660378418585234 -0.4223600725191471
4.36075E9 0.7594713258217519 -0.4263978626813936 0.24052867417824803 0.4263978626813936 0.24052867417824803 0.4263978626813936 0.7594713258217519 -0.4263978626813936
4.4355E9 0.7528835778033366 -0.430309951019281 0.2471164221966633 0.430309951019281 0.2471164221966633 0.430309951019281 0.7528835778033366 -0.430309951019281
4.51025E9 0.74627739103659 -0.434097195791723 0.25372260896341 0.434097195791723 0.25372260896341 0.434097195791723 0.74627739103659 -0.434097195791723
4.585E9 0.7396554963342228 -0.43776051820658 0.26034450366577716 0.43776051820658 0.26034450366577716 0.43776051820658 0.7396554963342228 -0.43776051820658
4.65975E9 0.7330205611013874 -0.4413008992189386 0.2669794388986125 0.4413008992189386 0.2669794388986125 0.4413008992189386 0.7330205611013874 -0.4413008992189386
4.7345E9 0.726375188497162 -0.4447193763592117 0.2736248115028381 0.4447193763592117 0.2736248115028381 0.4447193763592117 0.726375188497162 -0.4447193763592117
4.80925E9 0.7197219167393336 -0.4480170405971347 0.28027808326066644 0.4480170405971347 0.28027808326066644 0.4480170405971347 0.7197219167393336 -0.4480170405971347
4.884E9 0.7130632185471817 -0.4511950332472823 0.28693678145281815 0.4511950332472823 0.28693678145281815 0.4511950332472823 0.7130632185471817 -0.4511950332472823
4.95875E9 0.7064015007168214 -0.4542545429212913 0.29359849928317855 0.4542545429212913 0.29359849928317855 0.4542545429212913 0.7064015007168214 -0.4542545429212913
5.0335E9 0.6997391038235572 -0.45719680253154515 0.30026089617644264 0.45719680253154515 0.30026089617644264 0.45719680253154515 0.6997391038235572 -0.45719680253154515
5.10825E9 0.6930783020456351 -0.46002308635064376 0.30692169795436497 0.46002308635064376 0.30692169795436497 0.46002308635064376 0.6930783020456351 -0.46002308635064376
5.183E9 0.6864213031037129 -0.46273470713057346 0.31357869689628715 0.46273470713057346 0.31357869689628715 0.46273470713057346 0.6864213031037129 -0.46273470713057346
5.25775E9 0.6797702483103603 -0.4653330132850847 0.3202297516896399 0.4653330132850847 0.3202297516896399 0.4653330132850847 0.6797702483103603 -0.4653330132850847
5.3325E9 0.6731272127238828 -0.4678193861383946 0.32687278727611735 0.4678193861383946 0.32687278727611735 0.4678193861383946 0.6731272127238828 -0.4678193861383946
5.40725E9 0.6664942054008028 -0.4701952372429537 0.33350579459919716 0.4701952372429537 0.33350579459919716 0.4701952372429537 0.6664942054008028 -0.4701952372429537
5.482E9 0.6598731697413533 -0.4724620057686525 0.3401268302586466 0.4724620057686525 0.3401268302586466 0.4724620057686525 0.6598731697413533 -0.4724620057686525
5.55675E9 0.6532659839224102 -0.47462115596549564 0.3467340160775898 0.47462115596549564 0.3467340160775898 0.47462115596549564 0.6532659839224102 -0.47462115596549564
5.6315E9 0.6466744614123634 -0.47667417470143647 0.35332553858763666 0.47667417470143647 0.35332553858763666 0.47667417470143647 0.6466744614123634 -0.47667417470143647
5.70625E9 0.640100351562518 -0.47862256907674827 0.3598996484374821 0.47862256907674827 0.3598996484374821 0.47862256907674827 0.640100351562518 -0.47862256907674827
5.781E9 0.6335453402697182 -0.48046786411601033 0.3664546597302817 0.48046786411601033 0.3664546597302817 0.48046786411601033 0.6335453402697182 -0.48046786411601033
5.85575E9 0.6270110507050103 -0.4822116005384957 0.37298894929498966 0.4822116005384957 0.37298894929498966 0.4822116005384957 0.6270110507050103 -0.4822116005384957
5.9305E9 0.620499044103285 -0.48385533260748526 0.37950095589671484 0.48385533260748526 0.37950095589671484 0.48385533260748526 0.620499044103285 -0.48385533260748526
6.00525E9 0.6140108206089782 -0.4854006260587786 0.3859891793910219 0.4854006260587786 0.3859891793910219 0.4854006260587786 0.6140108206089782 -0.4854006260587786
6.08E9 0.6075478201730575 -0.4868490561084339 0.3924521798269425 0.4868490561084339 0.3924521798269425 0.4868490561084339 0.6075478201730575 -0.4868490561084339
6.15475E9 0.6011114234966692 -0.48820220553955507 0.39888857650333076 0.48820220553955507 0.39888857650333076 0.48820220553955507 0.6011114234966692 -0.48820220553955507
6.2295E9 0.5947029530169831 -0.4894616628677347 0.4052970469830169 0.4894616628677347 0.4052970469830169 0.4894616628677347 0.5947029530169831 -0.4894616628677347
6.30425E9 0.5883236739309345 -0.49062902058457536 0.41167632606906535 0.49062902058457536 0.41167632606906535 0.49062902058457536 0.5883236739309345 -0.49062902058457536
6.379E9 0.5819747952527278 -0.4917058734785411 0.4180252047472722 0.4917058734785411 0.4180252047472722 0.4917058734785411 0.5819747952527278 -0.4917058734785411
6.45375E9 0.5756574709011354 -0.49269381703222664 0.4243425290988646 0.49269381703222664 0.4243425290988646 0.49269381703222664 0.5756574709011354 -0.49269381703222664
6.5285E9 0.569372800812797 -0.4935944458949942 0.43062719918720305 0.4935944458949942 0.43062719918720305 0.4935944458949942 0.569372800812797 -0.4935944458949942
6.60325E9 0.5631218320778946 -0.4944093524297901 0.4368781679221053 0.4944093524297901 0.4368781679221053 0.4944093524297901 0.5631218320778946 -0.4944093524297901
6.678E9 0.5569055600947485 -0.49514012533284246 0.44309443990525166 0.49514012533284246 0.44309443990525166 0.49514012533284246 0.5569055600947485 -0.49514012533284246
6.75275E9 0.5507249297400517 -0.49578834832483204 0.4492750702599483 0.49578834832483204 0.4492750702599483 0.49578834832483204 0.5507249297400517 -0.49578834832483204
6.8275E9 0.5445808365516338 -0.49635559891203673 0.45541916344836614 0.49635559891203673 0.45541916344836614 0.49635559891203673 0.5445808365516338 -0.49635559891203673
6.90225E9 0.538474127920796 -0.49684344721587 0.4615258720792042 0.49684344721587 0.4615258720792042 0.49684344721587 0.538474127920796 -0.49684344721587
6.977E9 0.5324056042914466 -0.49725345486916106 0.4675943957085534 0.49725345486916106 0.4675943957085534 0.49725345486916106 0.5324056042914466 -0.49725345486916106
7.05175E9 0.5263760203634119 -0.49758717397746854 0.47362397963658814 0.49758717397746854 0.47362397963658814 0.49758717397746854 0.5263760203634119 -0.49758717397746854
7.1265E9 0.5203860862974573 -0.49784614614366174 0.47961391370254264 0.49784614614366174 0.47961391370254264 0.49784614614366174 0.5203860862974573 -0.49784614614366174
7.20125E9 0.514436468919717 -0.4980319015539729 0.4855635310802831 0.4980319015539729 0.4855635310802831 0.4980319015539729 0.514436468919717 -0.4980319015539729
7.276E9 0.5085277929233701 -0.4981459581236806 0.4914722070766299 0.4981459581236806 0.4914722070766299 0.4981459581236806 0.5085277929233701 -0.4981459581236806
7.35075E9 0.5026606420655565 -0.49818982070056805 0.49733935793444345 0.49818982070056805 0.49733935793444345 0.49818982070056805 0.5026606420655565 -0.49818982070056805
7.4255E9 0.49683556035766285 -0.49816498032427964 0.5031644396423371 0.49816498032427964 0.5031644396423371 0.49816498032427964 0.49683556035766285 -0.49816498032427964
7.50025E9 0.4910530532472454 -0.49807291353968774 0.5089469467527545 0.49807291353968774 0.5089469467527545 0.49807291353968774 0.4910530532472454 -0.49807291353968774
7.575E9 0.4853135887899953 -0.4979150817623819 0.5146864112100048 0.4979150817623819 0.5146864112100048 0.4979150817623819 0.4853135887899953 -0.4979150817623819
7.64975E9 0.47961759881027094 -0.4976929306943907 0.5203824011897292 0.4976929306943907 0.5203824011897292 0.4976929306943907 0.47961759881027094 -0.4976929306943907
7.7245E9 0.47396548004885036 -0.4974078897882587 0.5260345199511498 0.4974078897882587 0.5260345199511498 0.4974078897882587 0.47396548004885036 -0.4974078897882587
7.79925E9 0.4683575952966754 -0.4970613717576082 0.5316424047033247 0.4970613717576082 0.5316424047033247 0.4970613717576082 0.4683575952966754 -0.4970613717576082
7.874E9 0.4627942745134636 -0.49665477213233883 0.5372057254865363 0.49665477213233883 0.5372057254865363 0.49665477213233883 0.4627942745134636 -0.49665477213233883
7.94875E9 0.45727581593018274 -0.49618946885663373 0.5427241840698173 0.49618946885663373 0.5427241840698173 0.49618946885663373 0.45727581593018274 -0.49618946885663373
8.0235E9 0.451802487134474 -0.4956668219279681 0.5481975128655261 0.4956668219279681 0.5481975128655261 0.4956668219279681 0.451802487134474 -0.4956668219279681
8.09825E9 0.44637452613821793 -0.49508817307534764 0.5536254738617821 0.49508817307534764 0.5536254738617821 0.49508817307534764 0.44637452613821793 -0.49508817307534764
8.173E9 0.4409921424265205 -0.4944548454750277 0.5590078575734794 0.4944548454750277 0.5590078575734794 0.4944548454750277 0.4409921424265205 -0.4944548454750277
8.24775E9 0.43565551798749086 -0.49376814350200676 0.5643444820125091 0.49376814350200676 0.5643444820125091 0.49376814350200676 0.43565551798749086 -0.49376814350200676
8.3225E9 0.43036480832226215 -0.493029352515615 0.5696351916777378 0.493029352515615 0.5696351916777378 0.493029352515615 0.43036480832226215 -0.493029352515615
8.39725E9 0.42512014343478605 -0.49223973867756404 0.5748798565652141 0.49223973867756404 0.5748798565652141 0.49223973867756404 0.42512014343478605 -0.49223973867756404
8.472E9 0.41992162880100625 -0.49140054880085904 0.5800783711989937 0.49140054880085904 0.5800783711989937 0.49140054880085904 0.41992162880100625 -0.49140054880085904
8.54675E9 0.41476934631708356 -0.49051301022801763 0.5852306536829167 0.49051301022801763 0.5852306536829167 0.49051301022801763 0.41476934631708356 -0.49051301022801763
8.6215E9 0.40966335522641173 -0.48957833073707724 0.5903366447735884 0.48957833073707724 0.5903366447735884 0.48957833073707724 0.40966335522641173 -0.48957833073707724
8.69625E9 0.40460369302522603 -0.48859769847392603 0.5953963069747741 0.48859769847392603 0.5953963069747741 0.48859769847392603 0.40460369302522603 -0.48859769847392603
8.771E9 0.3995903763466586 -0.4875722819095228 0.6004096236533414 0.4875722819095228 0.6004096236533414 0.4875722819095228 0.3995903763466586 -0.4875722819095228
