!Murata Part Number: GJM0225C1E2R4BB01
!These Parameters are Measured in Series Mode Connection
!       o--ll--o
!Port1            Port2
!       o------o
!Operation Temp=25[degC], DC Bias Voltage=0[V]
!Freq. Start=100[MHz] Stop=30[GHz], 401[Steps]
!Data Generated on Feb 1, 2023
# Hz S RI R 50
!Freq.(Hz) S11(Real) S11(Imag) S21(Real) S21(Imag) S12(Real) S12(Imag) S22(Real) S22(Imag)
1.0E8 0.9777201617913248 -0.1474527014665797 0.02227983820867534 0.1474527014665797 0.02227983820867534 0.1474527014665797 0.9777201617913248 -0.1474527014665797
1.7475E8 0.9349074453632956 -0.24644533479025654 0.0650925546367043 0.24644533479025654 0.0650925546367043 0.24644533479025654 0.9349074453632956 -0.24644533479025654
2.495E8 0.8756221904544395 -0.32966383457187587 0.1243778095455605 0.32966383457187587 0.1243778095455605 0.32966383457187587 0.8756221904544395 -0.32966383457187587
3.2425E8 0.80633789422809 -0.39471423248537363 0.19366210577190995 0.39471423248537363 0.19366210577190995 0.39471423248537363 0.80633789422809 -0.39471423248537363
3.99E8 0.7330384734515942 -0.44181416091323267 0.26696152654840577 0.44181416091323267 0.26696152654840577 0.44181416091323267 0.7330384734515942 -0.44181416091323267
4.7375E8 0.6603749426361785 -0.4729186778458676 0.3396250573638216 0.4729186778458676 0.3396250573638216 0.4729186778458676 0.6603749426361785 -0.4729186778458676
5.485E8 0.5914513449995231 -0.4907964409781108 0.40854865500047677 0.4907964409781108 0.40854865500047677 0.4907964409781108 0.5914513449995231 -0.4907964409781108
6.2325E8 0.5280142224588151 -0.4983392371554546 0.4719857775411849 0.4983392371554546 0.4719857775411849 0.4983392371554546 0.5280142224588151 -0.4983392371554546
6.98E8 0.4707999830331498 -0.4981644366149934 0.5292000169668502 0.4981644366149934 0.5292000169668502 0.4981644366149934 0.4707999830331498 -0.4981644366149934
7.7275E8 0.4198807499697049 -0.4924494898876825 0.5801192500302951 0.4924494898876825 0.5801192500302951 0.4924494898876825 0.4198807499697049 -0.4924494898876825
8.475E8 0.3749396623238817 -0.4829094783586484 0.6250603376761185 0.4829094783586484 0.6250603376761185 0.4829094783586484 0.3749396623238817 -0.4829094783586484
9.2225E8 0.33546339618432947 -0.47084539226380806 0.6645366038156705 0.47084539226380806 0.6645366038156705 0.47084539226380806 0.33546339618432947 -0.47084539226380806
9.97E8 0.3008647881311118 -0.45721740719253756 0.6991352118688882 0.45721740719253756 0.6991352118688882 0.45721740719253756 0.3008647881311118 -0.45721740719253756
1.07175E9 0.27055469992916986 -0.44271905488155266 0.7294453000708302 0.44271905488155266 0.7294453000708302 0.44271905488155266 0.27055469992916986 -0.44271905488155266
1.1465E9 0.24398026350103413 -0.42784191891941303 0.7560197364989658 0.42784191891941303 0.7560197364989658 0.42784191891941303 0.24398026350103413 -0.42784191891941303
1.22125E9 0.22064231303272613 -0.4129279272364937 0.7793576869672739 0.4129279272364937 0.7793576869672739 0.4129279272364937 0.22064231303272613 -0.4129279272364937
1.296E9 0.20010068671022133 -0.39820978491667425 0.7998993132897788 0.39820978491667425 0.7998993132897788 0.39820978491667425 0.20010068671022133 -0.39820978491667425
1.37075E9 0.18197292355253444 -0.38384138843763593 0.8180270764474656 0.38384138843763593 0.8180270764474656 0.38384138843763593 0.18197292355253444 -0.38384138843763593
1.4455E9 0.1659297059810469 -0.36992030333772147 0.8340702940189529 0.36992030333772147 0.8340702940189529 0.36992030333772147 0.1659297059810469 -0.36992030333772147
1.52025E9 0.15168899205964637 -0.3565041849191999 0.8483110079403537 0.3565041849191999 0.8483110079403537 0.3565041849191999 0.15168899205964637 -0.3565041849191999
1.595E9 0.13900991016050804 -0.3436226808464607 0.860990089839492 0.3436226808464607 0.860990089839492 0.3436226808464607 0.13900991016050804 -0.3436226808464607
1.66975E9 0.12768696767447812 -0.33128601134456154 0.8723130323255218 0.33128601134456154 0.8723130323255218 0.33128601134456154 0.12768696767447812 -0.33128601134456154
1.7445E9 0.11754482374335903 -0.319491128043905 0.882455176256641 0.319491128043905 0.882455176256641 0.319491128043905 0.11754482374335903 -0.319491128043905
1.81925E9 0.10843370789060501 -0.3082261179081212 0.891566292109395 0.3082261179081212 0.891566292109395 0.3082261179081212 0.10843370789060501 -0.3082261179081212
1.894E9 0.1002254775480568 -0.2974733395348122 0.8997745224519431 0.2974733395348122 0.8997745224519431 0.2974733395348122 0.1002254775480568 -0.2974733395348122
1.96875E9 0.09281026443712502 -0.28721164567363805 0.9071897355628752 0.28721164567363805 0.9071897355628752 0.28721164567363805 0.09281026443712502 -0.28721164567363805
2.0435E9 0.08609364247959383 -0.27741794789460245 0.9139063575204062 0.27741794789460245 0.9139063575204062 0.27741794789460245 0.08609364247959383 -0.27741794789460245
2.11825E9 0.07999424652610694 -0.26806830815284344 0.9200057534738929 0.26806830815284344 0.9200057534738929 0.26806830815284344 0.07999424652610694 -0.26806830815284344
2.193E9 0.07444177482921095 -0.2591386905128568 0.9255582251707891 0.2591386905128568 0.9255582251707891 0.2591386905128568 0.07444177482921095 -0.2591386905128568
2.26775E9 0.06937531496404985 -0.2506054691628599 0.9306246850359502 0.2506054691628599 0.9306246850359502 0.2506054691628599 0.06937531496404985 -0.2506054691628599
2.3425E9 0.06474194068204837 -0.24244576209572719 0.9352580593179515 0.24244576209572719 0.9352580593179515 0.24244576209572719 0.06474194068204837 -0.24244576209572719
2.41725E9 0.06049553485988147 -0.2346376405537226 0.9395044651401186 0.2346376405537226 0.9395044651401186 0.2346376405537226 0.06049553485988147 -0.2346376405537226
2.492E9 0.056595800747616776 -0.22716025042962484 0.9434041992523833 0.22716025042962484 0.9434041992523833 0.22716025042962484 0.056595800747616776 -0.22716025042962484
2.56675E9 0.05300742991881267 -0.21999387177542015 0.9469925700811873 0.21999387177542015 0.9469925700811873 0.21999387177542015 0.05300742991881267 -0.21999387177542015
2.6415E9 0.04969940064647529 -0.21311993530713655 0.9503005993535247 0.21311993530713655 0.9503005993535247 0.21311993530713655 0.04969940064647529 -0.21311993530713655
2.71625E9 0.04664438492302158 -0.20652100953342212 0.9533556150769785 0.20652100953342212 0.9533556150769785 0.20652100953342212 0.04664438492302158 -0.20652100953342212
2.791E9 0.04381824609818869 -0.20018076831891377 0.956181753901811 0.20018076831891377 0.956181753901811 0.20018076831891377 0.04381824609818869 -0.20018076831891377
2.86575E9 0.041199612225800285 -0.19408394592139094 0.9588003877741997 0.19408394592139094 0.9588003877741997 0.19408394592139094 0.041199612225800285 -0.19408394592139094
2.9405E9 0.03876951278567736 -0.1882162845265981 0.9612304872143229 0.1882162845265981 0.9612304872143229 0.1882162845265981 0.03876951278567736 -0.1882162845265981
3.01525E9 0.036511068569239274 -0.1825644778392475 0.9634889314307608 0.1825644778392475 0.9634889314307608 0.1825644778392475 0.036511068569239274 -0.1825644778392475
3.09E9 0.03440922626381897 -0.17711611322341858 0.965590773736181 0.17711611322341858 0.965590773736181 0.17711611322341858 0.03440922626381897 -0.17711611322341858
3.16475E9 0.03245053070735247 -0.17185961411196932 0.9675494692926474 0.17185961411196932 0.9675494692926474 0.17185961411196932 0.03245053070735247 -0.17185961411196932
3.2395E9 0.030622928967206482 -0.16678418384398583 0.9693770710327936 0.16678418384398583 0.9693770710327936 0.16678418384398583 0.030622928967206482 -0.16678418384398583
3.31425E9 0.028915601370372326 -0.16187975168444857 0.9710843986296277 0.16187975168444857 0.9710843986296277 0.16187975168444857 0.028915601370372326 -0.16187975168444857
3.389E9 0.027318815414881983 -0.1571369214894017 0.972681184585118 0.1571369214894017 0.972681184585118 0.1571369214894017 0.027318815414881983 -0.1571369214894017
3.46375E9 0.025823799155084055 -0.15254692327242494 0.9741762008449162 0.15254692327242494 0.9741762008449162 0.15254692327242494 0.025823799155084055 -0.15254692327242494
3.5385E9 0.024422631201677567 -0.14810156778173103 0.9755773687983225 0.14810156778173103 0.9755773687983225 0.14810156778173103 0.024422631201677567 -0.14810156778173103
3.61325E9 0.02310814493180392 -0.1437932040953229 0.9768918550681959 0.1437932040953229 0.9768918550681959 0.1437932040953229 0.02310814493180392 -0.1437932040953229
3.688E9 0.02187384488188044 -0.1396146801722518 0.9781261551181197 0.1396146801722518 0.9781261551181197 0.1396146801722518 0.02187384488188044 -0.1396146801722518
3.76275E9 0.02071383360995162 -0.13555930625224527 0.9792861663900483 0.13555930625224527 0.9792861663900483 0.13555930625224527 0.02071383360995162 -0.13555930625224527
3.8375E9 0.01962274757632674 -0.1316208209672714 0.9803772524236732 0.1316208209672714 0.9803772524236732 0.1316208209672714 0.01962274757632674 -0.1316208209672714
3.91225E9 0.018595700810299372 -0.12779336001215363 0.9814042991897007 0.12779336001215363 0.9814042991897007 0.12779336001215363 0.018595700810299372 -0.12779336001215363
3.987E9 0.017628235314269925 -0.12407142721361471 0.9823717646857302 0.12407142721361471 0.9823717646857302 0.12407142721361471 0.017628235314269925 -0.12407142721361471
4.06175E9 0.016716277310720076 -0.12044986783549069 0.9832837226892798 0.12044986783549069 0.9832837226892798 0.12044986783549069 0.016716277310720076 -0.12044986783549069
4.1365E9 0.015856098567225283 -0.11692384396041601 0.9841439014327747 0.11692384396041601 0.9841439014327747 0.11692384396041601 0.015856098567225283 -0.11692384396041601
4.21125E9 0.01504428214414584 -0.11348881179364263 0.984955717855854 0.11348881179364263 0.984955717855854 0.11348881179364263 0.01504428214414584 -0.11348881179364263
4.286E9 0.014277692002188083 -0.11014050074180279 0.985722307997812 0.11014050074180279 0.985722307997812 0.11014050074180279 0.014277692002188083 -0.11014050074180279
4.36075E9 0.013553445985461047 -0.10687489412762485 0.9864465540145391 0.10687489412762485 0.9864465540145391 0.10687489412762485 0.013553445985461047 -0.10687489412762485
4.4355E9 0.012868891762271307 -0.1036882114103475 0.9871311082377285 0.1036882114103475 0.9871311082377285 0.1036882114103475 0.012868891762271307 -0.1036882114103475
4.51025E9 0.01222158536260264 -0.10057689179046993 0.9877784146373975 0.10057689179046993 0.9877784146373975 0.10057689179046993 0.01222158536260264 -0.10057689179046993
4.585E9 0.011609271999597303 -0.09753757908627697 0.9883907280004026 0.09753757908627697 0.9883907280004026 0.09753757908627697 0.011609271999597303 -0.09753757908627697
4.65975E9 0.011029868903704573 -0.09456710777811463 0.9889701310962955 0.09456710777811463 0.9889701310962955 0.09456710777811463 0.011029868903704573 -0.09456710777811463
4.7345E9 0.010481449933581185 -0.09166249012454254 0.9895185500664189 0.09166249012454254 0.9895185500664189 0.09166249012454254 0.010481449933581185 -0.09166249012454254
4.80925E9 0.009962231758231887 -0.08882090426220515 0.990037768241768 0.08882090426220515 0.990037768241768 0.08882090426220515 0.009962231758231887 -0.08882090426220515
4.884E9 0.0094705614310273 -0.08603968320848766 0.9905294385689726 0.08603968320848766 0.9905294385689726 0.08603968320848766 0.0094705614310273 -0.08603968320848766
4.95875E9 0.009004905198771377 -0.08331630469275894 0.9909950948012287 0.08331630469275894 0.9909950948012287 0.08331630469275894 0.009004905198771377 -0.08331630469275894
5.0335E9 0.008563838408448378 -0.08064838174824128 0.9914361615915517 0.08064838174824128 0.9914361615915517 0.08064838174824128 0.008563838408448378 -0.08064838174824128
5.10825E9 0.008146036391112072 -0.07803365400231048 0.9918539636088879 0.07803365400231048 0.9918539636088879 0.07803365400231048 0.008146036391112072 -0.07803365400231048
5.183E9 0.007750266216968357 -0.0754699796083298 0.9922497337830318 0.0754699796083298 0.9922497337830318 0.0754699796083298 0.007750266216968357 -0.0754699796083298
5.25775E9 0.007375379228369286 -0.07295532776698833 0.9926246207716308 0.07295532776698833 0.9926246207716308 0.07295532776698833 0.007375379228369286 -0.07295532776698833
5.3325E9 0.007020304268454272 -0.07048777178957394 0.9929796957315455 0.07048777178957394 0.9929796957315455 0.07048777178957394 0.007020304268454272 -0.07048777178957394
5.40725E9 0.006684041532774198 -0.06806548265968826 0.9933159584672261 0.06806548265968826 0.9933159584672261 0.06806548265968826 0.006684041532774198 -0.06806548265968826
5.482E9 0.006365656979613326 -0.06568672305363875 0.9936343430203868 0.06568672305363875 0.9936343430203868 0.06568672305363875 0.006365656979613326 -0.06568672305363875
5.55675E9 0.006064277242049551 -0.06334984178314358 0.9939357227579505 0.06334984178314358 0.9939357227579505 0.06334984178314358 0.006064277242049551 -0.06334984178314358
5.6315E9 0.005779084991208793 -0.06105326862708882 0.9942209150087915 0.06105326862708882 0.9942209150087915 0.06105326862708882 0.005779084991208793 -0.06105326862708882
5.70625E9 0.005509314705796104 -0.05879550952190547 0.994490685294204 0.05879550952190547 0.994490685294204 0.05879550952190547 0.005509314705796104 -0.05879550952190547
5.781E9 0.005254248807929291 -0.05657514208271274 0.9947457511920709 0.05657514208271274 0.9947457511920709 0.05657514208271274 0.005254248807929291 -0.05657514208271274
5.85575E9 0.005013214129650192 -0.054390811429724496 0.9949867858703498 0.054390811429724496 0.9949867858703498 0.054390811429724496 0.005013214129650192 -0.054390811429724496
5.9305E9 0.004785578678321097 -0.05224122629655622 0.995214421321679 0.05224122629655622 0.995214421321679 0.05224122629655622 0.004785578678321097 -0.05224122629655622
6.00525E9 0.0045707486724959265 -0.0501251553990214 0.995429251327504 0.0501251553990214 0.995429251327504 0.0501251553990214 0.0045707486724959265 -0.0501251553990214
6.08E9 0.004368165822844621 -0.048041424044784904 0.9956318341771552 0.048041424044784904 0.9956318341771552 0.048041424044784904 0.004368165822844621 -0.048041424044784904
6.15475E9 0.004177304835354471 -0.04598891096586235 0.9958226951646456 0.04598891096586235 0.9958226951646456 0.04598891096586235 0.004177304835354471 -0.04598891096586235
6.2295E9 0.003997671116376221 -0.04396654535743165 0.9960023288836236 0.04396654535743165 0.9960023288836236 0.04396654535743165 0.003997671116376221 -0.04396654535743165
6.30425E9 0.0038287986611633606 -0.04197330410777368 0.9961712013388367 0.04197330410777368 0.9961712013388367 0.04197330410777368 0.0038287986611633606 -0.04197330410777368
6.379E9 0.0036702481094013826 -0.04000820920538605 0.9963297518905988 0.04000820920538605 0.9963297518905988 0.04000820920538605 0.0036702481094013826 -0.04000820920538605
6.45375E9 0.0035216049528690035 -0.038070325310440786 0.996478395047131 0.038070325310440786 0.996478395047131 0.038070325310440786 0.0035216049528690035 -0.038070325310440786
6.5285E9 0.0033824778818385124 -0.03615875747877924 0.9966175221181616 0.03615875747877924 0.9966175221181616 0.03615875747877924 0.0033824778818385124 -0.03615875747877924
6.60325E9 0.0032524972581298417 -0.034272649027576776 0.9967475027418702 0.034272649027576776 0.9967475027418702 0.034272649027576776 0.0032524972581298417 -0.034272649027576776
6.678E9 0.003131313703900393 -0.03241117953266539 0.9968686862960996 0.03241117953266539 0.9968686862960996 0.03241117953266539 0.003131313703900393 -0.03241117953266539
6.75275E9 0.0030185967962967 -0.03057356294828635 0.9969814032037032 0.03057356294828635 0.9969814032037032 0.03057356294828635 0.0030185967962967 -0.03057356294828635
6.8275E9 0.002914033859028668 -0.02875904584076177 0.9970859661409712 0.02875904584076177 0.9970859661409712 0.02875904584076177 0.002914033859028668 -0.02875904584076177
6.90225E9 0.0028173288427648276 -0.026966905728230087 0.9971826711572351 0.026966905728230087 0.9971826711572351 0.026966905728230087 0.0028173288427648276 -0.026966905728230087
6.977E9 0.002728201286998828 -0.02519644951919249 0.9972717987130012 0.02519644951919249 0.9972717987130012 0.02519644951919249 0.002728201286998828 -0.02519644951919249
7.05175E9 0.0026463853567125885 -0.023447012043167428 0.9973536146432874 0.023447012043167428 0.9973536146432874 0.023447012043167428 0.0026463853567125885 -0.023447012043167428
7.1265E9 0.002571628947768876 -0.021717954667256997 0.997428371052231 0.021717954667256997 0.997428371052231 0.021717954667256997 0.002571628947768876 -0.021717954667256997
7.20125E9 0.002503692855512709 -0.020008663992891692 0.9974963071444874 0.020008663992891692 0.9974963071444874 0.020008663992891692 0.002503692855512709 -0.020008663992891692
7.276E9 0.002442350001553765 -0.018318550627446844 0.9975576499984463 0.018318550627446844 0.9975576499984463 0.018318550627446844 0.002442350001553765 -0.018318550627446844
7.35075E9 0.002387384714146377 -0.016647048025814556 0.9976126152858538 0.016647048025814556 0.9976126152858538 0.016647048025814556 0.002387384714146377 -0.016647048025814556
7.4255E9 0.0023385920579851362 -0.014993611397375312 0.9976614079420146 0.014993611397375312 0.9976614079420146 0.014993611397375312 0.0023385920579851362 -0.014993611397375312
7.50025E9 0.0022957772095969736 -0.013357716674143733 0.9977042227904032 0.013357716674143733 0.9977042227904032 0.013357716674143733 0.0022957772095969736 -0.013357716674143733
7.575E9 0.0022587548748388368 -0.011738859536167564 0.9977412451251614 0.011738859536167564 0.9977412451251614 0.011738859536167564 0.0022587548748388368 -0.011738859536167564
7.64975E9 0.0022273487453075423 -0.01013655449053992 0.9977726512546927 0.01013655449053992 0.9977726512546927 0.01013655449053992 0.0022273487453075423 -0.01013655449053992
7.7245E9 0.0022013909907378335 -0.008550334000641941 0.9977986090092622 0.008550334000641941 0.9977986090092622 0.008550334000641941 0.0022013909907378335 -0.008550334000641941
7.79925E9 0.0021807217847093874 -0.006979747662472664 0.9978192782152906 0.006979747662472664 0.9978192782152906 0.006979747662472664 0.0021807217847093874 -0.006979747662472664
7.874E9 0.0021651888612056113 -0.005424361425141492 0.9978348111387946 0.005424361425141492 0.9978348111387946 0.005424361425141492 0.0021651888612056113 -0.005424361425141492
7.94875E9 0.002154647099769056 -0.003883756852802182 0.9978453529002309 0.003883756852802182 0.9978453529002309 0.003883756852802182 0.002154647099769056 -0.003883756852802182
8.0235E9 0.0021489581371820186 -0.0023575304254940823 0.9978510418628179 0.0023575304254940823 0.9978510418628179 0.0023575304254940823 0.0021489581371820186 -0.0023575304254940823
8.09825E9 0.0021479900037682147 -8.452928765300552E-4 0.997852009996232 8.452928765300552E-4 0.997852009996232 8.452928765300552E-4 0.0021479900037682147 -8.452928765300552E-4
8.173E9 0.0021516167825639376 6.533314357702537E-4 0.9978483832174361 -6.533314357702537E-4 0.9978483832174361 -6.533314357702537E-4 0.0021516167825639376 6.533314357702537E-4
8.24775E9 0.00215971828974622 0.0021387051240541167 0.997840281710254 -0.0021387051240541167 0.997840281710254 -0.0021387051240541167 0.00215971828974622 0.0021387051240541167
8.3225E9 0.002172179774832477 0.0036111783375324933 0.9978278202251675 -0.0036111783375324933 0.9978278202251675 -0.0036111783375324933 0.002172179774832477 0.0036111783375324933
8.39725E9 0.0021888916392822293 0.005071089298988536 0.9978111083607177 -0.005071089298988536 0.9978111083607177 -0.005071089298988536 0.0021888916392822293 0.005071089298988536
8.472E9 0.0022097491722375124 0.006518764814869009 0.9977902508277623 -0.006518764814869009 0.9977902508277623 -0.006518764814869009 0.0022097491722375124 0.006518764814869009
8.54675E9 0.0022346523022357527 0.00795452076002076 0.9977653476977641 -0.00795452076002076 0.9977653476977641 -0.00795452076002076 0.0022346523022357527 0.00795452076002076
8.6215E9 0.002263505363817768 0.009378662538533032 0.9977364946361822 -0.009378662538533032 0.9977364946361822 -0.009378662538533032 0.002263505363817768 0.009378662538533032
