!Murata Part Number: GJM0225C1E7R6BB01
!These Parameters are Measured in Series Mode Connection
!       o--ll--o
!Port1            Port2
!       o------o
!Operation Temp=25[degC], DC Bias Voltage=0[V]
!Freq. Start=100[MHz] Stop=30[GHz], 401[Steps]
!Data Generated on Feb 1, 2023
# Hz S RI R 50
!Freq.(Hz) S11(Real) S11(Imag) S21(Real) S21(Imag) S12(Real) S12(Imag) S22(Real) S22(Imag)
1.0E8 0.8140471588595709 -0.3888415698745465 0.18595284114042906 0.3888415698745465 0.18595284114042906 0.3888415698745465 0.8140471588595709 -0.3888415698745465
1.7475E8 0.5886723627569701 -0.4916767300852956 0.41132763724303 0.4916767300852956 0.41132763724303 0.4916767300852956 0.5886723627569701 -0.4916767300852956
2.495E8 0.41185375176047057 -0.4915990970282163 0.5881462482395293 0.4915990970282163 0.5881462482395293 0.4915990970282163 0.41185375176047057 -0.4915990970282163
3.2425E8 0.29236862657445395 -0.4541066229699729 0.7076313734255459 0.4541066229699729 0.7076313734255459 0.4541066229699729 0.29236862657445395 -0.4541066229699729
3.99E8 0.21362800481856248 -0.4089458695159622 0.7863719951814375 0.4089458695159622 0.7863719951814375 0.4089458695159622 0.21362800481856248 -0.4089458695159622
4.7375E8 0.16084915966987606 -0.3662898564927235 0.8391508403301239 0.3662898564927235 0.8391508403301239 0.3662898564927235 0.16084915966987606 -0.3662898564927235
5.485E8 0.12443048338137062 -0.32878534285871935 0.8755695166186294 0.32878534285871935 0.8755695166186294 0.32878534285871935 0.12443048338137062 -0.32878534285871935
6.2325E8 0.09852450636068828 -0.2965462705816011 0.9014754936393117 0.2965462705816011 0.9014754936393117 0.2965462705816011 0.09852450636068828 -0.2965462705816011
6.98E8 0.07956781569521049 -0.2689516184362847 0.9204321843047893 0.2689516184362847 0.9204321843047893 0.2689516184362847 0.07956781569521049 -0.2689516184362847
7.7275E8 0.06534195225790358 -0.24525570651400289 0.9346580477420966 0.24525570651400289 0.9346580477420966 0.24525570651400289 0.06534195225790358 -0.24525570651400289
8.475E8 0.054427314081212264 -0.2247782867501408 0.9455726859187876 0.2247782867501408 0.9455726859187876 0.2247782867501408 0.054427314081212264 -0.2247782867501408
9.2225E8 0.045889592663752525 -0.20694931968984948 0.9541104073362473 0.20694931968984948 0.9541104073362473 0.20694931968984948 0.045889592663752525 -0.20694931968984948
9.97E8 0.03909723350470037 -0.19130605119143 0.9609027664952996 0.19130605119143 0.9609027664952996 0.19130605119143 0.03909723350470037 -0.19130605119143
1.07175E9 0.03361269902382094 -0.1774768728103988 0.9663873009761792 0.1774768728103988 0.9663873009761792 0.1774768728103988 0.03361269902382094 -0.1774768728103988
1.1465E9 0.029126009001616934 -0.16516376343797892 0.970873990998383 0.16516376343797892 0.970873990998383 0.16516376343797892 0.029126009001616934 -0.16516376343797892
1.22125E9 0.025413064664545872 -0.15412692379735002 0.9745869353354542 0.15412692379735002 0.9745869353354542 0.15412692379735002 0.025413064664545872 -0.15412692379735002
1.296E9 0.02230886588192511 -0.14417231872760855 0.9776911341180747 0.14417231872760855 0.9776911341180747 0.14417231872760855 0.02230886588192511 -0.14417231872760855
1.37075E9 0.019689900475031344 -0.13514189245643254 0.9803100995249686 0.13514189245643254 0.9803100995249686 0.13514189245643254 0.019689900475031344 -0.13514189245643254
1.4455E9 0.01746231642396344 -0.1269059809386039 0.9825376835760364 0.1269059809386039 0.9825376835760364 0.1269059809386039 0.01746231642396344 -0.1269059809386039
1.52025E9 0.015553821375788607 -0.11935744859602491 0.9844461786242115 0.11935744859602491 0.9844461786242115 0.11935744859602491 0.015553821375788607 -0.11935744859602491
1.595E9 0.013908034352377554 -0.11240715139661071 0.9860919656476226 0.11240715139661071 0.9860919656476226 0.11240715139661071 0.013908034352377554 -0.11240715139661071
1.66975E9 0.012480481752639803 -0.10598041209844936 0.9875195182473604 0.10598041209844936 0.9875195182473604 0.10598041209844936 0.012480481752639803 -0.10598041209844936
1.7445E9 0.011235715503244939 -0.10001426683252251 0.9887642844967552 0.10001426683252251 0.9887642844967552 0.10001426683252251 0.011235715503244939 -0.10001426683252251
1.81925E9 0.010145209599105615 -0.09445530079679783 0.9898547904008945 0.09445530079679783 0.9898547904008945 0.09445530079679783 0.010145209599105615 -0.09445530079679783
1.894E9 0.009185804789645827 -0.0892579358016912 0.9908141952103541 0.0892579358016912 0.9908141952103541 0.0892579358016912 0.009185804789645827 -0.0892579358016912
1.96875E9 0.00833854470892828 -0.08438306626565953 0.9916614552910719 0.08438306626565953 0.9916614552910719 0.08438306626565953 0.00833854470892828 -0.08438306626565953
2.0435E9 0.007587795199089686 -0.07979696554632038 0.9924122048009104 0.07979696554632038 0.9924122048009104 0.07979696554632038 0.007587795199089686 -0.07979696554632038
2.11825E9 0.00692057100198546 -0.0754704033346645 0.9930794289980147 0.0754704033346645 0.9930794289980147 0.0754704033346645 0.00692057100198546 -0.0754704033346645
2.193E9 0.006326016014662155 -0.07137792889676912 0.9936739839853378 0.07137792889676912 0.9936739839853378 0.07137792889676912 0.006326016014662155 -0.07137792889676912
2.26775E9 0.005794998465420904 -0.06749728546849593 0.9942050015345791 0.06749728546849593 0.9942050015345791 0.06749728546849593 0.005794998465420904 -0.06749728546849593
2.3425E9 0.0053197929405072045 -0.06380892901887332 0.9946802070594927 0.06380892901887332 0.9946802070594927 0.06380892901887332 0.0053197929405072045 -0.06380892901887332
2.41725E9 0.004893828654508611 -0.06029563057642048 0.9951061713454916 0.06029563057642048 0.9951061713454916 0.06029563057642048 0.004893828654508611 -0.06029563057642048
2.492E9 0.00451148868515202 -0.056942145856953924 0.995488511314848 0.056942145856953924 0.995488511314848 0.056942145856953924 0.00451148868515202 -0.056942145856953924
2.56675E9 0.00416794873702669 -0.05373493940588959 0.9958320512629733 0.05373493940588959 0.9958320512629733 0.05373493940588959 0.00416794873702669 -0.05373493940588959
2.6415E9 0.0038590467999496435 -0.050661953140426555 0.9961409532000504 0.050661953140426555 0.9961409532000504 0.050661953140426555 0.0038590467999496435 -0.050661953140426555
2.71625E9 0.0035811771284036393 -0.0477124112446821 0.9964188228715962 0.0477124112446821 0.9964188228715962 0.0477124112446821 0.0035811771284036393 -0.0477124112446821
2.791E9 0.00333120349801613 -0.04487665498005991 0.996668796501984 0.04487665498005991 0.996668796501984 0.04487665498005991 0.00333120349801613 -0.04487665498005991
2.86575E9 0.0031063878399256303 -0.04214600223274168 0.9968936121600745 0.04214600223274168 0.9968936121600745 0.04214600223274168 0.0031063878399256303 -0.04214600223274168
2.9405E9 0.002904331217692955 -0.03951262761167546 0.9970956687823069 0.03951262761167546 0.9970956687823069 0.03951262761167546 0.002904331217692955 -0.03951262761167546
3.01525E9 0.0027229247681011307 -0.03696945969512162 0.9972770752318991 0.03696945969512162 0.9972770752318991 0.03696945969512162 0.0027229247681011307 -0.03696945969512162
3.09E9 0.002560308730003538 -0.034510092648111626 0.9974396912699963 0.034510092648111626 0.9974396912699963 0.034510092648111626 0.002560308730003538 -0.034510092648111626
3.16475E9 0.0024148380730092704 -0.03212870993240379 0.997585161926991 0.03212870993240379 0.997585161926991 0.03212870993240379 0.0024148380730092704 -0.03212870993240379
3.2395E9 0.0022850535385651924 -0.029820018231696332 0.9977149464614348 0.029820018231696332 0.9977149464614348 0.029820018231696332 0.0022850535385651924 -0.029820018231696332
3.31425E9 0.0021696571408125575 -0.02757919003878144 0.9978303428591878 0.02757919003878144 0.9978303428591878 0.02757919003878144 0.0021696571408125575 -0.02757919003878144
3.389E9 0.0020674913590038556 -0.02540181361406272 0.997932508640996 0.02540181361406272 0.997932508640996 0.02540181361406272 0.0020674913590038556 -0.02540181361406272
3.46375E9 0.001977521398899595 -0.023283849238916916 0.9980224786011005 0.023283849238916916 0.9980224786011005 0.023283849238916916 0.001977521398899595 -0.023283849238916916
3.5385E9 0.0018988200161946594 -0.021221590862516994 0.9981011799838052 0.021221590862516994 0.9981011799838052 0.021221590862516994 0.0018988200161946594 -0.021221590862516994
3.61325E9 0.0018305544873030756 -0.019211632384617622 0.9981694455126967 0.019211632384617622 0.9981694455126967 0.019211632384617622 0.0018305544873030756 -0.019211632384617622
3.688E9 0.0017719753868353269 -0.017250837935474893 0.9982280246131644 0.017250837935474893 0.9982280246131644 0.017250837935474893 0.0017719753868353269 -0.017250837935474893
3.76275E9 0.0017224068907322123 -0.015336315612327673 0.9982775931092678 0.015336315612327673 0.9982775931092678 0.015336315612327673 0.0017224068907322123 -0.015336315612327673
3.8375E9 0.0016812383722825987 -0.013465394213513287 0.9983187616277175 0.013465394213513287 0.9983187616277175 0.013465394213513287 0.0016812383722825987 -0.013465394213513287
3.91225E9 0.0016479170974853003 -0.011635602579378875 0.9983520829025149 0.011635602579378875 0.9983520829025149 0.011635602579378875 0.0016479170974853003 -0.011635602579378875
3.987E9 0.0016219418582400127 -0.009844651206124275 0.9983780581417598 0.009844651206124275 0.9983780581417598 0.009844651206124275 0.0016219418582400127 -0.009844651206124275
4.06175E9 0.0016028574080976833 -0.008090415846545105 0.9983971425919023 0.008090415846545105 0.9983971425919023 0.008090415846545105 0.0016028574080976833 -0.008090415846545105
4.1365E9 0.0015902495868927004 -0.006370922851931359 0.9984097504131072 0.006370922851931359 0.9984097504131072 0.006370922851931359 0.0015902495868927004 -0.006370922851931359
4.21125E9 0.0015837410384088207 -0.004684336043411118 0.9984162589615913 0.004684336043411118 0.9984162589615913 0.004684336043411118 0.0015837410384088207 -0.004684336043411118
4.286E9 0.0015829874400060107 -0.00302894492986772 0.998417012559994 0.00302894492986772 0.998417012559994 0.00302894492986772 0.0015829874400060107 -0.00302894492986772
4.36075E9 0.0015876741754219837 -0.001403154114065617 0.9984123258245781 0.001403154114065617 0.9984123258245781 0.001403154114065617 0.0015876741754219837 -0.001403154114065617
4.4355E9 0.00159751339221324 1.945262504971567E-4 0.9984024866077867 -1.945262504971567E-4 0.9984024866077867 -1.945262504971567E-4 0.00159751339221324 1.945262504971567E-4
4.51025E9 0.00161224139388078 0.0017654890716491721 0.9983877586061192 -0.0017654890716491721 0.9983877586061192 -0.0017654890716491721 0.00161224139388078 0.0017654890716491721
4.585E9 0.0016316163239299681 0.0033110381038710195 0.99836838367607 -0.0033110381038710195 0.99836838367607 -0.0033110381038710195 0.0016316163239299681 0.0033110381038710195
4.65975E9 0.001655416105181232 0.004832394998111736 0.9983445838948187 -0.004832394998111736 0.9983445838948187 -0.004832394998111736 0.001655416105181232 0.004832394998111736
4.7345E9 0.0016834366027728223 0.006330705696019699 0.9983165633972272 -0.006330705696019699 0.9983165633972272 -0.006330705696019699 0.0016834366027728223 0.006330705696019699
4.80925E9 0.0017154899836374232 0.007807046238757529 0.9982845100163626 -0.007807046238757529 0.9982845100163626 -0.007807046238757529 0.0017154899836374232 0.007807046238757529
4.884E9 0.0017514032489211319 0.0092624280521349 0.9982485967510789 -0.0092624280521349 0.9982485967510789 -0.0092624280521349 0.0017514032489211319 0.0092624280521349
4.95875E9 0.0017910169189530054 0.01069780276247946 0.9982089830810468 -0.01069780276247946 0.9982089830810468 -0.01069780276247946 0.0017910169189530054 0.01069780276247946
5.0335E9 0.0018341838530541792 0.01211406659131267 0.9981658161469458 -0.01211406659131267 0.9981658161469458 -0.01211406659131267 0.0018341838530541792 0.01211406659131267
5.10825E9 0.0018807681887703417 0.013512064371365904 0.9981192318112296 -0.013512064371365904 0.9981192318112296 -0.013512064371365904 0.0018807681887703417 0.013512064371365904
5.183E9 0.0019306443870805742 0.014892593221647234 0.9980693556129197 -0.014892593221647234 0.9980693556129197 -0.014892593221647234 0.0019306443870805742 0.014892593221647234
5.25775E9 0.0019836963718293855 0.016256405915051106 0.9980163036281707 -0.016256405915051106 0.9980163036281707 -0.016256405915051106 0.0019836963718293855 0.016256405915051106
5.3325E9 0.00203981675308935 0.017604213968310006 0.9979601832469107 -0.017604213968310006 0.9979601832469107 -0.017604213968310006 0.00203981675308935 0.017604213968310006
5.40725E9 0.0020989061254238378 0.018936690480845866 0.9979010938745759 -0.018936690480845866 0.9979010938745759 -0.018936690480845866 0.0020989061254238378 0.018936690480845866
5.482E9 0.0021608724331126533 0.020254472746230955 0.9978391275668873 -0.020254472746230955 0.9978391275668873 -0.020254472746230955 0.0021608724331126533 0.020254472746230955
5.55675E9 0.0022256303953523777 0.02155816465745922 0.9977743696046477 -0.02155816465745922 0.9977743696046477 -0.02155816465745922 0.0022256303953523777 0.02155816465745922
5.6315E9 0.002293100985268993 0.02284833892501741 0.997706899014731 -0.02284833892501741 0.997706899014731 -0.02284833892501741 0.002293100985268993 0.02284833892501741
5.70625E9 0.0023632109573002904 0.024125539124791005 0.9976367890426998 -0.024125539124791005 0.9976367890426998 -0.024125539124791005 0.0023632109573002904 0.024125539124791005
5.781E9 0.0024358924181346877 0.025390281591110384 0.9975641075818654 -0.025390281591110384 0.9975641075818654 -0.025390281591110384 0.0024358924181346877 0.025390281591110384
5.85575E9 0.0025110824369440937 0.02664305716871044 0.9974889175630558 -0.02664305716871044 0.9974889175630558 -0.02664305716871044 0.0025110824369440937 0.02664305716871044
5.9305E9 0.0025887226911320963 0.02788433283601777 0.9974112773088678 -0.02788433283601777 0.9974112773088678 -0.02788433283601777 0.0025887226911320963 0.02788433283601777
6.00525E9 0.002668759144244149 0.029114553210969674 0.9973312408557559 -0.029114553210969674 0.9973312408557559 -0.029114553210969674 0.002668759144244149 0.029114553210969674
6.08E9 0.002751141753061716 0.030334141949495724 0.997248858246938 -0.030334141949495724 0.997248858246938 -0.030334141949495724 0.002751141753061716 0.030334141949495724
6.15475E9 0.002835824201233898 0.031543503045832845 0.997164175798766 -0.031543503045832845 0.997164175798766 -0.031543503045832845 0.002835824201233898 0.031543503045832845
6.2295E9 0.00292276365709413 0.032743022042992086 0.9970772363429058 -0.032743022042992086 0.9970772363429058 -0.032743022042992086 0.00292276365709413 0.032743022042992086
6.30425E9 0.00301192055357076 0.03393306716093098 0.9969880794464293 -0.03393306716093098 0.9969880794464293 -0.03393306716093098 0.00301192055357076 0.03393306716093098
6.379E9 0.003103258388333323 0.035113990349304895 0.9968967416116669 -0.035113990349304895 0.9968967416116669 -0.035113990349304895 0.003103258388333323 0.035113990349304895
6.45375E9 0.003196743542524686 0.03628612827105981 0.9968032564574751 -0.03628612827105981 0.9968032564574751 -0.03628612827105981 0.003196743542524686 0.03628612827105981
6.5285E9 0.003292345116616459 0.03744980322258459 0.9967076548833836 -0.03744980322258459 0.9967076548833836 -0.03744980322258459 0.003292345116616459 0.03744980322258459
6.60325E9 0.003390034782093731 0.03860532399565119 0.9966099652179065 -0.03860532399565119 0.9966099652179065 -0.03860532399565119 0.003390034782093731 0.03860532399565119
6.678E9 0.0034897866478283005 0.03975298668593458 0.9965102133521716 -0.03975298668593458 0.9965102133521716 -0.03975298668593458 0.0034897866478283005 0.03975298668593458
6.75275E9 0.0035915771401388704 0.0408930754525124 0.9964084228598613 -0.0408930754525124 0.9964084228598613 -0.0408930754525124 0.0035915771401388704 0.0408930754525124
6.8275E9 0.0036953848956645654 0.042025863232392865 0.9963046151043353 -0.042025863232392865 0.9963046151043353 -0.042025863232392865 0.0036953848956645654 0.042025863232392865
6.90225E9 0.003801190666296443 0.043151612413808056 0.9961988093337035 -0.043151612413808056 0.9961988093337035 -0.043151612413808056 0.003801190666296443 0.043151612413808056
6.977E9 0.003908977235521601 0.0442705754717271 0.9960910227644785 -0.0442705754717271 0.9960910227644785 -0.0442705754717271 0.003908977235521601 0.0442705754717271
7.05175E9 0.004018729345638429 0.04538299556879711 0.9959812706543617 -0.04538299556879711 0.9959812706543617 -0.04538299556879711 0.004018729345638429 0.04538299556879711
7.1265E9 0.004130433635399939 0.04648910712469563 0.9958695663645999 -0.04648910712469563 0.9958695663645999 -0.04648910712469563 0.004130433635399939 0.04648910712469563
7.20125E9 0.004244078587737389 0.04758913635668479 0.9957559214122627 -0.04758913635668479 0.9957559214122627 -0.04758913635668479 0.004244078587737389 0.04758913635668479
7.276E9 0.004359654487308904 0.04868330179398221 0.9956403455126911 -0.04868330179398221 0.9956403455126911 -0.04868330179398221 0.004359654487308904 0.04868330179398221
7.35075E9 0.004477153387709885 0.04977181476841614 0.9955228466122902 -0.04977181476841614 0.9955228466122902 -0.04977181476841614 0.004477153387709885 0.04977181476841614
7.4255E9 0.004596569088274032 0.05085487988369976 0.9954034309117257 -0.05085487988369976 0.9954034309117257 -0.05085487988369976 0.004596569088274032 0.05085487988369976
7.50025E9 0.004717897120488219 0.051932695465551355 0.9952821028795117 -0.051932695465551355 0.9952821028795117 -0.051932695465551355 0.004717897120488219 0.051932695465551355
7.575E9 0.0048411347441418544 0.053005453994794095 0.9951588652558584 -0.053005453994794095 0.9951588652558584 -0.053005453994794095 0.0048411347441418544 0.053005453994794095
7.64975E9 0.004966280953434106 0.05407334252549552 0.9950337190465658 -0.05407334252549552 0.9950337190465658 -0.05407334252549552 0.004966280953434106 0.05407334252549552
7.7245E9 0.00509333649337193 0.055136543090152514 0.9949066635066279 -0.055136543090152514 0.9949066635066279 -0.055136543090152514 0.00509333649337193 0.055136543090152514
7.79925E9 0.0052223038869101575 0.05619523309388653 0.9947776961130899 -0.05619523309388653 0.9947776961130899 -0.05619523309388653 0.0052223038869101575 0.05619523309388653
7.874E9 0.005353187473414722 0.057249585699596206 0.9946468125265852 -0.057249585699596206 0.9946468125265852 -0.057249585699596206 0.005353187473414722 0.057249585699596206
7.94875E9 0.005485993459173526 0.05829977020600975 0.9945140065408264 -0.05829977020600975 0.9945140065408264 -0.05829977020600975 0.005485993459173526 0.05829977020600975
8.0235E9 0.005620729980840104 0.0593459524205977 0.99437927001916 -0.0593459524205977 0.99437927001916 -0.0593459524205977 0.005620729980840104 0.0593459524205977
8.09825E9 0.0057574071828761465 0.06038829502934071 0.9942425928171238 -0.06038829502934071 0.9942425928171238 -0.06038829502934071 0.0057574071828761465 0.06038829502934071
8.173E9 0.005896037310265153 0.06142695796540664 0.9941039626897349 -0.06142695796540664 0.9941039626897349 -0.06142695796540664 0.005896037310265153 0.06142695796540664
8.24775E9 0.006036634818004985 0.0624620987788682 0.993963365181995 -0.0624620987788682 0.993963365181995 -0.0624620987788682 0.006036634818004985 0.0624620987788682
8.3225E9 0.006179216499159099 0.06349387300969911 0.9938207835008407 -0.06349387300969911 0.9938207835008407 -0.06349387300969911 0.006179216499159099 0.06349387300969911
8.39725E9 0.00632380163356094 0.06452243456641657 0.9936761983664391 -0.06452243456641657 0.9936761983664391 -0.06452243456641657 0.00632380163356094 0.06452243456641657
8.472E9 0.006470412159632692 0.06554793611289904 0.9935295878403675 -0.06554793611289904 0.9935295878403675 -0.06554793611289904 0.006470412159632692 0.06554793611289904
8.54675E9 0.0066190728722088366 0.06657052946610427 0.9933809271277909 -0.06657052946610427 0.9933809271277909 -0.06657052946610427 0.0066190728722088366 0.06657052946610427
