!Murata Part Number: GJM0225C1E6R8BB01
!These Parameters are Measured in Series Mode Connection
!       o--ll--o
!Port1            Port2
!       o------o
!Operation Temp=25[degC], DC Bias Voltage=0[V]
!Freq. Start=100[MHz] Stop=30[GHz], 401[Steps]
!Data Generated on Feb 1, 2023
# Hz S RI R 50
!Freq.(Hz) S11(Real) S11(Imag) S21(Real) S21(Imag) S12(Real) S12(Imag) S22(Real) S22(Imag)
1.0E8 0.8453982984352141 -0.36129975328254466 0.15460170156478592 0.36129975328254466 0.15460170156478592 0.36129975328254466 0.8453982984352141 -0.36129975328254466
1.7475E8 0.6413147471111134 -0.47921974498546094 0.3586852528888866 0.47921974498546094 0.3586852528888866 0.47921974498546094 0.6413147471111134 -0.47921974498546094
2.495E8 0.46668652353567897 -0.4983209609661313 0.5333134764643211 0.4983209609661313 0.5333134764643211 0.4983209609661313 0.46668652353567897 -0.4983209609661313
3.2425E8 0.3405847631257267 -0.4731602727559748 0.6594152368742733 0.4731602727559748 0.6594152368742733 0.4731602727559748 0.3405847631257267 -0.4731602727559748
3.99E8 0.25360037941305913 -0.4341427998919009 0.746399620586941 0.4341427998919009 0.746399620586941 0.4341427998919009 0.25360037941305913 -0.4341427998919009
4.7375E8 0.1934672367721226 -0.3938976892120895 0.8065327632278775 0.3938976892120895 0.8065327632278775 0.3938976892120895 0.1934672367721226 -0.3938976892120895
5.485E8 0.15108528927733483 -0.35681667619482593 0.8489147107226652 0.35681667619482593 0.8489147107226652 0.35681667619482593 0.15108528927733483 -0.35681667619482593
6.2325E8 0.1204848410052505 -0.32400729595710487 0.8795151589947494 0.32400729595710487 0.8795151589947494 0.32400729595710487 0.1204848410052505 -0.32400729595710487
6.98E8 0.0978509552868481 -0.29537903338113614 0.9021490447131518 0.29537903338113614 0.9021490447131518 0.29537903338113614 0.0978509552868481 -0.29537903338113614
7.7275E8 0.08073005579408025 -0.27046342101577475 0.9192699442059198 0.27046342101577475 0.9192699442059198 0.27046342101577475 0.08073005579408025 -0.27046342101577475
8.475E8 0.06751505782433517 -0.24872310578973195 0.9324849421756649 0.24872310578973195 0.9324849421756649 0.24872310578973195 0.06751505782433517 -0.24872310578973195
9.2225E8 0.05712981111692237 -0.22965995923735008 0.9428701888830776 0.22965995923735008 0.9428701888830776 0.22965995923735008 0.05712981111692237 -0.22965995923735008
9.97E8 0.048837226204441614 -0.21284547877309426 0.9511627737955585 0.21284547877309426 0.9511627737955585 0.21284547877309426 0.048837226204441614 -0.21284547877309426
1.07175E9 0.04212137420553198 -0.19792229086080307 0.9578786257944678 0.19792229086080307 0.9578786257944678 0.19792229086080307 0.04212137420553198 -0.19792229086080307
1.1465E9 0.036613741670613646 -0.18459604079074685 0.9633862583293863 0.18459604079074685 0.9633862583293863 0.18459604079074685 0.036613741670613646 -0.18459604079074685
1.22125E9 0.032046156352390213 -0.17262514333795606 0.9679538436476096 0.17262514333795606 0.9679538436476096 0.17262514333795606 0.032046156352390213 -0.17262514333795606
1.296E9 0.028220107881217878 -0.16181111610636523 0.9717798921187822 0.16181111610636523 0.9717798921187822 0.16181111610636523 0.028220107881217878 -0.16181111610636523
1.37075E9 0.024986345780668773 -0.15199031889157413 0.9750136542193311 0.15199031889157413 0.9750136542193311 0.15199031889157413 0.024986345780668773 -0.15199031889157413
1.4455E9 0.02223104949743478 -0.14302719067410075 0.9777689505025654 0.14302719067410075 0.9777689505025654 0.14302719067410075 0.02223104949743478 -0.14302719067410075
1.52025E9 0.019866283410807397 -0.1348088211976249 0.9801337165891926 0.1348088211976249 0.9801337165891926 0.1348088211976249 0.019866283410807397 -0.1348088211976249
1.595E9 0.01782329793941292 -0.12724063062563126 0.9821767020605872 0.12724063062563126 0.9821767020605872 0.12724063062563126 0.01782329793941292 -0.12724063062563126
1.66975E9 0.01604775439989514 -0.12024293942365501 0.9839522456001047 0.12024293942365501 0.9839522456001047 0.12024293942365501 0.01604775439989514 -0.12024293942365501
1.7445E9 0.014496271693514523 -0.11374824227431822 0.9855037283064855 0.11374824227431822 0.9855037283064855 0.11374824227431822 0.014496271693514523 -0.11374824227431822
1.81925E9 0.013133895272470667 -0.1076990349864765 0.9868661047275292 0.1076990349864765 0.9868661047275292 0.1076990349864765 0.013133895272470667 -0.1076990349864765
1.894E9 0.011932218888590694 -0.10204607497130476 0.9880677811114095 0.10204607497130476 0.9880677811114095 0.10204607497130476 0.011932218888590694 -0.10204607497130476
1.96875E9 0.010867974589353971 -0.09674698203029732 0.9891320254106462 0.09674698203029732 0.9891320254106462 0.09674698203029732 0.010867974589353971 -0.09674698203029732
2.0435E9 0.00992196280543209 -0.09176510703040626 0.9900780371945679 0.09176510703040626 0.9900780371945679 0.09176510703040626 0.00992196280543209 -0.09176510703040626
2.11825E9 0.009078232341360433 -0.0870686122904225 0.9909217676586396 0.0870686122904225 0.9909217676586396 0.0870686122904225 0.009078232341360433 -0.0870686122904225
2.193E9 0.00832344600691144 -0.08262972005173493 0.9916765539930885 0.08262972005173493 0.9916765539930885 0.08262972005173493 0.00832344600691144 -0.08262972005173493
2.26775E9 0.007646385563247048 -0.07842409505716685 0.9923536144367531 0.07842409505716685 0.9923536144367531 0.07842409505716685 0.007646385563247048 -0.07842409505716685
2.3425E9 0.007037562220802053 -0.07443033467734654 0.9929624377791978 0.07443033467734654 0.9929624377791978 0.07443033467734654 0.007037562220802053 -0.07443033467734654
2.41725E9 0.006488907827637074 -0.07062954573039881 0.9935110921723629 0.07062954573039881 0.9935110921723629 0.07062954573039881 0.006488907827637074 -0.07062954573039881
2.492E9 0.005993528263937997 -0.06700499154378753 0.9940064717360619 0.06700499154378753 0.9940064717360619 0.06700499154378753 0.005993528263937997 -0.06700499154378753
2.56675E9 0.0055455051738909755 -0.06354179621689135 0.9944544948261089 0.06354179621689135 0.9944544948261089 0.06354179621689135 0.0055455051738909755 -0.06354179621689135
2.6415E9 0.005139735539503662 -0.06022669569448213 0.9948602644604964 0.06022669569448213 0.9948602644604964 0.06022669569448213 0.005139735539503662 -0.06022669569448213
2.71625E9 0.004771801089161895 -0.057047827332590374 0.9952281989108379 0.057047827332590374 0.9952281989108379 0.057047827332590374 0.004771801089161895 -0.057047827332590374
2.791E9 0.004437861385073898 -0.05399455126388369 0.9955621386149259 0.05399455126388369 0.9955621386149259 0.05399455126388369 0.004437861385073898 -0.05399455126388369
2.86575E9 0.004134565822643299 -0.051057298151649874 0.9958654341773567 0.051057298151649874 0.9958654341773567 0.051057298151649874 0.004134565822643299 -0.051057298151649874
2.9405E9 0.003858980824910487 -0.04822743893727982 0.9961410191750898 0.04822743893727982 0.9961410191750898 0.04822743893727982 0.003858980824910487 -0.04822743893727982
3.01525E9 0.003608529315043848 -0.045497172994879403 0.9963914706849561 0.045497172994879403 0.9963914706849561 0.045497172994879403 0.003608529315043848 -0.045497172994879403
3.09E9 0.0033809401633824337 -0.04285943175353986 0.9966190598366174 0.04285943175353986 0.9966190598366174 0.04285943175353986 0.0033809401633824337 -0.04285943175353986
3.16475E9 0.0031742057792857655 -0.04030779536762548 0.9968257942207145 0.04030779536762548 0.9968257942207145 0.04030779536762548 0.0031742057792857655 -0.04030779536762548
3.2395E9 0.002986546386206869 -0.03783642043503863 0.9970134536137932 0.03783642043503863 0.9970134536137932 0.03783642043503863 0.002986546386206869 -0.03783642043503863
3.31425E9 0.0028163798062433715 -0.035439977103596386 0.9971836201937565 0.035439977103596386 0.9971836201937565 0.035439977103596386 0.0028163798062433715 -0.035439977103596386
3.389E9 0.002662295806765587 -0.033113594182611776 0.9973377041932344 0.033113594182611776 0.9973377041932344 0.033113594182611776 0.002662295806765587 -0.033113594182611776
3.46375E9 0.002523034240690966 -0.030852811103193566 0.9974769657593092 0.030852811103193566 0.9974769657593092 0.030852811103193566 0.002523034240690966 -0.030852811103193566
3.5385E9 0.0023974663542335895 -0.028653535756621606 0.9976025336457663 0.028653535756621606 0.9976025336457663 0.028653535756621606 0.0023974663542335895 -0.028653535756621606
3.61325E9 0.0022845787496065966 -0.026512007393284624 0.9977154212503936 0.026512007393284624 0.9977154212503936 0.026512007393284624 0.0022845787496065966 -0.026512007393284624
3.688E9 0.0021834595813872574 -0.02442476389131537 0.9978165404186126 0.02442476389131537 0.9978165404186126 0.02442476389131537 0.0021834595813872574 -0.02442476389131537
3.76275E9 0.0020932866388298182 -0.02238861280918332 0.9979067133611702 0.02238861280918332 0.9979067133611702 0.02238861280918332 0.0020932866388298182 -0.02238861280918332
3.8375E9 0.0020133170260105966 -0.0204006057240713 0.9979866829739893 0.0204006057240713 0.9979866829739893 0.0204006057240713 0.0020133170260105966 -0.0204006057240713
3.91225E9 0.001942878200173999 -0.018458015431051043 0.998057121799826 0.018458015431051043 0.998057121799826 0.018458015431051043 0.001942878200173999 -0.018458015431051043
3.987E9 0.0018813601682512778 -0.01655831563944438 0.9981186398317484 0.01655831563944438 0.9981186398317484 0.01655831563944438 0.0018813601682512778 -0.01655831563944438
4.06175E9 0.001828208674000307 -0.014699162854383966 0.9981717913259998 0.014699162854383966 0.9981717913259998 0.014699162854383966 0.001828208674000307 -0.014699162854383966
4.1365E9 0.0017829192349474866 -0.01287838017514997 0.9982170807650523 0.01287838017514997 0.9982170807650523 0.01287838017514997 0.0017829192349474866 -0.01287838017514997
4.21125E9 0.0017450319103983621 -0.0110939427787269 0.9982549680896016 0.0110939427787269 0.9982549680896016 0.0110939427787269 0.0017450319103983621 -0.0110939427787269
4.286E9 0.0017141267000934644 -0.009343964888316294 0.9982858732999065 0.009343964888316294 0.9982858732999065 0.009343964888316294 0.0017141267000934644 -0.009343964888316294
4.36075E9 0.0016898194883172694 -0.007626688053174445 0.9983101805116826 0.007626688053174445 0.9983101805116826 0.007626688053174445 0.0016898194883172694 -0.007626688053174445
4.4355E9 0.0016717584609799573 -0.0059404705888725816 0.9983282415390201 0.0059404705888725816 0.9983282415390201 0.0059404705888725816 0.0016717584609799573 -0.0059404705888725816
4.51025E9 0.0016596209338341405 -0.0042837780465262015 0.9983403790661659 0.0042837780465262015 0.9983403790661659 0.0042837780465262015 0.0016596209338341405 -0.0042837780465262015
4.585E9 0.0016531105389259787 -0.002655174596223562 0.998346889461074 0.002655174596223562 0.998346889461074 0.002655174596223562 0.0016531105389259787 -0.002655174596223562
4.65975E9 0.001651954723907427 -0.0010533152242299577 0.9983480452760926 0.0010533152242299577 0.9983480452760926 0.0010533152242299577 0.001651954723907427 -0.0010533152242299577
4.7345E9 0.0016559025251942213 5.230613440881973E-4 0.998344097474806 -5.230613440881973E-4 0.998344097474806 -5.230613440881973E-4 0.0016559025251942213 5.230613440881973E-4
4.80925E9 0.0016647225813393263 0.002075139072990422 0.9983352774186606 -0.002075139072990422 0.9983352774186606 -0.002075139072990422 0.0016647225813393263 0.002075139072990422
4.884E9 0.0016782013575646518 0.0036040304648587624 0.9983217986424353 -0.0036040304648587624 0.9983217986424353 -0.0036040304648587624 0.0016782013575646518 0.0036040304648587624
4.95875E9 0.0016961415562877084 0.00511078188855222 0.9983038584437123 -0.00511078188855222 0.9983038584437123 -0.00511078188855222 0.0016961415562877084 0.00511078188855222
5.0335E9 0.0017183606918035773 0.006596378440724483 0.9982816393081964 -0.006596378440724483 0.9982816393081964 -0.006596378440724483 0.0017183606918035773 0.006596378440724483
5.10825E9 0.0017446898101264997 0.00806174838712418 0.9982553101898736 -0.00806174838712418 0.9982553101898736 -0.00806174838712418 0.0017446898101264997 0.00806174838712418
5.183E9 0.001774972337434678 0.009507767225583256 0.9982250276625653 -0.009507767225583256 0.9982250276625653 -0.009507767225583256 0.001774972337434678 0.009507767225583256
5.25775E9 0.0018090630426588498 0.010935261407749407 0.9981909369573412 -0.010935261407749407 0.9981909369573412 -0.010935261407749407 0.0018090630426588498 0.010935261407749407
5.3325E9 0.0018468271015618693 0.012345011752543369 0.9981531728984382 -0.012345011752543369 0.9981531728984382 -0.012345011752543369 0.0018468271015618693 0.012345011752543369
5.40725E9 0.0018881392512166432 0.01373775658074232 0.9981118607487833 -0.01373775658074232 0.9981118607487833 -0.01373775658074232 0.0018881392512166432 0.01373775658074232
5.482E9 0.0019328830251396395 0.01511419459694298 0.9980671169748606 -0.01511419459694298 0.9980671169748606 -0.01511419459694298 0.0019328830251396395 0.01511419459694298
5.55675E9 0.00198095006050774 0.016474987542382316 0.9980190499394922 -0.016474987542382316 0.9980190499394922 -0.016474987542382316 0.00198095006050774 0.016474987542382316
5.6315E9 0.002032239469903213 0.017820762639644893 0.9979677605300968 -0.017820762639644893 0.9979677605300968 -0.017820762639644893 0.002032239469903213 0.017820762639644893
5.70625E9 0.0020866572709169443 0.019152114848119916 0.997913342729083 -0.019152114848119916 0.997913342729083 -0.019152114848119916 0.0020866572709169443 0.019152114848119916
5.781E9 0.002144115867712387 0.02046960894715288 0.9978558841322874 -0.02046960894715288 0.9978558841322874 -0.02046960894715288 0.002144115867712387 0.02046960894715288
5.85575E9 0.0022045335793275706 0.02177378146213485 0.9977954664206726 -0.02177378146213485 0.9977954664206726 -0.02177378146213485 0.0022045335793275706 0.02177378146213485
5.9305E9 0.002267834210083502 0.023065142447262352 0.9977321657899165 -0.023065142447262352 0.9977321657899165 -0.023065142447262352 0.002267834210083502 0.023065142447262352
6.00525E9 0.0023339466579856043 0.024344177137354116 0.9976660533420143 -0.024344177137354116 0.9976660533420143 -0.024344177137354116 0.0023339466579856043 0.024344177137354116
6.08E9 0.0024028045574604226 0.02561134747991517 0.9975971954425397 -0.02561134747991517 0.9975971954425397 -0.02561134747991517 0.0024028045574604226 0.02561134747991517
6.15475E9 0.0024743459531708506 0.026867093557568368 0.9975256540468291 -0.026867093557568368 0.9975256540468291 -0.026867093557568368 0.0024743459531708506 0.026867093557568368
6.2295E9 0.0025485130020069017 0.02811183491001937 0.9974514869979931 -0.02811183491001937 0.9974514869979931 -0.02811183491001937 0.0025485130020069017 0.02811183491001937
6.30425E9 0.0026252517006616198 0.029345971763867326 0.9973747482993384 -0.029345971763867326 0.9973747482993384 -0.029345971763867326 0.0026252517006616198 0.029345971763867326
6.379E9 0.0027045116364784513 0.03056988617780814 0.9972954883635213 -0.03056988617780814 0.9972954883635213 -0.03056988617780814 0.0027045116364784513 0.03056988617780814
6.45375E9 0.0027862457595018535 0.03178394311009162 0.9972137542404982 -0.03178394311009162 0.9972137542404982 -0.03178394311009162 0.0027862457595018535 0.03178394311009162
6.5285E9 0.0028704101738810705 0.03298849141447838 0.997129589826119 -0.03298849141447838 0.997129589826119 -0.03298849141447838 0.0028704101738810705 0.03298849141447838
6.60325E9 0.002956963946971268 0.034183864770388664 0.9970430360530289 -0.034183864770388664 0.9970430360530289 -0.034183864770388664 0.002956963946971268 0.034183864770388664
6.678E9 0.0030458689346496114 0.035370382552437934 0.9969541310653505 -0.035370382552437934 0.9969541310653505 -0.035370382552437934 0.0030458689346496114 0.035370382552437934
6.75275E9 0.003137089621519001 0.03654835064410607 0.9968629103784808 -0.03654835064410607 0.9968629103784808 -0.03654835064410607 0.003137089621519001 0.03654835064410607
6.8275E9 0.0032305929748112044 0.0377180621998819 0.9967694070251887 -0.0377180621998819 0.9967694070251887 -0.0377180621998819 0.0032305929748112044 0.0377180621998819
6.90225E9 0.003326348310926375 0.03887979835986271 0.9966736516890736 -0.03887979835986271 0.9966736516890736 -0.03887979835986271 0.003326348310926375 0.03887979835986271
6.977E9 0.003424327173658553 0.04003382892045689 0.9965756728263414 -0.04003382892045689 0.9965756728263414 -0.04003382892045689 0.003424327173658553 0.04003382892045689
7.05175E9 0.003524503223259097 0.04118041296454317 0.9964754967767407 -0.04118041296454317 0.9964754967767407 -0.04118041296454317 0.003524503223259097 0.04118041296454317
7.1265E9 0.003626852135582545 0.04231979945416966 0.9963731478644173 -0.04231979945416966 0.9963731478644173 -0.04231979945416966 0.003626852135582545 0.04231979945416966
7.20125E9 0.0037313515106442486 0.04345222778863485 0.9962686484893557 -0.04345222778863485 0.9962686484893557 -0.04345222778863485 0.0037313515106442486 0.04345222778863485
7.276E9 0.003837980789996518 0.044577928330571795 0.9961620192100034 -0.044577928330571795 0.9961620192100034 -0.044577928330571795 0.003837980789996518 0.044577928330571795
7.35075E9 0.003946721182401781 0.04569712290246008 0.9960532788175982 -0.04569712290246008 0.9960532788175982 -0.04569712290246008 0.003946721182401781 0.04569712290246008
7.4255E9 0.004057555597347475 0.046810025255809164 0.9959424444026527 -0.046810025255809164 0.9959424444026527 -0.046810025255809164 0.004057555597347475 0.046810025255809164
7.50025E9 0.004170468586009553 0.047916841515096176 0.9958295314139904 -0.047916841515096176 0.9958295314139904 -0.047916841515096176 0.004170468586009553 0.047916841515096176
7.575E9 0.004285446289329922 0.049017770598394385 0.9957145537106701 -0.049017770598394385 0.9957145537106701 -0.049017770598394385 0.004285446289329922 0.049017770598394385
7.64975E9 0.004402476392928716 0.05011300461649676 0.9955975236070713 -0.05011300461649676 0.9955975236070713 -0.05011300461649676 0.004402476392928716 0.05011300461649676
7.7245E9 0.004521548088625785 0.05120272925222104 0.9954784519113741 -0.05120272925222104 0.9954784519113741 -0.05120272925222104 0.004521548088625785 0.05120272925222104
7.79925E9 0.004642652042397568 0.05228712412147571 0.9953573479576023 -0.05228712412147571 0.9953573479576023 -0.05228712412147571 0.004642652042397568 0.05228712412147571
7.874E9 0.004765780368646686 0.05336636311757243 0.9952342196313533 -0.05336636311757243 0.9952342196313533 -0.05336636311757243 0.004765780368646686 0.05336636311757243
7.94875E9 0.004890926610712089 0.05444061474018369 0.995109073389288 -0.05444061474018369 0.995109073389288 -0.05444061474018369 0.004890926610712089 0.05444061474018369
8.0235E9 0.005018085727599112 0.05551004241027272 0.9949819142724008 -0.05551004241027272 0.9949819142724008 -0.05551004241027272 0.005018085727599112 0.05551004241027272
8.09825E9 0.005147254086960758 0.05657480477225373 0.9948527459130393 -0.05657480477225373 0.9948527459130393 -0.05657480477225373 0.005147254086960758 0.05657480477225373
8.173E9 0.0052784294644159565 0.05763505598458683 0.9947215705355842 -0.05763505598458683 0.9947215705355842 -0.05763505598458683 0.0052784294644159565 0.05763505598458683
8.24775E9 0.0054116110493470215 0.058690945999960234 0.9945883889506532 -0.058690945999960234 0.9945883889506532 -0.058690945999960234 0.0054116110493470215 0.058690945999960234
8.3225E9 0.005546799457379008 0.0597426208361748 0.994453200542621 -0.0597426208361748 0.994453200542621 -0.0597426208361748 0.005546799457379008 0.0597426208361748
8.39725E9 0.005683996749808172 0.060790222838810866 0.9943160032501919 -0.060790222838810866 0.9943160032501919 -0.060790222838810866 0.005683996749808172 0.060790222838810866
8.472E9 0.005823206460316835 0.06183389093673279 0.9941767935396832 -0.06183389093673279 0.9941767935396832 -0.06183389093673279 0.005823206460316835 0.06183389093673279
