!Murata Part Number: GJM0225C1E8R8BB01
!These Parameters are Measured in Series Mode Connection
!       o--ll--o
!Port1            Port2
!       o------o
!Operation Temp=25[degC], DC Bias Voltage=0[V]
!Freq. Start=100[MHz] Stop=30[GHz], 401[Steps]
!Data Generated on Feb 1, 2023
# Hz S RI R 50
!Freq.(Hz) S11(Real) S11(Imag) S21(Real) S21(Imag) S12(Real) S12(Imag) S22(Real) S22(Imag)
1.0E8 0.765534951118522 -0.42341474756891606 0.23446504888147804 0.42341474756891606 0.23446504888147804 0.42341474756891606 0.765534951118522 -0.42341474756891606
1.7475E8 0.5162491789328926 -0.49929856990069577 0.4837508210671075 0.49929856990069577 0.4837508210671075 0.49929856990069577 0.5162491789328926 -0.49929856990069577
2.495E8 0.34297235398038084 -0.474074106318557 0.6570276460196192 0.474074106318557 0.6570276460196192 0.474074106318557 0.34297235398038084 -0.474074106318557
3.2425E8 0.23539668396167004 -0.4234233087934306 0.7646033160383301 0.4234233087934306 0.7646033160383301 0.4234233087934306 0.23539668396167004 -0.4234233087934306
3.99E8 0.16827945968279034 -0.3730909807506652 0.8317205403172097 0.3730909807506652 0.8317205403172097 0.3730909807506652 0.16827945968279034 -0.3730909807506652
4.7375E8 0.12486105591070291 -0.3293316671961369 0.8751389440892972 0.3293316671961369 0.8751389440892972 0.3293316671961369 0.12486105591070291 -0.3293316671961369
5.485E8 0.09560543115914412 -0.29260611470604686 0.9043945688408557 0.29260611470604686 0.9043945688408557 0.29260611470604686 0.09560543115914412 -0.29260611470604686
6.2325E8 0.07513612928461076 -0.26194574357229394 0.924863870715389 0.26194574357229394 0.924863870715389 0.26194574357229394 0.07513612928461076 -0.26194574357229394
6.98E8 0.06033539513444305 -0.23621103719761022 0.9396646048655567 0.23621103719761022 0.9396646048655567 0.23621103719761022 0.06033539513444305 -0.23621103719761022
7.7275E8 0.04932693270043005 -0.21441253972028101 0.9506730672995699 0.21441253972028101 0.9506730672995699 0.21441253972028101 0.04932693270043005 -0.21441253972028101
8.475E8 0.04093879213472729 -0.19575941286544324 0.9590612078652726 0.19575941286544324 0.9590612078652726 0.19575941286544324 0.04093879213472729 -0.19575941286544324
9.2225E8 0.03441330529836307 -0.179635881262302 0.9655866947016368 0.179635881262302 0.9655866947016368 0.179635881262302 0.03441330529836307 -0.179635881262302
9.97E8 0.02924520479900811 -0.16556499734103625 0.9707547952009917 0.16556499734103625 0.9707547952009917 0.16556499734103625 0.02924520479900811 -0.16556499734103625
1.07175E9 0.0250880976755091 -0.15317602347686923 0.9749119023244908 0.15317602347686923 0.9749119023244908 0.15317602347686923 0.0250880976755091 -0.15317602347686923
1.1465E9 0.02169860190042356 -0.14217862720180477 0.9783013980995764 0.14217862720180477 0.9783013980995764 0.14217862720180477 0.02169860190042356 -0.14217862720180477
1.22125E9 0.018901932319066565 -0.13234337398750975 0.9810980676809334 0.13234337398750975 0.9810980676809334 0.13234337398750975 0.018901932319066565 -0.13234337398750975
1.296E9 0.01657009322245808 -0.12348721028140691 0.9834299067775419 0.12348721028140691 0.9834299067775419 0.12348721028140691 0.01657009322245808 -0.12348721028140691
1.37075E9 0.014607700402668506 -0.115462689212152 0.9853922995973313 0.115462689212152 0.9853922995973313 0.115462689212152 0.014607700402668506 -0.115462689212152
1.4455E9 0.012942546438982832 -0.10814994560780122 0.9870574535610173 0.10814994560780122 0.9870574535610173 0.10814994560780122 0.012942546438982832 -0.10814994560780122
1.52025E9 0.011519188314537193 -0.10145067892544675 0.988480811685463 0.10145067892544675 0.988480811685463 0.10145067892544675 0.011519188314537193 -0.10145067892544675
1.595E9 0.010294504626313969 -0.09528360481531285 0.9897054953736859 0.09528360481531285 0.9897054953736859 0.09528360481531285 0.010294504626313969 -0.09528360481531285
1.66975E9 0.00923456300727592 -0.08958098652985956 0.9907654369927241 0.08958098652985956 0.9907654369927241 0.08958098652985956 0.00923456300727592 -0.08958098652985956
1.7445E9 0.008312375696711869 -0.08428596603803178 0.9916876243032882 0.08428596603803178 0.9916876243032882 0.08428596603803178 0.008312375696711869 -0.08428596603803178
1.81925E9 0.007506267652425933 -0.0793504922196527 0.9924937323475743 0.0793504922196527 0.9924937323475743 0.0793504922196527 0.007506267652425933 -0.0793504922196527
1.894E9 0.006798673894973268 -0.07473369867425125 0.9932013261050268 0.07473369867425125 0.9932013261050268 0.07473369867425125 0.006798673894973268 -0.07473369867425125
1.96875E9 0.00617524207550036 -0.07040062302346031 0.9938247579244998 0.07040062302346031 0.9938247579244998 0.07040062302346031 0.00617524207550036 -0.07040062302346031
2.0435E9 0.005624155049131459 -0.06632118779495061 0.9943758449508685 0.06632118779495061 0.9943758449508685 0.06632118779495061 0.005624155049131459 -0.06632118779495061
2.11825E9 0.005135614034508733 -0.06246938333555574 0.994864385965491 0.06246938333555574 0.994864385965491 0.06246938333555574 0.005135614034508733 -0.06246938333555574
2.193E9 0.004701440365024332 -0.05882260800586518 0.9952985596349756 0.05882260800586518 0.9952985596349756 0.05882260800586518 0.004701440365024332 -0.05882260800586518
2.26775E9 0.00431476577664885 -0.05536113175858345 0.9956852342233511 0.05536113175858345 0.9956852342233511 0.05536113175858345 0.00431476577664885 -0.05536113175858345
2.3425E9 0.003969789468271469 -0.052067657218313676 0.9960302105317286 0.052067657218313676 0.9960302105317286 0.052067657218313676 0.003969789468271469 -0.052067657218313676
2.41725E9 0.0036615860004668957 -0.048926958348809904 0.9963384139995334 0.048926958348809904 0.9963384139995334 0.048926958348809904 0.0036615860004668957 -0.048926958348809904
2.492E9 0.003385952246409441 -0.04592558127264025 0.9966140477535903 0.04592558127264025 0.9966140477535903 0.04592558127264025 0.003385952246409441 -0.04592558127264025
2.56675E9 0.003139284592263492 -0.04305159519490931 0.9968607154077365 0.04305159519490931 0.9968607154077365 0.04305159519490931 0.003139284592263492 -0.04305159519490931
2.6415E9 0.0029184797528413785 -0.04029438396240931 0.9970815202471588 0.04029438396240931 0.9970815202471588 0.04029438396240931 0.0029184797528413785 -0.04029438396240931
2.71625E9 0.0027208541597416244 -0.0376444707685726 0.9972791458402585 0.0376444707685726 0.9972791458402585 0.0376444707685726 0.0027208541597416244 -0.0376444707685726
2.791E9 0.0025440780578758274 -0.03509337004315606 0.9974559219421243 0.03509337004315606 0.9974559219421243 0.03509337004315606 0.0025440780578758274 -0.03509337004315606
2.86575E9 0.0023861213268931924 -0.03263346175399912 0.9976138786731067 0.03263346175399912 0.9976138786731067 0.03263346175399912 0.0023861213268931924 -0.03263346175399912
2.9405E9 0.0022452087073174293 -0.03025788427798445 0.9977547912926826 0.03025788427798445 0.9977547912926826 0.03025788427798445 0.0022452087073174293 -0.03025788427798445
3.01525E9 0.002119782614731124 -0.027960442730188564 0.9978802173852689 0.027960442730188564 0.9978802173852689 0.027960442730188564 0.002119782614731124 -0.027960442730188564
3.09E9 0.002008472110390236 -0.025735530219616012 0.9979915278896098 0.025735530219616012 0.9979915278896098 0.025735530219616012 0.002008472110390236 -0.025735530219616012
3.16475E9 0.001910066893164344 -0.023578059961182642 0.9980899331068357 0.023578059961182642 0.9980899331068357 0.023578059961182642 0.001910066893164344 -0.023578059961182642
3.2395E9 0.0018234954075534318 -0.021483406542796884 0.9981765045924466 0.021483406542796884 0.9981765045924466 0.021483406542796884 0.0018234954075534318 -0.021483406542796884
3.31425E9 0.0017478063418424955 -0.019447354943385252 0.9982521936581575 0.019447354943385252 0.9982521936581575 0.019447354943385252 0.0017478063418424955 -0.019447354943385252
3.389E9 0.0016821529311788024 -0.01746605613780546 0.9983178470688211 0.01746605613780546 0.9983178470688211 0.01746605613780546 0.0016821529311788024 -0.01746605613780546
3.46375E9 0.0016257795914314725 -0.015535988319609482 0.9983742204085686 0.015535988319609482 0.9983742204085686 0.015535988319609482 0.0016257795914314725 -0.015535988319609482
3.5385E9 0.0015780104978458814 -0.0136539229317366 0.998421989502154 0.0136539229317366 0.998421989502154 0.0136539229317366 0.0015780104978458814 -0.0136539229317366
3.61325E9 0.0015382397928326813 -0.011816894825611112 0.9984617602071671 0.011816894825611112 0.9984617602071671 0.011816894825611112 0.0015382397928326813 -0.011816894825611112
3.688E9 0.0015059231636175687 -0.01002217597641892 0.9984940768363825 0.01002217597641892 0.9984940768363825 0.01002217597641892 0.0015059231636175687 -0.01002217597641892
3.76275E9 0.001480570575903093 -0.00826725227099134 0.9985194294240968 0.00826725227099134 0.9985194294240968 0.00826725227099134 0.001480570575903093 -0.00826725227099134
3.8375E9 0.0014617399864557696 -0.006549802958252329 0.9985382600135442 0.006549802958252329 0.9985382600135442 0.006549802958252329 0.0014617399864557696 -0.006549802958252329
3.91225E9 0.0014490318874130406 -0.004867682413397793 0.9985509681125869 0.004867682413397793 0.9985509681125869 0.004867682413397793 0.0014490318874130406 -0.004867682413397793
3.987E9 0.0014420845594951292 -0.0032189039181158173 0.9985579154405049 0.0032189039181158173 0.9985579154405049 0.0032189039181158173 0.0014420845594951292 -0.0032189039181158173
4.06175E9 0.0014405699312956028 -0.00160162520203108 0.9985594300687045 0.00160162520203108 0.9985594300687045 0.00160162520203108 0.0014405699312956028 -0.00160162520203108
4.1365E9 0.0014441899582692656 -1.4135526618187962E-5 0.9985558100417306 1.4135526618187962E-5 0.9985558100417306 1.4135526618187962E-5 0.0014441899582692656 -1.4135526618187962E-5
4.21125E9 0.0014526734486155282 0.0015451558767394875 0.9985473265513843 -0.0015451558767394875 0.9985473265513843 -0.0015451558767394875 0.0014526734486155282 0.0015451558767394875
4.286E9 0.001465773274508819 0.0030777301771125016 0.9985342267254912 -0.0030777301771125016 0.9985342267254912 -0.0030777301771125016 0.001465773274508819 0.0030777301771125016
4.36075E9 0.0014832639164856713 0.0045849682635090835 0.9985167360835143 -0.0045849682635090835 0.9985167360835143 -0.0045849682635090835 0.0014832639164856713 0.0045849682635090835
4.4355E9 0.0015049392966056422 0.006068159135562053 0.9984950607033943 -0.006068159135562053 0.9984950607033943 -0.006068159135562053 0.0015049392966056422 0.006068159135562053
4.51025E9 0.0015306108625381515 0.00752850747160677 0.9984693891374619 -0.00752850747160677 0.9984693891374619 -0.00752850747160677 0.0015306108625381515 0.00752850747160677
4.585E9 0.0015601058902138226 0.008967140466730479 0.9984398941097865 -0.008967140466730479 0.9984398941097865 -0.008967140466730479 0.0015601058902138226 0.008967140466730479
4.65975E9 0.0015932659772990585 0.010385114021696232 0.9984067340227011 -0.010385114021696232 0.9984067340227011 -0.010385114021696232 0.0015932659772990585 0.010385114021696232
4.7345E9 0.001629945703654359 0.011783418353595882 0.9983700542963455 -0.011783418353595882 0.9983700542963455 -0.011783418353595882 0.001629945703654359 0.011783418353595882
4.80925E9 0.0016700114382412125 0.01316298309042064 0.9983299885617586 -0.01316298309042064 0.9983299885617586 -0.01316298309042064 0.0016700114382412125 0.01316298309042064
4.884E9 0.0017133402747484918 0.01452468190424538 0.9982866597252515 -0.01452468190424538 0.9982866597252515 -0.01452468190424538 0.0017133402747484918 0.01452468190424538
4.95875E9 0.001759819080598385 0.015869336731231587 0.9982401809194015 -0.015869336731231587 0.9982401809194015 -0.015869336731231587 0.001759819080598385 0.015869336731231587
5.0335E9 0.001809343646031464 0.017197721621016297 0.9981906563539685 -0.017197721621016297 0.9981906563539685 -0.017197721621016297 0.001809343646031464 0.017197721621016297
5.10825E9 0.0018618179217158434 0.018510566253149428 0.9981381820782839 -0.018510566253149428 0.9981381820782839 -0.018510566253149428 0.0018618179217158434 0.018510566253149428
5.183E9 0.001917153334822903 0.01980855915396463 0.9980828466651772 -0.01980855915396463 0.9980828466651772 -0.01980855915396463 0.001917153334822903 0.01980855915396463
5.25775E9 0.0019752681747998444 0.021092350643531776 0.9980247318252002 -0.021092350643531776 0.9980247318252002 -0.021092350643531776 0.0019752681747998444 0.021092350643531776
5.3325E9 0.0020360870411797434 0.022362555539068473 0.9979639129588203 -0.022362555539068473 0.9979639129588203 -0.022362555539068473 0.0020360870411797434 0.022362555539068473
5.40725E9 0.0020995403467292816 0.023619755638319404 0.9979004596532707 -0.023619755638319404 0.9979004596532707 -0.023619755638319404 0.0020995403467292816 0.023619755638319404
5.482E9 0.0021655638700657353 0.024864502003892605 0.9978344361299344 -0.024864502003892605 0.9978344361299344 -0.024864502003892605 0.0021655638700657353 0.024864502003892605
5.55675E9 0.0022340983525968414 0.026097317067325217 0.9977659016474031 -0.026097317067325217 0.9977659016474031 -0.026097317067325217 0.0022340983525968414 0.026097317067325217
5.6315E9 0.002305089135265896 0.027318696569696415 0.9976949108647343 -0.027318696569696415 0.9976949108647343 -0.027318696569696415 0.002305089135265896 0.027318696569696415
5.70625E9 0.0023784858311334555 0.0285291113538818 0.9976215141688668 -0.0285291113538818 0.9976215141688668 -0.0285291113538818 0.0023784858311334555 0.0285291113538818
5.781E9 0.0024542420303076823 0.02972900902201853 0.9975457579696924 -0.02972900902201853 0.9975457579696924 -0.02972900902201853 0.0024542420303076823 0.02972900902201853
5.85575E9 0.002532315034157582 0.030918815470401963 0.9974676849658426 -0.030918815470401963 0.9974676849658426 -0.030918815470401963 0.002532315034157582 0.030918815470401963
5.9305E9 0.0026126656161154903 0.0320989363128394 0.9973873343838845 -0.0320989363128394 0.9973873343838845 -0.0320989363128394 0.0026126656161154903 0.0320989363128394
6.00525E9 0.002695257806704285 0.033269758202426836 0.9973047421932957 -0.033269758202426836 0.9973047421932957 -0.033269758202426836 0.002695257806704285 0.033269758202426836
6.08E9 0.002780058700717206 0.0344316500607733 0.9972199412992829 -0.0344316500607733 0.9972199412992829 -0.0344316500607733 0.002780058700717206 0.0344316500607733
6.15475E9 0.0028670382847391183 0.03558496422286197 0.9971329617152608 -0.03558496422286197 0.9971329617152608 -0.03558496422286197 0.0028670382847391183 0.03558496422286197
6.2295E9 0.002956169283432426 0.03673003750499495 0.9970438307165675 -0.03673003750499495 0.9970438307165675 -0.03673003750499495 0.002956169283432426 0.03673003750499495
6.30425E9 0.0030474270232223764 0.03786719220260768 0.9969525729767775 -0.03786719220260768 0.9969525729767775 -0.03786719220260768 0.0030474270232223764 0.03786719220260768
6.379E9 0.003140789312209293 0.03899673702415393 0.9968592106877907 -0.03899673702415393 0.9968592106877907 -0.03899673702415393 0.003140789312209293 0.03899673702415393
6.45375E9 0.0032362363353121183 0.040118967966740034 0.996763763664688 -0.040118967966740034 0.996763763664688 -0.040118967966740034 0.0032362363353121183 0.040118967966740034
6.5285E9 0.0033337505638118864 0.04123416913872715 0.9966662494361882 -0.04123416913872715 0.9966662494361882 -0.04123416913872715 0.0033337505638118864 0.04123416913872715
6.60325E9 0.003433316678617728 0.04234261353410985 0.996566683321382 -0.04234261353410985 0.996566683321382 -0.04234261353410985 0.003433316678617728 0.04234261353410985
6.678E9 0.003534921506724697 0.04344456376312085 0.9964650784932755 -0.04344456376312085 0.9964650784932755 -0.04344456376312085 0.003534921506724697 0.04344456376312085
6.75275E9 0.0036385539704739274 0.04454027274319252 0.9963614460295261 -0.04454027274319252 0.9963614460295261 -0.04454027274319252 0.0036385539704739274 0.04454027274319252
6.8275E9 0.0037442050493645875 0.045629984354131445 0.9962557949506354 -0.045629984354131445 0.9962557949506354 -0.045629984354131445 0.0037442050493645875 0.045629984354131445
6.90225E9 0.0038518677543052256 0.046713934061120975 0.9961481322456949 -0.046713934061120975 0.9961481322456949 -0.046713934061120975 0.0038518677543052256 0.046713934061120975
6.977E9 0.003961537114332666 0.047792349508962 0.9960384628856672 -0.047792349508962 0.9960384628856672 -0.047792349508962 0.003961537114332666 0.047792349508962
7.05175E9 0.00407321017597172 0.04886545109079023 0.9959267898240284 -0.04886545109079023 0.9959267898240284 -0.04886545109079023 0.00407321017597172 0.04886545109079023
7.1265E9 0.004186886015561377 0.04993345249436439 0.9958131139844385 -0.04993345249436439 0.9958131139844385 -0.04993345249436439 0.004186886015561377 0.04993345249436439
7.20125E9 0.004302565765036327 0.050996561228910456 0.9956974342349636 -0.050996561228910456 0.9956974342349636 -0.050996561228910456 0.004302565765036327 0.050996561228910456
7.276E9 0.004420252651829396 0.05205497913542149 0.9955797473481708 -0.05205497913542149 0.9955797473481708 -0.05205497913542149 0.004420252651829396 0.05205497913542149
7.35075E9 0.004539952053755292 0.053108902883260936 0.995460047946245 -0.053108902883260936 0.995460047946245 -0.053108902883260936 0.004539952053755292 0.053108902883260936
7.4255E9 0.004661671569952806 0.05415852445589012 0.9953383284300472 -0.05415852445589012 0.9953383284300472 -0.05415852445589012 0.004661671569952806 0.05415852445589012
7.50025E9 0.004785421109207351 0.05520403162854806 0.9952145788907927 -0.05520403162854806 0.9952145788907927 -0.05520403162854806 0.004785421109207351 0.05520403162854806
7.575E9 0.0049112129972536 0.05624560844074496 0.9950887870027463 -0.05624560844074496 0.9950887870027463 -0.05624560844074496 0.0049112129972536 0.05624560844074496
7.64975E9 0.005039062104977511 0.05728343566650143 0.9949609378950224 -0.05728343566650143 0.9949609378950224 -0.05728343566650143 0.005039062104977511 0.05728343566650143
7.7245E9 0.005168985999806142 0.05831769128536749 0.9948310140001939 -0.05831769128536749 0.9948310140001939 -0.05831769128536749 0.005168985999806142 0.05831769128536749
7.79925E9 0.005301005123003426 0.059348550957396086 0.9946989948769965 -0.059348550957396086 0.9946989948769965 -0.059348550957396086 0.005301005123003426 0.059348550957396086
7.874E9 0.0054351429960935935 0.060376188505429404 0.9945648570039063 -0.060376188505429404 0.9945648570039063 -0.060376188505429404 0.0054351429960935935 0.060376188505429404
7.94875E9 0.005571426460226292 0.06140077640828053 0.9944285735397737 -0.06140077640828053 0.9944285735397737 -0.06140077640828053 0.005571426460226292 0.06140077640828053
8.0235E9 0.00570988595299897 0.06242248630867403 0.9942901140470011 -0.06242248630867403 0.9942901140470011 -0.06242248630867403 0.00570988595299897 0.06242248630867403
8.09825E9 0.005850555828085273 0.0634414895401389 0.9941494441719149 -0.0634414895401389 0.9941494441719149 -0.0634414895401389 0.005850555828085273 0.0634414895401389
8.173E9 0.005993474724013425 0.06445795767744586 0.9940065252759865 -0.06445795767744586 0.9940065252759865 -0.06445795767744586 0.005993474724013425 0.06445795767744586
8.24775E9 0.0061386859896315465 0.0654720631156465 0.9938613140103687 -0.0654720631156465 0.9938613140103687 -0.0654720631156465 0.0061386859896315465 0.0654720631156465
8.3225E9 0.006286238175232729 0.06648397968331693 0.9937137618247673 -0.06648397968331693 0.9937137618247673 -0.06648397968331693 0.006286238175232729 0.06648397968331693
8.39725E9 0.006436185600048754 0.06749388329624421 0.9935638143999512 -0.06749388329624421 0.9935638143999512 -0.06749388329624421 0.006436185600048754 0.06749388329624421
8.472E9 0.006588589008927366 0.06850195265852453 0.9934114109910726 -0.06850195265852453 0.9934114109910726 -0.06850195265852453 0.006588589008927366 0.06850195265852453
