!Murata Part Number: GJM0225C1ER70WB01
!These Parameters are Measured in Series Mode Connection
!       o--ll--o
!Port1            Port2
!       o------o
!Operation Temp=25[degC], DC Bias Voltage=0[V]
!Freq. Start=100[MHz] Stop=30[GHz], 401[Steps]
!Data Generated on Feb 1, 2023
# Hz S RI R 50
!Freq.(Hz) S11(Real) S11(Imag) S21(Real) S21(Imag) S12(Real) S12(Imag) S22(Real) S22(Imag)
1.0E8 0.9980644328909576 -0.043898787793325005 0.0019355671090424066 0.043898787793325005 0.0019355671090424066 0.043898787793325005 0.9980644328909576 -0.043898787793325005
1.7475E8 0.9941117281401868 -0.07641511720679739 0.005888271859813212 0.07641511720679739 0.005888271859813212 0.07641511720679739 0.9941117281401868 -0.07641511720679739
2.495E8 0.9880668892211093 -0.10845128071133202 0.011933110778890785 0.10845128071133202 0.011933110778890785 0.10845128071133202 0.9880668892211093 -0.10845128071133202
3.2425E8 0.9800032207354552 -0.13981510807918052 0.01999677926454486 0.13981510807918052 0.01999677926454486 0.13981510807918052 0.9800032207354552 -0.13981510807918052
3.99E8 0.9700165134693822 -0.17032774985058075 0.029983486530617675 0.17032774985058075 0.029983486530617675 0.17032774985058075 0.9700165134693822 -0.17032774985058075
4.7375E8 0.9582222727273967 -0.199826735254155 0.041777727272603274 0.199826735254155 0.041777727272603274 0.199826735254155 0.9582222727273967 -0.199826735254155
5.485E8 0.9447525066539054 -0.22816838999038025 0.05524749334609452 0.22816838999038025 0.05524749334609452 0.22816838999038025 0.9447525066539054 -0.22816838999038025
6.2325E8 0.929752234140038 -0.25522955748716825 0.07024776585996192 0.25522955748716825 0.07024776585996192 0.25522955748716825 0.929752234140038 -0.25522955748716825
6.98E8 0.9133758738882629 -0.2809086089875117 0.08662412611173709 0.2809086089875117 0.08662412611173709 0.2809086089875117 0.9133758738882629 -0.2809086089875117
7.7275E8 0.8957836671085702 -0.30512576646288386 0.10421633289142991 0.30512576646288386 0.10421633289142991 0.30512576646288386 0.8957836671085702 -0.30512576646288386
8.475E8 0.8771382681848363 -0.3278227950376482 0.12286173181516352 0.3278227950376482 0.12286173181516352 0.3278227950376482 0.8771382681848363 -0.3278227950376482
9.2225E8 0.8576016131325319 -0.34896214650182433 0.14239838686746809 0.34896214650182433 0.14239838686746809 0.34896214650182433 0.8576016131325319 -0.34896214650182433
9.97E8 0.8373321476375771 -0.36852565175811275 0.16266785236242293 0.36852565175811275 0.16266785236242293 0.36852565175811275 0.8373321476375771 -0.36852565175811275
1.07175E9 0.8164824676427916 -0.386512867819383 0.1835175323572085 0.386512867819383 0.1835175323572085 0.386512867819383 0.8164824676427916 -0.386512867819383
1.1465E9 0.7951973981356972 -0.40293918512804366 0.20480260186430285 0.40293918512804366 0.20480260186430285 0.40293918512804366 0.7951973981356972 -0.40293918512804366
1.22125E9 0.7736125117103895 -0.4178337949021459 0.22638748828961047 0.4178337949021459 0.22638748828961047 0.4178337949021459 0.7736125117103895 -0.4178337949021459
1.296E9 0.751853068711389 -0.4312376055725484 0.248146931288611 0.4312376055725484 0.248146931288611 0.4312376055725484 0.751853068711389 -0.4312376055725484
1.37075E9 0.7300333458019612 -0.4432011838379524 0.2699666541980388 0.4432011838379524 0.2699666541980388 0.4432011838379524 0.7300333458019612 -0.4432011838379524
1.4455E9 0.7082563096113969 -0.45378278096342584 0.2917436903886032 0.45378278096342584 0.2917436903886032 0.45378278096342584 0.7082563096113969 -0.45378278096342584
1.52025E9 0.6866135863064776 -0.4630464899618182 0.31338641369352227 0.4630464899618182 0.31338641369352227 0.4630464899618182 0.6866135863064776 -0.4630464899618182
1.595E9 0.6651856758614131 -0.4710605651971799 0.3348143241385871 0.4710605651971799 0.3348143241385871 0.4710605651971799 0.6651856758614131 -0.4710605651971799
1.66975E9 0.6440423607083997 -0.4778959233931097 0.35595763929160035 0.4778959233931097 0.35595763929160035 0.4778959233931097 0.6440423607083997 -0.4778959233931097
1.7445E9 0.6232432615585279 -0.4836248343909304 0.37675673844147217 0.4836248343909304 0.37675673844147217 0.4836248343909304 0.6232432615585279 -0.4836248343909304
1.81925E9 0.6028384977628988 -0.4883198014213877 0.3971615022371013 0.4883198014213877 0.3971615022371013 0.4883198014213877 0.6028384977628988 -0.4883198014213877
1.894E9 0.5828694150063208 -0.4920526240890926 0.4171305849936792 0.4920526240890926 0.4171305849936792 0.4920526240890926 0.5828694150063208 -0.4920526240890926
1.96875E9 0.5633693488790193 -0.49489363255824004 0.43663065112098076 0.49489363255824004 0.43663065112098076 0.49489363255824004 0.5633693488790193 -0.49489363255824004
2.0435E9 0.5443643985662374 -0.49691107833480724 0.4556356014337625 0.49691107833480724 0.4556356014337625 0.49691107833480724 0.5443643985662374 -0.49691107833480724
2.11825E9 0.5258741902566239 -0.498170665294566 0.47412580974337615 0.498170665294566 0.47412580974337615 0.498170665294566 0.5258741902566239 -0.498170665294566
2.193E9 0.507912614722252 -0.49873520393423476 0.4920873852777481 0.49873520393423476 0.4920873852777481 0.49873520393423476 0.507912614722252 -0.49873520393423476
2.26775E9 0.4904885277711096 -0.49866437196806757 0.5095114722288905 0.49866437196806757 0.5095114722288905 0.49866437196806757 0.4904885277711096 -0.49866437196806757
2.3425E9 0.47360640588388514 -0.49801456512607706 0.5263935941161149 0.49801456512607706 0.5263935941161149 0.49801456512607706 0.47360640588388514 -0.49801456512607706
2.41725E9 0.45726695233251524 -0.49683882313968464 0.5427330476674848 0.49683882313968464 0.5427330476674848 0.49683882313968464 0.45726695233251524 -0.49683882313968464
2.492E9 0.44146765147952055 -0.49518681726872366 0.5585323485204796 0.49518681726872366 0.5585323485204796 0.49518681726872366 0.44146765147952055 -0.49518681726872366
2.56675E9 0.4262032708337975 -0.4931048872075263 0.5737967291662024 0.4931048872075263 0.5737967291662024 0.4931048872075263 0.4262032708337975 -0.4931048872075263
2.6415E9 0.4114663118578737 -0.4906361167151768 0.5885336881421264 0.4906361167151768 0.5885336881421264 0.4906361167151768 0.4114663118578737 -0.4906361167151768
2.71625E9 0.39724741155328813 -0.48782043878000353 0.602752588446712 0.48782043878000353 0.602752588446712 0.48782043878000353 0.39724741155328813 -0.48782043878000353
2.791E9 0.38353569756172184 -0.48469476250671406 0.6164643024382782 0.48469476250671406 0.6164643024382782 0.48469476250671406 0.38353569756172184 -0.48469476250671406
2.86575E9 0.37031909997138457 -0.4812931151789699 0.6296809000286154 0.4812931151789699 0.6296809000286154 0.4812931151789699 0.37031909997138457 -0.4812931151789699
2.9405E9 0.3575846232656388 -0.47764679408651417 0.6424153767343612 0.47764679408651417 0.6424153767343612 0.47764679408651417 0.3575846232656388 -0.47764679408651417
3.01525E9 0.34531858194111953 -0.473784523709659 0.6546814180588804 0.473784523709659 0.6546814180588804 0.473784523709659 0.34531858194111953 -0.473784523709659
3.09E9 0.33350680329539084 -0.4697326147272732 0.6664931967046092 0.4697326147272732 0.6664931967046092 0.4697326147272732 0.33350680329539084 -0.4697326147272732
3.16475E9 0.3221348007722198 -0.4655151220641915 0.6778651992277801 0.4655151220641915 0.6778651992277801 0.4655151220641915 0.3221348007722198 -0.4655151220641915
3.2395E9 0.3111879210822712 -0.4611539998297981 0.6888120789177289 0.4611539998297981 0.6888120789177289 0.4611539998297981 0.3111879210822712 -0.4611539998297981
3.31425E9 0.3006514681093127 -0.4566692515324712 0.6993485318906874 0.4566692515324712 0.6993485318906874 0.4566692515324712 0.3006514681093127 -0.4566692515324712
3.389E9 0.29051080638310595 -0.45207907439625394 0.7094891936168941 0.45207907439625394 0.7094891936168941 0.45207907439625394 0.29051080638310595 -0.45207907439625394
3.46375E9 0.28075144666226803 -0.4473999969679924 0.719248553337732 0.4473999969679924 0.719248553337732 0.4473999969679924 0.28075144666226803 -0.4473999969679924
3.5385E9 0.2713591159326118 -0.442647009496201 0.7286408840673881 0.442647009496201 0.7286408840673881 0.442647009496201 0.2713591159326118 -0.442647009496201
3.61325E9 0.26231981389524106 -0.43783368679716594 0.7376801861047588 0.43783368679716594 0.7376801861047588 0.43783368679716594 0.26231981389524106 -0.43783368679716594
3.688E9 0.25361985779842433 -0.43297230350841365 0.7463801422015757 0.43297230350841365 0.7463801422015757 0.43297230350841365 0.25361985779842433 -0.43297230350841365
3.76275E9 0.2452459172608205 -0.4280739417727895 0.7547540827391797 0.4280739417727895 0.7547540827391797 0.4280739417727895 0.2452459172608205 -0.4280739417727895
3.8375E9 0.23718504054256898 -0.4231485915050899 0.7628149594574312 0.4231485915050899 0.7628149594574312 0.4231485915050899 0.23718504054256898 -0.4231485915050899
3.91225E9 0.22942467354582746 -0.41820524347366883 0.7705753264541726 0.41820524347366883 0.7705753264541726 0.41820524347366883 0.22942467354582746 -0.41820524347366883
3.987E9 0.22195267266755564 -0.4132519754869247 0.7780473273324443 0.4132519754869247 0.7780473273324443 0.4132519754869247 0.22195267266755564 -0.4132519754869247
4.06175E9 0.2147573124842945 -0.40829603201356207 0.7852426875157055 0.40829603201356207 0.7852426875157055 0.40829603201356207 0.2147573124842945 -0.40829603201356207
4.1365E9 0.20782728912063914 -0.40334389758976313 0.7921727108793608 0.40334389758976313 0.7921727108793608 0.40334389758976313 0.20782728912063914 -0.40334389758976313
4.21125E9 0.20115172003911863 -0.39840136437902696 0.7988482799608814 0.39840136437902696 0.7988482799608814 0.39840136437902696 0.20115172003911863 -0.39840136437902696
4.286E9 0.1947201408882061 -0.39347359425403433 0.805279859111794 0.39347359425403433 0.805279859111794 0.39347359425403433 0.1947201408882061 -0.39347359425403433
4.36075E9 0.18852249995613082 -0.3885651757666132 0.8114775000438692 0.3885651757666132 0.8114775000438692 0.3885651757666132 0.18852249995613082 -0.3885651757666132
4.4355E9 0.18254915069990138 -0.3836801763634309 0.8174508493000987 0.3836801763634309 0.8174508493000987 0.3836801763634309 0.18254915069990138 -0.3836801763634309
4.51025E9 0.17679084275044768 -0.3788221901928468 0.8232091572495522 0.3788221901928468 0.8232091572495522 0.3788221901928468 0.17679084275044768 -0.3788221901928468
4.585E9 0.1712387117350059 -0.37399438183354605 0.8287612882649943 0.37399438183354605 0.8287612882649943 0.37399438183354605 0.1712387117350059 -0.37399438183354605
4.65975E9 0.16588426820585772 -0.3691995262590212 0.8341157317941424 0.3691995262590212 0.8341157317941424 0.3691995262590212 0.16588426820585772 -0.3691995262590212
4.7345E9 0.16071938591941554 -0.3644400453344091 0.8392806140805846 0.3644400453344091 0.8392806140805846 0.3644400453344091 0.16071938591941554 -0.3644400453344091
4.80925E9 0.15573628967060243 -0.3597180411241374 0.8442637103293975 0.3597180411241374 0.8442637103293975 0.3597180411241374 0.15573628967060243 -0.3597180411241374
4.884E9 0.1509275428537932 -0.35503532627074424 0.8490724571462067 0.35503532627074424 0.8490724571462067 0.35503532627074424 0.1509275428537932 -0.35503532627074424
4.95875E9 0.14628603489258024 -0.3503934516873868 0.8537139651074196 0.3503934516873868 0.8537139651074196 0.3503934516873868 0.14628603489258024 -0.3503934516873868
5.0335E9 0.14180496865574332 -0.3457937317892206 0.8581950313442567 0.3457937317892206 0.8581950313442567 0.3457937317892206 0.14180496865574332 -0.3457937317892206
5.10825E9 0.1374778479554793 -0.3412372674721363 0.8625221520445207 0.3412372674721363 0.8625221520445207 0.3412372674721363 0.1374778479554793 -0.3412372674721363
5.183E9 0.133298465205754 -0.33672496703143834 0.866701534794246 0.33672496703143834 0.866701534794246 0.33672496703143834 0.133298465205754 -0.33672496703143834
5.25775E9 0.1292608893031319 -0.33225756519797806 0.8707391106968679 0.33225756519797806 0.8707391106968679 0.33225756519797806 0.1292608893031319 -0.33225756519797806
5.3325E9 0.12535945377927943 -0.3278356404550695 0.8746405462207206 0.3278356404550695 0.8746405462207206 0.3278356404550695 0.12535945377927943 -0.3278356404550695
5.40725E9 0.1215887452632024 -0.3234596307862347 0.8784112547367975 0.3234596307862347 0.8784112547367975 0.3234596307862347 0.1215887452632024 -0.3234596307862347
5.482E9 0.11794359228187987 -0.31912984799142785 0.8820564077181204 0.31912984799142785 0.8820564077181204 0.31912984799142785 0.11794359228187987 -0.31912984799142785
5.55675E9 0.11441905442006528 -0.3148464906978665 0.8855809455799347 0.3148464906978665 0.8855809455799347 0.3148464906978665 0.11441905442006528 -0.3148464906978665
5.6315E9 0.111010411853428 -0.31060965618093006 0.8889895881465721 0.31060965618093006 0.8889895881465721 0.31060965618093006 0.111010411853428 -0.31060965618093006
5.70625E9 0.10771315526370762 -0.30641935110070817 0.8922868447362924 0.30641935110070817 0.8922868447362924 0.30641935110070817 0.10771315526370762 -0.30641935110070817
5.781E9 0.10452297614001055 -0.30227550125069386 0.8954770238599895 0.30227550125069386 0.8954770238599895 0.30227550125069386 0.10452297614001055 -0.30227550125069386
5.85575E9 0.10143575746664142 -0.29817796040673705 0.8985642425333588 0.29817796040673705 0.8985642425333588 0.29817796040673705 0.10143575746664142 -0.29817796040673705
5.9305E9 0.09844756479480954 -0.29412651835667997 0.9015524352051905 0.29412651835667997 0.9015524352051905 0.29412651835667997 0.09844756479480954 -0.29412651835667997
6.00525E9 0.0955546376930954 -0.2901209081840431 0.9044453623069045 0.2901209081840431 0.9044453623069045 0.2901209081840431 0.0955546376930954 -0.2901209081840431
6.08E9 0.09275338156959294 -0.2861608128726543 0.9072466184304071 0.2861608128726543 0.9072466184304071 0.2861608128726543 0.09275338156959294 -0.2861608128726543
6.15475E9 0.09004035985710845 -0.2822458712932063 0.9099596401428915 0.2822458712932063 0.9099596401428915 0.2822458712932063 0.09004035985710845 -0.2822458712932063
6.2295E9 0.08741228655160245 -0.27837568362730447 0.9125877134483975 0.27837568362730447 0.9125877134483975 0.27837568362730447 0.08741228655160245 -0.27837568362730447
6.30425E9 0.08486601909317884 -0.27454981627963226 0.9151339809068211 0.27454981627963226 0.9151339809068211 0.27454981627963226 0.08486601909317884 -0.27454981627963226
6.379E9 0.08239855157828424 -0.2707678063243392 0.9176014484217155 0.2707678063243392 0.9176014484217155 0.2707678063243392 0.08239855157828424 -0.2707678063243392
6.45375E9 0.08000700829135285 -0.2670291655276473 0.9199929917086469 0.2670291655276473 0.9199929917086469 0.2670291655276473 0.08000700829135285 -0.2670291655276473
6.5285E9 0.07768863754387431 -0.2633333839849067 0.9223113624561257 0.2633333839849067 0.9223113624561257 0.2633333839849067 0.07768863754387431 -0.2633333839849067
6.60325E9 0.07544080580875054 -0.2596799334069176 0.9245591941912495 0.2596799334069176 0.9245591941912495 0.2596799334069176 0.07544080580875054 -0.2596799334069176
6.678E9 0.07326099213781007 -0.2560682700872105 0.92673900786219 0.2560682700872105 0.92673900786219 0.2560682700872105 0.07326099213781007 -0.2560682700872105
6.75275E9 0.07114678285044666 -0.2524978375791382 0.9288532171495532 0.2524978375791382 0.9288532171495532 0.2524978375791382 0.07114678285044666 -0.2524978375791382
6.8275E9 0.06909586648152662 -0.24896806910904815 0.9309041335184733 0.24896806910904815 0.9309041335184733 0.24896806910904815 0.06909586648152662 -0.24896806910904815
6.90225E9 0.06710602897694169 -0.24547838974944358 0.9328939710230584 0.24547838974944358 0.9328939710230584 0.24547838974944358 0.06710602897694169 -0.24547838974944358
6.977E9 0.06517514912547231 -0.242028218373906 0.9348248508745276 0.242028218373906 0.9348248508745276 0.242028218373906 0.06517514912547231 -0.242028218373906
7.05175E9 0.06330119421594133 -0.2386169694135914 0.9366988057840588 0.2386169694135914 0.9366988057840588 0.2386169694135914 0.06330119421594133 -0.2386169694135914
7.1265E9 0.061482215908988794 -0.23524405443334492 0.9385177840910112 0.23524405443334492 0.9385177840910112 0.23524405443334492 0.061482215908988794 -0.23524405443334492
7.20125E9 0.059716346313161806 -0.23190888354385733 0.9402836536868381 0.23190888354385733 0.9402836536868381 0.23190888354385733 0.059716346313161806 -0.23190888354385733
7.276E9 0.058001794255392355 -0.22861086666481786 0.9419982057446075 0.22861086666481786 0.9419982057446075 0.22861086666481786 0.058001794255392355 -0.22861086666481786
7.35075E9 0.05633684173632235 -0.22534941465268177 0.9436631582636775 0.22534941465268177 0.9436631582636775 0.22534941465268177 0.05633684173632235 -0.22534941465268177
7.4255E9 0.054719840561322 -0.22212394030544969 0.9452801594386779 0.22212394030544969 0.9452801594386779 0.22212394030544969 0.054719840561322 -0.22212394030544969
7.50025E9 0.05314920913843468 -0.2189338592557494 0.9468507908615654 0.2189338592557494 0.9468507908615654 0.2189338592557494 0.05314920913843468 -0.2189338592557494
7.575E9 0.051623429434866724 -0.21577859076250308 0.9483765705651334 0.21577859076250308 0.9483765705651334 0.21577859076250308 0.051623429434866724 -0.21577859076250308
7.64975E9 0.05014104408401481 -0.2126575584105426 0.9498589559159853 0.2126575584105426 0.9498589559159853 0.2126575584105426 0.05014104408401481 -0.2126575584105426
7.7245E9 0.04870065363539443 -0.2095701907267009 0.9512993463646056 0.2095701907267009 0.9512993463646056 0.2095701907267009 0.04870065363539443 -0.2095701907267009
7.79925E9 0.04730091394019218 -0.20651592172014901 0.952699086059808 0.20651592172014901 0.952699086059808 0.20651592172014901 0.04730091394019218 -0.20651592172014901
7.874E9 0.04594053366551184 -0.20349419135404956 0.9540594663344881 0.20349419135404956 0.9540594663344881 0.20349419135404956 0.04594053366551184 -0.20349419135404956
7.94875E9 0.04461827193072406 -0.20050444595497569 0.9553817280692759 0.20050444595497569 0.9553817280692759 0.20050444595497569 0.04461827193072406 -0.20050444595497569
8.0235E9 0.04333293605965163 -0.1975461385659602 0.9566670639403483 0.1975461385659602 0.9566670639403483 0.1975461385659602 0.04333293605965163 -0.1975461385659602
8.09825E9 0.04208337944263884 -0.1946187292485272 0.9579166205573612 0.1946187292485272 0.9579166205573612 0.1946187292485272 0.04208337944263884 -0.1946187292485272
8.173E9 0.04086849950284981 -0.19172168533857034 0.9591315004971503 0.19172168533857034 0.9591315004971503 0.19172168533857034 0.04086849950284981 -0.19172168533857034
8.24775E9 0.03968723576143272 -0.18885448166052007 0.9603127642385674 0.18885448166052007 0.9603127642385674 0.18885448166052007 0.03968723576143272 -0.18885448166052007
8.3225E9 0.038538567996458474 -0.186016600703836 0.9614614320035413 0.186016600703836 0.9614614320035413 0.186016600703836 0.038538567996458474 -0.186016600703836
8.39725E9 0.03742151449080784 -0.18320753276550736 0.9625784855091922 0.18320753276550736 0.9625784855091922 0.18320753276550736 0.03742151449080784 -0.18320753276550736
8.472E9 0.036335130364430736 -0.1804267760619128 0.9636648696355693 0.1804267760619128 0.9636648696355693 0.1804267760619128 0.036335130364430736 -0.1804267760619128
8.54675E9 0.03527850598664028 -0.17767383681309193 0.9647214940133597 0.17767383681309193 0.9647214940133597 0.17767383681309193 0.03527850598664028 -0.17767383681309193
8.6215E9 0.0342507654643325 -0.1749482293022092 0.9657492345356675 0.1749482293022092 0.9657492345356675 0.1749482293022092 0.0342507654643325 -0.1749482293022092
8.69625E9 0.03325106520223725 -0.17224947591273884 0.9667489347977629 0.17224947591273884 0.9667489347977629 0.17224947591273884 0.03325106520223725 -0.17224947591273884
8.771E9 0.03227859253151396 -0.16957710714567892 0.9677214074684861 0.16957710714567892 0.9677214074684861 0.16957710714567892 0.03227859253151396 -0.16957710714567892
