!Murata Part Number: GJM0225C1E8R1BB01
!These Parameters are Measured in Series Mode Connection
!       o--ll--o
!Port1            Port2
!       o------o
!Operation Temp=25[degC], DC Bias Voltage=0[V]
!Freq. Start=100[MHz] Stop=30[GHz], 401[Steps]
!Data Generated on Feb 1, 2023
# Hz S RI R 50
!Freq.(Hz) S11(Real) S11(Imag) S21(Real) S21(Imag) S12(Real) S12(Imag) S22(Real) S22(Imag)
1.0E8 0.7939791553369581 -0.4042163253379877 0.20602084466304196 0.4042163253379877 0.20602084466304196 0.4042163253379877 0.7939791553369581 -0.4042163253379877
1.7475E8 0.557470853420482 -0.49628433252600657 0.44252914657951803 0.49628433252600657 0.44252914657951803 0.49628433252600657 0.557470853420482 -0.49628433252600657
2.495E8 0.3812882644031322 -0.4851270216598959 0.6187117355968677 0.4851270216598959 0.6187117355968677 0.4851270216598959 0.3812882644031322 -0.4851270216598959
3.2425E8 0.2665975974900453 -0.44142717883366966 0.7334024025099548 0.44142717883366966 0.7334024025099548 0.44142717883366966 0.2665975974900453 -0.44142717883366966
3.99E8 0.19285299633645053 -0.3936053307777834 0.8071470036635494 0.3936053307777834 0.8071470036635494 0.3936053307777834 0.19285299633645053 -0.3936053307777834
4.7375E8 0.1442153725857985 -0.3501902844453433 0.8557846274142015 0.3501902844453433 0.8557846274142015 0.3501902844453433 0.1442153725857985 -0.3501902844453433
5.485E8 0.1110182168978011 -0.3128476680485225 0.8889817831021989 0.3128476680485225 0.8889817831021989 0.3128476680485225 0.1110182168978011 -0.3128476680485225
6.2325E8 0.08758286996143373 -0.2811852607137794 0.9124171300385662 0.2811852607137794 0.9124171300385662 0.2811852607137794 0.08758286996143373 -0.2811852607137794
6.98E8 0.0705280574592286 -0.2543313466765443 0.9294719425407715 0.2543313466765443 0.9294719425407715 0.2543313466765443 0.0705280574592286 -0.2543313466765443
7.7275E8 0.05778181530918543 -0.23141818003597373 0.9422181846908146 0.23141818003597373 0.9422181846908146 0.23141818003597373 0.05778181530918543 -0.23141818003597373
8.475E8 0.04803321667813293 -0.2117075051364372 0.9519667833218671 0.2117075051364372 0.9519667833218671 0.2117075051364372 0.04803321667813293 -0.2117075051364372
9.2225E8 0.04042667053771694 -0.1946032898115674 0.959573329462283 0.1946032898115674 0.959573329462283 0.1946032898115674 0.04042667053771694 -0.1946032898115674
9.97E8 0.03438749816069835 -0.179632826058423 0.9656125018393018 0.179632826058423 0.9656125018393018 0.179632826058423 0.03438749816069835 -0.179632826058423
1.07175E9 0.029519526717362077 -0.16642251992925358 0.970480473282638 0.16642251992925358 0.970480473282638 0.16642251992925358 0.029519526717362077 -0.16642251992925358
1.1465E9 0.025543176273776832 -0.15467620375634789 0.9744568237262233 0.15467620375634789 0.9744568237262233 0.15467620375634789 0.025543176273776832 -0.15467620375634789
1.22125E9 0.022256959760863265 -0.1441576415460801 0.9777430402391366 0.1441576415460801 0.9777430402391366 0.1441576415460801 0.022256959760863265 -0.1441576415460801
1.296E9 0.019512904812919164 -0.1346769753533029 0.9804870951870808 0.1346769753533029 0.9804870951870808 0.1346769753533029 0.019512904812919164 -0.1346769753533029
1.37075E9 0.017200478839380653 -0.12608038597282645 0.9827995211606192 0.12608038597282645 0.9827995211606192 0.12608038597282645 0.017200478839380653 -0.12608038597282645
1.4455E9 0.01523583977168951 -0.11824223688860419 0.9847641602283106 0.11824223688860419 0.9847641602283106 0.11824223688860419 0.01523583977168951 -0.11824223688860419
1.52025E9 0.013554500852839777 -0.11105909416385279 0.9864454991471603 0.11105909416385279 0.9864454991471603 0.11105909416385279 0.013554500852839777 -0.11105909416385279
1.595E9 0.012106231472904436 -0.10444515215983198 0.9878937685270954 0.10444515215983198 0.9878937685270954 0.10444515215983198 0.012106231472904436 -0.10444515215983198
1.66975E9 0.01085145172774994 -0.09832871200186664 0.98914854827225 0.09832871200186664 0.98914854827225 0.09832871200186664 0.01085145172774994 -0.09832871200186664
1.7445E9 0.009758643122957515 -0.09264945088669378 0.9902413568770425 0.09264945088669378 0.9902413568770425 0.09264945088669378 0.009758643122957515 -0.09264945088669378
1.81925E9 0.008802462216335601 -0.08735628863903906 0.9911975377836644 0.08735628863903906 0.9911975377836644 0.08735628863903906 0.008802462216335601 -0.08735628863903906
1.894E9 0.007962348108762441 -0.08240570823305346 0.9920376518912378 0.08240570823305346 0.9920376518912378 0.08240570823305346 0.007962348108762441 -0.08240570823305346
1.96875E9 0.007221481882400127 -0.07776042380135759 0.9927785181175999 0.07776042380135759 0.9927785181175999 0.07776042380135759 0.007221481882400127 -0.07776042380135759
2.0435E9 0.006566000202250735 -0.07338831656554946 0.9934339997977494 0.07338831656554946 0.9934339997977494 0.07338831656554946 0.006566000202250735 -0.07338831656554946
2.11825E9 0.005984394735391538 -0.0692615788497041 0.9940156052646087 0.0692615788497041 0.9940156052646087 0.0692615788497041 0.005984394735391538 -0.0692615788497041
2.193E9 0.005467048983254799 -0.06535602086633324 0.9945329510167454 0.06535602086633324 0.9945329510167454 0.06535602086633324 0.005467048983254799 -0.06535602086633324
2.26775E9 0.0050058778207124534 -0.06165050572405637 0.9949941221792875 0.06165050572405637 0.9949941221792875 0.06165050572405637 0.0050058778207124534 -0.06165050572405637
2.3425E9 0.004594044569842293 -0.05812648612572279 0.9954059554301576 0.05812648612572279 0.9954059554301576 0.05812648612572279 0.004594044569842293 -0.05812648612572279
2.41725E9 0.00422573715386239 -0.054767622242608865 0.9957742628461379 0.054767622242608865 0.9957742628461379 0.054767622242608865 0.00422573715386239 -0.054767622242608865
2.492E9 0.003895989664552045 -0.051559464795275796 0.996104010335448 0.051559464795275796 0.996104010335448 0.051559464795275796 0.003895989664552045 -0.051559464795275796
2.56675E9 0.0036005391259057795 -0.048489190828023915 0.9963994608740943 0.048489190828023915 0.9963994608740943 0.048489190828023915 0.0036005391259057795 -0.048489190828023915
2.6415E9 0.003335709747264237 -0.04554538230991928 0.996664290252736 0.04554538230991928 0.996664290252736 0.04554538230991928 0.003335709747264237 -0.04554538230991928
2.71625E9 0.0030983188038409036 -0.04271783973429425 0.9969016811961592 0.04271783973429425 0.9969016811961592 0.04271783973429425 0.0030983188038409036 -0.04271783973429425
2.791E9 0.002885599650265511 -0.03999742446971346 0.9971144003497344 0.03999742446971346 0.9971144003497344 0.03999742446971346 0.002885599650265511 -0.03999742446971346
2.86575E9 0.002695138395487489 -0.037375924849008174 0.9973048616045126 0.037375924849008174 0.9973048616045126 0.037375924849008174 0.002695138395487489 -0.037375924849008174
2.9405E9 0.0025248215383184692 -0.03484594195119684 0.9974751784616814 0.03484594195119684 0.9974751784616814 0.03484594195119684 0.0025248215383184692 -0.03484594195119684
3.01525E9 0.0023727924484766103 -0.03240079179539198 0.9976272075515235 0.03240079179539198 0.9976272075515235 0.03240079179539198 0.0023727924484766103 -0.03240079179539198
3.09E9 0.0022374150260165196 -0.0300344212724189 0.9977625849739835 0.0300344212724189 0.9977625849739835 0.0300344212724189 0.0022374150260165196 -0.0300344212724189
3.16475E9 0.0021172432171648304 -0.027741335623931624 0.9978827567828351 0.027741335623931624 0.9978827567828351 0.027741335623931624 0.0021172432171648304 -0.027741335623931624
3.2395E9 0.002010995332200425 -0.02551653566703305 0.9979890046677995 0.02551653566703305 0.9979890046677995 0.02551653566703305 0.002010995332200425 -0.02551653566703305
3.31425E9 0.0019175323198250636 -0.02335546327530427 0.9980824676801751 0.02335546327530427 0.9980824676801751 0.02335546327530427 0.0019175323198250636 -0.02335546327530427
3.389E9 0.0018358393163574159 -0.021253953880522057 0.9981641606836428 0.021253953880522057 0.9981641606836428 0.021253953880522057 0.0018358393163574159 -0.021253953880522057
3.46375E9 0.0017650099174444922 -0.019208194965452844 0.9982349900825557 0.019208194965452844 0.9982349900825557 0.019208194965452844 0.0017650099174444922 -0.019208194965452844
3.5385E9 0.001704232722646366 -0.017214689686504532 0.9982957672773535 0.017214689686504532 0.9982957672773535 0.017214689686504532 0.001704232722646366 -0.017214689686504532
3.61325E9 0.001652779785145863 -0.01527022490317509 0.9983472202148542 0.01527022490317509 0.9983472202148542 0.01527022490317509 0.001652779785145863 -0.01527022490317509
3.688E9 0.0016099966644894494 -0.013371843005045448 0.9983900033355108 0.013371843005045448 0.9983900033355108 0.013371843005045448 0.0016099966644894494 -0.013371843005045448
3.76275E9 0.0015752938331504123 -0.01151681702118342 0.9984247061668494 0.01151681702118342 0.9984247061668494 0.01151681702118342 0.0015752938331504123 -0.01151681702118342
3.8375E9 0.001548139230498735 -0.009702628574948973 0.9984518607695012 0.009702628574948973 0.9984518607695012 0.009702628574948973 0.001548139230498735 -0.009702628574948973
3.91225E9 0.0015280517925415447 -0.00792694831227733 0.9984719482074582 0.00792694831227733 0.9984719482074582 0.00792694831227733 0.0015280517925415447 -0.00792694831227733
3.987E9 0.0015145958141835735 -0.0061876184859266025 0.9984854041858162 0.0061876184859266025 0.9984854041858162 0.0061876184859266025 0.0015145958141835735 -0.0061876184859266025
4.06175E9 0.0015073760240181767 -0.004482637423816493 0.9984926239759817 0.004482637423816493 0.9984926239759817 0.004482637423816493 0.0015073760240181767 -0.004482637423816493
4.1365E9 0.0015060332707957764 -0.002810145647992098 0.9984939667292041 0.002810145647992098 0.9984939667292041 0.002810145647992098 0.0015060332707957764 -0.002810145647992098
4.21125E9 0.0015102407365188116 -0.0011684134431693264 0.9984897592634814 0.0011684134431693264 0.9984897592634814 0.0011684134431693264 0.0015102407365188116 -0.0011684134431693264
4.286E9 0.0015197006042086954 4.4417029872835615E-4 0.9984802993957915 -4.4417029872835615E-4 0.9984802993957915 -4.4417029872835615E-4 0.0015197006042086954 4.4417029872835615E-4
4.36075E9 0.001534141119282298 0.0020291081083187623 0.9984658588807177 -0.0020291081083187623 0.9984658588807177 -0.0020291081083187623 0.001534141119282298 0.0020291081083187623
4.4355E9 0.0015533139925647532 0.0035878029732174933 0.9984466860074351 -0.0035878029732174933 0.9984466860074351 -0.0035878029732174933 0.0015533139925647532 0.0035878029732174933
4.51025E9 0.0015769921005751844 0.005121566490670179 0.9984230078994248 -0.005121566490670179 0.9984230078994248 -0.005121566490670179 0.0015769921005751844 0.005121566490670179
4.585E9 0.001604967445113216 0.0066316262373108436 0.9983950325548867 -0.0066316262373108436 0.9983950325548867 -0.0066316262373108436 0.001604967445113216 0.0066316262373108436
4.65975E9 0.0016370493395584911 0.008119132442535587 0.9983629506604415 -0.008119132442535587 0.9983629506604415 -0.008119132442535587 0.0016370493395584911 0.008119132442535587
4.7345E9 0.0016730627938448925 0.009585164041256429 0.9983269372061551 -0.009585164041256429 0.9983269372061551 -0.009585164041256429 0.0016730627938448925 0.009585164041256429
4.80925E9 0.0017128470739263886 0.01103073417254993 0.9982871529260736 -0.01103073417254993 0.9982871529260736 -0.01103073417254993 0.0017128470739263886 0.01103073417254993
4.884E9 0.0017562544148274186 0.012456795182715875 0.9982437455851725 -0.012456795182715875 0.9982437455851725 -0.012456795182715875 0.0017562544148274186 0.012456795182715875
4.95875E9 0.0018031488691620883 0.013864243184330632 0.9981968511308378 -0.013864243184330632 0.9981968511308378 -0.013864243184330632 0.0018031488691620883 0.013864243184330632
5.0335E9 0.0018534052753912524 0.015253922216859263 0.9981465947246084 -0.015253922216859263 0.9981465947246084 -0.015253922216859263 0.0018534052753912524 0.015253922216859263
5.10825E9 0.001906908332129198 0.01662662804915169 0.9980930916678709 -0.01662662804915169 0.9980930916678709 -0.01662662804915169 0.001906908332129198 0.01662662804915169
5.183E9 0.001963551766565726 0.017983111659578804 0.9980364482334342 -0.017983111659578804 0.9980364482334342 -0.017983111659578804 0.001963551766565726 0.017983111659578804
5.25775E9 0.0020232375865794727 0.019324082425572237 0.9979767624134206 -0.019324082425572237 0.9979767624134206 -0.019324082425572237 0.0020232375865794727 0.019324082425572237
5.3325E9 0.0020858754074213623 0.020650211050835466 0.9979141245925787 -0.020650211050835466 0.9979141245925787 -0.020650211050835466 0.0020858754074213623 0.020650211050835466
5.40725E9 0.0021513818449744745 0.021962132255428878 0.9978486181550257 -0.021962132255428878 0.9978486181550257 -0.021962132255428878 0.0021513818449744745 0.021962132255428878
5.482E9 0.0022196799685741384 0.023260447251237014 0.9977803200314258 -0.023260447251237014 0.9977803200314258 -0.023260447251237014 0.0022196799685741384 0.023260447251237014
5.55675E9 0.002290698807221973 0.024545726022955905 0.997709301192778 -0.024545726022955905 0.997709301192778 -0.024545726022955905 0.002290698807221973 0.024545726022955905
5.6315E9 0.002364372903768262 0.025818509432648563 0.9976356270962317 -0.025818509432648563 0.9976356270962317 -0.025818509432648563 0.002364372903768262 0.025818509432648563
5.70625E9 0.0024406419122841787 0.027079311164071 0.9975593580877158 -0.027079311164071 0.9975593580877158 -0.027079311164071 0.0024406419122841787 0.027079311164071
5.781E9 0.002519450234412425 0.028328619521341407 0.9974805497655876 -0.028328619521341407 0.9974805497655876 -0.028328619521341407 0.002519450234412425 0.028328619521341407
5.85575E9 0.0026007466909829203 0.029566899095078713 0.9973992533090169 -0.029566899095078713 0.9973992533090169 -0.029566899095078713 0.0026007466909829203 0.029566899095078713
5.9305E9 0.002684484225619295 0.030794592307859626 0.9973155157743809 -0.030794592307859626 0.9973155157743809 -0.030794592307859626 0.002684484225619295 0.030794592307859626
6.00525E9 0.002770619637450045 0.03201212084970499 0.9972293803625499 -0.03201212084970499 0.9972293803625499 -0.03201212084970499 0.002770619637450045 0.03201212084970499
6.08E9 0.0028591133403828586 0.03321988701330016 0.9971408866596172 -0.03321988701330016 0.9971408866596172 -0.03321988701330016 0.0028591133403828586 0.03321988701330016
6.15475E9 0.0029499291467075853 0.034418274937755684 0.9970500708532926 -0.034418274937755684 0.9970500708532926 -0.034418274937755684 0.0029499291467075853 0.034418274937755684
6.2295E9 0.0030430340730684055 0.035607651768919814 0.9969569659269316 -0.035607651768919814 0.9969569659269316 -0.035607651768919814 0.0030430340730684055 0.035607651768919814
6.30425E9 0.00313839816709332 0.036788368743544034 0.9968616018329066 -0.036788368743544034 0.9968616018329066 -0.036788368743544034 0.00313839816709332 0.036788368743544034
6.379E9 0.0032359943531935203 0.03796076220397443 0.9967640056468065 -0.03796076220397443 0.9967640056468065 -0.03796076220397443 0.0032359943531935203 0.03796076220397443
6.45375E9 0.003335798296250011 0.03912515454948017 0.9966642017037499 -0.03912515454948017 0.9966642017037499 -0.03912515454948017 0.003335798296250011 0.03912515454948017
6.5285E9 0.003437788282093597 0.04028185512983536 0.9965622117179066 -0.04028185512983536 0.9965622117179066 -0.04028185512983536 0.003437788282093597 0.04028185512983536
6.60325E9 0.0035419451138597774 0.0414311610863289 0.9964580548861401 -0.0414311610863289 0.9964580548861401 -0.0414311610863289 0.0035419451138597774 0.0414311610863289
6.678E9 0.0036482520234652053 0.042573358144988804 0.9963517479765349 -0.042573358144988804 0.9963517479765349 -0.042573358144988804 0.0036482520234652053 0.042573358144988804
6.75275E9 0.0037566945976097773 0.043708721366465475 0.9962433054023903 -0.043708721366465475 0.9962433054023903 -0.043708721366465475 0.0037566945976097773 0.043708721366465475
6.8275E9 0.0038672607178605275 0.04483751585671847 0.9961327392821394 -0.04483751585671847 0.9961327392821394 -0.04483751585671847 0.0038672607178605275 0.04483751585671847
6.90225E9 0.003979940514523007 0.04595999744239182 0.9960200594854772 -0.04595999744239182 0.9960200594854772 -0.04595999744239182 0.003979940514523007 0.04595999744239182
6.977E9 0.004094726334155062 0.047076413314539725 0.995905273665845 -0.047076413314539725 0.995905273665845 -0.047076413314539725 0.004094726334155062 0.047076413314539725
7.05175E9 0.0042116127207297025 0.04818700264417662 0.9957883872792704 -0.04818700264417662 0.9957883872792704 -0.04818700264417662 0.0042116127207297025 0.04818700264417662
7.1265E9 0.004330596410610423 0.049291997172968664 0.9956694035893895 -0.049291997172968664 0.9956694035893895 -0.049291997172968664 0.004330596410610423 0.049291997172968664
7.20125E9 0.004451676341667592 0.05039162178226223 0.9955483236583325 -0.05039162178226223 0.9955483236583325 -0.05039162178226223 0.004451676341667592 0.05039162178226223
7.276E9 0.004574853677040646 0.05148609504355018 0.9954251463229591 -0.05148609504355018 0.9954251463229591 -0.05148609504355018 0.004574853677040646 0.05148609504355018
7.35075E9 0.004700131844242661 0.05257562975341705 0.9952998681557571 -0.05257562975341705 0.9952998681557571 -0.05257562975341705 0.004700131844242661 0.05257562975341705
7.4255E9 0.004827516590514468 0.053660433455971795 0.9951724834094858 -0.053660433455971795 0.9951724834094858 -0.053660433455971795 0.004827516590514468 0.053660433455971795
7.50025E9 0.00495701605557096 0.0547407089557802 0.9950429839444288 -0.0547407089557802 0.9950429839444288 -0.0547407089557802 0.00495701605557096 0.0547407089557802
7.575E9 0.005088640863147157 0.05581665482434262 0.9949113591368528 -0.05581665482434262 0.9949113591368528 -0.05581665482434262 0.005088640863147157 0.05581665482434262
7.64975E9 0.005222404233053552 0.05688846590323196 0.9947775957669462 -0.05688846590323196 0.9947775957669462 -0.05688846590323196 0.005222404233053552 0.05688846590323196
7.7245E9 0.005358322115797308 0.05795633380711652 0.9946416778842025 -0.05795633380711652 0.9946416778842025 -0.05795633380711652 0.005358322115797308 0.05795633380711652
7.79925E9 0.005496413352227114 0.059020447430038835 0.9945035866477729 -0.059020447430038835 0.9945035866477729 -0.059020447430038835 0.005496413352227114 0.059020447430038835
7.874E9 0.005636699861127517 0.06008099345851663 0.9943633001388722 -0.06008099345851663 0.9943633001388722 -0.06008099345851663 0.005636699861127517 0.06008099345851663
7.94875E9 0.0057792068582370884 0.06113815689527556 0.9942207931417629 -0.06113815689527556 0.9942207931417629 -0.06113815689527556 0.0057792068582370884 0.06113815689527556
8.0235E9 0.005923963110811476 0.062192121597722576 0.9940760368891888 -0.062192121597722576 0.9940760368891888 -0.062192121597722576 0.005923963110811476 0.062192121597722576
8.09825E9 0.006071001232618782 0.0632430708356331 0.9939289987673813 -0.0632430708356331 0.9939289987673813 -0.0632430708356331 0.006071001232618782 0.0632430708356331
8.173E9 0.006220358025167002 0.06429118787295962 0.9937796419748332 -0.06429118787295962 0.9937796419748332 -0.06429118787295962 0.006220358025167002 0.06429118787295962
8.24775E9 0.006372074872054225 0.06533665657918501 0.9936279251279456 -0.06533665657918501 0.9936279251279456 -0.06533665657918501 0.006372074872054225 0.06533665657918501
8.3225E9 0.006526198194642983 0.06637966207625706 0.9934738018053569 -0.06637966207625706 0.9934738018053569 -0.06637966207625706 0.006526198194642983 0.06637966207625706
8.39725E9 0.0066827799788403055 0.06742039142785461 0.9933172200211596 -0.06742039142785461 0.9933172200211596 -0.06742039142785461 0.0066827799788403055 0.06742039142785461
8.472E9 0.006841878384679952 0.06845903437858 0.99315812161532 -0.06845903437858 0.99315812161532 -0.06845903437858 0.006841878384679952 0.06845903437858
