!Murata Part Number: GJM0225C1E1R3BB01
!These Parameters are Measured in Series Mode Connection
!       o--ll--o
!Port1            Port2
!       o------o
!Operation Temp=25[degC], DC Bias Voltage=0[V]
!Freq. Start=100[MHz] Stop=30[GHz], 401[Steps]
!Data Generated on Feb 1, 2023
# Hz S RI R 50
!Freq.(Hz) S11(Real) S11(Imag) S21(Real) S21(Imag) S12(Real) S12(Imag) S22(Real) S22(Imag)
1.0E8 0.9933522682294513 -0.08114408747112309 0.006647731770548722 0.08114408747112309 0.006647731770548722 0.08114408747112309 0.9933522682294513 -0.08114408747112309
1.7475E8 0.9799664733854373 -0.139908591024348 0.020033526614562633 0.139908591024348 0.020033526614562633 0.139908591024348 0.9799664733854373 -0.139908591024348
2.495E8 0.9599749306836106 -0.19572340483589767 0.04002506931638941 0.19572340483589767 0.04002506931638941 0.19572340483589767 0.9599749306836106 -0.19572340483589767
3.2425E8 0.9341714368561495 -0.2475991715692849 0.06582856314385056 0.2475991715692849 0.06582856314385056 0.2475991715692849 0.9341714368561495 -0.2475991715692849
3.99E8 0.9035103117842639 -0.294790098107905 0.09648968821573613 0.294790098107905 0.09648968821573613 0.294790098107905 0.9035103117842639 -0.294790098107905
4.7375E8 0.8690260482771612 -0.336811677437727 0.1309739517228388 0.336811677437727 0.1309739517228388 0.336811677437727 0.8690260482771612 -0.336811677437727
5.485E8 0.831758382389697 -0.3734316907341178 0.16824161761030304 0.3734316907341178 0.16824161761030304 0.3734316907341178 0.831758382389697 -0.3734316907341178
6.2325E8 0.7926908757296308 -0.40464085711286385 0.20730912427036924 0.40464085711286385 0.20730912427036924 0.40464085711286385 0.7926908757296308 -0.40464085711286385
6.98E8 0.7527070935451199 -0.4306111481654845 0.2472929064548802 0.4306111481654845 0.2472929064548802 0.4306111481654845 0.7527070935451199 -0.4306111481654845
7.7275E8 0.7125647883761284 -0.4516494635874973 0.2874352116238717 0.4516494635874973 0.2874352116238717 0.4516494635874973 0.7125647883761284 -0.4516494635874973
8.475E8 0.6728858749836295 -0.4681527650498584 0.32711412501637055 0.4681527650498584 0.32711412501637055 0.4681527650498584 0.6728858749836295 -0.4681527650498584
9.2225E8 0.6341586006985702 -0.4805686657124636 0.36584139930142967 0.4805686657124636 0.36584139930142967 0.4805686657124636 0.6341586006985702 -0.4805686657124636
9.97E8 0.5967479929327679 -0.48936347528916396 0.4032520070672319 0.48936347528916396 0.4032520070672319 0.48936347528916396 0.5967479929327679 -0.48936347528916396
1.07175E9 0.5609110504375027 -0.49499814035604484 0.4390889495624973 0.49499814035604484 0.4390889495624973 0.49499814035604484 0.5609110504375027 -0.49499814035604484
1.1465E9 0.526813881856637 -0.49791149484612196 0.4731861181433632 0.49791149484612196 0.4731861181433632 0.49791149484612196 0.526813881856637 -0.49791149484612196
1.22125E9 0.4945488139961198 -0.4985096924289757 0.5054511860038803 0.4985096924289757 0.5054511860038803 0.4985096924289757 0.4945488139961198 -0.4985096924289757
1.296E9 0.4641502295948449 -0.4971605090542296 0.535849770405155 0.4971605090542296 0.535849770405155 0.4971605090542296 0.4641502295948449 -0.4971605090542296
1.37075E9 0.4356084771254173 -0.49419125011989257 0.5643915228745829 0.49419125011989257 0.5643915228745829 0.49419125011989257 0.4356084771254173 -0.49419125011989257
1.4455E9 0.40888161076363605 -0.48988916449082265 0.591118389236364 0.48988916449082265 0.591118389236364 0.48988916449082265 0.40888161076363605 -0.48988916449082265
1.52025E9 0.3839049873035938 -0.4845034807470971 0.6160950126964063 0.4845034807470971 0.6160950126964063 0.4845034807470971 0.3839049873035938 -0.4845034807470971
1.595E9 0.36059890115707804 -0.4782483929485155 0.639401098842922 0.4782483929485155 0.639401098842922 0.4782483929485155 0.36059890115707804 -0.4782483929485155
1.66975E9 0.33887451195090507 -0.47130650974819677 0.661125488049095 0.47130650974819677 0.661125488049095 0.47130650974819677 0.33887451195090507 -0.47130650974819677
1.7445E9 0.31863833983784573 -0.4638324327285192 0.6813616601621544 0.4638324327285192 0.6813616601621544 0.4638324327285192 0.31863833983784573 -0.4638324327285192
1.81925E9 0.299795592884053 -0.45595624697631026 0.7002044071159469 0.45595624697631026 0.7002044071159469 0.45595624697631026 0.299795592884053 -0.45595624697631026
1.894E9 0.2822525637673653 -0.44778679314733894 0.7177474362326347 0.44778679314733894 0.7177474362326347 0.44778679314733894 0.2822525637673653 -0.44778679314733894
1.96875E9 0.265918299261107 -0.4394146512041708 0.7340817007388931 0.4394146512041708 0.7340817007388931 0.4394146512041708 0.265918299261107 -0.4394146512041708
2.0435E9 0.2507057114622402 -0.43091480734290943 0.74929428853776 0.43091480734290943 0.74929428853776 0.43091480734290943 0.2507057114622402 -0.43091480734290943
2.11825E9 0.2365322676626613 -0.42234900239447265 0.7634677323373388 0.42234900239447265 0.7634677323373388 0.42234900239447265 0.2365322676626613 -0.42234900239447265
2.193E9 0.22332036764749025 -0.4137677763177833 0.7766796323525098 0.4137677763177833 0.7766796323525098 0.4137677763177833 0.22332036764749025 -0.4137677763177833
2.26775E9 0.21099749347904223 -0.4052122324936801 0.7890025065209576 0.4052122324936801 0.7890025065209576 0.4052122324936801 0.21099749347904223 -0.4052122324936801
2.3425E9 0.19949619734881244 -0.39671554976432916 0.8005038026511877 0.39671554976432916 0.8005038026511877 0.39671554976432916 0.19949619734881244 -0.39671554976432916
2.41725E9 0.1887539774202229 -0.3883042712660992 0.8112460225797772 0.3883042712660992 0.8112460225797772 0.3883042712660992 0.1887539774202229 -0.3883042712660992
2.492E9 0.1787130791979891 -0.37999939828415025 0.8212869208020112 0.37999939828415025 0.8212869208020112 0.37999939828415025 0.1787130791979891 -0.37999939828415025
2.56675E9 0.1693202502914503 -0.3718173154415646 0.8306797497085497 0.3718173154415646 0.8306797497085497 0.3718173154415646 0.1693202502914503 -0.3718173154415646
2.6415E9 0.1605264689773962 -0.3637705710745298 0.8394735310226038 0.3637705710745298 0.8394735310226038 0.3637705710745298 0.1605264689773962 -0.3637705710745298
2.71625E9 0.15228666126656565 -0.35586853399136104 0.8477133387334342 0.35586853399136104 0.8477133387334342 0.35586853399136104 0.15228666126656565 -0.35586853399136104
2.791E9 0.1445594168621581 -0.34811794518480355 0.8554405831378418 0.34811794518480355 0.8554405831378418 0.34811794518480355 0.1445594168621581 -0.34811794518480355
2.86575E9 0.13730671116136367 -0.3405233805900177 0.8626932888386363 0.3405233805900177 0.8626932888386363 0.3405233805900177 0.13730671116136367 -0.3405233805900177
2.9405E9 0.13049363804542696 -0.33308763872028524 0.8695063619545731 0.33308763872028524 0.8695063619545731 0.33308763872028524 0.13049363804542696 -0.33308763872028524
3.01525E9 0.12408815643474105 -0.325812064995219 0.8759118435652591 0.325812064995219 0.8759118435652591 0.325812064995219 0.12408815643474105 -0.325812064995219
3.09E9 0.11806085229994097 -0.318696822804577 0.8819391477000592 0.318696822804577 0.8819391477000592 0.318696822804577 0.11806085229994097 -0.318696822804577
3.16475E9 0.11238471689920547 -0.3117411198130997 0.8876152831007944 0.3117411198130997 0.8876152831007944 0.3117411198130997 0.11238471689920547 -0.3117411198130997
3.2395E9 0.10703494136452704 -0.3049433966890275 0.892965058635473 0.3049433966890275 0.892965058635473 0.3049433966890275 0.10703494136452704 -0.3049433966890275
3.31425E9 0.10198872731559522 -0.2983014843087912 0.8980112726844046 0.2983014843087912 0.8980112726844046 0.2983014843087912 0.10198872731559522 -0.2983014843087912
3.389E9 0.09722511288588649 -0.2918127345297475 0.9027748871141136 0.2918127345297475 0.9027748871141136 0.2918127345297475 0.09722511288588649 -0.2918127345297475
3.46375E9 0.09272481336127182 -0.28547412880958545 0.907275186638728 0.28547412880958545 0.907275186638728 0.28547412880958545 0.09272481336127182 -0.28547412880958545
3.5385E9 0.08847007552655647 -0.2792823682646287 0.9115299244734435 0.2792823682646287 0.9115299244734435 0.2792823682646287 0.08847007552655647 -0.2792823682646287
3.61325E9 0.08444454476713203 -0.2732339481812571 0.915555455232868 0.2732339481812571 0.915555455232868 0.2732339481812571 0.08444454476713203 -0.2732339481812571
3.688E9 0.0806331439643883 -0.267325219508787 0.9193668560356117 0.267325219508787 0.9193668560356117 0.267325219508787 0.0806331439643883 -0.267325219508787
3.76275E9 0.07702196324215964 -0.2615524394542043 0.9229780367578402 0.2615524394542043 0.9229780367578402 0.2615524394542043 0.07702196324215964 -0.2615524394542043
3.8375E9 0.0735981596580354 -0.25591181295693227 0.9264018403419648 0.25591181295693227 0.9264018403419648 0.25591181295693227 0.0735981596580354 -0.25591181295693227
3.91225E9 0.07034986598112913 -0.2503995265349085 0.929650134018871 0.2503995265349085 0.929650134018871 0.2503995265349085 0.07034986598112913 -0.2503995265349085
3.987E9 0.06726610775201695 -0.24501177575277927 0.9327338922479829 0.24501177575277927 0.9327338922479829 0.24501177575277927 0.06726610775201695 -0.24501177575277927
4.06175E9 0.06433672787757382 -0.23974478736149282 0.9356632721224262 0.23974478736149282 0.9356632721224262 0.23974478736149282 0.06433672787757382 -0.23974478736149282
4.1365E9 0.0615523180709418 -0.23459483698967848 0.9384476819290583 0.23459483698967848 0.9384476819290583 0.23459483698967848 0.0615523180709418 -0.23459483698967848
4.21125E9 0.05890415650321374 -0.22955826312563157 0.9410958434967861 0.22955826312563157 0.9410958434967861 0.22955826312563157 0.05890415650321374 -0.22955826312563157
4.286E9 0.056384151087518465 -0.22463147801001215 0.9436158489124816 0.22463147801001215 0.9436158489124816 0.22463147801001215 0.056384151087518465 -0.22463147801001215
4.36075E9 0.05398478786738609 -0.21981097595980809 0.946015212132614 0.21981097595980809 0.946015212132614 0.21981097595980809 0.05398478786738609 -0.21981097595980809
4.4355E9 0.05169908402916555 -0.21509333956056936 0.9483009159708344 0.21509333956056936 0.9483009159708344 0.21509333956056936 0.05169908402916555 -0.21509333956056936
4.51025E9 0.0495205451026972 -0.21047524409378565 0.9504794548973028 0.21047524409378565 0.9504794548973028 0.21047524409378565 0.0495205451026972 -0.21047524409378565
4.585E9 0.04744312595538719 -0.2059534605073844 0.952556874044613 0.2059534605073844 0.952556874044613 0.2059534605073844 0.04744312595538719 -0.2059534605073844
4.65975E9 0.045461195222359106 -0.20152485718783236 0.9545388047776409 0.20152485718783236 0.9545388047776409 0.20152485718783236 0.045461195222359106 -0.20152485718783236
4.7345E9 0.04356950284961897 -0.19718640075072608 0.9564304971503809 0.19718640075072608 0.9564304971503809 0.19718640075072608 0.04356950284961897 -0.19718640075072608
4.80925E9 0.041763150458336944 -0.1929351560317626 0.9582368495416629 0.1929351560317626 0.9582368495416629 0.1929351560317626 0.041763150458336944 -0.1929351560317626
4.884E9 0.04003756426663174 -0.18876828543055058 0.9599624357333683 0.18876828543055058 0.9599624357333683 0.18876828543055058 0.04003756426663174 -0.18876828543055058
4.95875E9 0.03838847033085142 -0.18468304773494376 0.9616115296691486 0.18468304773494376 0.9616115296691486 0.18468304773494376 0.03838847033085142 -0.18468304773494376
5.0335E9 0.03681187189149123 -0.1806767965327172 0.9631881281085087 0.1806767965327172 0.9631881281085087 0.1806767965327172 0.03681187189149123 -0.1806767965327172
5.10825E9 0.035304028629788306 -0.17674697829984373 0.9646959713702117 0.17674697829984373 0.9646959713702117 0.17674697829984373 0.035304028629788306 -0.17674697829984373
5.183E9 0.033861437659876086 -0.1728911302398252 0.9661385623401237 0.1728911302398252 0.9661385623401237 0.1728911302398252 0.033861437659876086 -0.1728911302398252
5.25775E9 0.032480816098367185 -0.1691068779360728 0.9675191839016327 0.1691068779360728 0.9675191839016327 0.1691068779360728 0.032480816098367185 -0.1691068779360728
5.3325E9 0.031159085068528245 -0.1653919328688249 0.9688409149314716 0.1653919328688249 0.9688409149314716 0.1653919328688249 0.031159085068528245 -0.1653919328688249
5.40725E9 0.02989335500998303 -0.16174408983924748 0.970106644990017 0.16174408983924748 0.970106644990017 0.16174408983924748 0.02989335500998303 -0.16174408983924748
5.482E9 0.028680912177277442 -0.15816122433591143 0.9713190878227225 0.15816122433591143 0.9713190878227225 0.15816122433591143 0.028680912177277442 -0.15816122433591143
5.55675E9 0.027519206221797838 -0.1546412898725672 0.9724807937782021 0.1546412898725672 0.9724807937782021 0.1546412898725672 0.027519206221797838 -0.1546412898725672
5.6315E9 0.026405838761578745 -0.1511823153208612 0.9735941612384212 0.1511823153208612 0.9735941612384212 0.1511823153208612 0.026405838761578745 -0.1511823153208612
5.70625E9 0.025338552852577682 -0.14778240225719858 0.9746614471474221 0.14778240225719858 0.9746614471474221 0.14778240225719858 0.025338552852577682 -0.14778240225719858
5.781E9 0.024315223283136046 -0.14443972233922805 0.9756847767168642 0.14443972233922805 0.9756847767168642 0.14443972233922805 0.024315223283136046 -0.14443972233922805
5.85575E9 0.023333847620678208 -0.14115251472429435 0.9766661523793219 0.14115251472429435 0.9766661523793219 0.14115251472429435 0.023333847620678208 -0.14115251472429435
5.9305E9 0.022392537946307266 -0.13791908353958066 0.9776074620536926 0.13791908353958066 0.9776074620536926 0.13791908353958066 0.022392537946307266 -0.13791908353958066
6.00525E9 0.02148951321891076 -0.13473779541146835 0.9785104867810891 0.13473779541146835 0.9785104867810891 0.13473779541146835 0.02148951321891076 -0.13473779541146835
6.08E9 0.02062309221575927 -0.13160707705980723 0.9793769077842409 0.13160707705980723 0.9793769077842409 0.13160707705980723 0.02062309221575927 -0.13160707705980723
6.15475E9 0.019791687001424987 -0.12852541296126424 0.980208312998575 0.12852541296126424 0.980208312998575 0.12852541296126424 0.019791687001424987 -0.12852541296126424
6.2295E9 0.01899379688121947 -0.12549134308464788 0.9810062031187806 0.12549134308464788 0.9810062031187806 0.12549134308464788 0.01899379688121947 -0.12549134308464788
6.30425E9 0.018228002799298922 -0.12250346070005723 0.981771997200701 0.12250346070005723 0.981771997200701 0.12250346070005723 0.018228002799298922 -0.12250346070005723
6.379E9 0.017492962145152783 -0.11956041026283774 0.9825070378548469 0.11956041026283774 0.9825070378548469 0.11956041026283774 0.017492962145152783 -0.11956041026283774
6.45375E9 0.016787403935418152 -0.11666088537261818 0.9832125960645818 0.11666088537261818 0.9832125960645818 0.11666088537261818 0.016787403935418152 -0.11666088537261818
6.5285E9 0.016110124340880248 -0.11380362680712228 0.9838898756591198 0.11380362680712228 0.9838898756591198 0.11380362680712228 0.016110124340880248 -0.11380362680712228
6.60325E9 0.015459982531161553 -0.11098742062998398 0.9845400174688386 0.11098742062998398 0.9845400174688386 0.11098742062998398 0.015459982531161553 -0.11098742062998398
6.678E9 0.014835896811995156 -0.10821109637141943 0.985164103188005 0.10821109637141943 0.985164103188005 0.10821109637141943 0.014835896811995156 -0.10821109637141943
6.75275E9 0.014236841032146263 -0.10547352528031131 0.9857631589678537 0.10547352528031131 0.9857631589678537 0.10547352528031131 0.014236841032146263 -0.10547352528031131
6.8275E9 0.013661841239014058 -0.10277361864603593 0.9863381587609857 0.10277361864603593 0.9863381587609857 0.10277361864603593 0.013661841239014058 -0.10277361864603593
6.90225E9 0.013109972563730173 -0.10011032618818232 0.9868900274362697 0.10011032618818232 0.9868900274362697 0.10011032618818232 0.013109972563730173 -0.10011032618818232
6.977E9 0.012580356318192116 -0.0974826345121875 0.987419643681808 0.0974826345121875 0.987419643681808 0.0974826345121875 0.012580356318192116 -0.0974826345121875
7.05175E9 0.012072157287943128 -0.0948895656288201 0.9879278427120568 0.0948895656288201 0.9879278427120568 0.0948895656288201 0.012072157287943128 -0.0948895656288201
7.1265E9 0.011584581206149613 -0.09233017553538497 0.9884154187938502 0.09233017553538497 0.9884154187938502 0.09233017553538497 0.011584581206149613 -0.09233017553538497
7.20125E9 0.011116872395146339 -0.08980355285648811 0.9888831276048535 0.08980355285648811 0.9888831276048535 0.08980355285648811 0.011116872395146339 -0.08980355285648811
7.276E9 0.010668311563130127 -0.08730881754219262 0.9893316884368698 0.08730881754219262 0.9893316884368698 0.08730881754219262 0.010668311563130127 -0.08730881754219262
7.35075E9 0.010238213744593425 -0.08484511962139854 0.9897617862554066 0.08484511962139854 0.9897617862554066 0.08484511962139854 0.010238213744593425 -0.08484511962139854
7.4255E9 0.009825926374012191 -0.08241163800830442 0.9901740736259876 0.08241163800830442 0.9901740736259876 0.08241163800830442 0.009825926374012191 -0.08241163800830442
7.50025E9 0.009430827483143124 -0.08000757935983713 0.9905691725168568 0.08000757935983713 0.9905691725168568 0.08000757935983713 0.009430827483143124 -0.08000757935983713
7.575E9 0.009052324013053952 -0.07763217698197995 0.9909476759869459 0.07763217698197995 0.9909476759869459 0.07763217698197995 0.009052324013053952 -0.07763217698197995
7.64975E9 0.008689850232711899 -0.07528468978297614 0.9913101497672883 0.07528468978297614 0.9913101497672883 0.07528468978297614 0.008689850232711899 -0.07528468978297614
7.7245E9 0.008342866256597066 -0.07296440127143952 0.9916571337434031 0.07296440127143952 0.9916571337434031 0.07296440127143952 0.008342866256597066 -0.07296440127143952
7.79925E9 0.008010856654394286 -0.07067061859746156 0.9919891433456056 0.07067061859746156 0.9919891433456056 0.07067061859746156 0.008010856654394286 -0.07067061859746156
7.874E9 0.007693329146353885 -0.06840267163486392 0.9923066708536461 0.06840267163486392 0.9923066708536461 0.06840267163486392 0.007693329146353885 -0.06840267163486392
7.94875E9 0.007389813378404138 -0.06615991210281066 0.992610186621596 0.06615991210281066 0.992610186621596 0.06615991210281066 0.007389813378404138 -0.06615991210281066
8.0235E9 0.007099859771548533 -0.06394171272505418 0.9929001402284515 0.06394171272505418 0.9929001402284515 0.06394171272505418 0.007099859771548533 -0.06394171272505418
8.09825E9 0.0068230384404950025 -0.06174746642515717 0.9931769615595052 0.06174746642515717 0.9931769615595052 0.06174746642515717 0.0068230384404950025 -0.06174746642515717
8.173E9 0.006558938176843205 -0.05957658555609379 0.9934410618231568 0.05957658555609379 0.9934410618231568 0.05957658555609379 0.006558938176843205 -0.05957658555609379
8.24775E9 0.006307165492504691 -0.05742850116269836 0.9936928345074952 0.05742850116269836 0.9936928345074952 0.05742850116269836 0.006307165492504691 -0.05742850116269836
8.3225E9 0.006067343719350537 -0.055302662275490744 0.9939326562806494 0.055302662275490744 0.9939326562806494 0.055302662275490744 0.006067343719350537 -0.055302662275490744
8.39725E9 0.005839112161375698 -0.053198535234471545 0.9941608878386243 0.053198535234471545 0.9941608878386243 0.053198535234471545 0.005839112161375698 -0.053198535234471545
8.472E9 0.005622125295939644 -0.05111560304153733 0.9943778747040604 0.05111560304153733 0.9943778747040604 0.05111560304153733 0.005622125295939644 -0.05111560304153733
8.54675E9 0.00541605202089223 -0.04905336474022615 0.9945839479791079 0.04905336474022615 0.9945839479791079 0.04905336474022615 0.00541605202089223 -0.04905336474022615
8.6215E9 0.005220574944623095 -0.047011334821558906 0.9947794250553771 0.047011334821558906 0.9947794250553771 0.047011334821558906 0.005220574944623095 -0.047011334821558906
8.69625E9 0.0050353897162844635 -0.04498904265479871 0.9949646102837154 0.04498904265479871 0.9949646102837154 0.04498904265479871 0.0050353897162844635 -0.04498904265479871
8.771E9 0.00486020439363205 -0.04298603194200118 0.995139795606368 0.04298603194200118 0.995139795606368 0.04298603194200118 0.00486020439363205 -0.04298603194200118
