!Murata Part Number: GJM0225C1E9R1BB01
!These Parameters are Measured in Series Mode Connection
!       o--ll--o
!Port1            Port2
!       o------o
!Operation Temp=25[degC], DC Bias Voltage=0[V]
!Freq. Start=100[MHz] Stop=30[GHz], 401[Steps]
!Data Generated on Feb 1, 2023
# Hz S RI R 50
!Freq.(Hz) S11(Real) S11(Imag) S21(Real) S21(Imag) S12(Real) S12(Imag) S22(Real) S22(Imag)
1.0E8 0.7532866515949648 -0.430854473869401 0.2467133484050352 0.430854473869401 0.2467133484050352 0.430854473869401 0.7532866515949648 -0.430854473869401
1.7475E8 0.4994658861613181 -0.4995697810891237 0.5005341138386818 0.4995697810891237 0.5005341138386818 0.4995697810891237 0.4994658861613181 -0.4995697810891237
2.495E8 0.32796925728842197 -0.46885195332363033 0.672030742711578 0.46885195332363033 0.672030742711578 0.46885195332363033 0.32796925728842197 -0.46885195332363033
3.2425E8 0.2234669352721992 -0.41574757187860595 0.776533064727801 0.41574757187860595 0.776533064727801 0.41574757187860595 0.2234669352721992 -0.41574757187860595
3.99E8 0.1590174124251996 -0.36466207694068536 0.8409825875748006 0.36466207694068536 0.8409825875748006 0.36466207694068536 0.1590174124251996 -0.36466207694068536
4.7375E8 0.11763092899926897 -0.3209200971044171 0.8823690710007309 0.3209200971044171 0.8823690710007309 0.3209200971044171 0.11763092899926897 -0.3209200971044171
5.485E8 0.08988175468404425 -0.28452927430718356 0.9101182453159556 0.28452927430718356 0.9101182453159556 0.28452927430718356 0.08988175468404425 -0.28452927430718356
6.2325E8 0.07053416354572947 -0.2543165143509761 0.9294658364542706 0.2543165143509761 0.9294658364542706 0.2543165143509761 0.07053416354572947 -0.2543165143509761
6.98E8 0.056580879752699445 -0.22905220367540277 0.9434191202473006 0.22905220367540277 0.9434191202473006 0.22905220367540277 0.056580879752699445 -0.22905220367540277
7.7275E8 0.04622380193831413 -0.20770845550751352 0.9537761980616859 0.20770845550751352 0.9537761980616859 0.20770845550751352 0.04622380193831413 -0.20770845550751352
8.475E8 0.03834497972901074 -0.1894794218332305 0.9616550202709893 0.1894794218332305 0.9616550202709893 0.1894794218332305 0.03834497972901074 -0.1894794218332305
9.2225E8 0.032224101050593014 -0.1737449374416937 0.9677758989494071 0.1737449374416937 0.9677758989494071 0.1737449374416937 0.032224101050593014 -0.1737449374416937
9.97E8 0.027382050242442058 -0.16002838552259033 0.9726179497575582 0.16002838552259033 0.9726179497575582 0.16002838552259033 0.027382050242442058 -0.16002838552259033
1.07175E9 0.02349103433208152 -0.14796132477815682 0.9765089656679187 0.14796132477815682 0.9765089656679187 0.14796132477815682 0.02349103433208152 -0.14796132477815682
1.1465E9 0.020321127879832805 -0.13725639492253808 0.9796788721201671 0.13725639492253808 0.9796788721201671 0.13725639492253808 0.020321127879832805 -0.13725639492253808
1.22125E9 0.017707448659213254 -0.12768721594827012 0.9822925513407867 0.12768721594827012 0.9822925513407867 0.12768721594827012 0.017707448659213254 -0.12768721594827012
1.296E9 0.015529409524414395 -0.11907361239023949 0.9844705904755856 0.11907361239023949 0.9844705904755856 0.11907361239023949 0.015529409524414395 -0.11907361239023949
1.37075E9 0.013697255551220484 -0.11127074132658757 0.9863027444487794 0.11127074132658757 0.9863027444487794 0.11127074132658757 0.013697255551220484 -0.11127074132658757
1.4455E9 0.012143119094857938 -0.1041610459138194 0.9878568809051419 0.1041610459138194 0.9878568809051419 0.1041610459138194 0.012143119094857938 -0.1041610459138194
1.52025E9 0.010814947909801302 -0.09764825123167493 0.9891850520901988 0.09764825123167493 0.9891850520901988 0.09764825123167493 0.010814947909801302 -0.09764825123167493
1.595E9 0.009672302639626209 -0.09165284257329909 0.9903276973603736 0.09165284257329909 0.9903276973603736 0.09165284257329909 0.009672302639626209 -0.09165284257329909
1.66975E9 0.008683396286454693 -0.08610862742564483 0.9913166037135455 0.08610862742564483 0.9913166037135455 0.08610862742564483 0.008683396286454693 -0.08610862742564483
1.7445E9 0.007822974726638426 -0.08096009638039331 0.9921770252733615 0.08096009638039331 0.9921770252733615 0.08096009638039331 0.007822974726638426 -0.08096009638039331
1.81925E9 0.007070776806055673 -0.0761603784122576 0.9929292231939443 0.0761603784122576 0.9929292231939443 0.0761603784122576 0.007070776806055673 -0.0761603784122576
1.894E9 0.006410400290747546 -0.0716696424434189 0.9935895997092525 0.0716696424434189 0.9935895997092525 0.0716696424434189 0.006410400290747546 -0.0716696424434189
1.96875E9 0.005828456246273121 -0.06745383708423286 0.9941715437537268 0.06745383708423286 0.9941715437537268 0.06745383708423286 0.005828456246273121 -0.06745383708423286
2.0435E9 0.0053139312039418764 -0.06348368892094224 0.994686068796058 0.06348368892094224 0.994686068796058 0.06348368892094224 0.0053139312039418764 -0.06348368892094224
2.11825E9 0.004857700915290927 -0.059733900174834 0.9951422990847093 0.059733900174834 0.9951422990847093 0.059733900174834 0.004857700915290927 -0.059733900174834
2.193E9 0.0044521559941747635 -0.05618250137019183 0.9955478440058251 0.05618250137019183 0.9955478440058251 0.05618250137019183 0.0044521559941747635 -0.05618250137019183
2.26775E9 0.004090911044003887 -0.05281032546851478 0.995909088955996 0.05281032546851478 0.995909088955996 0.05281032546851478 0.004090911044003887 -0.05281032546851478
2.3425E9 0.0037685767101553 -0.049600577897883004 0.9962314232898447 0.049600577897883004 0.9962314232898447 0.049600577897883004 0.0037685767101553 -0.049600577897883004
2.41725E9 0.0034805796104007284 -0.04653848282857365 0.9965194203895992 0.04653848282857365 0.9965194203895992 0.04653848282857365 0.0034805796104007284 -0.04653848282857365
2.492E9 0.00322301901731665 -0.043610990481921706 0.9967769809826835 0.043610990481921706 0.9967769809826835 0.043610990481921706 0.00322301901731665 -0.043610990481921706
2.56675E9 0.002992551986549155 -0.04080653360836319 0.9970074480134509 0.04080653360836319 0.9970074480134509 0.04080653360836319 0.002992551986549155 -0.04080653360836319
2.6415E9 0.0027863006738520894 -0.03811482381822934 0.9972136993261481 0.03811482381822934 0.9972136993261481 0.03811482381822934 0.0027863006738520894 -0.03811482381822934
2.71625E9 0.002601777087261956 -0.03552668040111312 0.997398222912738 0.03552668040111312 0.997398222912738 0.03552668040111312 0.002601777087261956 -0.03552668040111312
2.791E9 0.002436821634027228 -0.033033885776150455 0.9975631783659729 0.033033885776150455 0.9975631783659729 0.033033885776150455 0.002436821634027228 -0.033033885776150455
2.86575E9 0.0022895526533746866 -0.030629062885927344 0.9977104473466253 0.030629062885927344 0.9977104473466253 0.030629062885927344 0.0022895526533746866 -0.030629062885927344
2.9405E9 0.0021583247522719454 -0.028305570761793693 0.997841675247728 0.028305570761793693 0.997841675247728 0.028305570761793693 0.0021583247522719454 -0.028305570761793693
3.01525E9 0.002041694236409735 -0.026057415208224976 0.9979583057635901 0.026057415208224976 0.9979583057635901 0.026057415208224976 0.002041694236409735 -0.026057415208224976
3.09E9 0.0019383902917408044 -0.023879172123495638 0.9980616097082591 0.023879172123495638 0.9980616097082591 0.023879172123495638 0.0019383902917408044 -0.023879172123495638
3.16475E9 0.0018472908513809953 -0.02176592142720443 0.9981527091486191 0.02176592142720443 0.9981527091486191 0.02176592142720443 0.0018472908513809953 -0.02176592142720443
3.2395E9 0.0017674022991863844 -0.019713189927827567 0.9982325977008137 0.019713189927827567 0.9982325977008137 0.019713189927827567 0.0017674022991863844 -0.019713189927827567
3.31425E9 0.0016978423301027305 -0.01771690175508814 0.9983021576698973 0.01771690175508814 0.9983021576698973 0.01771690175508814 0.0016978423301027305 -0.01771690175508814
3.389E9 0.0016378254197446857 -0.01577333521758928 0.9983621745802553 0.01577333521758928 0.9983621745802553 0.01577333521758928 0.0016378254197446857 -0.01577333521758928
3.46375E9 0.0015866504600513941 -0.013879085137498165 0.9984133495399485 0.013879085137498165 0.9984133495399485 0.013879085137498165 0.0015866504600513941 -0.013879085137498165
3.5385E9 0.001543690200640237 -0.012031029870128595 0.9984563097993601 0.012031029870128595 0.9984563097993601 0.012031029870128595 0.001543690200640237 -0.012031029870128595
3.61325E9 0.001508382201456934 -0.010226302344109824 0.998491617798543 0.010226302344109824 0.998491617798543 0.010226302344109824 0.001508382201456934 -0.010226302344109824
3.688E9 0.0014802210551679265 -0.0084622645629874 0.9985197789448321 0.0084622645629874 0.9985197789448321 0.0084622645629874 0.0014802210551679265 -0.0084622645629874
3.76275E9 0.001458751680273425 -0.0067364850959515925 0.9985412483197265 0.0067364850959515925 0.9985412483197265 0.0067364850959515925 0.001458751680273425 -0.0067364850959515925
3.8375E9 0.001443563520305978 -0.005046719157391828 0.9985564364796942 0.005046719157391828 0.9985564364796942 0.005046719157391828 0.001443563520305978 -0.005046719157391828
3.91225E9 0.0014342855124014097 -0.003390890934892834 0.9985657144875985 0.003390890934892834 0.9985657144875985 0.003390890934892834 0.0014342855124014097 -0.003390890934892834
3.987E9 0.001430581711297037 -0.0017670778753251307 0.9985694182887029 0.0017670778753251307 0.9985694182887029 0.0017670778753251307 0.001430581711297037 -0.0017670778753251307
4.06175E9 0.001432147473452316 -1.734966806120984E-4 0.9985678525265477 1.734966806120984E-4 0.9985678525265477 1.734966806120984E-4 0.001432147473452316 -1.734966806120984E-4
4.1365E9 0.0014387061213073308 0.0013915091999919134 0.9985612938786926 -0.0013915091999919134 0.9985612938786926 -0.0013915091999919134 0.0014387061213073308 0.0013915091999919134
4.21125E9 0.0014500060203330835 0.0029294807645456494 0.998549993979667 -0.0029294807645456494 0.998549993979667 -0.0029294807645456494 0.0014500060203330835 0.0029294807645456494
4.286E9 0.0014658180119917006 0.004441853498266133 0.9985341819880083 -0.004441853498266133 0.9985341819880083 -0.004441853498266133 0.0014658180119917006 0.004441853498266133
4.36075E9 0.0014859331544185977 0.005929966395510421 0.9985140668455814 -0.005929966395510421 0.9985140668455814 -0.005929966395510421 0.0014859331544185977 0.005929966395510421
4.4355E9 0.0015101607298863941 0.007395070082666921 0.9984898392701137 -0.007395070082666921 0.9984898392701137 -0.007395070082666921 0.0015101607298863941 0.007395070082666921
4.51025E9 0.0015383264841722422 0.008838334145231948 0.9984616735158276 -0.008838334145231948 0.9984616735158276 -0.008838334145231948 0.0015383264841722422 0.008838334145231948
4.585E9 0.0015702710680364639 0.010260853749087605 0.9984297289319634 -0.010260853749087605 0.9984297289319634 -0.010260853749087605 0.0015702710680364639 0.010260853749087605
4.65975E9 0.0016058486553012883 0.011663655634624973 0.9983941513446987 -0.011663655634624973 0.9983941513446987 -0.011663655634624973 0.0016058486553012883 0.011663655634624973
4.7345E9 0.0016449257156325194 0.013047703552577106 0.9983550742843673 -0.013047703552577106 0.9983550742843673 -0.013047703552577106 0.0016449257156325194 0.013047703552577106
4.80925E9 0.001687379923187146 0.014413903201997792 0.9983126200768129 -0.014413903201997792 0.9983126200768129 -0.014413903201997792 0.001687379923187146 0.014413903201997792
4.884E9 0.0017330991848887852 0.015763106723541108 0.9982669008151112 -0.015763106723541108 0.9982669008151112 -0.015763106723541108 0.0017330991848887852 0.015763106723541108
4.95875E9 0.0017819807743064805 0.01709611679489344 0.9982180192256934 -0.01709611679489344 0.9982180192256934 -0.01709611679489344 0.0017819807743064805 0.01709611679489344
5.0335E9 0.0018339305590033873 0.018413690369739655 0.9981660694409968 -0.018413690369739655 0.9981660694409968 -0.018413690369739655 0.0018339305590033873 0.018413690369739655
5.10825E9 0.0018888623108421893 0.01971654209689286 0.9981111376891579 -0.01971654209689286 0.9981111376891579 -0.01971654209689286 0.0018888623108421893 0.01971654209689286
5.183E9 0.0019466970901267158 0.021005347452075128 0.9980533029098732 -0.021005347452075128 0.9980533029098732 -0.021005347452075128 0.0019466970901267158 0.021005347452075128
5.25775E9 0.0020073626956599398 0.022280745611225176 0.9979926373043398 -0.022280745611225176 0.9979926373043398 -0.022280745611225176 0.0020073626956599398 0.022280745611225176
5.3325E9 0.002070793173837409 0.023543342091051567 0.9979292068261625 -0.023543342091051567 0.9979292068261625 -0.023543342091051567 0.002070793173837409 0.023543342091051567
5.40725E9 0.002136928380797211 0.02479371117978738 0.9978630716192028 -0.02479371117978738 0.9978630716192028 -0.02479371117978738 0.002136928380797211 0.02479371117978738
5.482E9 0.0022057135924339784 0.026032398178680288 0.9977942864075657 -0.026032398178680288 0.9977942864075657 -0.026032398178680288 0.0022057135924339784 0.026032398178680288
5.55675E9 0.0022770991577731525 0.027259921472628124 0.9977229008422269 -0.027259921472628124 0.9977229008422269 -0.027259921472628124 0.0022770991577731525 0.027259921472628124
5.6315E9 0.00235104019180784 0.02847677444650297 0.9976489598081921 -0.02847677444650297 0.9976489598081921 -0.02847677444650297 0.00235104019180784 0.02847677444650297
5.70625E9 0.002427496304437325 0.029683427262068594 0.9975725036955627 -0.029683427262068594 0.9975725036955627 -0.029683427262068594 0.002427496304437325 0.029683427262068594
5.781E9 0.002506431362624575 0.030880328508953305 0.9974935686373755 -0.030880328508953305 0.9974935686373755 -0.030880328508953305 0.002506431362624575 0.030880328508953305
5.85575E9 0.0025878132833198515 0.03206790674187382 0.9974121867166802 -0.03206790674187382 0.9974121867166802 -0.03206790674187382 0.0025878132833198515 0.03206790674187382
5.9305E9 0.0026716138550872902 0.033246571915193306 0.9973283861449128 -0.033246571915193306 0.9973283861449128 -0.033246571915193306 0.0026716138550872902 0.033246571915193306
6.00525E9 0.0027578085867284627 0.034416716724919055 0.9972421914132714 -0.034416716724919055 0.9972421914132714 -0.034416716724919055 0.0027578085867284627 0.034416716724919055
6.08E9 0.002846376581528622 0.03557871786739233 0.9971536234184715 -0.03557871786739233 0.9971536234184715 -0.03557871786739233 0.002846376581528622 0.03557871786739233
6.15475E9 0.0029373004360634205 0.036732937223175034 0.9970626995639367 -0.036732937223175034 0.9970626995639367 -0.036732937223175034 0.0029373004360634205 0.036732937223175034
6.2295E9 0.003030566162802741 0.03787972297399281 0.9969694338371972 -0.03787972297399281 0.9969694338371972 -0.03787972297399281 0.003030566162802741 0.03787972297399281
6.30425E9 0.003126163136038999 0.03901941066003343 0.9968738368639609 -0.03901941066003343 0.9968738368639609 -0.03901941066003343 0.003126163136038999 0.03901941066003343
6.379E9 0.0032240840609560045 0.04015232418442545 0.9967759159390437 -0.04015232418442545 0.9967759159390437 -0.04015232418442545 0.0032240840609560045 0.04015232418442545
6.45375E9 0.003324324965946235 0.04127877677131903 0.9966756750340536 -0.04127877677131903 0.9966756750340536 -0.04127877677131903 0.003324324965946235 0.04127877677131903
6.5285E9 0.003426885218585676 0.042399071883663035 0.9965731147814146 -0.042399071883663035 0.9965731147814146 -0.042399071883663035 0.003426885218585676 0.042399071883663035
6.60325E9 0.0035317675659918917 0.0435135041065084 0.9964682324340077 -0.0435135041065084 0.9964682324340077 -0.0435135041065084 0.0035317675659918917 0.0435135041065084
6.678E9 0.0036389782006301377 0.04462236000147111 0.99636102179937 -0.04462236000147111 0.99636102179937 -0.04462236000147111 0.0036389782006301377 0.04462236000147111
6.75275E9 0.003748526853001293 0.045725918937852744 0.9962514731469988 -0.045725918937852744 0.9962514731469988 -0.045725918937852744 0.003748526853001293 0.045725918937852744
6.8275E9 0.003860426913053435 0.04682445390584581 0.9961395730869467 -0.04682445390584581 0.9961395730869467 -0.04682445390584581 0.003860426913053435 0.04682445390584581
6.90225E9 0.003974695582615815 0.04791823231724339 0.9960253044173839 -0.04791823231724339 0.9960253044173839 -0.04791823231724339 0.003974695582615815 0.04791823231724339
6.977E9 0.004091354061671765 0.049007516799129326 0.9959086459383283 -0.049007516799129326 0.9959086459383283 -0.049007516799129326 0.004091354061671765 0.049007516799129326
7.05175E9 0.004210427771880282 0.050092565986154504 0.9957895722281197 -0.050092565986154504 0.9957895722281197 -0.050092565986154504 0.004210427771880282 0.050092565986154504
7.1265E9 0.004331946621440764 0.05117363531720185 0.9956680533785591 -0.05117363531720185 0.9956680533785591 -0.05117363531720185 0.004331946621440764 0.05117363531720185
7.20125E9 0.004455945316192966 0.05225097784252327 0.9955440546838069 -0.05225097784252327 0.9955440546838069 -0.05225097784252327 0.004455945316192966 0.05225097784252327
7.276E9 0.004582463722778754 0.053324845047796034 0.9954175362772213 -0.053324845047796034 0.9954175362772213 -0.053324845047796034 0.004582463722778754 0.053324845047796034
7.35075E9 0.004711547290794392 0.05439548770200633 0.9952884527092055 -0.05439548770200633 0.9952884527092055 -0.05439548770200633 0.004711547290794392 0.05439548770200633
7.4255E9 0.0048432475421687615 0.05546315673663386 0.9951567524578311 -0.05546315673663386 0.9951567524578311 -0.05546315673663386 0.0048432475421687615 0.05546315673663386
7.50025E9 0.004977622637559986 0.05652810416429665 0.9950223773624401 -0.05652810416429665 0.9950223773624401 -0.05652810416429665 0.004977622637559986 0.05652810416429665
7.575E9 0.005114738031427347 0.05759058404583491 0.9948852619685725 -0.05759058404583491 0.9948852619685725 -0.05759058404583491 0.005114738031427347 0.05759058404583491
7.64975E9 0.005254667229677414 0.05865085351578389 0.9947453327703226 -0.05865085351578389 0.9947453327703226 -0.05865085351578389 0.005254667229677414 0.05865085351578389
7.7245E9 0.005397492666491884 0.05970917387733125 0.9946025073335081 -0.05970917387733125 0.9946025073335081 -0.05970917387733125 0.005397492666491884 0.05970917387733125
7.79925E9 0.005543306720230053 0.060765811779193823 0.9944566932797698 -0.060765811779193823 0.9944566932797698 -0.060765811779193823 0.005543306720230053 0.060765811779193823
7.874E9 0.005692212892301727 0.06182104048841186 0.9943077871076983 -0.06182104048841186 0.9943077871076983 -0.06182104048841186 0.005692212892301727 0.06182104048841186
7.94875E9 0.005844327177803643 0.06287514127487318 0.9941556728221963 -0.06287514127487318 0.9941556728221963 -0.06287514127487318 0.005844327177803643 0.06287514127487318
8.0235E9 0.0059997796627299736 0.06392840492547366 0.99400022033727 -0.06392840492547366 0.99400022033727 -0.06392840492547366 0.0059997796627299736 0.06392840492547366
8.09825E9 0.006158716389994103 0.06498113340822967 0.9938412836100059 -0.06498113340822967 0.9938412836100059 -0.06498113340822967 0.006158716389994103 0.06498113340822967
8.173E9 0.006321301545705338 0.06603364170940638 0.9936786984542945 -0.06603364170940638 0.9936786984542945 -0.06603364170940638 0.006321301545705338 0.06603364170940638
8.24775E9 0.006487720028609442 0.06708625986983859 0.9935122799713905 -0.06708625986983859 0.9935122799713905 -0.06708625986983859 0.006487720028609442 0.06708625986983859
8.3225E9 0.006658180479947889 0.06813933525010686 0.9933418195200521 -0.06813933525010686 0.9933418195200521 -0.06813933525010686 0.006658180479947889 0.06813933525010686
8.39725E9 0.006832918869027756 0.06919323505807343 0.9931670811309721 -0.06919323505807343 0.9931670811309721 -0.06919323505807343 0.006832918869027756 0.06919323505807343
8.472E9 0.0070122027525856305 0.07024834917642267 0.9929877972474144 -0.07024834917642267 0.9929877972474144 -0.07024834917642267 0.0070122027525856305 0.07024834917642267
