!Murata Part Number: GJM0225C1E100GB01
!These Parameters are Measured in Series Mode Connection
!       o--ll--o
!Port1            Port2
!       o------o
!Operation Temp=25[degC], DC Bias Voltage=0[V]
!Freq. Start=100[MHz] Stop=30[GHz], 401[Steps]
!Data Generated on Feb 1, 2023
# Hz S RI R 50
!Freq.(Hz) S11(Real) S11(Imag) S21(Real) S21(Imag) S12(Real) S12(Imag) S22(Real) S22(Imag)
1.0E8 0.7165803658418167 -0.45039027757467803 0.2834196341581832 0.45039027757467803 0.2834196341581832 0.45039027757467803 0.7165803658418167 -0.45039027757467803
1.7475E8 0.4524280362774356 -0.49725948523543995 0.5475719637225644 0.49725948523543995 0.5475719637225644 0.49725948523543995 0.4524280362774356 -0.49725948523543995
2.495E8 0.28777381714023914 -0.45204255063676335 0.7122261828597608 0.45204255063676335 0.7122261828597608 0.45204255063676335 0.28777381714023914 -0.45204255063676335
3.2425E8 0.1923903880231079 -0.3932767908369241 0.8076096119768924 0.3932767908369241 0.8076096119768924 0.3932767908369241 0.1923903880231079 -0.3932767908369241
3.99E8 0.13532190022402835 -0.3409368544595967 0.8646780997759717 0.3409368544595967 0.8646780997759717 0.3409368544595967 0.13532190022402835 -0.3409368544595967
4.7375E8 0.09935688455878487 -0.2977694954449722 0.9006431154412152 0.2977694954449722 0.9006431154412152 0.2977694954449722 0.09935688455878487 -0.2977694954449722
5.485E8 0.07553522895631082 -0.2626278949891982 0.9244647710436892 0.2626278949891982 0.9244647710436892 0.2626278949891982 0.07553522895631082 -0.2626278949891982
6.2325E8 0.05906358240766183 -0.23385044578434533 0.9409364175923383 0.23385044578434533 0.9409364175923383 0.23385044578434533 0.05906358240766183 -0.23385044578434533
6.98E8 0.04725448000778617 -0.21000667293337155 0.9527455199922139 0.21000667293337155 0.9527455199922139 0.21000667293337155 0.04725448000778617 -0.21000667293337155
7.7275E8 0.038527238595774296 -0.1899913684565679 0.9614727614042257 0.1899913684565679 0.9614727614042257 0.1899913684565679 0.038527238595774296 -0.1899913684565679
8.475E8 0.03191050082331971 -0.17297463221170045 0.9680894991766804 0.17297463221170045 0.9680894991766804 0.17297463221170045 0.03191050082331971 -0.17297463221170045
9.2225E8 0.026783764633592926 -0.15833493861861683 0.9732162353664072 0.15833493861861683 0.9732162353664072 0.15833493861861683 0.026783764633592926 -0.15833493861861683
9.97E8 0.022736980797601974 -0.14560345517929607 0.9772630192023979 0.14560345517929607 0.9772630192023979 0.14560345517929607 0.022736980797601974 -0.14560345517929607
1.07175E9 0.019491021273349007 -0.13442261898091296 0.9805089787266509 0.13442261898091296 0.9805089787266509 0.13442261898091296 0.019491021273349007 -0.13442261898091296
1.1465E9 0.016850876339767274 -0.12451637264690232 0.9831491236602327 0.12451637264690232 0.9831491236602327 0.12451637264690232 0.016850876339767274 -0.12451637264690232
1.22125E9 0.014677151598143878 -0.11566894517223254 0.9853228484018562 0.11566894517223254 0.9853228484018562 0.11566894517223254 0.014677151598143878 -0.11566894517223254
1.296E9 0.01286816886616373 -0.107709672892818 0.9871318311338363 0.107709672892818 0.9871318311338363 0.107709672892818 0.01286816886616373 -0.107709672892818
1.37075E9 0.011348413080914365 -0.10050204923836004 0.9886515869190858 0.10050204923836004 0.9886515869190858 0.10050204923836004 0.011348413080914365 -0.10050204923836004
1.4455E9 0.010060889289146726 -0.09393574066585382 0.9899391107108532 0.09393574066585382 0.9899391107108532 0.09393574066585382 0.010060889289146726 -0.09393574066585382
1.52025E9 0.008961953044549859 -0.08792069825113927 0.9910380469554502 0.08792069825113927 0.9910380469554502 0.08792069825113927 0.008961953044549859 -0.08792069825113927
1.595E9 0.008017743093202669 -0.08238276439849876 0.9919822569067972 0.08238276439849876 0.9919822569067972 0.08238276439849876 0.008017743093202669 -0.08238276439849876
1.66975E9 0.007201674685016087 -0.07726035782941827 0.9927983253149839 0.07726035782941827 0.9927983253149839 0.07726035782941827 0.007201674685016087 -0.07726035782941827
1.7445E9 0.00649264888837453 -0.0725019449400554 0.9935073511116254 0.0725019449400554 0.9935073511116254 0.0725019449400554 0.00649264888837453 -0.0725019449400554
1.81925E9 0.005873754003976808 -0.06806409101522179 0.9941262459960233 0.06806409101522179 0.9941262459960233 0.06806409101522179 0.005873754003976808 -0.06806409101522179
1.894E9 0.005331310786482707 -0.06390994363534552 0.9946686892135171 0.06390994363534552 0.9946686892135171 0.06390994363534552 0.005331310786482707 -0.06390994363534552
1.96875E9 0.004854161514370096 -0.06000804155353174 0.9951458384856299 0.06000804155353174 0.9951458384856299 0.06000804155353174 0.004854161514370096 -0.06000804155353174
2.0435E9 0.0044331344255083855 -0.05633137109281177 0.9955668655744915 0.05633137109281177 0.9955668655744915 0.05633137109281177 0.0044331344255083855 -0.05633137109281177
2.11825E9 0.004060635893127076 -0.05285661254551681 0.9959393641068728 0.05285661254551681 0.9959393641068728 0.05285661254551681 0.004060635893127076 -0.05285661254551681
2.193E9 0.003730336759689734 -0.0495635337151447 0.9962696632403101 0.0495635337151447 0.9962696632403101 0.0495635337151447 0.003730336759689734 -0.0495635337151447
2.26775E9 0.0034369288421374614 -0.04643449836345183 0.9965630711578627 0.04643449836345183 0.9965630711578627 0.04643449836345183 0.0034369288421374614 -0.04643449836345183
2.3425E9 0.003175934270117613 -0.04345406509809092 0.9968240657298825 0.04345406509809092 0.9968240657298825 0.04345406509809092 0.003175934270117613 -0.04345406509809092
2.41725E9 0.0029435549841379804 -0.04060865797673781 0.9970564450158621 0.04060865797673781 0.9970564450158621 0.04060865797673781 0.0029435549841379804 -0.04060865797673781
2.492E9 0.00273655303386953 -0.03788629438152679 0.9972634469661303 0.03788629438152679 0.9972634469661303 0.03788629438152679 0.00273655303386953 -0.03788629438152679
2.56675E9 0.0025521546963601567 -0.035276358932754735 0.9974478453036398 0.035276358932754735 0.9974478453036398 0.035276358932754735 0.0025521546963601567 -0.035276358932754735
2.6415E9 0.002387973160863421 -0.03276941464694882 0.9976120268391364 0.03276941464694882 0.9976120268391364 0.03276941464694882 0.002387973160863421 -0.03276941464694882
2.71625E9 0.002241945792692091 -0.03035704440462066 0.9977580542073077 0.03035704440462066 0.9977580542073077 0.03035704440462066 0.002241945792692091 -0.03035704440462066
2.791E9 0.0021122829247797736 -0.02803171722400888 0.9978877170752202 0.02803171722400888 0.9978877170752202 0.02803171722400888 0.0021122829247797736 -0.02803171722400888
2.86575E9 0.0019974258242746955 -0.025786674945648607 0.9980025741757251 0.025786674945648607 0.9980025741757251 0.025786674945648607 0.0019974258242746955 -0.025786674945648607
2.9405E9 0.0018960120071102112 -0.023615835797121863 0.9981039879928899 0.023615835797121863 0.9981039879928899 0.023615835797121863 0.0018960120071102112 -0.023615835797121863
3.01525E9 0.001806846472026909 -0.02151371198585849 0.9981931535279732 0.02151371198585849 0.9981931535279732 0.02151371198585849 0.001806846472026909 -0.02151371198585849
3.09E9 0.0017288777299186027 -0.01947533900364111 0.9982711222700815 0.01947533900364111 0.9982711222700815 0.01947533900364111 0.0017288777299186027 -0.01947533900364111
3.16475E9 0.001661177738497455 -0.017496214751999233 0.9983388222615027 0.017496214751999233 0.9983388222615027 0.017496214751999233 0.001661177738497455 -0.017496214751999233
3.2395E9 0.0016029250335402253 -0.015572246937521234 0.9983970749664598 0.015572246937521234 0.9983970749664598 0.015572246937521234 0.0016029250335402253 -0.015572246937521234
3.31425E9 0.0015533904892054903 -0.013699707458959208 0.9984466095107946 0.013699707458959208 0.9984466095107946 0.013699707458959208 0.0015533904892054903 -0.013699707458959208
3.389E9 0.0015119252506047628 -0.011875192728169724 0.9984880747493952 0.011875192728169724 0.9984880747493952 0.011875192728169724 0.0015119252506047628 -0.011875192728169724
3.46375E9 0.0014779504690665636 -0.010095589045452241 0.9985220495309334 0.010095589045452241 0.9985220495309334 0.010095589045452241 0.0014779504690665636 -0.010095589045452241
3.5385E9 0.001450948539689106 -0.008358042295267144 0.998549051460311 0.008358042295267144 0.998549051460311 0.008358042295267144 0.001450948539689106 -0.008358042295267144
3.61325E9 0.0014304555958744405 -0.006659931347300191 0.9985695444041256 0.006659931347300191 0.9985695444041256 0.006659931347300191 0.0014304555958744405 -0.006659931347300191
3.688E9 0.0014160550596516454 -0.004998844645608169 0.9985839449403484 0.004998844645608169 0.9985839449403484 0.004998844645608169 0.0014160550596516454 -0.004998844645608169
3.76275E9 0.0014073720820867506 -0.0033725595492449254 0.9985926279179133 0.0033725595492449254 0.9985926279179133 0.0033725595492449254 0.0014073720820867506 -0.0033725595492449254
3.8375E9 0.0014040687367593055 -0.0017790240545793163 0.9985959312632406 0.0017790240545793163 0.9985959312632406 0.0017790240545793163 0.0014040687367593055 -0.0017790240545793163
3.91225E9 0.0014058398525676817 -2.1634058506448295E-4 0.9985941601474323 2.1634058506448295E-4 0.9985941601474323 2.1634058506448295E-4 0.0014058398525676817 -2.1634058506448295E-4
3.987E9 0.001412409391103782 0.0013172484194321258 0.9985875906088961 -0.0013172484194321258 0.9985875906088961 -0.0013172484194321258 0.001412409391103782 0.0013172484194321258
4.06175E9 0.001423527289371218 0.0028233733428191226 0.9985764727106288 -0.0028233733428191226 0.9985764727106288 -0.0028233733428191226 0.001423527289371218 0.0028233733428191226
4.1365E9 0.0014389667013844465 0.004303548858968948 0.9985610332986157 -0.004303548858968948 0.9985610332986157 -0.004303548858968948 0.0014389667013844465 0.004303548858968948
4.21125E9 0.0014585215827134434 0.005759184192900089 0.9985414784172866 -0.005759184192900089 0.9985414784172866 -0.005759184192900089 0.0014585215827134434 0.005759184192900089
4.286E9 0.0014820045707528728 0.0071915923227187616 0.9985179954292472 -0.0071915923227187616 0.9985179954292472 -0.0071915923227187616 0.0014820045707528728 0.0071915923227187616
4.36075E9 0.0015092451207341607 0.008601998248385097 0.9984907548792658 -0.008601998248385097 0.9984907548792658 -0.008601998248385097 0.0015092451207341607 0.008601998248385097
4.4355E9 0.0015400878635338016 0.00999154643661639 0.9984599121364661 -0.00999154643661639 0.9984599121364661 -0.00999154643661639 0.0015400878635338016 0.00999154643661639
4.51025E9 0.001574391156378994 0.011361307536954702 0.9984256088436212 -0.011361307536954702 0.9984256088436212 -0.011361307536954702 0.001574391156378994 0.011361307536954702
4.585E9 0.001612025801787808 0.012712284451811814 0.9983879741982122 -0.012712284451811814 0.9983879741982122 -0.012712284451811814 0.001612025801787808 0.012712284451811814
4.65975E9 0.0016528739136476328 0.014045417832835663 0.9983471260863526 -0.014045417832835663 0.9983471260863526 -0.014045417832835663 0.0016528739136476328 0.014045417832835663
4.7345E9 0.0016968279123482232 0.015361591066946467 0.9983031720876518 -0.015361591066946467 0.9983031720876518 -0.015361591066946467 0.0016968279123482232 0.015361591066946467
4.80925E9 0.0017437896334386498 0.016661634807643034 0.9982562103665615 -0.016661634807643034 0.9982562103665615 -0.016661634807643034 0.0017437896334386498 0.016661634807643034
4.884E9 0.0017936695364480907 0.017946331100493096 0.9982063304635519 -0.017946331100493096 0.9982063304635519 -0.017946331100493096 0.0017936695364480907 0.017946331100493096
4.95875E9 0.0018463860023622972 0.01921641714593706 0.9981536139976376 -0.01921641714593706 0.9981536139976376 -0.01921641714593706 0.0018463860023622972 0.01921641714593706
5.0335E9 0.0019018647098331255 0.020472588737522487 0.9980981352901667 -0.020472588737522487 0.9980981352901667 -0.020472588737522487 0.0019018647098331255 0.020472588737522487
5.10825E9 0.0019600380815612685 0.021715503409334824 0.9980399619184388 -0.021715503409334824 0.9980399619184388 -0.021715503409334824 0.0019600380815612685 0.021715503409334824
5.183E9 0.0020208447934683717 0.022945783322605953 0.9979791552065315 -0.022945783322605953 0.9979791552065315 -0.022945783322605953 0.0020208447934683717 0.022945783322605953
5.25775E9 0.002084229340294365 0.024164017918186984 0.9979157706597056 -0.024164017918186984 0.9979157706597056 -0.024164017918186984 0.002084229340294365 0.024164017918186984
5.3325E9 0.0021501416521443875 0.025370766358698518 0.9978498583478557 -0.025370766358698518 0.9978498583478557 -0.025370766358698518 0.0021501416521443875 0.025370766358698518
5.40725E9 0.0022185367572887717 0.026566559781665194 0.9977814632427111 -0.026566559781665194 0.9977814632427111 -0.026566559781665194 0.0022185367572887717 0.026566559781665194
5.482E9 0.0022893744872071933 0.02775190338275165 0.9977106255127929 -0.02775190338275165 0.9977106255127929 -0.02775190338275165 0.0022893744872071933 0.02775190338275165
5.55675E9 0.002362619220480304 0.028927278346306456 0.9976373807795195 -0.028927278346306456 0.9976373807795195 -0.028927278346306456 0.002362619220480304 0.028927278346306456
5.6315E9 0.002438239662682197 0.03009314363875162 0.9975617603373177 -0.03009314363875162 0.9975617603373177 -0.03009314363875162 0.002438239662682197 0.03009314363875162
5.70625E9 0.0025162086599271045 0.03124993767890102 0.9974837913400728 -0.03124993767890102 0.9974837913400728 -0.03124993767890102 0.0025162086599271045 0.03124993767890102
5.781E9 0.0025965030441844226 0.03239807989802596 0.9974034969558156 -0.03239807989802596 0.9974034969558156 -0.03239807989802596 0.0025965030441844226 0.03239807989802596
5.85575E9 0.002679103508907008 0.03353797220138813 0.9973208964910929 -0.03353797220138813 0.9973208964910929 -0.03353797220138813 0.002679103508907008 0.03353797220138813
5.9305E9 0.0027639945139280617 0.03467000034201466 0.9972360054860719 -0.03467000034201466 0.9972360054860719 -0.03467000034201466 0.0027639945139280617 0.03467000034201466
6.00525E9 0.0028511642189800505 0.03579453521667829 0.99714883578102 -0.03579453521667829 0.99714883578102 -0.03579453521667829 0.0028511642189800505 0.03579453521667829
6.08E9 0.0029406044455839073 0.03691193409336069 0.997059395554416 -0.03691193409336069 0.997059395554416 -0.03691193409336069 0.0029406044455839073 0.03691193409336069
6.15475E9 0.003032310667456377 0.03802254177890309 0.9969676893325434 -0.03802254177890309 0.9969676893325434 -0.03802254177890309 0.003032310667456377 0.03802254177890309
6.2295E9 0.003126282029997307 0.0391266917350855 0.9968737179700027 -0.0391266917350855 0.9968737179700027 -0.0391266917350855 0.003126282029997307 0.0391266917350855
6.30425E9 0.003222521399856089 0.04022470715100939 0.996777478600144 -0.04022470715100939 0.996777478600144 -0.04022470715100939 0.003222521399856089 0.04022470715100939
6.379E9 0.0033210354460486784 0.04131690197939547 0.9966789645539513 -0.04131690197939547 0.9966789645539513 -0.04131690197939547 0.0033210354460486784 0.04131690197939547
6.45375E9 0.0034218347546151177 0.04240358194423574 0.9965781652453848 -0.04240358194423574 0.9965781652453848 -0.04240358194423574 0.0034218347546151177 0.04240358194423574
6.5285E9 0.003524933979386965 0.04348504552716699 0.996475066020613 -0.04348504552716699 0.996475066020613 -0.04348504552716699 0.003524933979386965 0.04348504552716699
6.60325E9 0.003630352032090396 0.04456158493995601 0.9963696479679096 -0.04456158493995601 0.9963696479679096 -0.04456158493995601 0.003630352032090396 0.04456158493995601
6.678E9 0.003738112315763975 0.04563348709061355 0.9962618876842362 -0.04563348709061355 0.9962618876842362 -0.04563348709061355 0.003738112315763975 0.04563348709061355
6.75275E9 0.003848243006343635 0.04670103455088871 0.9961517569936564 -0.04670103455088871 0.9961517569936564 -0.04670103455088871 0.003848243006343635 0.04670103455088871
6.8275E9 0.003960777388289931 0.04776450653324633 0.99603922261171 -0.04776450653324633 0.99603922261171 -0.04776450653324633 0.003960777388289931 0.04776450653324633
6.90225E9 0.004075754251339368 0.04882417988590979 0.9959242457486607 -0.04882417988590979 0.9959242457486607 -0.04882417988590979 0.004075754251339368 0.04882417988590979
6.977E9 0.004193218356895712 0.04988033011517154 0.9958067816431042 -0.04988033011517154 0.9958067816431042 -0.04988033011517154 0.004193218356895712 0.04988033011517154
7.05175E9 0.004313220984292618 0.05093323244495514 0.9956867790157075 -0.05093323244495514 0.9956867790157075 -0.05093323244495514 0.004313220984292618 0.05093323244495514
7.1265E9 0.00443582056922239 0.05198316292457107 0.9955641794307777 -0.05198316292457107 0.9955641794307777 -0.05198316292457107 0.00443582056922239 0.05198316292457107
7.20125E9 0.004561083449121715 0.05303039959677585 0.9954389165508781 -0.05303039959677585 0.9954389165508781 -0.05303039959677585 0.004561083449121715 0.05303039959677585
7.276E9 0.004689084733339345 0.05407522373964291 0.9953109152666606 -0.05407522373964291 0.9953109152666606 -0.05407522373964291 0.004689084733339345 0.05407522373964291
7.35075E9 0.004819909319617614 0.05511792119742637 0.9951800906803822 -0.05511792119742637 0.9951800906803822 -0.05511792119742637 0.004819909319617614 0.05511792119742637
7.4255E9 0.004953653082970209 0.056158783817580334 0.9950463469170298 -0.056158783817580334 0.9950463469170298 -0.056158783817580334 0.004953653082970209 0.056158783817580334
7.50025E9 0.0050904242686514375 0.05719811101343699 0.9949095757313486 -0.05719811101343699 0.9949095757313486 -0.05719811101343699 0.0050904242686514375 0.05719811101343699
7.575E9 0.005230345127869095 0.05823621147479852 0.9947696548721312 -0.05823621147479852 0.9947696548721312 -0.05823621147479852 0.005230345127869095 0.05823621147479852
7.64975E9 0.005373553843557463 0.0592734050519167 0.9946264461564424 -0.0592734050519167 0.9946264461564424 -0.0592734050519167 0.005373553843557463 0.0592734050519167
7.7245E9 0.005520206804371952 0.06031002484208521 0.994479793195628 -0.06031002484208521 0.994479793195628 -0.06031002484208521 0.005520206804371952 0.06031002484208521
7.79925E9 0.005670481298710104 0.06134641951240677 0.9943295187012898 -0.06134641951240677 0.9943295187012898 -0.06134641951240677 0.005670481298710104 0.06134641951240677
7.874E9 0.005824578717817506 0.062382955897281815 0.9941754212821824 -0.062382955897281815 0.9941754212821824 -0.062382955897281815 0.005824578717817506 0.062382955897281815
7.94875E9 0.005982728378973756 0.06342002191481982 0.9940172716210263 -0.06342002191481982 0.9940172716210263 -0.06342002191481982 0.005982728378973756 0.06342002191481982
8.0235E9 0.006145192107800365 0.0644580298526974 0.9938548078921996 -0.0644580298526974 0.9938548078921996 -0.0644580298526974 0.006145192107800365 0.0644580298526974
8.09825E9 0.0063122697547961975 0.06549742008088606 0.9936877302452037 -0.06549742008088606 0.9936877302452037 -0.06549742008088606 0.0063122697547961975 0.06549742008088606
8.173E9 0.006484305867854821 0.0665386652559321 0.9935156941321451 -0.0665386652559321 0.9935156941321451 -0.0665386652559321 0.006484305867854821 0.0665386652559321
8.24775E9 0.006661697803227653 0.06758227508862992 0.9933383021967724 -0.06758227508862992 0.9933383021967724 -0.06758227508862992 0.006661697803227653 0.06758227508862992
8.3225E9 0.0068449056369061885 0.06862880175315962 0.9931550943630938 -0.06862880175315962 0.9931550943630938 -0.06862880175315962 0.0068449056369061885 0.06862880175315962
8.39725E9 0.007034464343204356 0.06967884601957033 0.9929655356567956 -0.06967884601957033 0.9929655356567956 -0.06967884601957033 0.007034464343204356 0.06967884601957033
8.472E9 0.007230998846401686 0.0707330641903504 0.9927690011535985 -0.0707330641903504 0.9927690011535985 -0.0707330641903504 0.007230998846401686 0.0707330641903504
