!Murata Part Number: GJM0225C1E9R2BB01
!These Parameters are Measured in Series Mode Connection
!       o--ll--o
!Port1            Port2
!       o------o
!Operation Temp=25[degC], DC Bias Voltage=0[V]
!Freq. Start=100[MHz] Stop=30[GHz], 401[Steps]
!Data Generated on Feb 1, 2023
# Hz S RI R 50
!Freq.(Hz) S11(Real) S11(Imag) S21(Real) S21(Imag) S12(Real) S12(Imag) S22(Real) S22(Imag)
1.0E8 0.7492018500126739 -0.433225880167802 0.2507981499873259 0.433225880167802 0.2507981499873259 0.433225880167802 0.7492018500126739 -0.433225880167802
1.7475E8 0.4940012557182086 -0.4995293620633106 0.5059987442817914 0.4995293620633106 0.5059987442817914 0.4995293620633106 0.4940012557182086 -0.4995293620633106
2.495E8 0.323169273869818 -0.467058329129272 0.676830726130182 0.467058329129272 0.676830726130182 0.467058329129272 0.323169273869818 -0.467058329129272
3.2425E8 0.21969628789412657 -0.4132107651263757 0.7803037121058733 0.4132107651263757 0.7803037121058733 0.4132107651263757 0.21969628789412657 -0.4132107651263757
3.99E8 0.156115680549396 -0.36192348663244317 0.8438843194506039 0.36192348663244317 0.8438843194506039 0.36192348663244317 0.156115680549396 -0.36192348663244317
4.7375E8 0.11538103960564278 -0.31821711544827436 0.8846189603943572 0.31821711544827436 0.8846189603943572 0.31821711544827436 0.11538103960564278 -0.31821711544827436
5.485E8 0.0881100252450806 -0.28195574170283905 0.9118899747549194 0.28195574170283905 0.9118899747549194 0.28195574170283905 0.0881100252450806 -0.28195574170283905
6.2325E8 0.06911540820171132 -0.2519029997904619 0.9308845917982889 0.2519029997904619 0.9308845917982889 0.2519029997904619 0.06911540820171132 -0.2519029997904619
6.98E8 0.05542674403348069 -0.22680209597846132 0.9445732559665194 0.22680209597846132 0.9445732559665194 0.22680209597846132 0.05542674403348069 -0.22680209597846132
7.7275E8 0.045271600379023676 -0.20561396855465816 0.9547283996209764 0.20561396855465816 0.9547283996209764 0.20561396855465816 0.045271600379023676 -0.20561396855465816
8.475E8 0.03754959673762121 -0.18752872421162944 0.9624504032623791 0.18752872421162944 0.9624504032623791 0.18752872421162944 0.03754959673762121 -0.18752872421162944
9.2225E8 0.03155250475425878 -0.17192531746537967 0.9684474952457414 0.17192531746537967 0.9684474952457414 0.17192531746537967 0.03155250475425878 -0.17192531746537967
9.97E8 0.02680963043099693 -0.15832761345909133 0.9731903695690028 0.15832761345909133 0.9731903695690028 0.15832761345909133 0.02680963043099693 -0.15832761345909133
1.07175E9 0.022999146318612093 -0.1463681851248667 0.977000853681388 0.1463681851248667 0.977000853681388 0.1463681851248667 0.022999146318612093 -0.1463681851248667
1.1465E9 0.01989542448844496 -0.1357608371270446 0.980104575511555 0.1357608371270446 0.980104575511555 0.1357608371270446 0.01989542448844496 -0.1357608371270446
1.22125E9 0.017336729858848134 -0.12628033429141156 0.9826632701411517 0.12628033429141156 0.9826632701411517 0.12628033429141156 0.017336729858848134 -0.12628033429141156
1.296E9 0.015204816108148077 -0.11774755513283305 0.984795183891852 0.11774755513283305 0.984795183891852 0.11774755513283305 0.015204816108148077 -0.11774755513283305
1.37075E9 0.013411694853263554 -0.11001859655880476 0.9865883051467366 0.11001859655880476 0.9865883051467366 0.11001859655880476 0.013411694853263554 -0.11001859655880476
1.4455E9 0.011890849652043359 -0.10297672605865665 0.9881091503479565 0.10297672605865665 0.9881091503479565 0.10297672605865665 0.011890849652043359 -0.10297672605865665
1.52025E9 0.010591274698034512 -0.09652638571756872 0.9894087253019657 0.09652638571756872 0.9894087253019657 0.09652638571756872 0.010591274698034512 -0.09652638571756872
1.595E9 0.009473350396592438 -0.09058868214433487 0.9905266496034075 0.09058868214433487 0.9905266496034075 0.09058868214433487 0.009473350396592438 -0.09058868214433487
1.66975E9 0.008505938769935906 -0.08509796068158137 0.991494061230064 0.08509796068158137 0.991494061230064 0.08509796068158137 0.008505938769935906 -0.08509796068158137
1.7445E9 0.007664304584487073 -0.07999917784470265 0.992335695415513 0.07999917784470265 0.992335695415513 0.07999917784470265 0.007664304584487073 -0.07999917784470265
1.81925E9 0.00692860530735816 -0.07524586691847382 0.9930713946926418 0.07524586691847382 0.9930713946926418 0.07524586691847382 0.00692860530735816 -0.07524586691847382
1.894E9 0.006282779275336505 -0.070798548504982 0.9937172207246636 0.070798548504982 0.9937172207246636 0.070798548504982 0.006282779275336505 -0.070798548504982
1.96875E9 0.005713716790366749 -0.0666234779655423 0.9942862832096332 0.0666234779655423 0.9942862832096332 0.0666234779655423 0.005713716790366749 -0.0666234779655423
2.0435E9 0.005210634993575479 -0.06269165025366183 0.9947893650064245 0.06269165025366183 0.9947893650064245 0.06269165025366183 0.005210634993575479 -0.06269165025366183
2.11825E9 0.004764601374766593 -0.05897800311202335 0.9952353986252334 0.05897800311202335 0.9952353986252334 0.05897800311202335 0.004764601374766593 -0.05897800311202335
2.193E9 0.004368166971417367 -0.0554607744169995 0.9956318330285828 0.0554607744169995 0.9956318330285828 0.0554607744169995 0.004368166971417367 -0.0554607744169995
2.26775E9 0.004015081400279166 -0.052120980261272064 0.9959849185997209 0.052120980261272064 0.9959849185997209 0.052120980261272064 0.004015081400279166 -0.052120980261272064
2.3425E9 0.0037000695601767442 -0.04894198831983017 0.9962999304398233 0.04894198831983017 0.9962999304398233 0.04894198831983017 0.0037000695601767442 -0.04894198831983017
2.41725E9 0.0034186552529350614 -0.04590916694989298 0.9965813447470648 0.04590916694989298 0.9965813447470648 0.04590916694989298 0.0034186552529350614 -0.04590916694989298
2.492E9 0.0031670208154290576 -0.04300959489555802 0.9968329791845708 0.04300959489555802 0.9968329791845708 0.04300959489555802 0.0031670208154290576 -0.04300959489555802
2.56675E9 0.0029418946212143027 -0.04023181980316883 0.9970581053787857 0.04023181980316883 0.9970581053787857 0.04023181980316883 0.0029418946212143027 -0.04023181980316883
2.6415E9 0.0027404603193707687 -0.0375656562892657 0.9972595396806292 0.0375656562892657 0.9972595396806292 0.0375656562892657 0.0027404603193707687 -0.0375656562892657
2.71625E9 0.0025602831521776737 -0.03500201624533988 0.9974397168478224 0.03500201624533988 0.9974397168478224 0.03500201624533988 0.0025602831521776737 -0.03500201624533988
2.791E9 0.002399249784540257 -0.032532765561888596 0.9976007502154597 0.032532765561888596 0.9976007502154597 0.032532765561888596 0.002399249784540257 -0.032532765561888596
2.86575E9 0.002255518893065527 -0.030150602617809816 0.9977444811069345 0.030150602617809816 0.9977444811069345 0.030150602617809816 0.002255518893065527 -0.030150602617809816
2.9405E9 0.002127480376280038 -0.027848954790610597 0.9978725196237198 0.027848954790610597 0.9978725196237198 0.027848954790610597 0.002127480376280038 -0.027848954790610597
3.01525E9 0.0020137215130317876 -0.025621889958119072 0.9979862784869684 0.025621889958119072 0.9979862784869684 0.025621889958119072 0.0020137215130317876 -0.025621889958119072
3.09E9 0.0019129987519264776 -0.02346404052818638 0.9980870012480734 0.02346404052818638 0.9980870012480734 0.02346404052818638 0.0019129987519264776 -0.02346404052818638
3.16475E9 0.0018242140884719333 -0.02137053798298789 0.998175785911528 0.02137053798298789 0.998175785911528 0.02137053798298789 0.0018242140884719333 -0.02137053798298789
3.2395E9 0.0017463951987227795 -0.019336956284563337 0.9982536048012772 0.019336956284563337 0.9982536048012772 0.019336956284563337 0.0017463951987227795 -0.019336956284563337
3.31425E9 0.001678678663565581 -0.01735926277769707 0.9983213213364345 0.01735926277769707 0.9983213213364345 0.01735926277769707 0.001678678663565581 -0.01735926277769707
3.389E9 0.0016202957474437006 -0.015433775460114 0.9983797042525564 0.015433775460114 0.9983797042525564 0.015433775460114 0.0016202957474437006 -0.015433775460114
3.46375E9 0.0015705602975726928 -0.013557125679826039 0.9984294397024273 0.013557125679826039 0.9984294397024273 0.013557125679826039 0.0015705602975726928 -0.013557125679826039
3.5385E9 0.0015288584107721825 -0.011726225474292196 0.9984711415892278 0.011726225474292196 0.9984711415892278 0.011726225474292196 0.0015288584107721825 -0.011726225474292196
3.61325E9 0.0014946395796579565 -0.009938238892866413 0.9985053604203421 0.009938238892866413 0.9985053604203421 0.009938238892866413 0.0014946395796579565 -0.009938238892866413
3.688E9 0.0014674090816946036 -0.008190556748306004 0.9985325909183055 0.008190556748306004 0.9985325909183055 0.008190556748306004 0.0014674090816946036 -0.008190556748306004
3.76275E9 0.0014467214162612368 -0.006480774329240973 0.9985532785837387 0.006480774329240973 0.9985532785837387 0.006480774329240973 0.0014467214162612368 -0.006480774329240973
3.8375E9 0.001432174628555984 -0.004806671676901721 0.9985678253714438 0.004806671676901721 0.9985678253714438 0.004806671676901721 0.001432174628555984 -0.004806671676901721
3.91225E9 0.0014234053865065594 -0.003166196088807108 0.9985765946134934 0.003166196088807108 0.9985765946134934 0.003166196088807108 0.0014234053865065594 -0.003166196088807108
3.987E9 0.0014200846991480052 -0.0015574465617208663 0.9985799153008521 0.0015574465617208663 0.9985799153008521 0.0015574465617208663 0.0014200846991480052 -0.0015574465617208663
4.06175E9 0.0014219141831801172 2.1340072253794252E-5 0.9985780858168198 -2.1340072253794252E-5 0.9985780858168198 -2.1340072253794252E-5 0.0014219141831801172 2.1340072253794252E-5
4.1365E9 0.001428622799417055 0.0015718015276298734 0.9985713772005829 -0.0015718015276298734 0.9985713772005829 -0.0015718015276298734 0.001428622799417055 0.0015718015276298734
4.21125E9 0.0014399639932158351 0.0030954611472647346 0.9985600360067841 -0.0030954611472647346 0.9985600360067841 -0.0030954611472647346 0.0014399639932158351 0.0030954611472647346
4.286E9 0.0014557131832153086 0.004593737840654546 0.9985442868167845 -0.004593737840654546 0.9985442868167845 -0.004593737840654546 0.0014557131832153086 0.004593737840654546
4.36075E9 0.0014756655512289498 0.0060679550144404105 0.9985243344487711 -0.0060679550144404105 0.9985243344487711 -0.0060679550144404105 0.0014756655512289498 0.0060679550144404105
4.4355E9 0.0014996340932306132 0.007519348612774926 0.9985003659067696 -0.007519348612774926 0.9985003659067696 -0.007519348612774926 0.0014996340932306132 0.007519348612774926
4.51025E9 0.0015274478973072506 0.008949074369844868 0.9984725521026926 -0.008949074369844868 0.9984725521026926 -0.008949074369844868 0.0015274478973072506 0.008949074369844868
4.585E9 0.0015589506194324057 0.010358214363709742 0.9984410493805675 -0.010358214363709742 0.9984410493805675 -0.010358214363709742 0.0015589506194324057 0.010358214363709742
4.65975E9 0.0015939991321058103 0.01174778294935127 0.9984060008678942 -0.01174778294935127 0.9984060008678942 -0.01174778294935127 0.0015939991321058103 0.01174778294935127
4.7345E9 0.0016324623244433247 0.013118732139142468 0.9983675376755567 -0.013118732139142468 0.9983675376755567 -0.013118732139142468 0.0016324623244433247 0.013118732139142468
4.80925E9 0.0016742200352983746 0.014471956490598285 0.9983257799647017 -0.014471956490598285 0.9983257799647017 -0.014471956490598285 0.0016742200352983746 0.014471956490598285
4.884E9 0.0017191621035416449 0.015808297554059117 0.9982808378964586 -0.015808297554059117 0.9982808378964586 -0.015808297554059117 0.0017191621035416449 0.015808297554059117
4.95875E9 0.0017671875217946393 0.017128547926717825 0.9982328124782053 -0.017128547926717825 0.9982328124782053 -0.017128547926717825 0.0017671875217946393 0.017128547926717825
5.0335E9 0.00181820368176606 0.01843345495398673 0.998181796318234 -0.01843345495398673 0.998181796318234 -0.01843345495398673 0.00181820368176606 0.01843345495398673
5.10825E9 0.0018721257009288424 0.01972372411449585 0.9981278742990711 -0.01972372411449585 0.9981278742990711 -0.01972372411449585 0.0018721257009288424 0.01972372411449585
5.183E9 0.0019288758216421272 0.0210000221209168 0.998071124178358 -0.0210000221209168 0.998071124178358 -0.0210000221209168 0.0019288758216421272 0.0210000221209168
5.25775E9 0.0019883828750017194 0.02226297976523314 0.9980116171249984 -0.02226297976523314 0.9980116171249984 -0.02226297976523314 0.0019883828750017194 0.02226297976523314
5.3325E9 0.0020505818027240674 0.023513194533956602 0.9979494181972759 -0.023513194533956602 0.9979494181972759 -0.023513194533956602 0.0020505818027240674 0.023513194533956602
5.40725E9 0.0021154132312571866 0.024751233016057302 0.9978845867687428 -0.024751233016057302 0.9978845867687428 -0.024751233016057302 0.0021154132312571866 0.024751233016057302
5.482E9 0.0021828230930881426 0.02597763312398482 0.997817176906912 -0.02597763312398482 0.997817176906912 -0.02597763312398482 0.0021828230930881426 0.02597763312398482
5.55675E9 0.002252762290898336 0.027192906146059403 0.9977472377091016 -0.027192906146059403 0.9977472377091016 -0.027192906146059403 0.002252762290898336 0.027192906146059403
5.6315E9 0.0023251864008200004 0.028397538646673454 0.9976748135991802 -0.028397538646673454 0.9976748135991802 -0.028397538646673454 0.0023251864008200004 0.028397538646673454
5.70625E9 0.0024000554115830228 0.029591994229128303 0.9975999445884169 -0.029591994229128303 0.9975999445884169 -0.029591994229128303 0.0024000554115830228 0.029591994229128303
5.781E9 0.0024773334968216693 0.03077671517451507 0.9975226665031783 -0.03077671517451507 0.9975226665031783 -0.03077671517451507 0.0024773334968216693 0.03077671517451507
5.85575E9 0.002556988818245824 0.03195212396880487 0.9974430111817542 -0.03195212396880487 0.9974430111817542 -0.03195212396880487 0.002556988818245824 0.03195212396880487
5.9305E9 0.002638993357779857 0.033118624729226394 0.9973610066422199 -0.033118624729226394 0.9973610066422199 -0.033118624729226394 0.002638993357779857 0.033118624729226394
6.00525E9 0.002723322777141929 0.034276604540056946 0.9972766772228578 -0.034276604540056946 0.9972766772228578 -0.034276604540056946 0.002723322777141929 0.034276604540056946
6.08E9 0.002809956303684837 0.035426434707125615 0.9971900436963153 -0.035426434707125615 0.9971900436963153 -0.035426434707125615 0.002809956303684837 0.035426434707125615
6.15475E9 0.0028988766416531944 0.03656847193960911 0.9971011233583467 -0.03656847193960911 0.9971011233583467 -0.03656847193960911 0.0028988766416531944 0.03656847193960911
6.2295E9 0.00299006990833748 0.03770305946708506 0.9970099300916628 -0.03770305946708506 0.9970099300916628 -0.03770305946708506 0.00299006990833748 0.03770305946708506
6.30425E9 0.003083525594929762 0.03883052809928136 0.9969164744050703 -0.03883052809928136 0.9969164744050703 -0.03883052809928136 0.003083525594929762 0.03883052809928136
6.379E9 0.0031792365522156085 0.03995119723552266 0.9968207634477844 -0.03995119723552266 0.9968207634477844 -0.03995119723552266 0.0031792365522156085 0.03995119723552266
6.45375E9 0.003277199001578723 0.04106537583051451 0.9967228009984211 -0.04106537583051451 0.9967228009984211 -0.04106537583051451 0.003277199001578723 0.04106537583051451
6.5285E9 0.0033774125721570064 0.04217336332282403 0.9966225874278429 -0.04217336332282403 0.9966225874278429 -0.04217336332282403 0.0033774125721570064 0.04217336332282403
6.60325E9 0.0034798803653794492 0.04327545053220597 0.9965201196346206 -0.04327545053220597 0.9965201196346206 -0.04327545053220597 0.0034798803653794492 0.04327545053220597
6.678E9 0.0035846090485422426 0.044371920531787554 0.9964153909514577 -0.044371920531787554 0.9964153909514577 -0.044371920531787554 0.0035846090485422426 0.044371920531787554
6.75275E9 0.0036916089795607236 0.04546304950106046 0.9963083910204392 -0.04546304950106046 0.9963083910204392 -0.04546304950106046 0.0036916089795607236 0.04546304950106046
6.8275E9 0.003800894365574413 0.046549107565638535 0.9961991056344257 -0.046549107565638535 0.9961991056344257 -0.046549107565638535 0.003800894365574413 0.046549107565638535
6.90225E9 0.003912483458701028 0.047630359629827076 0.996087516541299 -0.047630359629827076 0.996087516541299 -0.047630359629827076 0.003912483458701028 0.047630359629827076
6.977E9 0.004026398792950144 0.04870706620821626 0.9959736012070499 -0.04870706620821626 0.9959736012070499 -0.04870706620821626 0.004026398792950144 0.04870706620821626
7.05175E9 0.004142667467141169 0.04977948426276598 0.9958573325328588 -0.04977948426276598 0.9958573325328588 -0.04977948426276598 0.004142667467141169 0.04977948426276598
7.1265E9 0.0042613214796503995 0.05084786805219829 0.9957386785203497 -0.05084786805219829 0.9957386785203497 -0.05084786805219829 0.0042613214796503995 0.05084786805219829
7.20125E9 0.00438239812197225 0.0519124700009663 0.9956176018780277 -0.0519124700009663 0.9956176018780277 -0.0519124700009663 0.00438239812197225 0.0519124700009663
7.276E9 0.0045059404394613405 0.052973541595636164 0.9954940595605386 -0.052973541595636164 0.9954940595605386 -0.052973541595636164 0.0045059404394613405 0.052973541595636164
7.35075E9 0.004631997769277203 0.05403133431721728 0.9953680022307226 -0.05403133431721728 0.9953680022307226 -0.05403133431721728 0.004631997769277203 0.05403133431721728
7.4255E9 0.004760626367545698 0.055086100618819016 0.9952393736324544 -0.055086100618819016 0.9952393736324544 -0.055086100618819016 0.004760626367545698 0.055086100618819016
7.50025E9 0.0048918901401619605 0.056138094959022194 0.995108109859838 -0.056138094959022194 0.995108109859838 -0.056138094959022194 0.0048918901401619605 0.056138094959022194
7.575E9 0.005025861494590293 0.05718757490255124 0.9949741385054098 -0.05718757490255124 0.9949741385054098 -0.05718757490255124 0.005025861494590293 0.05718757490255124
7.64975E9 0.0051626223335954945 0.05823480230124176 0.9948373776664045 -0.05823480230124176 0.9948373776664045 -0.05823480230124176 0.0051626223335954945 0.05823480230124176
7.7245E9 0.005302265216231666 0.05928004456995346 0.9946977347837682 -0.05928004456995346 0.9946977347837682 -0.05928004456995346 0.005302265216231666 0.05928004456995346
7.79925E9 0.005444894716827097 0.06032357607399941 0.994555105283173 -0.06032357607399941 0.994555105283173 -0.06032357607399941 0.005444894716827097 0.06032357607399941
7.874E9 0.005590629019406596 0.06136567964689346 0.9944093709805932 -0.06136567964689346 0.9944093709805932 -0.06136567964689346 0.005590629019406596 0.06136567964689346
7.94875E9 0.0057396017933312 0.06240664825977773 0.9942603982066687 -0.06240664825977773 0.9942603982066687 -0.06240664825977773 0.0057396017933312 0.06240664825977773
8.0235E9 0.0058919644063602315 0.06344678686681719 0.9941080355936396 -0.06344678686681719 0.9941080355936396 -0.06344678686681719 0.0058919644063602315 0.06344678686681719
8.09825E9 0.006047888544436417 0.06448641445414352 0.9939521114555635 -0.06448641445414352 0.9939521114555635 -0.06448641445414352 0.006047888544436417 0.06448641445414352
8.173E9 0.006207569324031158 0.06552586632359605 0.9937924306759688 -0.06552586632359605 0.9937924306759688 -0.06552586632359605 0.006207569324031158 0.06552586632359605
8.24775E9 0.006371229003874491 0.06656549664648974 0.9936287709961256 -0.06656549664648974 0.9936287709961256 -0.06656549664648974 0.006371229003874491 0.06656549664648974
8.3225E9 0.006539121429675874 0.06760568132682923 0.9934608785703242 -0.06760568132682923 0.9934608785703242 -0.06760568132682923 0.006539121429675874 0.06760568132682923
8.39725E9 0.0067115373798045525 0.06864682121755447 0.9932884626201952 -0.06864682121755447 0.9932884626201952 -0.06864682121755447 0.0067115373798045525 0.06864682121755447
8.472E9 0.006888811024239915 0.06968934573714021 0.9931111889757601 -0.06968934573714021 0.9931111889757601 -0.06968934573714021 0.006888811024239915 0.06968934573714021
