!Murata Part Number: GJM0225C1E4R5BB01
!These Parameters are Measured in Series Mode Connection
!       o--ll--o
!Port1            Port2
!       o------o
!Operation Temp=25[degC], DC Bias Voltage=0[V]
!Freq. Start=100[MHz] Stop=30[GHz], 401[Steps]
!Data Generated on Feb 1, 2023
# Hz S RI R 50
!Freq.(Hz) S11(Real) S11(Imag) S21(Real) S21(Imag) S12(Real) S12(Imag) S22(Real) S22(Imag)
1.0E8 0.9258344977294392 -0.26181384315613077 0.07416550227056072 0.26181384315613077 0.07416550227056072 0.26181384315613077 0.9258344977294392 -0.26181384315613077
1.7475E8 0.8033125765577702 -0.39709849449117524 0.19668742344222984 0.39709849449117524 0.19668742344222984 0.39709849449117524 0.8033125765577702 -0.39709849449117524
2.495E8 0.6667538377940284 -0.4708084504531932 0.3332461622059715 0.4708084504531932 0.3332461622059715 0.4708084504531932 0.6667538377940284 -0.4708084504531932
3.2425E8 0.5417913464840528 -0.4975148481338573 0.4582086535159471 0.4975148481338573 0.4582086535159471 0.4975148481338573 0.5417913464840528 -0.4975148481338573
3.99E8 0.4378982723526287 -0.49522170218981676 0.5621017276473713 0.49522170218981676 0.5621017276473713 0.49522170218981676 0.4378982723526287 -0.49522170218981676
4.7375E8 0.3552638463474087 -0.47751444265282994 0.6447361536525913 0.47751444265282994 0.6447361536525913 0.47751444265282994 0.3552638463474087 -0.47751444265282994
5.485E8 0.29062892645063865 -0.45280062760043754 0.7093710735493612 0.45280062760043754 0.7093710735493612 0.45280062760043754 0.29062892645063865 -0.45280062760043754
6.2325E8 0.24018287863582044 -0.4257679117949428 0.7598171213641796 0.4257679117949428 0.7598171213641796 0.4257679117949428 0.24018287863582044 -0.4257679117949428
6.98E8 0.20060236935833275 -0.39884852092492246 0.7993976306416672 0.39884852092492246 0.7993976306416672 0.39884852092492246 0.20060236935833275 -0.39884852092492246
7.7275E8 0.16926995360117 -0.3732098782996462 0.8307300463988301 0.3732098782996462 0.8307300463988301 0.3732098782996462 0.16926995360117 -0.3732098782996462
8.475E8 0.1442076189402848 -0.3493401734616729 0.8557923810597154 0.3493401734616729 0.8557923810597154 0.3493401734616729 0.1442076189402848 -0.3493401734616729
9.2225E8 0.12394314758516849 -0.3273749764702468 0.8760568524148314 0.3273749764702468 0.8760568524148314 0.3273749764702468 0.12394314758516849 -0.3273749764702468
9.97E8 0.10738348751534844 -0.30727443364684676 0.8926165124846517 0.30727443364684676 0.8926165124846517 0.30727443364684676 0.10738348751534844 -0.30727443364684676
1.07175E9 0.09371379090974209 -0.28891782477440114 0.9062862090902581 0.28891782477440114 0.9062862090902581 0.28891782477440114 0.09371379090974209 -0.28891782477440114
1.1465E9 0.08232206775737731 -0.2721532131823604 0.9176779322426228 0.2721532131823604 0.9176779322426228 0.2721532131823604 0.08232206775737731 -0.2721532131823604
1.22125E9 0.07274448140307611 -0.25682287243400503 0.927255518596924 0.25682287243400503 0.927255518596924 0.25682287243400503 0.07274448140307611 -0.25682287243400503
1.296E9 0.06462601986222383 -0.24277570954973182 0.9353739801377763 0.24277570954973182 0.9353739801377763 0.24277570954973182 0.06462601986222383 -0.24277570954973182
1.37075E9 0.05769224410169885 -0.22987275983836533 0.9423077558983011 0.22987275983836533 0.9423077558983011 0.22987275983836533 0.05769224410169885 -0.22987275983836533
1.4455E9 0.05172891087610383 -0.21798904638491223 0.9482710891238962 0.21798904638491223 0.9482710891238962 0.21798904638491223 0.05172891087610383 -0.21798904638491223
1.52025E9 0.046567176101790245 -0.207013590158778 0.9534328238982097 0.207013590158778 0.9534328238982097 0.207013590158778 0.046567176101790245 -0.207013590158778
1.595E9 0.042072762603377285 -0.1968485365101791 0.9579272373966228 0.1968485365101791 0.9579272373966228 0.1968485365101791 0.042072762603377285 -0.1968485365101791
1.66975E9 0.038137959690288305 -0.18740791530756587 0.9618620403097118 0.18740791530756587 0.9618620403097118 0.18740791530756587 0.038137959690288305 -0.18740791530756587
1.7445E9 0.03467566027235338 -0.1786163059490961 0.9653243397276464 0.1786163059490961 0.9653243397276464 0.1786163059490961 0.03467566027235338 -0.1786163059490961
1.81925E9 0.03161487603687511 -0.17040754358666077 0.9683851239631247 0.17040754358666077 0.9683851239631247 0.17040754358666077 0.03161487603687511 -0.17040754358666077
1.894E9 0.028897334099537566 -0.16272352937778672 0.9711026659004623 0.16272352937778672 0.9711026659004623 0.16272352937778672 0.028897334099537566 -0.16272352937778672
1.96875E9 0.026474871896689865 -0.15551316809748414 0.97352512810331 0.15551316809748414 0.97352512810331 0.15551316809748414 0.026474871896689865 -0.15551316809748414
2.0435E9 0.024307426401230056 -0.1487314358602821 0.97569257359877 0.1487314358602821 0.97569257359877 0.1487314358602821 0.024307426401230056 -0.1487314358602821
2.11825E9 0.02236146961844998 -0.1423385705790004 0.9776385303815501 0.1423385705790004 0.9776385303815501 0.1423385705790004 0.02236146961844998 -0.1423385705790004
2.193E9 0.020608781976983327 -0.13629937338899228 0.9793912180230165 0.13629937338899228 0.9793912180230165 0.13629937338899228 0.020608781976983327 -0.13629937338899228
2.26775E9 0.019025483603066377 -0.13058260793697024 0.9809745163969336 0.13058260793697024 0.9809745163969336 0.13058260793697024 0.019025483603066377 -0.13058260793697024
2.3425E9 0.017591263929615634 -0.1251604846823277 0.9824087360703843 0.1251604846823277 0.9824087360703843 0.1251604846823277 0.017591263929615634 -0.1251604846823277
2.41725E9 0.01628876496962349 -0.12000821835722278 0.9837112350303766 0.12000821835722278 0.9837112350303766 0.12000821835722278 0.01628876496962349 -0.12000821835722278
2.492E9 0.01510308448689136 -0.1151036480257016 0.9848969155131087 0.1151036480257016 0.9848969155131087 0.1151036480257016 0.01510308448689136 -0.1151036480257016
2.56675E9 0.014021373350310078 -0.11042691053050596 0.9859786266496899 0.11042691053050596 0.9859786266496899 0.11042691053050596 0.014021373350310078 -0.11042691053050596
2.6415E9 0.013032507351067531 -0.10596015939752897 0.9869674926489322 0.10596015939752897 0.9869674926489322 0.10596015939752897 0.013032507351067531 -0.10596015939752897
2.71625E9 0.012126818255100586 -0.10168732242757264 0.9878731817448992 0.10168732242757264 0.9878731817448992 0.10168732242757264 0.012126818255100586 -0.10168732242757264
2.791E9 0.011295872255308908 -0.09759389222497844 0.9887041277446911 0.09759389222497844 0.9887041277446911 0.09759389222497844 0.011295872255308908 -0.09759389222497844
2.86575E9 0.010532286566742821 -0.09366674479378269 0.9894677134332572 0.09366674479378269 0.9894677134332572 0.09366674479378269 0.010532286566742821 -0.09366674479378269
2.9405E9 0.009829576881198085 -0.08989398208451699 0.990170423118802 0.08989398208451699 0.990170423118802 0.08989398208451699 0.009829576881198085 -0.08989398208451699
3.01525E9 0.00918202991714949 -0.08626479501268175 0.9908179700828504 0.08626479501268175 0.9908179700828504 0.08626479501268175 0.00918202991714949 -0.08626479501268175
3.09E9 0.008584596478203666 -0.08276934400819183 0.9914154035217962 0.08276934400819183 0.9914154035217962 0.08276934400819183 0.008584596478203666 -0.08276934400819183
3.16475E9 0.008032801350689456 -0.07939865460803838 0.9919671986493107 0.07939865460803838 0.9919671986493107 0.07939865460803838 0.008032801350689456 -0.07939865460803838
3.2395E9 0.007522667090000073 -0.07614452598499236 0.9924773329099998 0.07614452598499236 0.9924773329099998 0.07614452598499236 0.007522667090000073 -0.07614452598499236
3.31425E9 0.007050649311833406 -0.07299945062481723 0.9929493506881665 0.07299945062481723 0.9929493506881665 0.07299945062481723 0.007050649311833406 -0.07299945062481723
3.389E9 0.006613581553197277 -0.06995654363295425 0.9933864184468026 0.06995654363295425 0.9933864184468026 0.06995654363295425 0.006613581553197277 -0.06995654363295425
3.46375E9 0.006208628125237107 -0.06700948037736697 0.9937913718747629 0.06700948037736697 0.9937913718747629 0.06700948037736697 0.006208628125237107 -0.06700948037736697
3.5385E9 0.00583324366564095 -0.06415244136418982 0.994166756334359 0.06415244136418982 0.994166756334359 0.06415244136418982 0.00583324366564095 -0.06415244136418982
3.61325E9 0.005485138327951846 -0.06138006340292827 0.9945148616720484 0.06138006340292827 0.9945148616720484 0.06138006340292827 0.005485138327951846 -0.06138006340292827
3.688E9 0.005162247730414783 -0.058687396253100536 0.9948377522695852 0.058687396253100536 0.9948377522695852 0.058687396253100536 0.005162247730414783 -0.058687396253100536
3.76275E9 0.004862706937189419 -0.05606986405850534 0.9951372930628107 0.05606986405850534 0.9951372930628107 0.05606986405850534 0.004862706937189419 -0.05606986405850534
3.8375E9 0.004584827867017849 -0.053523230972129555 0.9954151721329821 0.053523230972129555 0.9954151721329821 0.053523230972129555 0.004584827867017849 -0.053523230972129555
3.91225E9 0.004327079624346618 -0.05104357045691855 0.9956729203756534 0.05104357045691855 0.9956729203756534 0.05104357045691855 0.004327079624346618 -0.05104357045691855
3.987E9 0.004088071329861666 -0.04862723781756049 0.9959119286701384 0.04862723781756049 0.9959119286701384 0.04862723781756049 0.004088071329861666 -0.04862723781756049
4.06175E9 0.0038665370948789708 -0.046270845578046865 0.9961334629051208 0.046270845578046865 0.9961334629051208 0.046270845578046865 0.0038665370948789708 -0.046270845578046865
4.1365E9 0.0036613228397972698 -0.043971241370689855 0.9963386771602025 0.043971241370689855 0.9963386771602025 0.043971241370689855 0.0036613228397972698 -0.043971241370689855
4.21125E9 0.0034713747030573126 -0.04172548804586384 0.9965286252969426 0.04172548804586384 0.9965286252969426 0.04172548804586384 0.0034713747030573126 -0.04172548804586384
4.286E9 0.003295728825519678 -0.03953084574912423 0.9967042711744802 0.03953084574912423 0.9967042711744802 0.03953084574912423 0.003295728825519678 -0.03953084574912423
4.36075E9 0.0031335023272793788 -0.03738475574449259 0.9968664976727205 0.03738475574449259 0.9968664976727205 0.03738475574449259 0.0031335023272793788 -0.03738475574449259
4.4355E9 0.0029838853208157736 -0.035284825790376444 0.9970161146791843 0.035284825790376444 0.9970161146791843 0.035284825790376444 0.0029838853208157736 -0.035284825790376444
4.51025E9 0.0028461338269491804 -0.033228816898477856 0.9971538661730508 0.033228816898477856 0.9971538661730508 0.033228816898477856 0.0028461338269491804 -0.033228816898477856
4.585E9 0.002719563479086965 -0.031214631326706953 0.9972804365209132 0.031214631326706953 0.9972804365209132 0.031214631326706953 0.002719563479086965 -0.031214631326706953
4.65975E9 0.0026035439172982784 -0.02924030167501267 0.9973964560827019 0.02924030167501267 0.9973964560827019 0.02924030167501267 0.0026035439172982784 -0.02924030167501267
4.7345E9 0.0024974937873553193 -0.02730398096858629 0.9975025062126447 0.02730398096858629 0.9975025062126447 0.02730398096858629 0.0024974937873553193 -0.02730398096858629
4.80925E9 0.002400876271426045 -0.025403933626409116 0.997599123728574 0.025403933626409116 0.997599123728574 0.025403933626409116 0.002400876271426045 -0.025403933626409116
4.884E9 0.0023131950869338877 -0.023538527224896275 0.997686804913066 0.023538527224896275 0.997686804913066 0.023538527224896275 0.0023131950869338877 -0.023538527224896275
4.95875E9 0.002233990898490066 -0.021706224976672742 0.9977660091015099 0.021706224976672742 0.9977660091015099 0.021706224976672742 0.002233990898490066 -0.021706224976672742
5.0335E9 0.0021628380949820277 -0.019905578853513066 0.9978371619050179 0.019905578853513066 0.9978371619050179 0.019905578853513066 0.0021628380949820277 -0.019905578853513066
5.10825E9 0.0020993418900569815 -0.018135223290357116 0.9979006581099429 0.018135223290357116 0.9979006581099429 0.018135223290357116 0.0020993418900569815 -0.018135223290357116
5.183E9 0.002043135709530076 -0.01639386941423191 0.9979568642904697 0.01639386941423191 0.9979568642904697 0.01639386941423191 0.002043135709530076 -0.01639386941423191
5.25775E9 0.001993878833804197 -0.014680299747990842 0.9980061211661958 0.014680299747990842 0.9980061211661958 0.014680299747990842 0.001993878833804197 -0.014680299747990842
5.3325E9 0.0019512542673225646 -0.01299336334413714 0.9980487457326774 0.01299336334413714 0.9980487457326774 0.01299336334413714 0.0019512542673225646 -0.01299336334413714
5.40725E9 0.0019149668104788175 -0.011331971308722705 0.998085033189521 0.011331971308722705 0.998085033189521 0.011331971308722705 0.0019149668104788175 -0.011331971308722705
5.482E9 0.0018847413123594878 -0.009695092679486665 0.9981152586876404 0.009695092679486665 0.9981152586876404 0.009695092679486665 0.0018847413123594878 -0.009695092679486665
5.55675E9 0.0018603210852563006 -0.008081750626090577 0.9981396789147438 0.008081750626090577 0.9981396789147438 0.008081750626090577 0.0018603210852563006 -0.008081750626090577
5.6315E9 0.001841466464115749 -0.006491018943580768 0.9981585335358844 0.006491018943580768 0.9981585335358844 0.006491018943580768 0.001841466464115749 -0.006491018943580768
5.70625E9 0.0018279534960376712 -0.004922018813111391 0.9981720465039625 0.004922018813111391 0.9981720465039625 0.004922018813111391 0.0018279534960376712 -0.004922018813111391
5.781E9 0.0018195727466329035 -0.0033739158065443672 0.9981804272533672 0.0033739158065443672 0.9981804272533672 0.0033739158065443672 0.0018195727466329035 -0.0033739158065443672
5.85575E9 0.0018161282115361703 -0.0018459171138395227 0.9981838717884637 0.0018459171138395227 0.9981838717884637 0.0018459171138395227 0.0018161282115361703 -0.0018459171138395227
5.9305E9 0.0018174363226730534 -3.3726897419607244E-4 0.9981825636773273 3.3726897419607244E-4 0.9981825636773273 3.3726897419607244E-4 0.0018174363226730534 -3.3726897419607244E-4
6.00525E9 0.0018233250400236708 0.0011527457062645908 0.9981766749599762 -0.0011527457062645908 0.9981766749599762 -0.0011527457062645908 0.0018233250400236708 0.0011527457062645908
6.08E9 0.0018336330206317503 0.002624809565852913 0.9981663669793681 -0.002624809565852913 0.9981663669793681 -0.002624809565852913 0.0018336330206317503 0.002624809565852913
6.15475E9 0.0018482088574939362 0.004079572841816023 0.9981517911425061 -0.004079572841816023 0.9981517911425061 -0.004079572841816023 0.0018482088574939362 0.004079572841816023
6.2295E9 0.0018669103817461718 0.005517655280799686 0.9981330896182538 -0.005517655280799686 0.9981330896182538 -0.005517655280799686 0.0018669103817461718 0.005517655280799686
6.30425E9 0.0018896040222549553 0.006939647916896369 0.9981103959777449 -0.006939647916896369 0.9981103959777449 -0.006939647916896369 0.0018896040222549553 0.006939647916896369
6.379E9 0.0019161642173328274 0.008346114727854554 0.9980838357826672 -0.008346114727854554 0.9980838357826672 -0.008346114727854554 0.0019161642173328274 0.008346114727854554
6.45375E9 0.0019464728738394614 0.009737594179073314 0.9980535271261607 -0.009737594179073314 0.9980535271261607 -0.009737594179073314 0.0019464728738394614 0.009737594179073314
6.5285E9 0.001980418869410887 0.01111460066415283 0.9980195811305892 -0.01111460066415283 0.9980195811305892 -0.01111460066415283 0.001980418869410887 0.01111460066415283
6.60325E9 0.002017897593986976 0.012477625849999804 0.997982102406013 -0.012477625849999804 0.997982102406013 -0.012477625849999804 0.002017897593986976 0.012477625849999804
6.678E9 0.002058810527188 0.01382713993379167 0.9979411894728121 -0.01382713993379167 0.9979411894728121 -0.01382713993379167 0.002058810527188 0.01382713993379167
6.75275E9 0.0021030648484303524 0.01516359281847557 0.9978969351515696 -0.01516359281847557 0.9978969351515696 -0.01516359281847557 0.0021030648484303524 0.01516359281847557
6.8275E9 0.0021505730769743126 0.01648741521290877 0.9978494269230256 -0.01648741521290877 0.9978494269230256 -0.01648741521290877 0.0021505730769743126 0.01648741521290877
6.90225E9 0.002201252739367397 0.017799019662234225 0.9977987472606324 -0.017799019662234225 0.9977987472606324 -0.017799019662234225 0.002201252739367397 0.017799019662234225
6.977E9 0.0022550260619889338 0.01909880151361722 0.997744973938011 -0.01909880151361722 0.997744973938011 -0.01909880151361722 0.0022550260619889338 0.01909880151361722
7.05175E9 0.002311819686618534 0.020387139822046912 0.9976881803133814 -0.020387139822046912 0.9976881803133814 -0.020387139822046912 0.002311819686618534 0.020387139822046912
7.1265E9 0.0023715644071457356 0.02166439820052219 0.9976284355928542 -0.02166439820052219 0.9976284355928542 -0.02166439820052219 0.0023715644071457356 0.02166439820052219
7.20125E9 0.0024341949257129613 0.022930925618592207 0.9975658050742869 -0.022930925618592207 0.9975658050742869 -0.022930925618592207 0.0024341949257129613 0.022930925618592207
7.276E9 0.002499649626741157 0.024187057152903552 0.997500350373259 -0.024187057152903552 0.997500350373259 -0.024187057152903552 0.002499649626741157 0.024187057152903552
7.35075E9 0.0025678703674290836 0.02543311469311811 0.997432129632571 -0.02543311469311811 0.997432129632571 -0.02543311469311811 0.0025678703674290836 0.02543311469311811
7.4255E9 0.002638802283444892 0.026669407606300093 0.9973611977165551 -0.026669407606300093 0.9973611977165551 -0.026669407606300093 0.002638802283444892 0.026669407606300093
7.50025E9 0.0027123936086438302 0.027896233362631924 0.997287606391356 -0.027896233362631924 0.997287606391356 -0.027896233362631924 0.0027123936086438302 0.027896233362631924
7.575E9 0.0027885955077501033 0.02911387812509767 0.9972114044922499 -0.02911387812509767 0.9972114044922499 -0.02911387812509767 0.0027885955077501033 0.02911387812509767
7.64975E9 0.0028673619210351346 0.03032261730557243 0.9971326380789648 -0.03032261730557243 0.9971326380789648 -0.03032261730557243 0.0028673619210351346 0.03032261730557243
7.7245E9 0.0029486494201099427 0.031522716089573063 0.9970513505798901 -0.031522716089573063 0.9970513505798901 -0.031522716089573063 0.0029486494201099427 0.031522716089573063
7.79925E9 0.0030324170740267282 0.03271442993175619 0.9969675829259732 -0.03271442993175619 0.9969675829259732 -0.03271442993175619 0.0030324170740267282 0.03271442993175619
7.874E9 0.0031186263249553324 0.03389800502409758 0.9968813736750449 -0.03389800502409758 0.9968813736750449 -0.03389800502409758 0.0031186263249553324 0.03389800502409758
7.94875E9 0.0032072408727641093 0.03507367873854374 0.996792759127236 -0.03507367873854374 0.996792759127236 -0.03507367873854374 0.0032072408727641093 0.03507367873854374
8.0235E9 0.003298226567893283 0.03624168004579911 0.9967017734321069 -0.03624168004579911 0.9967017734321069 -0.03624168004579911 0.003298226567893283 0.03624168004579911
8.09825E9 0.003391551311961999 0.03740222991179202 0.996608448688038 -0.03740222991179202 0.996608448688038 -0.03740222991179202 0.003391551311961999 0.03740222991179202
8.173E9 0.0034871849655991128 0.03855554167325524 0.9965128150344008 -0.03855554167325524 0.9965128150344008 -0.03855554167325524 0.0034871849655991128 0.03855554167325524
8.24775E9 0.0035850992630321724 0.03970182139375451 0.9964149007369677 -0.03970182139375451 0.9964149007369677 -0.03970182139375451 0.0035850992630321724 0.03970182139375451
8.3225E9 0.0036852677330101876 0.04084126820140923 0.9963147322669897 -0.04084126820140923 0.9963147322669897 -0.04084126820140923 0.0036852677330101876 0.04084126820140923
8.39725E9 0.003787665625673208 0.04197407460946225 0.9962123343743268 -0.04197407460946225 0.9962123343743268 -0.04197407460946225 0.003787665625673208 0.04197407460946225
8.472E9 0.0038922698450164963 0.04310042682077934 0.9961077301549834 -0.04310042682077934 0.9961077301549834 -0.04310042682077934 0.0038922698450164963 0.04310042682077934
8.54675E9 0.00399905888662916 0.044220505017287415 0.996000941113371 -0.044220505017287415 0.996000941113371 -0.044220505017287415 0.00399905888662916 0.044220505017287415
