!Murata Part Number: GJM0225C1E1R0BB01
!These Parameters are Measured in Series Mode Connection
!       o--ll--o
!Port1            Port2
!       o------o
!Operation Temp=25[degC], DC Bias Voltage=0[V]
!Freq. Start=100[MHz] Stop=30[GHz], 401[Steps]
!Data Generated on Feb 1, 2023
# Hz S RI R 50
!Freq.(Hz) S11(Real) S11(Imag) S21(Real) S21(Imag) S12(Real) S12(Imag) S22(Real) S22(Imag)
1.0E8 0.9960548335009429 -0.0625874327089992 0.003945166499057143 0.0625874327089992 0.003945166499057143 0.0625874327089992 0.9960548335009429 -0.0625874327089992
1.7475E8 0.9880462860686141 -0.1085044901027299 0.01195371393138575 0.1085044901027299 0.01195371393138575 0.1085044901027299 0.9880462860686141 -0.1085044901027299
2.495E8 0.9759221917883107 -0.1530436027328568 0.024077808211689266 0.1530436027328568 0.024077808211689266 0.1530436027328568 0.9759221917883107 -0.1530436027328568
3.2425E8 0.9599768933795565 -0.19569208663955193 0.04002310662044344 0.19569208663955193 0.04002310662044344 0.19569208663955193 0.9599768933795565 -0.19569208663955193
3.99E8 0.9405815167118708 -0.23601074068264818 0.05941848328812916 0.23601074068264818 0.05941848328812916 0.23601074068264818 0.9405815167118708 -0.23601074068264818
4.7375E8 0.9181635074221686 -0.2736456161697922 0.08183649257783145 0.2736456161697922 0.08183649257783145 0.2736456161697922 0.9181635074221686 -0.2736456161697922
5.485E8 0.8931849676815732 -0.30833369458656223 0.10681503231842676 0.30833369458656223 0.10681503231842676 0.30833369458656223 0.8931849676815732 -0.30833369458656223
6.2325E8 0.8661216419563986 -0.3399027982597516 0.13387835804360124 0.3399027982597516 0.13387835804360124 0.3399027982597516 0.8661216419563986 -0.3399027982597516
6.98E8 0.8374440498301767 -0.36826659190103983 0.1625559501698233 0.36826659190103983 0.1625559501698233 0.36826659190103983 0.8374440498301767 -0.36826659190103983
7.7275E8 0.8076017893569868 -0.39341586067631235 0.19239821064301324 0.39341586067631235 0.19239821064301324 0.39341586067631235 0.8076017893569868 -0.39341586067631235
8.475E8 0.7770115341495551 -0.41540736692040403 0.2229884658504449 0.41540736692040403 0.2229884658504449 0.41540736692040403 0.7770115341495551 -0.41540736692040403
9.2225E8 0.7460488003196262 -0.43435152602302146 0.25395119968037383 0.43435152602302146 0.25395119968037383 0.43435152602302146 0.7460488003196262 -0.43435152602302146
9.97E8 0.7150432141591267 -0.4503999570270657 0.2849567858408732 0.4503999570270657 0.2849567858408732 0.4503999570270657 0.7150432141591267 -0.4503999570270657
1.07175E9 0.6842767860041092 -0.4637337141603911 0.31572321399589065 0.4637337141603911 0.31572321399589065 0.4637337141603911 0.6842767860041092 -0.4637337141603911
1.1465E9 0.6539845836821786 -0.4745527427929071 0.34601541631782146 0.4745527427929071 0.34601541631782146 0.4745527427929071 0.6539845836821786 -0.4745527427929071
1.22125E9 0.6243571789965606 -0.4830668635557953 0.3756428210034393 0.4830668635557953 0.3756428210034393 0.4830668635557953 0.6243571789965606 -0.4830668635557953
1.296E9 0.5955442855643579 -0.48948839231611024 0.4044557144356421 0.48948839231611024 0.4044557144356421 0.48948839231611024 0.5955442855643579 -0.48948839231611024
1.37075E9 0.5676590894384288 -0.49402635882125273 0.43234091056157126 0.49402635882125273 0.43234091056157126 0.49402635882125273 0.5676590894384288 -0.49402635882125273
1.4455E9 0.5407828733533552 -0.4968821911712484 0.4592171266466448 0.4968821911712484 0.4592171266466448 0.4968821911712484 0.5407828733533552 -0.4968821911712484
1.52025E9 0.5149696353007159 -0.4982466794688135 0.48503036469928396 0.4982466794688135 0.48503036469928396 0.4982466794688135 0.5149696353007159 -0.4982466794688135
1.595E9 0.4902504925468552 -0.49829801045769223 0.5097495074531447 0.49829801045769223 0.5097495074531447 0.49829801045769223 0.4902504925468552 -0.49829801045769223
1.66975E9 0.46663773812660964 -0.4972006661077506 0.5333622618733903 0.4972006661077506 0.5333622618733903 0.4972006661077506 0.46663773812660964 -0.4972006661077506
1.7445E9 0.4441284767764857 -0.49510499461010943 0.5558715232235142 0.49510499461010943 0.5558715232235142 0.49510499461010943 0.4441284767764857 -0.49510499461010943
1.81925E9 0.4227078119572432 -0.4921472855455627 0.5772921880427567 0.4921472855455627 0.5772921880427567 0.4921472855455627 0.4227078119572432 -0.4921472855455627
1.894E9 0.4023515870239732 -0.4884502073327983 0.5976484129760267 0.4884502073327983 0.5976484129760267 0.4884502073327983 0.4023515870239732 -0.4884502073327983
1.96875E9 0.38302870417927276 -0.4841234912866764 0.6169712958207273 0.4841234912866764 0.6169712958207273 0.4841234912866764 0.38302870417927276 -0.4841234912866764
2.0435E9 0.3647030570523445 -0.479264770820768 0.6352969429476555 0.479264770820768 0.6352969429476555 0.479264770820768 0.3647030570523445 -0.479264770820768
2.11825E9 0.3473351187957362 -0.4739605055392939 0.6526648812042637 0.4739605055392939 0.6526648812042637 0.4739605055392939 0.3473351187957362 -0.4739605055392939
2.193E9 0.3308832293302842 -0.46828693784087494 0.6691167706697159 0.46828693784087494 0.6691167706697159 0.46828693784087494 0.3308832293302842 -0.46828693784087494
2.26775E9 0.3153046242596013 -0.4623110442580896 0.6846953757403987 0.4623110442580896 0.6846953757403987 0.4623110442580896 0.3153046242596013 -0.4623110442580896
2.3425E9 0.30055624512270934 -0.4560914553666891 0.6994437548772907 0.4560914553666891 0.6994437548772907 0.4560914553666891 0.30055624512270934 -0.4560914553666891
2.41725E9 0.2865953668572695 -0.44967932710714487 0.7134046331427306 0.44967932710714487 0.7134046331427306 0.44967932710714487 0.2865953668572695 -0.44967932710714487
2.492E9 0.2733800741616851 -0.4431191531893862 0.7266199258383149 0.4431191531893862 0.7266199258383149 0.4431191531893862 0.2733800741616851 -0.4431191531893862
2.56675E9 0.2608696142393215 -0.43644951330321236 0.7391303857606785 0.43644951330321236 0.7391303857606785 0.43644951330321236 0.2608696142393215 -0.43644951330321236
2.6415E9 0.2490246494102054 -0.42970375549528456 0.7509753505897946 0.42970375549528456 0.7509753505897946 0.42970375549528456 0.2490246494102054 -0.42970375549528456
2.71625E9 0.23780742941353977 -0.42291061361125104 0.7621925705864602 0.42291061361125104 0.7621925705864602 0.42291061361125104 0.23780742941353977 -0.42291061361125104
2.791E9 0.22718189995858315 -0.4160947623982895 0.7728181000414166 0.4160947623982895 0.7728181000414166 0.4160947623982895 0.22718189995858315 -0.4160947623982895
2.86575E9 0.2171137612272438 -0.4092773139298771 0.7828862387727563 0.4092773139298771 0.7828862387727563 0.4092773139298771 0.2171137612272438 -0.4092773139298771
2.9405E9 0.207570487576335 -0.4024762596181409 0.7924295124236651 0.4024762596181409 0.7924295124236651 0.4024762596181409 0.207570487576335 -0.4024762596181409
3.01525E9 0.1985213176017502 -0.39570686235005365 0.8014786823982496 0.39570686235005365 0.8014786823982496 0.39570686235005365 0.1985213176017502 -0.39570686235005365
3.09E9 0.1899372219736239 -0.3889820033219256 0.8100627780263762 0.3889820033219256 0.8100627780263762 0.3889820033219256 0.1899372219736239 -0.3889820033219256
3.16475E9 0.18179085499077988 -0.38231248802752765 0.8182091450092204 0.38231248802752765 0.8182091450092204 0.38231248802752765 0.18179085499077988 -0.38231248802752765
3.2395E9 0.17405649459487973 -0.3757073156347661 0.8259435054051203 0.3757073156347661 0.8259435054051203 0.3757073156347661 0.17405649459487973 -0.3757073156347661
3.31425E9 0.1667099745925613 -0.36917391570503716 0.8332900254074387 0.36917391570503716 0.8332900254074387 0.36917391570503716 0.1667099745925613 -0.36917391570503716
3.389E9 0.15972861202389602 -0.3627183558975526 0.8402713879761041 0.3627183558975526 0.8402713879761041 0.3627183558975526 0.15972861202389602 -0.3627183558975526
3.46375E9 0.1530911319579607 -0.35634552397861174 0.8469088680420391 0.35634552397861174 0.8469088680420391 0.35634552397861174 0.1530911319579607 -0.35634552397861174
3.5385E9 0.1467775914653935 -0.35005928713698087 0.8532224085346067 0.35005928713698087 0.8532224085346067 0.35005928713698087 0.1467775914653935 -0.35005928713698087
3.61325E9 0.1407693040913915 -0.34386263130038097 0.8592306959086083 0.34386263130038097 0.8592306959086083 0.34386263130038097 0.1407693040913915 -0.34386263130038097
3.688E9 0.13504876581198935 -0.3377577828602333 0.8649512341880106 0.3377577828602333 0.8649512341880106 0.3377577828602333 0.13504876581198935 -0.3377577828602333
3.76275E9 0.12959958318591025 -0.3317463149453245 0.8704004168140898 0.3317463149453245 0.8704004168140898 0.3317463149453245 0.12959958318591025 -0.3317463149453245
3.8375E9 0.12440640420074378 -0.3258292401413388 0.8755935957992566 0.3258292401413388 0.8755935957992566 0.3258292401413388 0.12440640420074378 -0.3258292401413388
3.91225E9 0.11945485214480582 -0.32000709133231503 0.8805451478551941 0.32000709133231503 0.8805451478551941 0.32000709133231503 0.11945485214480582 -0.32000709133231503
3.987E9 0.11473146270588565 -0.3142799921414212 0.8852685372941141 0.3142799921414212 0.8852685372941141 0.3142799921414212 0.11473146270588565 -0.3142799921414212
4.06175E9 0.11022362439783452 -0.30864771827076787 0.8897763756021657 0.30864771827076787 0.8897763756021657 0.30864771827076787 0.11022362439783452 -0.30864771827076787
4.1365E9 0.10591952233964355 -0.30310975088187403 0.8940804776603566 0.30310975088187403 0.8940804776603566 0.30310975088187403 0.10591952233964355 -0.30310975088187403
4.21125E9 0.10180808535441732 -0.29766532301823584 0.8981919146455828 0.29766532301823584 0.8981919146455828 0.29766532301823584 0.10180808535441732 -0.29766532301823584
4.286E9 0.09787893631353839 -0.29231345994758423 0.9021210636864616 0.29231345994758423 0.9021210636864616 0.29231345994758423 0.09787893631353839 -0.29231345994758423
4.36075E9 0.09412234562113943 -0.2870530141922462 0.9058776543788607 0.2870530141922462 0.9058776543788607 0.2870530141922462 0.09412234562113943 -0.2870530141922462
4.4355E9 0.09052918771318769 -0.28188269592000376 0.9094708122868123 0.28188269592000376 0.9094708122868123 0.28188269592000376 0.09052918771318769 -0.28188269592000376
4.51025E9 0.08709090043196849 -0.27680109928352986 0.9129090995680317 0.27680109928352986 0.9129090995680317 0.27680109928352986 0.08709090043196849 -0.27680109928352986
4.585E9 0.08379944712887986 -0.271806725222556 0.9162005528711199 0.271806725222556 0.9162005528711199 0.271806725222556 0.08379944712887986 -0.271806725222556
4.65975E9 0.08064728134488919 -0.26689800117817647 0.9193527186551108 0.26689800117817647 0.9193527186551108 0.26689800117817647 0.08064728134488919 -0.26689800117817647
4.7345E9 0.07762731391770891 -0.26207329811202895 0.9223726860822911 0.26207329811202895 0.9223726860822911 0.26207329811202895 0.07762731391770891 -0.26207329811202895
4.80925E9 0.0747328823668809 -0.25733094517354577 0.9252671176331191 0.25733094517354577 0.9252671176331191 0.25733094517354577 0.0747328823668809 -0.25733094517354577
4.884E9 0.07195772241186128 -0.2526692423151525 0.9280422775881385 0.2526692423151525 0.9280422775881385 0.2526692423151525 0.07195772241186128 -0.2526692423151525
4.95875E9 0.06929594148335147 -0.24808647111745555 0.9307040585166486 0.24808647111745555 0.9307040585166486 0.24808647111745555 0.06929594148335147 -0.24808647111745555
5.0335E9 0.06674199409412164 -0.24358090405339825 0.9332580059058785 0.24358090405339825 0.9332580059058785 0.24358090405339825 0.06674199409412164 -0.24358090405339825
5.10825E9 0.06429065894210409 -0.23915081239149927 0.9357093410578958 0.23915081239149927 0.9357093410578958 0.23915081239149927 0.06429065894210409 -0.23915081239149927
5.183E9 0.06193701762535987 -0.23479447291306996 0.9380629823746404 0.23479447291306996 0.9380629823746404 0.23479447291306996 0.06193701762535987 -0.23479447291306996
5.25775E9 0.05967643485545121 -0.23051017359628687 0.9403235651445488 0.23051017359628687 0.9403235651445488 0.23051017359628687 0.05967643485545121 -0.23051017359628687
5.3325E9 0.057504540062654666 -0.22629621840076372 0.9424954599373454 0.22629621840076372 0.9424954599373454 0.22629621840076372 0.057504540062654666 -0.22629621840076372
5.40725E9 0.05541721029321824 -0.22215093126946509 0.9445827897067818 0.22215093126946509 0.9445827897067818 0.22215093126946509 0.05541721029321824 -0.22215093126946509
5.482E9 0.053410554305427724 -0.21807265945012422 0.9465894456945722 0.21807265945012422 0.9465894456945722 0.21807265945012422 0.053410554305427724 -0.21807265945012422
5.55675E9 0.05148089777755564 -0.21405977622550376 0.9485191022224445 0.21405977622550376 0.9485191022224445 0.21405977622550376 0.05148089777755564 -0.21405977622550376
5.6315E9 0.0496247695467808 -0.21011068313062184 0.9503752304532193 0.21011068313062184 0.9503752304532193 0.21011068313062184 0.0496247695467808 -0.21011068313062184
5.70625E9 0.047838888803873866 -0.20622381172527035 0.9521611111961259 0.20622381172527035 0.9521611111961259 0.20622381172527035 0.047838888803873866 -0.20622381172527035
5.781E9 0.046120153173828025 -0.20239762498157352 0.953879846826172 0.20239762498157352 0.953879846826172 0.20239762498157352 0.046120153173828025 -0.20239762498157352
5.85575E9 0.044465627617678895 -0.1986306183388444 0.9555343723823212 0.1986306183388444 0.9555343723823212 0.1986306183388444 0.044465627617678895 -0.1986306183388444
5.9305E9 0.04287253409549861 -0.19492132047142904 0.9571274659045015 0.19492132047142904 0.9571274659045015 0.19492132047142904 0.04287253409549861 -0.19492132047142904
6.00525E9 0.04133824193498444 -0.19126829380949364 0.9586617580650155 0.19126829380949364 0.9586617580650155 0.19126829380949364 0.04133824193498444 -0.19126829380949364
6.08E9 0.03986025885419104 -0.18767013484767536 0.960139741145809 0.18767013484767536 0.960139741145809 0.18767013484767536 0.03986025885419104 -0.18767013484767536
6.15475E9 0.038436222590802774 -0.18412547427212486 0.9615637774091971 0.18412547427212486 0.9615637774091971 0.18412547427212486 0.038436222590802774 -0.18412547427212486
6.2295E9 0.03706389309390976 -0.18063297693260302 0.9629361069060902 0.18063297693260302 0.9629361069060902 0.18063297693260302 0.03706389309390976 -0.18063297693260302
6.30425E9 0.03574114523756637 -0.17719134168292613 0.9642588547624336 0.17719134168292613 0.9642588547624336 0.17719134168292613 0.03574114523756637 -0.17719134168292613
6.379E9 0.034465962018476494 -0.1737993011100859 0.9655340379815235 0.1737993011100859 0.9655340379815235 0.1737993011100859 0.034465962018476494 -0.1737993011100859
6.45375E9 0.033236428202992406 -0.17045562116978297 0.9667635717970074 0.17045562116978297 0.9667635717970074 0.17045562116978297 0.033236428202992406 -0.17045562116978297
6.5285E9 0.032050724391237975 -0.16715910074383244 0.967949275608762 0.16715910074383244 0.967949275608762 0.16715910074383244 0.032050724391237975 -0.16715910074383244
6.60325E9 0.03090712146859723 -0.1639085711329116 0.9690928785314027 0.1639085711329116 0.9690928785314027 0.1639085711329116 0.03090712146859723 -0.1639085711329116
6.678E9 0.029803975417049065 -0.16070289549636826 0.970196024582951 0.16070289549636826 0.970196024582951 0.16070289549636826 0.029803975417049065 -0.16070289549636826
6.75275E9 0.028739722460900695 -0.1575409682492751 0.9712602775390993 0.1575409682492751 0.9712602775390993 0.1575409682492751 0.028739722460900695 -0.1575409682492751
6.8275E9 0.02771287452338382 -0.15442171442557662 0.9722871254766163 0.15442171442557662 0.9722871254766163 0.15442171442557662 0.02771287452338382 -0.15442171442557662
6.90225E9 0.026722014972339135 -0.15134408901498708 0.9732779850276609 0.15134408901498708 0.9732779850276609 0.15134408901498708 0.026722014972339135 -0.15134408901498708
6.977E9 0.0257657946348441 -0.14830707628027498 0.9742342053651558 0.14830707628027498 0.9742342053651558 0.14830707628027498 0.0257657946348441 -0.14830707628027498
7.05175E9 0.02484292806213801 -0.1453096890606552 0.9751570719378619 0.1453096890606552 0.9751570719378619 0.1453096890606552 0.02484292806213801 -0.1453096890606552
7.1265E9 0.023952190027584398 -0.14235096806622108 0.9760478099724156 0.14235096806622108 0.9760478099724156 0.14235096806622108 0.023952190027584398 -0.14235096806622108
7.20125E9 0.023092412241687177 -0.13942998116765026 0.976907587758313 0.13942998116765026 0.976907587758313 0.13942998116765026 0.023092412241687177 -0.13942998116765026
7.276E9 0.022262480269356 -0.1365458226848104 0.9777375197306439 0.1365458226848104 0.9777375197306439 0.1365458226848104 0.022262480269356 -0.1365458226848104
7.35075E9 0.021461330635702918 -0.1336976126773546 0.978538669364297 0.1336976126773546 0.978538669364297 0.1336976126773546 0.021461330635702918 -0.1336976126773546
7.4255E9 0.02068794810765614 -0.1308844962399328 0.9793120518923438 0.1308844962399328 0.9793120518923438 0.1308844962399328 0.02068794810765614 -0.1308844962399328
7.50025E9 0.01994136313960183 -0.1281056428042329 0.980058636860398 0.1281056428042329 0.980058636860398 0.1281056428042329 0.01994136313960183 -0.1281056428042329
7.575E9 0.019220649472120224 -0.12536024544971253 0.9807793505278799 0.12536024544971253 0.9807793505278799 0.12536024544971253 0.019220649472120224 -0.12536024544971253
7.64975E9 0.01852492187367042 -0.12264752022456625 0.9814750781263295 0.12264752022456625 0.9814750781263295 0.12264752022456625 0.01852492187367042 -0.12264752022456625
7.7245E9 0.01785333401580752 -0.11996670547820487 0.9821466659841925 0.11996670547820487 0.9821466659841925 0.11996670547820487 0.01785333401580752 -0.11996670547820487
7.79925E9 0.017205076473188082 -0.11731706120628345 0.982794923526812 0.11731706120628345 0.982794923526812 0.11731706120628345 0.017205076473188082 -0.11731706120628345
7.874E9 0.01657937484024206 -0.11469786840910964 0.9834206251597579 0.11469786840910964 0.9834206251597579 0.11469786840910964 0.01657937484024206 -0.11469786840910964
7.94875E9 0.01597548795696397 -0.11210842846408595 0.9840245120430359 0.11210842846408595 0.9840245120430359 0.11210842846408595 0.01597548795696397 -0.11210842846408595
8.0235E9 0.015392706236806719 -0.10954806251268026 0.9846072937631932 0.10954806251268026 0.9846072937631932 0.10954806251268026 0.015392706236806719 -0.10954806251268026
8.09825E9 0.014830350090153748 -0.10701611086228907 0.9851696499098462 0.10701611086228907 0.9851696499098462 0.10701611086228907 0.014830350090153748 -0.10701611086228907
8.173E9 0.014287768437298513 -0.10451193240323742 0.9857122315627015 0.10451193240323742 0.9857122315627015 0.10451193240323742 0.014287768437298513 -0.10451193240323742
8.24775E9 0.013764337305281817 -0.10203490404106286 0.9862356626947182 0.10203490404106286 0.9862356626947182 0.10203490404106286 0.013764337305281817 -0.10203490404106286
8.3225E9 0.013259458503326015 -0.09958442014414119 0.9867405414966738 0.09958442014414119 0.9867405414966738 0.09958442014414119 0.013259458503326015 -0.09958442014414119
8.39725E9 0.012772558371966196 -0.09715989200664224 0.9872274416280337 0.09715989200664224 0.9872274416280337 0.09715989200664224 0.012772558371966196 -0.09715989200664224
8.472E9 0.012303086601311925 -0.0947607473267373 0.9876969133986879 0.0947607473267373 0.9876969133986879 0.0947607473267373 0.012303086601311925 -0.0947607473267373
8.54675E9 0.011850515114183006 -0.09238642969992987 0.9881494848858171 0.09238642969992987 0.9881494848858171 0.09238642969992987 0.011850515114183006 -0.09238642969992987
8.6215E9 0.011414337010149071 -0.09003639812733419 0.988585662989851 0.09003639812733419 0.988585662989851 0.09003639812733419 0.011414337010149071 -0.09003639812733419
8.69625E9 0.01099406556676958 -0.08771012653869104 0.9890059344332304 0.08771012653869104 0.9890059344332304 0.08771012653869104 0.01099406556676958 -0.08771012653869104
8.771E9 0.010589233294576875 -0.0854071033298772 0.9894107667054233 0.0854071033298772 0.9894107667054233 0.0854071033298772 0.010589233294576875 -0.0854071033298772
