!Murata Part Number: GJM0225C1E160GB01
!These Parameters are Measured in Series Mode Connection
!       o--ll--o
!Port1            Port2
!       o------o
!Operation Temp=25[degC], DC Bias Voltage=0[V]
!Freq. Start=100[MHz] Stop=30[GHz], 401[Steps]
!Data Generated on Feb 1, 2023
# Hz S RI R 50
!Freq.(Hz) S11(Real) S11(Imag) S21(Real) S21(Imag) S12(Real) S12(Imag) S22(Real) S22(Imag)
1.0E8 0.4968144204557046 -0.4995912925214402 0.5031855795442954 0.4995912925214402 0.5031855795442954 0.4995912925214402 0.4968144204557046 -0.4995912925214402
1.7475E8 0.24381126722940033 -0.42867931865545145 0.7561887327705996 0.42867931865545145 0.7561887327705996 0.42867931865545145 0.24381126722940033 -0.42867931865545145
2.495E8 0.1360653910775083 -0.34184772592594387 0.8639346089224916 0.34184772592594387 0.8639346089224916 0.34184772592594387 0.1360653910775083 -0.34184772592594387
3.2425E8 0.08485287022663085 -0.2773328756242399 0.9151471297733693 0.2773328756242399 0.9151471297733693 0.2773328756242399 0.08485287022663085 -0.2773328756242399
3.99E8 0.057317492250211 -0.2307860446187921 0.942682507749789 0.2307860446187921 0.942682507749789 0.2307860446187921 0.057317492250211 -0.2307860446187921
4.7375E8 0.041015697567871205 -0.19631603914871978 0.9589843024321288 0.19631603914871978 0.9589843024321288 0.19631603914871978 0.041015697567871205 -0.19631603914871978
5.485E8 0.03063502907711123 -0.16994954450021404 0.9693649709228889 0.16994954450021404 0.9693649709228889 0.16994954450021404 0.03063502907711123 -0.16994954450021404
6.2325E8 0.023644986435823946 -0.1491753261493641 0.976355013564176 0.1491753261493641 0.976355013564176 0.1491753261493641 0.023644986435823946 -0.1491753261493641
6.98E8 0.01872768909167187 -0.13238504303849952 0.9812723109083281 0.13238504303849952 0.9812723109083281 0.13238504303849952 0.01872768909167187 -0.13238504303849952
7.7275E8 0.015145629149444567 -0.11851794980978077 0.9848543708505554 0.11851794980978077 0.9848543708505554 0.11851794980978077 0.015145629149444567 -0.11851794980978077
8.475E8 0.01246123901238993 -0.10685232003543724 0.9875387609876101 0.10685232003543724 0.9875387609876101 0.10685232003543724 0.01246123901238993 -0.10685232003543724
9.2225E8 0.010402086064687885 -0.09688259193334865 0.989597913935312 0.09688259193334865 0.989597913935312 0.09688259193334865 0.010402086064687885 -0.09688259193334865
9.97E8 0.008791573625864371 -0.08824524347587497 0.9912084263741358 0.08824524347587497 0.9912084263741358 0.08824524347587497 0.008791573625864371 -0.08824524347587497
1.07175E9 0.0075112499288273946 -0.08067275338261698 0.9924887500711727 0.08067275338261698 0.9924887500711727 0.08067275338261698 0.0075112499288273946 -0.08067275338261698
1.1465E9 0.006479303071537766 -0.0739641683545641 0.993520696928462 0.0739641683545641 0.993520696928462 0.0739641683545641 0.006479303071537766 -0.0739641683545641
1.22125E9 0.005637776660240458 -0.06796576973964338 0.9943622233397592 0.06796576973964338 0.9943622233397592 0.06796576973964338 0.005637776660240458 -0.06796576973964338
1.296E9 0.004944694482327645 -0.06255805465023108 0.9950553055176724 0.06255805465023108 0.9950553055176724 0.06255805465023108 0.004944694482327645 -0.06255805465023108
1.37075E9 0.004369055953394265 -0.05764676902737965 0.9956309440466056 0.05764676902737965 0.9956309440466056 0.05764676902737965 0.004369055953394265 -0.05764676902737965
1.4455E9 0.0038875674785721426 -0.053156603941171214 0.9961124325214279 0.053156603941171214 0.9961124325214279 0.053156603941171214 0.0038875674785721426 -0.053156603941171214
1.52025E9 0.003482454992764195 -0.049026681244558584 0.9965175450072357 0.049026681244558584 0.9965175450072357 0.049026681244558584 0.003482454992764195 -0.049026681244558584
1.595E9 0.003139967848264441 -0.045207265809871805 0.9968600321517355 0.045207265809871805 0.9968600321517355 0.045207265809871805 0.003139967848264441 -0.045207265809871805
1.66975E9 0.002849335323098149 -0.04165733412584355 0.9971506646769018 0.04165733412584355 0.9971506646769018 0.04165733412584355 0.002849335323098149 -0.04165733412584355
1.7445E9 0.002602025820627529 -0.03834275088353711 0.9973979741793724 0.03834275088353711 0.9973979741793724 0.03834275088353711 0.002602025820627529 -0.03834275088353711
1.81925E9 0.0023912124293145624 -0.03523488389698377 0.9976087875706854 0.03523488389698377 0.9976087875706854 0.03523488389698377 0.0023912124293145624 -0.03523488389698377
1.894E9 0.002211381656613002 -0.03230953953643113 0.9977886183433871 0.03230953953643113 0.9977886183433871 0.03230953953643113 0.002211381656613002 -0.03230953953643113
1.96875E9 0.002058043103607268 -0.02954613558866648 0.9979419568963926 0.02954613558866648 0.9979419568963926 0.02954613558866648 0.002058043103607268 -0.02954613558866648
2.0435E9 0.001927511360702159 -0.02692705212149236 0.9980724886392979 0.02692705212149236 0.9980724886392979 0.02692705212149236 0.001927511360702159 -0.02692705212149236
2.11825E9 0.0018167402822210168 -0.02443711729402256 0.9981832597177788 0.02443711729402256 0.9981832597177788 0.02443711729402256 0.0018167402822210168 -0.02443711729402256
2.193E9 0.001723195729161243 -0.022063196531806807 0.9982768042708391 0.022063196531806807 0.9982768042708391 0.022063196531806807 0.001723195729161243 -0.022063196531806807
2.26775E9 0.001644756894666446 -0.01979386164114156 0.9983552431053335 0.01979386164114156 0.9983552431053335 0.01979386164114156 0.001644756894666446 -0.01979386164114156
2.3425E9 0.001579639098325056 -0.01761912230264222 0.9984203609016747 0.01761912230264222 0.9984203609016747 0.01761912230264222 0.001579639098325056 -0.01761912230264222
2.41725E9 0.0015263328695277933 -0.01553020665118167 0.9984736671304721 0.01553020665118167 0.9984736671304721 0.01553020665118167 0.0015263328695277933 -0.01553020665118167
2.492E9 0.0014835555068635205 -0.013519380786466579 0.9985164444931366 0.013519380786466579 0.9985164444931366 0.013519380786466579 0.0014835555068635205 -0.013519380786466579
2.56675E9 0.001450212277729362 -0.011579799388046874 0.9985497877222703 0.011579799388046874 0.9985497877222703 0.011579799388046874 0.001450212277729362 -0.011579799388046874
2.6415E9 0.0014253651287254626 -0.009705381354584932 0.9985746348712744 0.009705381354584932 0.9985746348712744 0.009705381354584932 0.0014253651287254626 -0.009705381354584932
2.71625E9 0.00140820729334245 -0.007890705707446351 0.9985917927066577 0.007890705707446351 0.9985917927066577 0.007890705707446351 0.00140820729334245 -0.007890705707446351
2.791E9 0.00139804256396438 -0.00613092400525018 0.9986019574360354 0.00613092400525018 0.9986019574360354 0.00613092400525018 0.00139804256396438 -0.00613092400525018
2.86575E9 0.0013942682784353455 -0.0044216862894738175 0.9986057317215646 0.0044216862894738175 0.9986057317215646 0.0044216862894738175 0.0013942682784353455 -0.0044216862894738175
2.9405E9 0.001396361284086744 -0.0027590781799444407 0.9986036387159134 0.0027590781799444407 0.9986036387159134 0.0027590781799444407 0.001396361284086744 -0.0027590781799444407
3.01525E9 0.0014038663030995788 -0.001139567205788702 0.9985961336969005 0.001139567205788702 0.9985961336969005 0.001139567205788702 0.0014038663030995788 -0.001139567205788702
3.09E9 0.0014163862458925489 4.4004317632339695E-4 0.9985836137541074 -4.4004317632339695E-4 0.9985836137541074 -4.4004317632339695E-4 0.0014163862458925489 4.4004317632339695E-4
3.16475E9 0.0014335741136265341 0.0019826531355711975 0.9985664258863736 -0.0019826531355711975 0.9985664258863736 -0.0019826531355711975 0.0014335741136265341 0.0019826531355711975
3.2395E9 0.001455126203989719 0.003490900621170832 0.9985448737960104 -0.003490900621170832 0.9985448737960104 -0.003490900621170832 0.001455126203989719 0.003490900621170832
3.31425E9 0.0014807763913771733 0.004967190962940852 0.998519223608623 -0.004967190962940852 0.998519223608623 -0.004967190962940852 0.0014807763913771733 0.004967190962940852
3.389E9 0.0015102912972520144 0.006413722616370715 0.9984897087027478 -0.006413722616370715 0.9984897087027478 -0.006413722616370715 0.0015102912972520144 0.006413722616370715
3.46375E9 0.0015434662017399208 0.0078325096312612 0.9984565337982603 -0.0078325096312612 0.9984565337982603 -0.0078325096312612 0.0015434662017399208 0.0078325096312612
3.5385E9 0.0015801215755180092 0.009225401326414594 0.998419878424482 -0.009225401326414594 0.998419878424482 -0.009225401326414594 0.0015801215755180092 0.009225401326414594
3.61325E9 0.001620100133441414 0.010594099574127696 0.9983798998665587 -0.010594099574127696 0.9983798998665587 -0.010594099574127696 0.001620100133441414 0.010594099574127696
3.688E9 0.0016632643293464403 0.011940174033799872 0.9983367356706536 -0.011940174033799872 0.9983367356706536 -0.011940174033799872 0.0016632643293464403 0.011940174033799872
3.76275E9 0.0017094942260293961 0.013265075621006364 0.9982905057739705 -0.013265075621006364 0.9982905057739705 -0.013265075621006364 0.0017094942260293961 0.013265075621006364
3.8375E9 0.0017586856862599654 0.01457014845469874 0.99824131431374 -0.01457014845469874 0.99824131431374 -0.01457014845469874 0.0017586856862599654 0.01457014845469874
3.91225E9 0.0018107488404195033 0.015856640489032087 0.9981892511595806 -0.015856640489032087 0.9981892511595806 -0.015856640489032087 0.0018107488404195033 0.015856640489032087
3.987E9 0.0018656067944070182 0.01712571300629866 0.998134393205593 -0.01712571300629866 0.998134393205593 -0.01712571300629866 0.0018656067944070182 0.01712571300629866
4.06175E9 0.0019231945481848634 0.018378449122464065 0.9980768054518151 -0.018378449122464065 0.9980768054518151 -0.018378449122464065 0.0019231945481848634 0.018378449122464065
4.1365E9 0.0019834581010278415 0.019615861435971875 0.9980165418989724 -0.019615861435971875 0.9980165418989724 -0.019615861435971875 0.0019834581010278415 0.019615861435971875
4.21125E9 0.00204635372442586 0.020838898933096872 0.997953646275574 -0.020838898933096872 0.997953646275574 -0.020838898933096872 0.00204635372442586 0.020838898933096872
4.286E9 0.0021118473878644884 0.0220484532486168 0.9978881526121354 -0.0220484532486168 0.9978881526121354 -0.0220484532486168 0.0021118473878644884 0.0220484532486168
4.36075E9 0.002179914326533972 0.0232453643684809 0.9978200856734661 -0.0232453643684809 0.9978200856734661 -0.0232453643684809 0.002179914326533972 0.0232453643684809
4.4355E9 0.00225053874354014 0.024430425851113196 0.9977494612564599 -0.024430425851113196 0.9977494612564599 -0.024430425851113196 0.00225053874354014 0.024430425851113196
4.51025E9 0.0023237136425431426 0.02560438963570825 0.997676286357457 -0.02560438963570825 0.997676286357457 -0.02560438963570825 0.0023237136425431426 0.02560438963570825
4.585E9 0.0023994407900602205 0.026767970499124782 0.99760055920994 -0.026767970499124782 0.99760055920994 -0.026767970499124782 0.0023994407900602205 0.026767970499124782
4.65975E9 0.0024777308100675335 0.027921850217580164 0.9975222691899325 -0.027921850217580164 0.9975222691899325 -0.027921850217580164 0.0024777308100675335 0.027921850217580164
4.7345E9 0.0025586034171640247 0.02906668148516042 0.997441396582836 -0.02906668148516042 0.997441396582836 -0.02906668148516042 0.0025586034171640247 0.02906668148516042
4.80925E9 0.0026420877985766215 0.030203091638091217 0.9973579122014234 -0.030203091638091217 0.9973579122014234 -0.030203091638091217 0.0026420877985766215 0.030203091638091217
4.884E9 0.002728223159878744 0.031331686231705236 0.9972717768401214 -0.031331686231705236 0.9972717768401214 -0.031331686231705236 0.002728223159878744 0.031331686231705236
4.95875E9 0.002817059454692826 0.03245305251606193 0.9971829405453071 -0.03245305251606193 0.9971829405453071 -0.03245305251606193 0.002817059454692826 0.03245305251606193
5.0335E9 0.002908658325141002 0.03356776285623485 0.9970913416748589 -0.03356776285623485 0.9970913416748589 -0.03356776285623485 0.002908658325141002 0.03356776285623485
5.10825E9 0.00300309428776561 0.03467637814441169 0.9969969057122343 -0.03467637814441169 0.9969969057122343 -0.03467637814441169 0.00300309428776561 0.03467637814441169
5.183E9 0.003100456209544248 0.03577945125322607 0.9968995437904556 -0.03577945125322607 0.9968995437904556 -0.03577945125322607 0.003100456209544248 0.03577945125322607
5.25775E9 0.0032008491311070896 0.036877530583252806 0.9967991508688926 -0.036877530583252806 0.9967991508688926 -0.036877530583252806 0.0032008491311070896 0.036877530583252806
5.3325E9 0.0033043965101731544 0.037971163762485265 0.9966956034898267 -0.037971163762485265 0.9966956034898267 -0.037971163762485265 0.0033043965101731544 0.037971163762485265
5.40725E9 0.003411242978695536 0.039060901562027635 0.9965887570213046 -0.039060901562027635 0.9965887570213046 -0.039060901562027635 0.003411242978695536 0.039060901562027635
5.482E9 0.003521557733788841 0.04014730210035554 0.9964784422662112 -0.04014730210035554 0.9964784422662112 -0.04014730210035554 0.003521557733788841 0.04014730210035554
5.55675E9 0.003635538717321699 0.04123093541849728 0.9963644612826785 -0.04123093541849728 0.9963644612826785 -0.04123093541849728 0.003635538717321699 0.04123093541849728
5.6315E9 0.0037534177850144174 0.042312388520497325 0.9962465822149854 -0.042312388520497325 0.9962465822149854 -0.042312388520497325 0.0037534177850144174 0.042312388520497325
5.70625E9 0.003875467127053961 0.04339227098756475 0.9961245328729459 -0.04339227098756475 0.9961245328729459 -0.04339227098756475 0.003875467127053961 0.04339227098756475
5.781E9 0.004002007284333846 0.04447122129014885 0.9959979927156662 -0.04447122129014885 0.9959979927156662 -0.04447122129014885 0.004002007284333846 0.04447122129014885
5.85575E9 0.004133417215526688 0.04554991393910591 0.9958665827844732 -0.04554991393910591 0.9958665827844732 -0.04554991393910591 0.004133417215526688 0.04554991393910591
5.9305E9 0.004270147021840387 0.046629067633481874 0.9957298529781595 -0.046629067633481874 0.9957298529781595 -0.046629067633481874 0.004270147021840387 0.046629067633481874
6.00525E9 0.004412734145111207 0.047709454574900965 0.9955872658548888 -0.047709454574900965 0.9955872658548888 -0.047709454574900965 0.004412734145111207 0.047709454574900965
6.08E9 0.004561824144985012 0.04879191112073761 0.9954381758550149 -0.04879191112073761 0.9954381758550149 -0.04879191112073761 0.004561824144985012 0.04879191112073761
6.15475E9 0.004718197567684015 0.049877349928255085 0.9952818024323159 -0.049877349928255085 0.9952818024323159 -0.049877349928255085 0.004718197567684015 0.049877349928255085
6.2295E9 0.00488280499445107 0.05096677367793641 0.9951171950055491 -0.05096677367793641 0.9951171950055491 -0.05096677367793641 0.00488280499445107 0.05096677367793641
6.30425E9 0.00505681317983263 0.052061290316638274 0.9949431868201674 -0.052061290316638274 0.9949431868201674 -0.052061290316638274 0.00505681317983263 0.052061290316638274
6.379E9 0.005241666374614793 0.053162129457833544 0.9947583336253852 -0.053162129457833544 0.9947583336253852 -0.053162129457833544 0.005241666374614793 0.053162129457833544
6.45375E9 0.005439168649719555 0.05427065898540349 0.9945608313502806 -0.05427065898540349 0.9945608313502806 -0.05427065898540349 0.005439168649719555 0.05427065898540349
6.5285E9 0.005651595557048344 0.055388399787314066 0.9943484044429516 -0.055388399787314066 0.9943484044429516 -0.055388399787314066 0.005651595557048344 0.055388399787314066
6.60325E9 0.005881847170047621 0.05651703444759751 0.9941181528299524 -0.05651703444759751 0.9941181528299524 -0.05651703444759751 0.005881847170047621 0.05651703444759751
6.678E9 0.006133660007431347 0.057658401809057444 0.9938663399925686 -0.057658401809057444 0.9938663399925686 -0.057658401809057444 0.006133660007431347 0.057658401809057444
6.75275E9 0.006411903345265424 0.058814461992150055 0.9935880966547346 -0.058814461992150055 0.9935880966547346 -0.058814461992150055 0.006411903345265424 0.058814461992150055
6.8275E9 0.006722996940405476 0.05998720266366887 0.9932770030595947 -0.05998720266366887 0.9932770030595947 -0.05998720266366887 0.006722996940405476 0.05998720266366887
6.90225E9 0.00707550305787637 0.06117843118104426 0.9929244969421236 -0.06117843118104426 0.9929244969421236 -0.06117843118104426 0.00707550305787637 0.06117843118104426
6.977E9 0.007480965337899801 0.062389347196649826 0.9925190346621001 -0.062389347196649826 0.9925190346621001 -0.062389347196649826 0.007480965337899801 0.062389347196649826
7.05175E9 0.007955084351134172 0.06361969414399138 0.9920449156488658 -0.06361969414399138 0.9920449156488658 -0.06361969414399138 0.007955084351134172 0.06361969414399138
7.1265E9 0.008519310789639176 0.06486610384100215 0.9914806892103607 -0.06486610384100215 0.9914806892103607 -0.06486610384100215 0.008519310789639176 0.06486610384100215
7.20125E9 0.009202825690286645 0.06611890330627963 0.9907971743097135 -0.06611890330627963 0.9907971743097135 -0.06611890330627963 0.009202825690286645 0.06611890330627963
7.276E9 0.010044440619145925 0.06735604745589373 0.9899555593808541 -0.06735604745589373 0.9899555593808541 -0.06735604745589373 0.010044440619145925 0.06735604745589373
7.35075E9 0.011092597040173943 0.068531967198264 0.988907402959826 -0.068531967198264 0.988907402959826 -0.068531967198264 0.011092597040173943 0.068531967198264
7.4255E9 0.012398016762398467 0.06955867589982338 0.9876019832376014 -0.06955867589982338 0.9876019832376014 -0.06955867589982338 0.012398016762398467 0.06955867589982338
7.50025E9 0.013985661333892903 0.07028008870017602 0.986014338666107 -0.07028008870017602 0.986014338666107 -0.07028008870017602 0.013985661333892903 0.07028008870017602
7.575E9 0.015783143959766533 0.07045962771407159 0.9842168560402333 -0.07045962771407159 0.9842168560402333 -0.07045962771407159 0.015783143959766533 0.07045962771407159
7.64975E9 0.017502252578865445 0.06985055332566155 0.9824977474211345 -0.06985055332566155 0.9824977474211345 -0.06985055332566155 0.017502252578865445 0.06985055332566155
7.7245E9 0.018596164201966085 0.06844061573856305 0.9814038357980338 -0.06844061573856305 0.9814038357980338 -0.06844061573856305 0.018596164201966085 0.06844061573856305
7.79925E9 0.018559281669317088 0.06672022552450056 0.9814407183306829 -0.06672022552450056 0.9814407183306829 -0.06672022552450056 0.018559281669317088 0.06672022552450056
7.874E9 0.017435881724240786 0.0654634350848102 0.9825641182757592 -0.0654634350848102 0.9825641182757592 -0.0654634350848102 0.017435881724240786 0.0654634350848102
7.94875E9 0.015794785792854697 0.06510524991294163 0.9842052142071452 -0.06510524991294163 0.9842052142071452 -0.06510524991294163 0.015794785792854697 0.06510524991294163
8.0235E9 0.01419339167577598 0.06556275396741644 0.9858066083242241 -0.06556275396741644 0.9858066083242241 -0.06556275396741644 0.01419339167577598 0.06556275396741644
8.09825E9 0.012893669539113983 0.0665414271677386 0.9871063304608861 -0.0665414271677386 0.9871063304608861 -0.0665414271677386 0.012893669539113983 0.0665414271677386
8.173E9 0.011934319858389587 0.06778628081958993 0.9880656801416104 -0.06778628081958993 0.9880656801416104 -0.06778628081958993 0.011934319858389587 0.06778628081958993
8.24775E9 0.011264472525115202 0.06914064499772372 0.9887355274748848 -0.06914064499772372 0.9887355274748848 -0.06914064499772372 0.011264472525115202 0.06914064499772372
8.3225E9 0.010817300935535628 0.07052284033752829 0.9891826990644644 -0.07052284033752829 0.9891826990644644 -0.07052284033752829 0.010817300935535628 0.07052284033752829
8.39725E9 0.01053548290671195 0.07189482587215464 0.9894645170932883 -0.07189482587215464 0.9894645170932883 -0.07189482587215464 0.01053548290671195 0.07189482587215464
8.472E9 0.010375771927819466 0.0732412107860184 0.9896242280721805 -0.0732412107860184 0.9896242280721805 -0.0732412107860184 0.010375771927819466 0.0732412107860184
