!Murata Part Number: GJM0225C1E7R3BB01
!These Parameters are Measured in Series Mode Connection
!       o--ll--o
!Port1            Port2
!       o------o
!Operation Temp=25[degC], DC Bias Voltage=0[V]
!Freq. Start=100[MHz] Stop=30[GHz], 401[Steps]
!Data Generated on Feb 1, 2023
# Hz S RI R 50
!Freq.(Hz) S11(Real) S11(Imag) S21(Real) S21(Imag) S12(Real) S12(Imag) S22(Real) S22(Imag)
1.0E8 0.8259410383302348 -0.378942125017934 0.17405896166976517 0.378942125017934 0.17405896166976517 0.378942125017934 0.8259410383302348 -0.378942125017934
1.7475E8 0.6080682114645217 -0.4877997538519042 0.3919317885354782 0.4877997538519042 0.3919317885354782 0.4877997538519042 0.6080682114645217 -0.4877997538519042
2.495E8 0.4315794596848456 -0.4947495816210166 0.5684205403151543 0.4947495816210166 0.5684205403151543 0.4947495816210166 0.4315794596848456 -0.4947495816210166
3.2425E8 0.3094331614285725 -0.4615460813357709 0.6905668385714276 0.4615460813357709 0.6905668385714276 0.4615460813357709 0.3094331614285725 -0.4615460813357709
3.99E8 0.22762765519376352 -0.418417683956472 0.7723723448062365 0.418417683956472 0.7723723448062365 0.418417683956472 0.22762765519376352 -0.418417683956472
4.7375E8 0.17219872200969594 -0.376497377545529 0.827801277990304 0.376497377545529 0.827801277990304 0.376497377545529 0.17219872200969594 -0.376497377545529
5.485E8 0.13366819927114376 -0.33906379712919077 0.8663318007288563 0.33906379712919077 0.8663318007288563 0.33906379712919077 0.13366819927114376 -0.33906379712919077
6.2325E8 0.10611732852773448 -0.30657590248766625 0.8938826714722653 0.30657590248766625 0.8938826714722653 0.30657590248766625 0.10611732852773448 -0.30657590248766625
6.98E8 0.08588081479557438 -0.278591251941902 0.9141191852044258 0.278591251941902 0.9141191852044258 0.278591251941902 0.08588081479557438 -0.278591251941902
7.7275E8 0.07065153475694981 -0.2544549067118464 0.92934846524305 0.2544549067118464 0.92934846524305 0.2544549067118464 0.07065153475694981 -0.2544549067118464
8.475E8 0.05894148669327876 -0.23353199861096174 0.9410585133067213 0.23353199861096174 0.9410585133067213 0.23353199861096174 0.05894148669327876 -0.23353199861096174
9.2225E8 0.04976562441112175 -0.2152744373004851 0.9502343755888784 0.2152744373004851 0.9502343755888784 0.2152744373004851 0.04976562441112175 -0.2152744373004851
9.97E8 0.04245514078554136 -0.19922926390662674 0.9575448592144586 0.19922926390662674 0.9575448592144586 0.19922926390662674 0.04245514078554136 -0.19922926390662674
1.07175E9 0.036545090834346566 -0.1850283661525951 0.9634549091656532 0.1850283661525951 0.9634549091656532 0.1850283661525951 0.036545090834346566 -0.1850283661525951
1.1465E9 0.03170517677093249 -0.17237399810424064 0.9682948232290672 0.17237399810424064 0.9682948232290672 0.17237399810424064 0.03170517677093249 -0.17237399810424064
1.22125E9 0.02769608612270025 -0.16102504984836097 0.9723039138772999 0.16102504984836097 0.9723039138772999 0.16102504984836097 0.02769608612270025 -0.16102504984836097
1.296E9 0.024341301134483836 -0.15078546260732908 0.9756586988655163 0.15078546260732908 0.9756586988655163 0.15078546260732908 0.024341301134483836 -0.15078546260732908
1.37075E9 0.021508492564751187 -0.14149490789862082 0.9784915074352487 0.14149490789862082 0.9784915074352487 0.14149490789862082 0.021508492564751187 -0.14149490789862082
1.4455E9 0.019096984818693548 -0.13302144176282957 0.9809030151813064 0.13302144176282957 0.9809030151813064 0.13302144176282957 0.019096984818693548 -0.13302144176282957
1.52025E9 0.0170291493174351 -0.12525576202537364 0.9829708506825648 0.12525576202537364 0.9829708506825648 0.12525576202537364 0.0170291493174351 -0.12525576202537364
1.595E9 0.015244390461602883 -0.1181067255218327 0.9847556095383972 0.1181067255218327 0.9847556095383972 0.1181067255218327 0.015244390461602883 -0.1181067255218327
1.66975E9 0.013694874645214327 -0.11149784152792175 0.9863051253547857 0.11149784152792175 0.9863051253547857 0.11149784152792175 0.013694874645214327 -0.11149784152792175
1.7445E9 0.012342451486841287 -0.10536451752350498 0.9876575485131588 0.10536451752350498 0.9876575485131588 0.10536451752350498 0.012342451486841287 -0.10536451752350498
1.81925E9 0.011156403642371469 -0.09965188454372068 0.9888435963576288 0.09965188454372068 0.9888435963576288 0.09965188454372068 0.011156403642371469 -0.09965188454372068
1.894E9 0.010111781074636521 -0.09431307013665777 0.9898882189253634 0.09431307013665777 0.9898882189253634 0.09431307013665777 0.010111781074636521 -0.09431307013665777
1.96875E9 0.009188153297662226 -0.08930781842567223 0.9908118467023376 0.08930781842567223 0.9908118467023376 0.08930781842567223 0.009188153297662226 -0.08930781842567223
2.0435E9 0.008368664388583314 -0.08460138070672142 0.9916313356114167 0.08460138070672142 0.9916313356114167 0.08460138070672142 0.008368664388583314 -0.08460138070672142
2.11825E9 0.007639309946733618 -0.08016361808316962 0.9923606900532662 0.08016361808316962 0.9923606900532662 0.08016361808316962 0.007639309946733618 -0.08016361808316962
2.193E9 0.006988378574155129 -0.07596827126282636 0.9930116214258448 0.07596827126282636 0.9930116214258448 0.07596827126282636 0.006988378574155129 -0.07596827126282636
2.26775E9 0.006406016584514565 -0.07199236292220984 0.9935939834154853 0.07199236292220984 0.9935939834154853 0.07199236292220984 0.006406016584514565 -0.07199236292220984
2.3425E9 0.005883885914077949 -0.0682157058243627 0.994116114085922 0.0682157058243627 0.994116114085922 0.0682157058243627 0.005883885914077949 -0.0682157058243627
2.41725E9 0.005414893170786021 -0.06462049579067962 0.9945851068292139 0.06462049579067962 0.9945851068292139 0.06462049579067962 0.005414893170786021 -0.06462049579067962
2.492E9 0.004992973447886473 -0.06119097314379291 0.9950070265521136 0.06119097314379291 0.9950070265521136 0.06119097314379291 0.004992973447886473 -0.06119097314379291
2.56675E9 0.0046129166382810035 -0.057913139705801954 0.995387083361719 0.057913139705801954 0.995387083361719 0.057913139705801954 0.0046129166382810035 -0.057913139705801954
2.6415E9 0.004270226983389598 -0.054774521112246316 0.9957297730166101 0.054774521112246316 0.9957297730166101 0.054774521112246316 0.004270226983389598 -0.054774521112246316
2.71625E9 0.003961008797373588 -0.051763966279082474 0.9960389912026264 0.051763966279082474 0.9960389912026264 0.051763966279082474 0.003961008797373588 -0.051763966279082474
2.791E9 0.0036818729469250844 -0.048871477480591285 0.9963181270530749 0.048871477480591285 0.9963181270530749 0.048871477480591285 0.0036818729469250844 -0.048871477480591285
2.86575E9 0.0034298598947514157 -0.046088065767707756 0.9965701401052487 0.046088065767707756 0.9965701401052487 0.046088065767707756 0.0034298598947514157 -0.046088065767707756
2.9405E9 0.003202376041929251 -0.04340562745925809 0.9967976239580708 0.04340562745925809 0.9967976239580708 0.04340562745925809 0.003202376041929251 -0.04340562745925809
3.01525E9 0.0029971408094689967 -0.04081683823387691 0.997002859190531 0.04081683823387691 0.997002859190531 0.04081683823387691 0.0029971408094689967 -0.04081683823387691
3.09E9 0.002812142439654786 -0.03831506198417622 0.9971878575603452 0.03831506198417622 0.9971878575603452 0.03831506198417622 0.002812142439654786 -0.03831506198417622
3.16475E9 0.0026456009144013868 -0.03589427210233874 0.9973543990855988 0.03589427210233874 0.9973543990855988 0.03589427210233874 0.0026456009144013868 -0.03589427210233874
3.2395E9 0.002495936711328386 -0.03354898327478175 0.9975040632886716 0.03354898327478175 0.9975040632886716 0.03354898327478175 0.002495936711328386 -0.03354898327478175
3.31425E9 0.002361744370894121 -0.03127419219376888 0.9976382556291057 0.03127419219376888 0.9976382556291057 0.03127419219376888 0.002361744370894121 -0.03127419219376888
3.389E9 0.0022417700464184786 -0.029065325862014796 0.9977582299535814 0.029065325862014796 0.9977582299535814 0.029065325862014796 0.0022417700464184786 -0.029065325862014796
3.46375E9 0.0021348923656370655 -0.02691819638504267 0.9978651076343629 0.02691819638504267 0.9978651076343629 0.02691819638504267 0.0021348923656370655 -0.02691819638504267
3.5385E9 0.0020401060569809693 -0.024828961325177906 0.9979598939430191 0.024828961325177906 0.9979598939430191 0.024828961325177906 0.0020401060569809693 -0.024828961325177906
3.61325E9 0.0019565078932097264 -0.02279408883835427 0.9980434921067903 0.02279408883835427 0.9980434921067903 0.02279408883835427 0.0019565078932097264 -0.02279408883835427
3.688E9 0.0018832845847941485 -0.020810326936498598 0.9981167154152059 0.020810326936498598 0.9981167154152059 0.020810326936498598 0.0018832845847941485 -0.020810326936498598
3.76275E9 0.0018197023197390144 -0.018874676319008053 0.9981802976802608 0.018874676319008053 0.9981802976802608 0.018874676319008053 0.0018197023197390144 -0.018874676319008053
3.8375E9 0.001765097698588812 -0.016984366300617972 0.9982349023014111 0.016984366300617972 0.9982349023014111 0.016984366300617972 0.001765097698588812 -0.016984366300617972
3.91225E9 0.0017188698556843277 -0.01513683343287592 0.9982811301443157 0.01513683343287592 0.9982811301443157 0.01513683343287592 0.0017188698556843277 -0.01513683343287592
3.987E9 0.0016804735922949475 -0.013329702474983373 0.9983195264077048 0.013329702474983373 0.9983195264077048 0.013329702474983373 0.0016804735922949475 -0.013329702474983373
4.06175E9 0.0016494133755786836 -0.011560769418949079 0.9983505866244214 0.011560769418949079 0.9983505866244214 0.011560769418949079 0.0016494133755786836 -0.011560769418949079
4.1365E9 0.0016252380806312005 -0.009827986315445411 0.9983747619193687 0.009827986315445411 0.9983747619193687 0.009827986315445411 0.0016252380806312005 -0.009827986315445411
4.21125E9 0.0016075363721361274 -0.008129447681794378 0.9983924636278642 0.008129447681794378 0.9983924636278642 0.008129447681794378 0.0016075363721361274 -0.008129447681794378
4.286E9 0.0015959326380845622 -0.006463378303212925 0.9984040673619157 0.006463378303212925 0.9984040673619157 0.006463378303212925 0.0015959326380845622 -0.006463378303212925
4.36075E9 0.001590083401301484 -0.0048281222637007095 0.9984099165986986 0.0048281222637007095 0.9984099165986986 0.0048281222637007095 0.001590083401301484 -0.0048281222637007095
4.4355E9 0.0015896741455891392 -0.0032221330644827727 0.9984103258544108 0.0032221330644827727 0.9984103258544108 0.0032221330644827727 0.0015896741455891392 -0.0032221330644827727
4.51025E9 0.0015944165025659504 -0.0016439647063250147 0.998405583497434 0.0016439647063250147 0.998405583497434 0.0016439647063250147 0.0015944165025659504 -0.0016439647063250147
4.585E9 0.0016040457530617502 -9.22636278129301E-5 0.998395954246938 9.22636278129301E-5 0.998395954246938 9.22636278129301E-5 0.0016040457530617502 -9.22636278129301E-5
4.65975E9 0.001618318603484116 0.0014342385947629232 0.9983816813965158 -0.0014342385947629232 0.9983816813965158 -0.0014342385947629232 0.001618318603484116 0.0014342385947629232
4.7345E9 0.001637011203106003 0.0029367318685998506 0.998362988796894 -0.0029367318685998506 0.998362988796894 -0.0029367318685998506 0.001637011203106003 0.0029367318685998506
4.80925E9 0.0016599173729131853 0.004416333599262 0.9983400826270868 -0.004416333599262 0.9983400826270868 -0.004416333599262 0.0016599173729131853 0.004416333599262
4.884E9 0.0016868470206315809 0.0058740941631347235 0.9983131529793684 -0.0058740941631347235 0.9983131529793684 -0.0058740941631347235 0.0016868470206315809 0.0058740941631347235
4.95875E9 0.0017176247199448397 0.007311001893782439 0.9982823752800549 -0.007311001893782439 0.9982823752800549 -0.007311001893782439 0.0017176247199448397 0.007311001893782439
5.0335E9 0.001752088434806858 0.00872798763196746 0.9982479115651931 -0.00872798763196746 0.9982479115651931 -0.00872798763196746 0.001752088434806858 0.00872798763196746
5.10825E9 0.0017900883722307159 0.010125928883365231 0.9982099116277693 -0.010125928883365231 0.9982099116277693 -0.010125928883365231 0.0017900883722307159 0.010125928883365231
5.183E9 0.001831485949060474 0.011505653623017786 0.9981685140509393 -0.011505653623017786 0.9981685140509393 -0.011505653623017786 0.001831485949060474 0.011505653623017786
5.25775E9 0.0018761528600594382 0.012867943781202157 0.9981238471399408 -0.012867943781202157 0.9981238471399408 -0.012867943781202157 0.0018761528600594382 0.012867943781202157
5.3325E9 0.0019239702362233424 0.014213538441565633 0.9980760297637769 -0.014213538441565633 0.9980760297637769 -0.014213538441565633 0.0019239702362233424 0.014213538441565633
5.40725E9 0.001974827883587303 0.015543136779023695 0.9980251721164125 -0.015543136779023695 0.9980251721164125 -0.015543136779023695 0.001974827883587303 0.015543136779023695
5.482E9 0.00202862359397312 0.016857400761965718 0.997971376406027 -0.016857400761965718 0.997971376406027 -0.016857400761965718 0.00202862359397312 0.016857400761965718
5.55675E9 0.0020852625201453236 0.018156957640714483 0.9979147374798546 -0.018156957640714483 0.9979147374798546 -0.018156957640714483 0.0020852625201453236 0.018156957640714483
5.6315E9 0.0021446566087327578 0.01944240224189299 0.9978553433912675 -0.01944240224189299 0.9978553433912675 -0.01944240224189299 0.0021446566087327578 0.01944240224189299
5.70625E9 0.0022067240850465546 0.020714299086325935 0.9977932759149535 -0.020714299086325935 0.9977932759149535 -0.020714299086325935 0.0022067240850465546 0.020714299086325935
5.781E9 0.0022713889846011338 0.02197318434631021 0.9977286110153989 -0.02197318434631021 0.9977286110153989 -0.02197318434631021 0.0022713889846011338 0.02197318434631021
5.85575E9 0.0023385807267360665 0.02321956765649878 0.9976614192732638 -0.02321956765649878 0.9976614192732638 -0.02321956765649878 0.0023385807267360665 0.02321956765649878
5.9305E9 0.002408233726255 0.024453933791231997 0.9975917662737449 -0.024453933791231997 0.9975917662737449 -0.024453933791231997 0.002408233726255 0.024453933791231997
6.00525E9 0.0024802870394530748 0.025676744219895024 0.9975197129605469 -0.025676744219895024 0.9975197129605469 -0.025676744219895024 0.0024802870394530748 0.025676744219895024
6.08E9 0.0025546840413051414 0.026888438550764095 0.9974453159586947 -0.026888438550764095 0.9974453159586947 -0.026888438550764095 0.0025546840413051414 0.026888438550764095
6.15475E9 0.002631372130940525 0.028089435872807822 0.9973686278690596 -0.028089435872807822 0.9973686278690596 -0.028089435872807822 0.002631372130940525 0.028089435872807822
6.2295E9 0.002710302462842795 0.0292801360040223 0.9972896975371573 -0.0292801360040223 0.9972896975371573 -0.0292801360040223 0.002710302462842795 0.0292801360040223
6.30425E9 0.0027914297014897814 0.030460920654083443 0.9972085702985104 -0.030460920654083443 0.9972085702985104 -0.030460920654083443 0.0027914297014897814 0.030460920654083443
6.379E9 0.00287471179739515 0.03163215450839107 0.9971252882026049 -0.03163215450839107 0.9971252882026049 -0.03163215450839107 0.00287471179739515 0.03163215450839107
6.45375E9 0.0029601097827317404 0.03279418623994159 0.9970398902172681 -0.03279418623994159 0.9970398902172681 -0.03279418623994159 0.0029601097827317404 0.03279418623994159
6.5285E9 0.0030475875849124536 0.03394734945489754 0.9969524124150876 -0.03394734945489754 0.9969524124150876 -0.03394734945489754 0.0030475875849124536 0.03394734945489754
6.60325E9 0.0031371118566794007 0.0350919635772088 0.9968628881433205 -0.0350919635772088 0.9968628881433205 -0.0350919635772088 0.0031371118566794007 0.0350919635772088
6.678E9 0.0032286518214093706 0.03622833467718334 0.9967713481785906 -0.03622833467718334 0.9967713481785906 -0.03622833467718334 0.0032286518214093706 0.03622833467718334
6.75275E9 0.0033221791324853007 0.0373567562484907 0.9966778208675146 -0.0373567562484907 0.9966778208675146 -0.0373567562484907 0.0033221791324853007 0.0373567562484907
6.8275E9 0.0034176677457117845 0.038477509937712095 0.9965823322542882 -0.038477509937712095 0.9965823322542882 -0.038477509937712095 0.0034176677457117845 0.038477509937712095
6.90225E9 0.0035150938038693027 0.03959086623021747 0.9964849061961306 -0.03959086623021747 0.9964849061961306 -0.03959086623021747 0.0035150938038693027 0.03959086623021747
6.977E9 0.0036144355326084426 0.04069708509585032 0.9963855644673917 -0.04069708509585032 0.9963855644673917 -0.04069708509585032 0.0036144355326084426 0.04069708509585032
7.05175E9 0.003715673146983507 0.041796416597632405 0.9962843268530168 -0.041796416597632405 0.9962843268530168 -0.041796416597632405 0.003715673146983507 0.041796416597632405
7.1265E9 0.003818788768015623 0.04288910146645892 0.9961812112319844 -0.04288910146645892 0.9961812112319844 -0.04288910146645892 0.003818788768015623 0.04288910146645892
7.20125E9 0.003923766348760259 0.043975371644538304 0.9960762336512395 -0.043975371644538304 0.9960762336512395 -0.043975371644538304 0.003923766348760259 0.043975371644538304
7.276E9 0.004030591609433739 0.045055450800136905 0.9959694083905661 -0.045055450800136905 0.9959694083905661 -0.045055450800136905 0.004030591609433739 0.045055450800136905
7.35075E9 0.004139251981229329 0.04612955481601675 0.9958607480187706 -0.04612955481601675 0.9958607480187706 -0.04612955481601675 0.004139251981229329 0.04612955481601675
7.4255E9 0.004249736558526225 0.047197892253799265 0.9957502634414737 -0.047197892253799265 0.9957502634414737 -0.047197892253799265 0.004249736558526225 0.047197892253799265
7.50025E9 0.0043620360592659295 0.0482606647963539 0.995637963940734 -0.0482606647963539 0.995637963940734 -0.0482606647963539 0.0043620360592659295 0.0482606647963539
7.575E9 0.00447614279334039 0.049318067670189175 0.9955238572066596 -0.049318067670189175 0.9955238572066596 -0.049318067670189175 0.00447614279334039 0.049318067670189175
7.64975E9 0.004592050638906155 0.050370290049720164 0.9954079493610938 -0.050370290049720164 0.9954079493610938 -0.050370290049720164 0.004592050638906155 0.050370290049720164
7.7245E9 0.004709755026609948 0.051417515445197765 0.9952902449733901 -0.051417515445197765 0.9952902449733901 -0.051417515445197765 0.004709755026609948 0.051417515445197765
7.79925E9 0.004829252931783602 0.05245992207600736 0.9951707470682165 -0.05245992207600736 0.9951707470682165 -0.05245992207600736 0.004829252931783602 0.05245992207600736
7.874E9 0.00495054287474274 0.053497683230985 0.995049457125257 -0.053497683230985 0.995049457125257 -0.053497683230985 0.00495054287474274 0.053497683230985
7.94875E9 0.0050736249294035946 0.05453096761734694 0.9949263750705964 -0.05453096761734694 0.9949263750705964 -0.05453096761734694 0.0050736249294035946 0.05453096761734694
8.0235E9 0.005198500740518681 0.05555993969979495 0.9948014992594812 -0.05555993969979495 0.9948014992594812 -0.05555993969979495 0.005198500740518681 0.05555993969979495
8.09825E9 0.005325173549925213 0.05658476003133485 0.9946748264500745 -0.05658476003133485 0.9946748264500745 -0.05658476003133485 0.005325173549925213 0.05658476003133485
8.173E9 0.005453648232302277 0.05760558557733531 0.9945463517676977 -0.05760558557733531 0.9945463517676977 -0.05760558557733531 0.005453648232302277 0.05760558557733531
8.24775E9 0.005583931341046057 0.05862257003435851 0.994416068658954 -0.05862257003435851 0.994416068658954 -0.05862257003435851 0.005583931341046057 0.05862257003435851
8.3225E9 0.005716031164998457 0.05963586414530886 0.9942839688350015 -0.05963586414530886 0.9942839688350015 -0.05963586414530886 0.005716031164998457 0.05963586414530886
8.39725E9 0.005849957796906783 0.06064561601248079 0.994150042203093 -0.06064561601248079 0.994150042203093 -0.06064561601248079 0.005849957796906783 0.06064561601248079
8.472E9 0.005985723214653088 0.061651971410130485 0.9940142767853469 -0.061651971410130485 0.9940142767853469 -0.061651971410130485 0.005985723214653088 0.061651971410130485
