!Murata Part Number: GJM0225C1E2R0BB01
!These Parameters are Measured in Series Mode Connection
!       o--ll--o
!Port1            Port2
!       o------o
!Operation Temp=25[degC], DC Bias Voltage=0[V]
!Freq. Start=100[MHz] Stop=30[GHz], 401[Steps]
!Data Generated on Feb 1, 2023
# Hz S RI R 50
!Freq.(Hz) S11(Real) S11(Imag) S21(Real) S21(Imag) S12(Real) S12(Imag) S22(Real) S22(Imag)
1.0E8 0.9844220953922125 -0.12371778184617534 0.015577904607787473 0.12371778184617534 0.015577904607787473 0.12371778184617534 0.9844220953922125 -0.12371778184617534
1.7475E8 0.953883952587189 -0.20953062903170175 0.04611604741281084 0.20953062903170175 0.04611604741281084 0.20953062903170175 0.953883952587189 -0.20953062903170175
2.495E8 0.9102330551750171 -0.2855536138951745 0.08976694482498296 0.2855536138951745 0.08976694482498296 0.2855536138951745 0.9102330551750171 -0.2855536138951745
3.2425E8 0.857103218577388 -0.34958518271084776 0.14289678142261192 0.34958518271084776 0.14289678142261192 0.34958518271084776 0.857103218577388 -0.34958518271084776
3.99E8 0.7982450993013116 -0.4008391310186478 0.20175490069868837 0.4008391310186478 0.20175490069868837 0.4008391310186478 0.7982450993013116 -0.4008391310186478
4.7375E8 0.7370129119308324 -0.43969541824573377 0.26298708806916765 0.43969541824573377 0.26298708806916765 0.43969541824573377 0.7370129119308324 -0.43969541824573377
5.485E8 0.6760802183113909 -0.4673203788963471 0.32391978168860897 0.4673203788963471 0.32391978168860897 0.4673203788963471 0.6760802183113909 -0.4673203788963471
6.2325E8 0.6173653677007374 -0.4852909262426484 0.3826346322992627 0.4852909262426484 0.3826346322992627 0.4852909262426484 0.6173653677007374 -0.4852909262426484
6.98E8 0.5620972337846584 -0.4952993043085025 0.4379027662153417 0.4952993043085025 0.4379027662153417 0.4952993043085025 0.5620972337846584 -0.4952993043085025
7.7275E8 0.5109481766811438 -0.49895955227668554 0.48905182331885627 0.49895955227668554 0.48905182331885627 0.49895955227668554 0.5109481766811438 -0.49895955227668554
8.475E8 0.4641809493093128 -0.49770321587816985 0.5358190506906872 0.49770321587816985 0.5358190506906872 0.49770321587816985 0.4641809493093128 -0.49770321587816985
9.2225E8 0.4217799700228509 -0.49273934701933475 0.5782200299771489 0.49273934701933475 0.5782200299771489 0.49273934701933475 0.4217799700228509 -0.49273934701933475
9.97E8 0.3835554778348747 -0.48505427312201266 0.6164445221651252 0.48505427312201266 0.6164445221651252 0.48505427312201266 0.3835554778348747 -0.48505427312201266
1.07175E9 0.349219758401755 -0.47543232624321935 0.6507802415982448 0.47543232624321935 0.6507802415982448 0.47543232624321935 0.349219758401755 -0.47543232624321935
1.1465E9 0.3184395189376855 -0.4644851183727807 0.6815604810623145 0.4644851183727807 0.6815604810623145 0.4644851183727807 0.3184395189376855 -0.4644851183727807
1.22125E9 0.29086988058728813 -0.45268211631853367 0.7091301194127119 0.45268211631853367 0.7091301194127119 0.45268211631853367 0.29086988058728813 -0.45268211631853367
1.296E9 0.26617512549725125 -0.44037881796020967 0.7338248745027487 0.44037881796020967 0.7338248745027487 0.44037881796020967 0.26617512549725125 -0.44037881796020967
1.37075E9 0.24404036735168055 -0.42784101067823715 0.7559596326483194 0.42784101067823715 0.7559596326483194 0.42784101067823715 0.24404036735168055 -0.42784101067823715
1.4455E9 0.22417726075399733 -0.4152648046745661 0.7758227392460026 0.4152648046745661 0.7758227392460026 0.4152648046745661 0.22417726075399733 -0.4152648046745661
1.52025E9 0.2063259552861822 -0.40279273376715524 0.793674044713818 0.40279273376715524 0.793674044713818 0.40279273376715524 0.2063259552861822 -0.40279273376715524
1.595E9 0.19025479551463345 -0.39052646019540643 0.8097452044853667 0.39052646019540643 0.8097452044853667 0.39052646019540643 0.19025479551463345 -0.39052646019540643
1.66975E9 0.1757587561409057 -0.3785366733444189 0.8242412438590945 0.3785366733444189 0.8242412438590945 0.3785366733444189 0.1757587561409057 -0.3785366733444189
1.7445E9 0.16265724474201473 -0.36687073380495516 0.8373427552579852 0.36687073380495516 0.8373427552579852 0.36687073380495516 0.16265724474201473 -0.36687073380495516
1.81925E9 0.15079166356078436 -0.3555585389819166 0.8492083364392156 0.3555585389819166 0.8492083364392156 0.3555585389819166 0.15079166356078436 -0.3555585389819166
1.894E9 0.14002296302405942 -0.3446170032256067 0.8599770369759405 0.3446170032256067 0.8599770369759405 0.3446170032256067 0.14002296302405942 -0.3446170032256067
1.96875E9 0.13022931736836738 -0.3340534676956923 0.8697706826316328 0.3340534676956923 0.8697706826316328 0.3340534676956923 0.13022931736836738 -0.3340534676956923
2.0435E9 0.12130398834636677 -0.32386828815923957 0.8786960116536331 0.32386828815923957 0.8786960116536331 0.32386828815923957 0.12130398834636677 -0.32386828815923957
2.11825E9 0.11315340351776117 -0.31405679377250534 0.8868465964822387 0.31405679377250534 0.8868465964822387 0.31405679377250534 0.11315340351776117 -0.31405679377250534
2.193E9 0.10569545229315225 -0.3046107657732011 0.8943045477068478 0.3046107657732011 0.8943045477068478 0.3046107657732011 0.10569545229315225 -0.3046107657732011
2.26775E9 0.0988579898285075 -0.29551955035278404 0.9011420101714924 0.29551955035278404 0.9011420101714924 0.29551955035278404 0.0988579898285075 -0.29551955035278404
2.3425E9 0.09257753220431349 -0.2867708930846513 0.9074224677956865 0.2867708930846513 0.9074224677956865 0.2867708930846513 0.09257753220431349 -0.2867708930846513
2.41725E9 0.0867981235650745 -0.278351561581876 0.9132018764349255 0.278351561581876 0.9132018764349255 0.278351561581876 0.0867981235650745 -0.278351561581876
2.492E9 0.08147035543895335 -0.2702478072050048 0.9185296445610467 0.2702478072050048 0.9185296445610467 0.2702478072050048 0.08147035543895335 -0.2702478072050048
2.56675E9 0.07655051929150285 -0.2624457045400836 0.9234494807084972 0.2624457045400836 0.9234494807084972 0.2624457045400836 0.07655051929150285 -0.2624457045400836
2.6415E9 0.07199987486248559 -0.2549313981481983 0.9280001251375145 0.2549313981481983 0.9280001251375145 0.2549313981481983 0.07199987486248559 -0.2549313981481983
2.71625E9 0.06778401860833277 -0.24769127907014943 0.9322159813916672 0.24769127907014943 0.9322159813916672 0.24769127907014943 0.06778401860833277 -0.24769127907014943
2.791E9 0.06387233839968691 -0.2407121082284722 0.936127661600313 0.2407121082284722 0.936127661600313 0.2407121082284722 0.06387233839968691 -0.2407121082284722
2.86575E9 0.06023754237748582 -0.23398109980189094 0.939762457622514 0.23398109980189094 0.939762457622514 0.23398109980189094 0.06023754237748582 -0.23398109980189094
2.9405E9 0.05685525148732612 -0.22748597454819597 0.943144748512674 0.22748597454819597 0.943144748512674 0.22748597454819597 0.05685525148732612 -0.22748597454819597
3.01525E9 0.0537036466627514 -0.22121499068778222 0.9462963533372486 0.22121499068778222 0.9462963533372486 0.22121499068778222 0.0537036466627514 -0.22121499068778222
3.09E9 0.05076316290795907 -0.21515695815531924 0.9492368370920409 0.21515695815531924 0.9492368370920409 0.21515695815531924 0.05076316290795907 -0.21515695815531924
3.16475E9 0.0480162236457755 -0.20930124064749445 0.9519837763542246 0.20930124064749445 0.9519837763542246 0.20930124064749445 0.0480162236457755 -0.20930124064749445
3.2395E9 0.045447009660540966 -0.20363774883920827 0.954552990339459 0.20363774883920827 0.954552990339459 0.20363774883920827 0.045447009660540966 -0.20363774883920827
3.31425E9 0.043041257793389937 -0.1981569273321373 0.95695874220661 0.1981569273321373 0.95695874220661 0.1981569273321373 0.043041257793389937 -0.1981569273321373
3.389E9 0.040786085255513985 -0.19284973727989257 0.959213914744486 0.19284973727989257 0.959213914744486 0.19284973727989257 0.040786085255513985 -0.19284973727989257
3.46375E9 0.03866983602894907 -0.18770763615875222 0.961330163971051 0.18770763615875222 0.961330163971051 0.18770763615875222 0.03866983602894907 -0.18770763615875222
3.5385E9 0.036681946338595464 -0.18272255578836483 0.9633180536614047 0.18272255578836483 0.9633180536614047 0.18272255578836483 0.036681946338595464 -0.18272255578836483
3.61325E9 0.03481282661642732 -0.17788687942716447 0.9651871733835728 0.17788687942716447 0.9651871733835728 0.17788687942716447 0.03481282661642732 -0.17788687942716447
3.688E9 0.03305375775050277 -0.17319341855283718 0.966946242249497 0.17319341855283718 0.966946242249497 0.17319341855283718 0.03305375775050277 -0.17319341855283718
3.76275E9 0.03139679972726846 -0.16863538977397766 0.9686032002727316 0.16863538977397766 0.9686032002727316 0.16863538977397766 0.03139679972726846 -0.16863538977397766
3.8375E9 0.02983471104422217 -0.1642063921935274 0.9701652889557779 0.1642063921935274 0.9701652889557779 0.1642063921935274 0.02983471104422217 -0.1642063921935274
3.91225E9 0.028360877498480628 -0.15990038544883753 0.9716391225015192 0.15990038544883753 0.9716391225015192 0.15990038544883753 0.028360877498480628 -0.15990038544883753
3.987E9 0.02696924915133924 -0.15571166858041538 0.9730307508486606 0.15571166858041538 0.9730307508486606 0.15571166858041538 0.02696924915133924 -0.15571166858041538
4.06175E9 0.02565428443472215 -0.15163485982635372 0.9743457155652779 0.15163485982635372 0.9743457155652779 0.15163485982635372 0.02565428443472215 -0.15163485982635372
4.1365E9 0.02441090050690694 -0.1476648773980411 0.9755890994930931 0.1476648773980411 0.9755890994930931 0.1476648773980411 0.02441090050690694 -0.1476648773980411
4.21125E9 0.023234429085794702 -0.14379692126188254 0.9767655709142052 0.14379692126188254 0.9767655709142052 0.14379692126188254 0.023234429085794702 -0.14379692126188254
4.286E9 0.022120577091419635 -0.1400264559289953 0.9778794229085804 0.1400264559289953 0.9778794229085804 0.1400264559289953 0.022120577091419635 -0.1400264559289953
4.36075E9 0.02106539151800499 -0.1363491942383142 0.9789346084819949 0.1363491942383142 0.9789346084819949 0.1363491942383142 0.02106539151800499 -0.1363491942383142
4.4355E9 0.02006522803190572 -0.1327610821067855 0.9799347719680943 0.1327610821067855 0.9799347719680943 0.1327610821067855 0.02006522803190572 -0.1327610821067855
4.51025E9 0.019116722857118244 -0.12925828421222402 0.9808832771428817 0.12925828421222402 0.9808832771428817 0.12925828421222402 0.019116722857118244 -0.12925828421222402
4.585E9 0.018216767566275632 -0.12583717056908497 0.9817832324337243 0.12583717056908497 0.9817832324337243 0.12583717056908497 0.018216767566275632 -0.12583717056908497
4.65975E9 0.01736248644352551 -0.12249430395417639 0.9826375135564744 0.12249430395417639 0.9826375135564744 0.12249430395417639 0.01736248644352551 -0.12249430395417639
4.7345E9 0.01655121612754498 -0.11922642813769194 0.983448783872455 0.11922642813769194 0.983448783872455 0.11922642813769194 0.01655121612754498 -0.11922642813769194
4.80925E9 0.01578048727914345 -0.11603045687447035 0.9842195127208564 0.11603045687447035 0.9842195127208564 0.11603045687447035 0.01578048727914345 -0.11603045687447035
4.884E9 0.01504800804925605 -0.11290346361077334 0.9849519919507437 0.11290346361077334 0.9849519919507437 0.11290346361077334 0.01504800804925605 -0.11290346361077334
4.95875E9 0.014351649150327522 -0.1098426718628758 0.9856483508496725 0.1098426718628758 0.9856483508496725 0.1098426718628758 0.014351649150327522 -0.1098426718628758
5.0335E9 0.013689430357718297 -0.10684544622519933 0.9863105696422817 0.10684544622519933 0.9863105696422817 0.10684544622519933 0.013689430357718297 -0.10684544622519933
5.10825E9 0.013059508288328615 -0.10390928396744673 0.9869404917116714 0.10390928396744673 0.9869404917116714 0.10390928396744673 0.013059508288328615 -0.10390928396744673
5.183E9 0.012460165321561068 -0.10103180718210736 0.987539834678439 0.10103180718210736 0.987539834678439 0.10103180718210736 0.012460165321561068 -0.10103180718210736
5.25775E9 0.01188979954338705 -0.09821075544571435 0.9881102004566128 0.09821075544571435 0.9881102004566128 0.09821075544571435 0.01188979954338705 -0.09821075544571435
5.3325E9 0.011346915607961021 -0.09544397895928974 0.9886530843920388 0.09544397895928974 0.9886530843920388 0.09544397895928974 0.011346915607961021 -0.09544397895928974
5.40725E9 0.010830116423202616 -0.09272943213546495 0.9891698835767974 0.09272943213546495 0.9891698835767974 0.09272943213546495 0.010830116423202616 -0.09272943213546495
5.482E9 0.010338095577267156 -0.09006516760177713 0.9896619044227329 0.09006516760177713 0.9896619044227329 0.09006516760177713 0.010338095577267156 -0.09006516760177713
5.55675E9 0.009869630432046105 -0.08744933059159611 0.9901303695679537 0.08744933059159611 0.9901303695679537 0.08744933059159611 0.009869630432046105 -0.08744933059159611
5.6315E9 0.009423575817948069 -0.08488015369601712 0.9905764241820519 0.08488015369601712 0.9905764241820519 0.08488015369601712 0.009423575817948069 -0.08488015369601712
5.70625E9 0.008998858271351407 -0.08235595195184636 0.9910011417286486 0.08235595195184636 0.9910011417286486 0.08235595195184636 0.008998858271351407 -0.08235595195184636
5.781E9 0.008594470762416588 -0.07987511824250759 0.9914055292375834 0.07987511824250759 0.9914055292375834 0.07987511824250759 0.008594470762416588 -0.07987511824250759
5.85575E9 0.00820946786650746 -0.07743611899030621 0.9917905321334924 0.07743611899030621 0.9917905321334924 0.07743611899030621 0.00820946786650746 -0.07743611899030621
5.9305E9 0.007842961337387247 -0.07503749011999523 0.9921570386626128 0.07503749011999523 0.9921570386626128 0.07503749011999523 0.007842961337387247 -0.07503749011999523
6.00525E9 0.007494116044709153 -0.0726778332750071 0.9925058839552907 0.0726778332750071 0.9925058839552907 0.0726778332750071 0.007494116044709153 -0.0726778332750071
6.08E9 0.007162146242181165 -0.0703558122690377 0.9928378537578187 0.0703558122690377 0.9928378537578187 0.0703558122690377 0.007162146242181165 -0.0703558122690377
6.15475E9 0.0068463121362115536 -0.068070149756908 0.9931536878637887 0.068070149756908 0.9931536878637887 0.068070149756908 0.0068463121362115536 -0.068070149756908
6.2295E9 0.006545916727886774 -0.0658196241097772 0.9934540832721133 0.0658196241097772 0.9934540832721133 0.0658196241097772 0.006545916727886774 -0.0658196241097772
6.30425E9 0.006260302903844646 -0.06360306648085641 0.9937396970961553 0.06360306648085641 0.9937396970961553 0.06360306648085641 0.006260302903844646 -0.06360306648085641
6.379E9 0.005988850754020255 -0.06141935804876365 0.9940111492459797 0.06141935804876365 0.9940111492459797 0.06141935804876365 0.005988850754020255 -0.06141935804876365
6.45375E9 0.005730975096397095 -0.0592674274265876 0.994269024903603 0.0592674274265876 0.994269024903603 0.0592674274265876 0.005730975096397095 -0.0592674274265876
6.5285E9 0.005486123190820145 -0.057146248225583 0.9945138768091801 0.057146248225583 0.9945138768091801 0.057146248225583 0.005486123190820145 -0.057146248225583
6.60325E9 0.0052537726256484205 -0.05505483676321566 0.9947462273743517 0.05505483676321566 0.9947462273743517 0.05505483676321566 0.0052537726256484205 -0.05505483676321566
6.678E9 0.005033429362565112 -0.052992249906010494 0.994966570637435 0.052992249906010494 0.994966570637435 0.052992249906010494 0.005033429362565112 -0.052992249906010494
6.75275E9 0.004824625926243783 -0.05095758303833689 0.9951753740737562 0.05095758303833689 0.9951753740737562 0.05095758303833689 0.004824625926243783 -0.05095758303833689
6.8275E9 0.004626919726808177 -0.04894996814889907 0.9953730802731918 0.04894996814889907 0.9953730802731918 0.04894996814889907 0.004626919726808177 -0.04894996814889907
6.90225E9 0.00443989150413524 -0.046968572027279346 0.9955601084958648 0.046968572027279346 0.9955601084958648 0.046968572027279346 0.00443989150413524 -0.046968572027279346
6.977E9 0.004263143884051778 -0.045012594563427204 0.9957368561159482 0.045012594563427204 0.9957368561159482 0.045012594563427204 0.004263143884051778 -0.045012594563427204
7.05175E9 0.004096300037375043 -0.04308126714348345 0.9959036999626247 0.04308126714348345 0.9959036999626247 0.04308126714348345 0.004096300037375043 -0.04308126714348345
7.1265E9 0.003939002433559152 -0.04117385113579515 0.9960609975664408 0.04117385113579515 0.9960609975664408 0.04117385113579515 0.003939002433559152 -0.04117385113579515
7.20125E9 0.0037909116814405525 -0.03928963646140367 0.9962090883185593 0.03928963646140367 0.9962090883185593 0.03928963646140367 0.0037909116814405525 -0.03928963646140367
7.276E9 0.0036517054502364166 -0.03742794024368603 0.9963482945497635 0.03742794024368603 0.9963482945497635 0.03742794024368603 0.0036517054502364166 -0.03742794024368603
7.35075E9 0.0035210774645466616 -0.03558810553219734 0.9964789225354532 0.03558810553219734 0.9964789225354532 0.03558810553219734 0.0035210774645466616 -0.03558810553219734
7.4255E9 0.003398736567650144 -0.03376950009610197 0.9966012634323498 0.03376950009610197 0.9966012634323498 0.03376950009610197 0.003398736567650144 -0.03376950009610197
7.50025E9 0.0032844058478744393 -0.03197151528289689 0.9967155941521255 0.03197151528289689 0.9967155941521255 0.03197151528289689 0.0032844058478744393 -0.03197151528289689
7.575E9 0.0031778218232615 -0.03019356493842231 0.9968221781767385 0.03019356493842231 0.9968221781767385 0.03019356493842231 0.0031778218232615 -0.03019356493842231
7.64975E9 0.0030787336801534073 -0.028435084384426303 0.9969212663198465 0.028435084384426303 0.9969212663198465 0.028435084384426303 0.0030787336801534073 -0.028435084384426303
7.7245E9 0.0029869025616869947 -0.026695529450199783 0.997013097438313 0.026695529450199783 0.997013097438313 0.026695529450199783 0.0029869025616869947 -0.026695529450199783
7.79925E9 0.0029021009025177835 -0.024974375555032846 0.9970978990974823 0.024974375555032846 0.9970978990974823 0.024974375555032846 0.0029021009025177835 -0.024974375555032846
7.874E9 0.0028241118063949073 -0.02327111683845707 0.9971758881936051 0.02327111683845707 0.9971758881936051 0.02327111683845707 0.0028241118063949073 -0.02327111683845707
7.94875E9 0.00275272846348324 -0.021585265335441625 0.9972472715365167 0.021585265335441625 0.9972472715365167 0.021585265335441625 0.00275272846348324 -0.021585265335441625
8.0235E9 0.0026877536045787106 -0.01991635019389407 0.9973122463954214 0.01991635019389407 0.9973122463954214 0.01991635019389407 0.0026877536045787106 -0.01991635019389407
8.09825E9 0.002628998989590819 -0.018263916931991964 0.9973710010104091 0.018263916931991964 0.9973710010104091 0.018263916931991964 0.002628998989590819 -0.018263916931991964
8.173E9 0.002576284927874191 -0.016627526733030428 0.997423715072126 0.016627526733030428 0.997423715072126 0.016627526733030428 0.002576284927874191 -0.016627526733030428
8.24775E9 0.0025294398281809453 -0.015006755775620733 0.9974705601718191 0.015006755775620733 0.9974705601718191 0.015006755775620733 0.0025294398281809453 -0.015006755775620733
8.3225E9 0.002488299776179164 -0.013401194597213076 0.9975117002238209 0.013401194597213076 0.9975117002238209 0.013401194597213076 0.002488299776179164 -0.013401194597213076
8.39725E9 0.002452708137641449 -0.011810447489045826 0.9975472918623586 0.011810447489045826 0.9975472918623586 0.011810447489045826 0.002452708137641449 -0.011810447489045826
8.472E9 0.002422515185552894 -0.010234131920744466 0.9975774848144471 0.010234131920744466 0.9975774848144471 0.010234131920744466 0.002422515185552894 -0.010234131920744466
8.54675E9 0.0023975777495207798 -0.008671877992903278 0.9976024222504791 0.008671877992903278 0.9976024222504791 0.008671877992903278 0.0023975777495207798 -0.008671877992903278
8.6215E9 0.0023777588859903707 -0.007123327916088656 0.9976222411140095 0.007123327916088656 0.9976222411140095 0.007123327916088656 0.0023777588859903707 -0.007123327916088656
