!Murata Part Number: GJM0225C1E1R8BB01
!These Parameters are Measured in Series Mode Connection
!       o--ll--o
!Port1            Port2
!       o------o
!Operation Temp=25[degC], DC Bias Voltage=0[V]
!Freq. Start=100[MHz] Stop=30[GHz], 401[Steps]
!Data Generated on Feb 1, 2023
# Hz S RI R 50
!Freq.(Hz) S11(Real) S11(Imag) S21(Real) S21(Imag) S12(Real) S12(Imag) S22(Real) S22(Imag)
1.0E8 0.9873426674219816 -0.11167550779312489 0.012657332578018368 0.11167550779312489 0.012657332578018368 0.11167550779312489 0.9873426674219816 -0.11167550779312489
1.7475E8 0.9623120576539552 -0.19023940904287467 0.03768794234604474 0.19023940904287467 0.03768794234604474 0.19023940904287467 0.9623120576539552 -0.19023940904287467
2.495E8 0.9260240667031893 -0.26144456982972036 0.07397593329681064 0.26144456982972036 0.07397593329681064 0.26144456982972036 0.9260240667031893 -0.26144456982972036
3.2425E8 0.8810270434499389 -0.32338325293164866 0.11897295655006107 0.32338325293164866 0.11897295655006107 0.32338325293164866 0.8810270434499389 -0.32338325293164866
3.99E8 0.8300834702540584 -0.37509953371052446 0.16991652974594162 0.37509953371052446 0.16991652974594162 0.37509953371052446 0.8300834702540584 -0.37509953371052446
4.7375E8 0.7758212845133516 -0.4164936535248543 0.22417871548664817 0.4164936535248543 0.22417871548664817 0.4164936535248543 0.7758212845133516 -0.4164936535248543
5.485E8 0.7204985695044166 -0.4481205666345629 0.2795014304955832 0.4481205666345629 0.2795014304955832 0.4481205666345629 0.7204985695044166 -0.4481205666345629
6.2325E8 0.6658920442585381 -0.47095661188825744 0.3341079557414619 0.47095661188825744 0.3341079557414619 0.47095661188825744 0.6658920442585381 -0.47095661188825744
6.98E8 0.6132856259968965 -0.4861884672485587 0.3867143740031035 0.4861884672485587 0.3867143740031035 0.4861884672485587 0.6132856259968965 -0.4861884672485587
7.7275E8 0.5635224807716115 -0.49505144823938874 0.4364775192283885 0.49505144823938874 0.4364775192283885 0.49505144823938874 0.5635224807716115 -0.49505144823938874
8.475E8 0.5170867140199472 -0.4987222427438948 0.4829132859800528 0.4987222427438948 0.4829132859800528 0.4987222427438948 0.5170867140199472 -0.4987222427438948
9.2225E8 0.4741905634092738 -0.4982584983500705 0.5258094365907262 0.4982584983500705 0.5258094365907262 0.4982584983500705 0.4741905634092738 -0.4982584983500705
9.97E8 0.4348532710273769 -0.49457301644153073 0.5651467289726231 0.49457301644153073 0.5651467289726231 0.49457301644153073 0.4348532710273769 -0.49457301644153073
1.07175E9 0.39896573400119567 -0.48843055918364414 0.6010342659988044 0.48843055918364414 0.6010342659988044 0.48843055918364414 0.39896573400119567 -0.48843055918364414
1.1465E9 0.36633998315193883 -0.4804576871416676 0.6336600168480612 0.4804576871416676 0.6336600168480612 0.4804576871416676 0.36633998315193883 -0.4804576871416676
1.22125E9 0.336745076706436 -0.4711588875543991 0.6632549232935641 0.4711588875543991 0.6632549232935641 0.4711588875543991 0.336745076706436 -0.4711588875543991
1.296E9 0.3099319500331916 -0.4609347079227701 0.6900680499668085 0.4609347079227701 0.6900680499668085 0.4609347079227701 0.3099319500331916 -0.4609347079227701
1.37075E9 0.2856498367289273 -0.4500994307900338 0.7143501632710726 0.4500994307900338 0.7143501632710726 0.4500994307900338 0.2856498367289273 -0.4500994307900338
1.4455E9 0.2636565471707637 -0.4388970477562382 0.7363434528292364 0.4388970477562382 0.7363434528292364 0.4388970477562382 0.2636565471707637 -0.4388970477562382
1.52025E9 0.2437244340737162 -0.4275150466836656 0.7562755659262839 0.4275150466836656 0.7562755659262839 0.4275150466836656 0.2437244340737162 -0.4275150466836656
1.595E9 0.22564342915740165 -0.41609595691139883 0.7743565708425985 0.41609595691139883 0.7743565708425985 0.41609595691139883 0.22564342915740165 -0.41609595691139883
1.66975E9 0.20922215726004073 -0.4047468184814634 0.7907778427399592 0.4047468184814634 0.7907778427399592 0.4047468184814634 0.20922215726004073 -0.4047468184814634
1.7445E9 0.19428783751485748 -0.3935468359058465 0.8057121624851425 0.3935468359058465 0.8057121624851425 0.3935468359058465 0.19428783751485748 -0.3935468359058465
1.81925E9 0.18068545920560433 -0.3825535000065195 0.8193145407943957 0.3825535000065195 0.8193145407943957 0.3825535000065195 0.18068545920560433 -0.3825535000065195
1.894E9 0.1682765593576163 -0.3718074473131253 0.8317234406423836 0.3718074473131253 0.8317234406423836 0.3718074473131253 0.1682765593576163 -0.3718074473131253
1.96875E9 0.15693781591338724 -0.36133629584206933 0.8430621840866129 0.36133629584206933 0.8430621840866129 0.36133629584206933 0.15693781591338724 -0.36133629584206933
2.0435E9 0.1465595921542984 -0.3511576602565724 0.8534404078457016 0.3511576602565724 0.8534404078457016 0.3511576602565724 0.1465595921542984 -0.3511576602565724
2.11825E9 0.1370445150108948 -0.3412815143826041 0.8629554849891051 0.3412815143826041 0.8629554849891051 0.3412815143826041 0.1370445150108948 -0.3412815143826041
2.193E9 0.12830613459310372 -0.3317120375864772 0.8716938654068963 0.3317120375864772 0.8716938654068963 0.3317120375864772 0.12830613459310372 -0.3317120375864772
2.26775E9 0.12026768921284776 -0.32244905457633877 0.8797323107871522 0.32244905457633877 0.8797323107871522 0.32244905457633877 0.12026768921284776 -0.32244905457633877
2.3425E9 0.11286098546882016 -0.3134891558083494 0.8871390145311797 0.3134891558083494 0.8871390145311797 0.3134891558083494 0.11286098546882016 -0.3134891558083494
2.41725E9 0.10602539388384155 -0.30482656745479153 0.8939746061161583 0.30482656745479153 0.8939746061161583 0.30482656745479153 0.10602539388384155 -0.30482656745479153
2.492E9 0.09970695523820906 -0.296453825254088 0.9002930447617908 0.296453825254088 0.9002930447617908 0.296453825254088 0.09970695523820906 -0.296453825254088
2.56675E9 0.09385758983419679 -0.288362294915994 0.9061424101658032 0.288362294915994 0.9061424101658032 0.288362294915994 0.09385758983419679 -0.288362294915994
2.6415E9 0.08843440058151952 -0.2805425725480038 0.9115655994184807 0.2805425725480038 0.9115655994184807 0.2805425725480038 0.08843440058151952 -0.2805425725480038
2.71625E9 0.08339906042403501 -0.2729847913223432 0.9166009395759651 0.2729847913223432 0.9166009395759651 0.2729847913223432 0.08339906042403501 -0.2729847913223432
2.791E9 0.07871727484501885 -0.26567885491591564 0.9212827251549811 0.26567885491591564 0.9212827251549811 0.26567885491591564 0.07871727484501885 -0.26567885491591564
2.86575E9 0.07435831073717696 -0.258614613800529 0.9256416892628233 0.258614613800529 0.9256416892628233 0.258614613800529 0.07435831073717696 -0.258614613800529
2.9405E9 0.07029458364006386 -0.25178199697419856 0.9297054163599361 0.25178199697419856 0.9297054163599361 0.25178199697419856 0.07029458364006386 -0.25178199697419856
3.01525E9 0.06650129612830039 -0.2451711089967244 0.9334987038716998 0.2451711089967244 0.9334987038716998 0.2451711089967244 0.06650129612830039 -0.2451711089967244
3.09E9 0.0629561209157461 -0.2387723000586939 0.9370438790842539 0.2387723000586939 0.9370438790842539 0.2387723000586939 0.0629561209157461 -0.2387723000586939
3.16475E9 0.059638922986807404 -0.23257621514272273 0.9403610770131925 0.23257621514272273 0.9403610770131925 0.23257621514272273 0.059638922986807404 -0.23257621514272273
3.2395E9 0.05653151575667469 -0.22657382702750722 0.9434684842433254 0.22657382702750722 0.9434684842433254 0.22657382702750722 0.05653151575667469 -0.22657382702750722
3.31425E9 0.053617446888678914 -0.22075645685984432 0.9463825531113211 0.22075645685984432 0.9463825531113211 0.22075645685984432 0.053617446888678914 -0.22075645685984432
3.389E9 0.05088180995705858 -0.21511578521531735 0.9491181900429415 0.21511578521531735 0.9491181900429415 0.21511578521531735 0.05088180995705858 -0.21511578521531735
3.46375E9 0.04831107863915256 -0.2096438559366896 0.9516889213608475 0.2096438559366896 0.9516889213608475 0.2096438559366896 0.04831107863915256 -0.2096438559366896
3.5385E9 0.045892960556541275 -0.2043330745426332 0.9541070394434588 0.2043330745426332 0.9541070394434588 0.2043330745426332 0.045892960556541275 -0.2043330745426332
3.61325E9 0.04361626826518559 -0.1991762026089801 0.9563837317348144 0.1991762026089801 0.9563837317348144 0.1991762026089801 0.04361626826518559 -0.1991762026089801
3.688E9 0.041470805225796485 -0.19416634921737855 0.9585291947742035 0.19416634921737855 0.9585291947742035 0.19416634921737855 0.041470805225796485 -0.19416634921737855
3.76275E9 0.03944726487308746 -0.18929696032422955 0.9605527351269123 0.18929696032422955 0.9605527351269123 0.18929696032422955 0.03944726487308746 -0.18929696032422955
3.8375E9 0.03753714115150672 -0.18456180671212757 0.9624628588484933 0.18456180671212757 0.9624628588484933 0.18456180671212757 0.03753714115150672 -0.18456180671212757
3.91225E9 0.03573264910038175 -0.1799549710358034 0.9642673508996183 0.1799549710358034 0.9642673508996183 0.1799549710358034 0.03573264910038175 -0.1799549710358034
3.987E9 0.03402665425752889 -0.17547083435622407 0.9659733457424711 0.17547083435622407 0.9659733457424711 0.17547083435622407 0.03402665425752889 -0.17547083435622407
4.06175E9 0.0324126098111821 -0.17110406246330234 0.9675873901888179 0.17110406246330234 0.9675873901888179 0.17110406246330234 0.0324126098111821 -0.17110406246330234
4.1365E9 0.03088450056902221 -0.16684959221433707 0.9691154994309777 0.16684959221433707 0.9691154994309777 0.16684959221433707 0.03088450056902221 -0.16684959221433707
4.21125E9 0.02943679293313991 -0.16270261805768108 0.9705632070668602 0.16270261805768108 0.9705632070668602 0.16270261805768108 0.02943679293313991 -0.16270261805768108
4.286E9 0.02806439017355384 -0.1586585788659257 0.9719356098264462 0.1586585788659257 0.9719356098264462 0.1586585788659257 0.02806439017355384 -0.1586585788659257
4.36075E9 0.026762592382689257 -0.15471314516752346 0.9732374076173107 0.15471314516752346 0.9732374076173107 0.15471314516752346 0.026762592382689257 -0.15471314516752346
4.4355E9 0.025527060570950638 -0.15086220683818272 0.9744729394290494 0.15086220683818272 0.9744729394290494 0.15086220683818272 0.025527060570950638 -0.15086220683818272
4.51025E9 0.024353784430871456 -0.14710186129194336 0.9756462155691286 0.14710186129194336 0.9756462155691286 0.14710186129194336 0.024353784430871456 -0.14710186129194336
4.585E9 0.023239053355740648 -0.14342840219530129 0.9767609466442594 0.14342840219530129 0.9767609466442594 0.14342840219530129 0.023239053355740648 -0.14342840219530129
4.65975E9 0.02217943034932253 -0.13983830871505848 0.9778205696506774 0.13983830871505848 0.9778205696506774 0.13983830871505848 0.02217943034932253 -0.13983830871505848
4.7345E9 0.021171728507373068 -0.1363282353009438 0.978828271492627 0.1363282353009438 0.978828271492627 0.1363282353009438 0.021171728507373068 -0.1363282353009438
4.80925E9 0.020212989790018274 -0.13289500199681578 0.9797870102099818 0.13289500199681578 0.9797870102099818 0.13289500199681578 0.020212989790018274 -0.13289500199681578
4.884E9 0.01930046583748543 -0.12953558526892922 0.9806995341625144 0.12953558526892922 0.9806995341625144 0.12953558526892922 0.01930046583748543 -0.12953558526892922
4.95875E9 0.01843160061083562 -0.1262471093359011 0.9815683993891642 0.1262471093359011 0.9815683993891642 0.1262471093359011 0.01843160061083562 -0.1262471093359011
5.0335E9 0.017604014664811565 -0.12302683798233453 0.9823959853351886 0.12302683798233453 0.9823959853351886 0.12302683798233453 0.017604014664811565 -0.12302683798233453
5.10825E9 0.016815490882186895 -0.11987216683629076 0.983184509117813 0.11987216683629076 0.983184509117813 0.11987216683629076 0.016815490882186895 -0.11987216683629076
5.183E9 0.016063961518503967 -0.1167806160897378 0.9839360384814961 0.1167806160897378 0.9839360384814961 0.1167806160897378 0.016063961518503967 -0.1167806160897378
5.25775E9 0.015347496423185229 -0.11374982364058221 0.9846525035768149 0.11374982364058221 0.9846525035768149 0.11374982364058221 0.015347496423185229 -0.11374982364058221
5.3325E9 0.014664292318013472 -0.11077753863478468 0.9853357076819864 0.11077753863478468 0.9853357076819864 0.11077753863478468 0.014664292318013472 -0.11077753863478468
5.40725E9 0.014012663027170467 -0.10786161538726846 0.9859873369728294 0.10786161538726846 0.9859873369728294 0.10786161538726846 0.014012663027170467 -0.10786161538726846
5.482E9 0.01339103056463523 -0.10500000766076306 0.9866089694353646 0.10500000766076306 0.9866089694353646 0.10500000766076306 0.01339103056463523 -0.10500000766076306
5.55675E9 0.012797916994977359 -0.10219076328233467 0.9872020830050228 0.10219076328233467 0.9872020830050228 0.10219076328233467 0.012797916994977359 -0.10219076328233467
5.6315E9 0.012231936992610106 -0.09943201907807608 0.98776806300739 0.09943201907807608 0.98776806300739 0.09943201907807608 0.012231936992610106 -0.09943201907807608
5.70625E9 0.011691791032545161 -0.09672199610723156 0.988308208967455 0.09672199610723156 0.988308208967455 0.09672199610723156 0.011691791032545161 -0.09672199610723156
5.781E9 0.01117625915274776 -0.09405899517788162 0.9888237408472521 0.09405899517788162 0.9888237408472521 0.09405899517788162 0.01117625915274776 -0.09405899517788162
5.85575E9 0.010684195234440572 -0.09144139262719082 0.9893158047655595 0.09144139262719082 0.9893158047655595 0.09144139262719082 0.010684195234440572 -0.09144139262719082
5.9305E9 0.010214521752245869 -0.08886763635009941 0.9897854782477542 0.08886763635009941 0.9897854782477542 0.08886763635009941 0.010214521752245869 -0.08886763635009941
6.00525E9 0.00976622495097638 -0.08633624206122018 0.9902337750490237 0.08633624206122018 0.9902337750490237 0.08633624206122018 0.00976622495097638 -0.08633624206122018
6.08E9 0.009338350410257502 -0.0838457897755566 0.9906616495897423 0.0838457897755566 0.9906616495897423 0.0838457897755566 0.009338350410257502 -0.0838457897755566
6.15475E9 0.008929998962055943 -0.08139492049449598 0.9910700010379441 0.08139492049449598 0.9910700010379441 0.08139492049449598 0.008929998962055943 -0.08139492049449598
6.2295E9 0.008540322929656355 -0.07898233308433326 0.9914596770703437 0.07898233308433326 0.9914596770703437 0.07898233308433326 0.008540322929656355 -0.07898233308433326
6.30425E9 0.008168522659720765 -0.0766067813353562 0.9918314773402791 0.0766067813353562 0.9918314773402791 0.0766067813353562 0.008168522659720765 -0.0766067813353562
6.379E9 0.007813843321826525 -0.07426707119025625 0.9921861566781737 0.07426707119025625 0.9921861566781737 0.07426707119025625 0.007813843321826525 -0.07426707119025625
6.45375E9 0.0074755719523478025 -0.07196205813133301 0.9925244280476524 0.07196205813133301 0.9925244280476524 0.07196205813133301 0.0074755719523478025 -0.07196205813133301
6.5285E9 0.007153034721754278 -0.0696906447166206 0.9928469652782458 0.0696906447166206 0.9928469652782458 0.0696906447166206 0.007153034721754278 -0.0696906447166206
6.60325E9 0.006845594406380549 -0.06745177825569323 0.9931544055936194 0.06745177825569323 0.9931544055936194 0.06745177825569323 0.006845594406380549 -0.06745177825569323
6.678E9 0.006552648047494588 -0.06524444861649756 0.9934473519525056 0.06524444861649756 0.9934473519525056 0.06524444861649756 0.006552648047494588 -0.06524444861649756
6.75275E9 0.006273624782087274 -0.06306768615511445 0.9937263752179128 0.06306768615511445 0.9937263752179128 0.06306768615511445 0.006273624782087274 -0.06306768615511445
6.8275E9 0.006007983831237648 -0.060920559760877784 0.9939920161687623 0.060920559760877784 0.9939920161687623 0.060920559760877784 0.006007983831237648 -0.060920559760877784
6.90225E9 0.005755212633196542 -0.05880217500976381 0.9942447873668037 0.05880217500976381 0.9942447873668037 0.05880217500976381 0.005755212633196542 -0.05880217500976381
6.977E9 0.00551482510949209 -0.056711672419426984 0.994485174890508 0.056711672419426984 0.994485174890508 0.056711672419426984 0.00551482510949209 -0.056711672419426984
7.05175E9 0.005286360053406319 -0.05464822579968638 0.9947136399465939 0.05464822579968638 0.9947136399465939 0.05464822579968638 0.005286360053406319 -0.05464822579968638
7.1265E9 0.00506937963111593 -0.052611040692668615 0.994930620368884 0.052611040692668615 0.994930620368884 0.052611040692668615 0.00506937963111593 -0.052611040692668615
7.20125E9 0.004863467986642669 -0.05059935289718873 0.9951365320133574 0.05059935289718873 0.9951365320133574 0.05059935289718873 0.004863467986642669 -0.05059935289718873
7.276E9 0.004668229942529377 -0.04861242707230248 0.9953317700574706 0.04861242707230248 0.9953317700574706 0.04861242707230248 0.004668229942529377 -0.04861242707230248
7.35075E9 0.004483289788854927 -0.04664955541528931 0.9955167102111451 0.04664955541528931 0.9955167102111451 0.04664955541528931 0.004483289788854927 -0.04664955541528931
7.4255E9 0.004308290153832804 -0.04471005640963275 0.9956917098461674 0.04471005640963275 0.9956917098461674 0.04471005640963275 0.004308290153832804 -0.04471005640963275
7.50025E9 0.0041428909498105035 -0.04279327363884971 0.9958571090501896 0.04279327363884971 0.9958571090501896 0.04279327363884971 0.0041428909498105035 -0.04279327363884971
7.575E9 0.0039867683890061805 -0.04089857466228612 0.9960132316109938 0.04089857466228612 0.9960132316109938 0.04089857466228612 0.0039867683890061805 -0.04089857466228612
7.64975E9 0.0038396140637907516 -0.03902534994924597 0.9961603859362091 0.03902534994924597 0.9961603859362091 0.03902534994924597 0.0038396140637907516 -0.03902534994924597
7.7245E9 0.003701134086752058 -0.03717301186805068 0.9962988659132477 0.03717301186805068 0.9962988659132477 0.03717301186805068 0.003701134086752058 -0.03717301186805068
7.79925E9 0.003571048286167817 -0.03534099372684478 0.9964289517138323 0.03534099372684478 0.9964289517138323 0.03534099372684478 0.003571048286167817 -0.03534099372684478
7.874E9 0.0034490894528687623 -0.03352874886316183 0.9965509105471312 0.03352874886316183 0.9965509105471312 0.03352874886316183 0.0034490894528687623 -0.03352874886316183
7.94875E9 0.0033350026347970293 -0.03173574977945673 0.996664997365203 0.03173574977945673 0.996664997365203 0.03173574977945673 0.0033350026347970293 -0.03173574977945673
8.0235E9 0.0032285444758594437 -0.029961487321982085 0.9967714555241406 0.029961487321982085 0.9967714555241406 0.029961487321982085 0.0032285444758594437 -0.029961487321982085
8.09825E9 0.0031294825959447678 -0.02820546990055422 0.9968705174040551 0.02820546990055422 0.9968705174040551 0.02820546990055422 0.0031294825959447678 -0.02820546990055422
8.173E9 0.0030375950092194027 -0.02646722274690293 0.9969624049907808 0.02646722274690293 0.9969624049907808 0.02646722274690293 0.0030375950092194027 -0.02646722274690293
8.24775E9 0.002952669578040961 -0.02474628720944582 0.997047330421959 0.02474628720944582 0.997047330421959 0.02474628720944582 0.002952669578040961 -0.02474628720944582
8.3225E9 0.0028745035000343664 -0.023042220082458178 0.9971254964999657 0.023042220082458178 0.9971254964999657 0.023042220082458178 0.0028745035000343664 -0.023042220082458178
8.39725E9 0.0028029028260633084 -0.021354592967735245 0.9971970971739366 0.021354592967735245 0.9971970971739366 0.021354592967735245 0.0028029028260633084 -0.021354592967735245
8.472E9 0.0027376820070021558 -0.019682991666959977 0.9972623179929978 0.019682991666959977 0.9972623179929978 0.019682991666959977 0.0027376820070021558 -0.019682991666959977
8.54675E9 0.0026786634673712706 -0.018027015603096604 0.9973213365326288 0.018027015603096604 0.9973213365326288 0.018027015603096604 0.0026786634673712706 -0.018027015603096604
8.6215E9 0.0026256772040436503 -0.016386277269233425 0.9973743227959565 0.016386277269233425 0.9973743227959565 0.016386277269233425 0.0026256772040436503 -0.016386277269233425
8.69625E9 0.0025785604083637006 -0.014760401703391154 0.9974214395916362 0.014760401703391154 0.9974214395916362 0.014760401703391154 0.0025785604083637006 -0.014760401703391154
