!Murata Part Number: GJM0225C1E6R6BB01
!These Parameters are Measured in Series Mode Connection
!       o--ll--o
!Port1            Port2
!       o------o
!Operation Temp=25[degC], DC Bias Voltage=0[V]
!Freq. Start=100[MHz] Stop=30[GHz], 401[Steps]
!Data Generated on Feb 1, 2023
# Hz S RI R 50
!Freq.(Hz) S11(Real) S11(Imag) S21(Real) S21(Imag) S12(Real) S12(Imag) S22(Real) S22(Imag)
1.0E8 0.853041255039089 -0.35383636821302145 0.146958744960911 0.35383636821302145 0.146958744960911 0.35383636821302145 0.853041255039089 -0.35383636821302145
1.7475E8 0.6549490034969205 -0.4749843716491493 0.34505099650307947 0.4749843716491493 0.34505099650307947 0.4749843716491493 0.6549490034969205 -0.4749843716491493
2.495E8 0.4816267814718969 -0.49908742078535756 0.518373218528103 0.49908742078535756 0.518373218528103 0.49908742078535756 0.4816267814718969 -0.49908742078535756
3.2425E8 0.3542096171469465 -0.4775207060221444 0.6457903828530536 0.4775207060221444 0.6457903828530536 0.4775207060221444 0.3542096171469465 -0.4775207060221444
3.99E8 0.2651866086462254 -0.44049859700174043 0.7348133913537747 0.44049859700174043 0.7348133913537747 0.44049859700174043 0.2651866086462254 -0.44049859700174043
4.7375E8 0.20309366579737267 -0.4011813955630342 0.7969063342026274 0.4011813955630342 0.7969063342026274 0.4011813955630342 0.20309366579737267 -0.4011813955630342
5.485E8 0.15905549460093227 -0.3644156560498971 0.8409445053990678 0.3644156560498971 0.8409445053990678 0.3644156560498971 0.15905549460093227 -0.3644156560498971
6.2325E8 0.12711544539381384 -0.33159194026664257 0.8728845546061864 0.33159194026664257 0.8728845546061864 0.33159194026664257 0.12711544539381384 -0.33159194026664257
6.98E8 0.1034115872891975 -0.3027804123328957 0.8965884127108026 0.3027804123328957 0.8965884127108026 0.3027804123328957 0.1034115872891975 -0.3027804123328957
7.7275E8 0.08543554081532327 -0.2776010827411736 0.9145644591846768 0.2776010827411736 0.9145644591846768 0.2776010827411736 0.08543554081532327 -0.2776010827411736
8.475E8 0.07153270787478387 -0.25556472989033197 0.9284672921252161 0.25556472989033197 0.9284672921252161 0.25556472989033197 0.07153270787478387 -0.25556472989033197
9.2225E8 0.06058932207655375 -0.2361991085257939 0.9394106779234461 0.2361991085257939 0.9394106779234461 0.2361991085257939 0.06058932207655375 -0.2361991085257939
9.97E8 0.05183948805451883 -0.21908932020213598 0.9481605119454812 0.21908932020213598 0.9481605119454812 0.21908932020213598 0.05183948805451883 -0.21908932020213598
1.07175E9 0.044745445969630274 -0.20388479100581644 0.9552545540303697 0.20388479100581644 0.9552545540303697 0.20388479100581644 0.044745445969630274 -0.20388479100581644
1.1465E9 0.03892213534258654 -0.19029418953535226 0.9610778646574137 0.19029418953535226 0.9610778646574137 0.19029418953535226 0.03892213534258654 -0.19029418953535226
1.22125E9 0.03408877534082851 -0.17807686975264742 0.9659112246591717 0.17807686975264742 0.9659112246591717 0.17807686975264742 0.03408877534082851 -0.17807686975264742
1.296E9 0.03003717237500669 -0.16703415895131896 0.9699628276249934 0.16703415895131896 0.9699628276249934 0.16703415895131896 0.03003717237500669 -0.16703415895131896
1.37075E9 0.026610571970008354 -0.15700163917345153 0.9733894280299915 0.15700163917345153 0.9733894280299915 0.15700163917345153 0.026610571970008354 -0.15700163917345153
1.4455E9 0.023689283146375643 -0.14784269248945303 0.9763107168536244 0.14784269248945303 0.9763107168536244 0.14784269248945303 0.023689283146375643 -0.14784269248945303
1.52025E9 0.021180734226020917 -0.13944324691984214 0.978819265773979 0.13944324691984214 0.978819265773979 0.13944324691984214 0.021180734226020917 -0.13944324691984214
1.595E9 0.019012480561878507 -0.13170755303685322 0.9809875194381215 0.13170755303685322 0.9809875194381215 0.13170755303685322 0.019012480561878507 -0.13170755303685322
1.66975E9 0.017127212340625402 -0.1245548058501217 0.9828727876593745 0.1245548058501217 0.9828727876593745 0.1245548058501217 0.017127212340625402 -0.1245548058501217
1.7445E9 0.015479139404218158 -0.11791644462837642 0.9845208605957817 0.11791644462837642 0.9845208605957817 0.11791644462837642 0.015479139404218158 -0.11791644462837642
1.81925E9 0.01403133847611853 -0.11173399065980681 0.9859686615238813 0.11173399065980681 0.9859686615238813 0.11173399065980681 0.01403133847611853 -0.11173399065980681
1.894E9 0.012753782542479884 -0.10595731003404414 0.9872462174575203 0.10595731003404414 0.9872462174575203 0.10595731003404414 0.012753782542479884 -0.10595731003404414
1.96875E9 0.011621860148601554 -0.10054321204026571 0.9883781398513983 0.10054321204026571 0.9883781398513983 0.10054321204026571 0.011621860148601554 -0.10054321204026571
2.0435E9 0.010615250901947959 -0.09545431302966555 0.9893847490980521 0.09545431302966555 0.9893847490980521 0.09545431302966555 0.010615250901947959 -0.09545431302966555
2.11825E9 0.009717062963831454 -0.09065811089878947 0.9902829370361684 0.09065811089878947 0.9902829370361684 0.09065811089878947 0.009717062963831454 -0.09065811089878947
2.193E9 0.008913165321429151 -0.08612622733561523 0.9910868346785706 0.08612622733561523 0.9910868346785706 0.08612622733561523 0.008913165321429151 -0.08612622733561523
2.26775E9 0.008191666343743343 -0.08183378428263678 0.9918083336562569 0.08183378428263678 0.9918083336562569 0.08183378428263678 0.008191666343743343 -0.08183378428263678
2.3425E9 0.007542503246623014 -0.0777588882846006 0.9924574967533769 0.0777588882846006 0.9924574967533769 0.0777588882846006 0.007542503246623014 -0.0777588882846006
2.41725E9 0.006957116399082477 -0.07388220197471818 0.9930428836009175 0.07388220197471818 0.9930428836009175 0.07388220197471818 0.006957116399082477 -0.07388220197471818
2.492E9 0.00642818907636741 -0.0701865862859765 0.9935718109236324 0.0701865862859765 0.9935718109236324 0.0701865862859765 0.00642818907636741 -0.0701865862859765
2.56675E9 0.005949438098959351 -0.06665680034397574 0.9940505619010405 0.06665680034397574 0.9940505619010405 0.06665680034397574 0.005949438098959351 -0.06665680034397574
2.6415E9 0.005515444331942376 -0.06327924862768722 0.9944845556680576 0.06327924862768722 0.9944845556680576 0.06327924862768722 0.005515444331942376 -0.06327924862768722
2.71625E9 0.005121514628393089 -0.06004176704521551 0.9948784853716071 0.06004176704521551 0.9948784853716071 0.06004176704521551 0.005121514628393089 -0.06004176704521551
2.791E9 0.0047635687429512154 -0.05693344119315661 0.9952364312570486 0.05693344119315661 0.9952364312570486 0.05693344119315661 0.0047635687429512154 -0.05693344119315661
2.86575E9 0.004438046199744706 -0.053944451349723 0.9955619538002555 0.053944451349723 0.9955619538002555 0.053944451349723 0.004438046199744706 -0.053944451349723
2.9405E9 0.004141829201748232 -0.05106593976927655 0.995858170798252 0.05106593976927655 0.995858170798252 0.05106593976927655 0.004141829201748232 -0.05106593976927655
3.01525E9 0.003872178509115114 -0.048289896657356265 0.996127821490885 0.048289896657356265 0.996127821490885 0.048289896657356265 0.003872178509115114 -0.048289896657356265
3.09E9 0.00362667985899675 -0.04560906185533059 0.9963733201410031 0.04560906185533059 0.9963733201410031 0.04560906185533059 0.00362667985899675 -0.04560906185533059
3.16475E9 0.003403198997633183 -0.04301683978686226 0.9965968010023669 0.04301683978686226 0.9965968010023669 0.04301683978686226 0.003403198997633183 -0.04301683978686226
3.2395E9 0.003199843782885915 -0.04050722564108406 0.9968001562171142 0.04050722564108406 0.9968001562171142 0.04050722564108406 0.003199843782885915 -0.04050722564108406
3.31425E9 0.0030149321183934675 -0.038074741110453066 0.9969850678816065 0.038074741110453066 0.9969850678816065 0.038074741110453066 0.0030149321183934675 -0.038074741110453066
3.389E9 0.002846964718913614 -0.035714378280844034 0.9971530352810862 0.035714378280844034 0.9971530352810862 0.035714378280844034 0.002846964718913614 -0.035714378280844034
3.46375E9 0.0026946018949937796 -0.03342155050022072 0.9973053981050062 0.03342155050022072 0.9973053981050062 0.03342155050022072 0.0026946018949937796 -0.03342155050022072
3.5385E9 0.0025566436950776442 -0.03119204924016473 0.9974433563049223 0.03119204924016473 0.9974433563049223 0.03119204924016473 0.0025566436950776442 -0.03119204924016473
3.61325E9 0.002432012863019211 -0.029022006119517118 0.9975679871369809 0.029022006119517118 0.9975679871369809 0.029022006119517118 0.002432012863019211 -0.029022006119517118
3.688E9 0.0023197401652419202 -0.02690785938765834 0.997680259834758 0.02690785938765834 0.997680259834758 0.02690785938765834 0.0023197401652419202 -0.02690785938765834
3.76275E9 0.0022189517194532837 -0.024846324271497498 0.9977810482805466 0.024846324271497498 0.9977810482805466 0.024846324271497498 0.0022189517194532837 -0.024846324271497498
3.8375E9 0.002128858019774417 -0.02283436667904873 0.9978711419802255 0.02283436667904873 0.9978711419802255 0.02283436667904873 0.002128858019774417 -0.02283436667904873
3.91225E9 0.002048744404377458 -0.02086917982674491 0.9979512555956223 0.02086917982674491 0.9979512555956223 0.02086917982674491 0.002048744404377458 -0.02086917982674491
3.987E9 0.001977962753592976 -0.018948163419956615 0.9980220372464069 0.018948163419956615 0.9980220372464069 0.018948163419956615 0.001977962753592976 -0.018948163419956615
4.06175E9 0.0019159242408001655 -0.01706890506863602 0.9980840757591998 0.01706890506863602 0.9980840757591998 0.01706890506863602 0.0019159242408001655 -0.01706890506863602
4.1365E9 0.0018620929867017371 -0.015229163664290045 0.9981379070132983 0.015229163664290045 0.9981379070132983 0.015229163664290045 0.0018620929867017371 -0.015229163664290045
4.21125E9 0.0018159804909670526 -0.013426854481984201 0.998184019509033 0.013426854481984201 0.998184019509033 0.013426854481984201 0.0018159804909670526 -0.013426854481984201
4.286E9 0.0017771407346204781 -0.011660035802921027 0.9982228592653797 0.011660035802921027 0.9982228592653797 0.011660035802921027 0.0017771407346204781 -0.011660035802921027
4.36075E9 0.0017451658626915967 -0.009926896880252818 0.9982548341373084 0.009926896880252818 0.9982548341373084 0.009926896880252818 0.0017451658626915967 -0.009926896880252818
4.4355E9 0.0017196823701194997 -0.008225747093939821 0.9982803176298806 0.008225747093939821 0.9982803176298806 0.008225747093939821 0.0017196823701194997 -0.008225747093939821
4.51025E9 0.0017003477251899993 -0.006555006160284368 0.99829965227481 0.006555006160284368 0.99829965227481 0.006555006160284368 0.0017003477251899993 -0.006555006160284368
4.585E9 0.0016868473742664434 -0.004913195278780717 0.9983131526257334 0.004913195278780717 0.9983131526257334 0.004913195278780717 0.0016868473742664434 -0.004913195278780717
4.65975E9 0.0016788920795639552 -0.003298929113554027 0.998321107920436 0.003298929113554027 0.998321107920436 0.003298929113554027 0.0016788920795639552 -0.003298929113554027
4.7345E9 0.0016762155484672811 -0.0017109085192805321 0.9983237844515325 0.0017109085192805321 0.9983237844515325 0.0017109085192805321 0.0016762155484672811 -0.0017109085192805321
4.80925E9 0.0016785723186118905 -1.4791393238901257E-4 0.9983214276813879 1.4791393238901257E-4 0.9983214276813879 1.4791393238901257E-4 0.0016785723186118905 -1.4791393238901257E-4
4.884E9 0.0016857358678067354 0.0013912006422076386 0.9983142641321933 -0.0013912006422076386 0.9983142641321933 -0.0013912006422076386 0.0016857358678067354 0.0013912006422076386
4.95875E9 0.0016974969220153572 0.0029075131103985796 0.9983025030779847 -0.0029075131103985796 0.9983025030779847 -0.0029075131103985796 0.0016974969220153572 0.0029075131103985796
5.0335E9 0.001713661938145391 0.00440203828859035 0.9982863380618544 -0.00440203828859035 0.9982863380618544 -0.00440203828859035 0.001713661938145391 0.00440203828859035
5.10825E9 0.0017340517414208044 0.005875732472040577 0.9982659482585791 -0.005875732472040577 0.9982659482585791 -0.005875732472040577 0.0017340517414208044 0.005875732472040577
5.183E9 0.0017585002997056564 0.007329497614564861 0.9982414997002943 -0.007329497614564861 0.9982414997002943 -0.007329497614564861 0.0017585002997056564 0.007329497614564861
5.25775E9 0.0017868536193792082 0.008764185157615347 0.998213146380621 -0.008764185157615347 0.998213146380621 -0.008764185157615347 0.0017868536193792082 0.008764185157615347
5.3325E9 0.0018189687492847322 0.010180599542558538 0.9981810312507154 -0.010180599542558538 0.9981810312507154 -0.010180599542558538 0.0018189687492847322 0.010180599542558538
5.40725E9 0.0018547128809348512 0.011579501436316149 0.9981452871190649 -0.011579501436316149 0.9981452871190649 -0.011579501436316149 0.0018547128809348512 0.011579501436316149
5.482E9 0.0018939625345932602 0.012961610697308959 0.9981060374654068 -0.012961610697308959 0.9981060374654068 -0.012961610697308959 0.0018939625345932602 0.012961610697308959
5.55675E9 0.0019366028220989086 0.014327609105801173 0.9980633971779013 -0.014327609105801173 0.9980633971779013 -0.014327609105801173 0.0019366028220989086 0.014327609105801173
5.6315E9 0.00198252677838172 0.015678142880233118 0.9980174732216183 -0.015678142880233118 0.9980174732216183 -0.015678142880233118 0.00198252677838172 0.015678142880233118
5.70625E9 0.0020316347545617825 0.01701382499891086 0.9979683652454381 -0.01701382499891086 0.9979683652454381 -0.01701382499891086 0.0020316347545617825 0.01701382499891086
5.781E9 0.002083833866346503 0.018335237344454188 0.9979161661336537 -0.018335237344454188 0.9979161661336537 -0.018335237344454188 0.002083833866346503 0.018335237344454188
5.85575E9 0.002139037492159068 0.019642932686660345 0.997860962507841 -0.019642932686660345 0.997860962507841 -0.019642932686660345 0.002139037492159068 0.019642932686660345
5.9305E9 0.0021971648160610566 0.020937436517890685 0.9978028351839391 -0.020937436517890685 0.9978028351839391 -0.020937436517890685 0.0021971648160610566 0.020937436517890685
6.00525E9 0.002258140411084133 0.022219248753707562 0.9977418595889161 -0.022219248753707562 0.9977418595889161 -0.022219248753707562 0.002258140411084133 0.022219248753707562
6.08E9 0.002321893859071054 0.023488845310259996 0.9976781061409292 -0.023488845310259996 0.9976781061409292 -0.023488845310259996 0.002321893859071054 0.023488845310259996
6.15475E9 0.0023883594035533037 0.024746679568818958 0.9976116405964467 -0.024746679568818958 0.9976116405964467 -0.024746679568818958 0.0023883594035533037 0.024746679568818958
6.2295E9 0.0024574756325694974 0.025993183736884022 0.9975425243674305 -0.025993183736884022 0.9975425243674305 -0.025993183736884022 0.0024574756325694974 0.025993183736884022
6.30425E9 0.002529185188661459 0.02722877011440485 0.9974708148113385 -0.02722877011440485 0.9974708148113385 -0.02722877011440485 0.002529185188661459 0.02722877011440485
6.379E9 0.0026034345035795695 0.028453832272876827 0.9973965654964203 -0.028453832272876827 0.9973965654964203 -0.028453832272876827 0.0026034345035795695 0.028453832272876827
6.45375E9 0.0026801735554901687 0.02966874615436435 0.9973198264445099 -0.02966874615436435 0.9973198264445099 -0.02966874615436435 0.0026801735554901687 0.02966874615436435
6.5285E9 0.0027593556467099324 0.030873871096873434 0.99724064435329 -0.030873871096873434 0.99724064435329 -0.030873871096873434 0.0027593556467099324 0.030873871096873434
6.60325E9 0.0028409372001987464 0.032069550791926374 0.997159062799801 -0.032069550791926374 0.997159062799801 -0.032069550791926374 0.0028409372001987464 0.032069550791926374
6.678E9 0.0029248775732268963 0.0332561141796795 0.997075122426773 -0.0332561141796795 0.997075122426773 -0.0332561141796795 0.0029248775732268963 0.0332561141796795
6.75275E9 0.0030111388867971613 0.034433876286464334 0.9969888611132031 -0.034433876286464334 0.9969888611132031 -0.034433876286464334 0.0030111388867971613 0.034433876286464334
6.8275E9 0.0030996858695500006 0.03560313900921662 0.9969003141304502 -0.03560313900921662 0.9969003141304502 -0.03560313900921662 0.0030996858695500006 0.03560313900921662
6.90225E9 0.0031904857150126882 0.03676419185088343 0.9968095142849874 -0.03676419185088343 0.9968095142849874 -0.03676419185088343 0.0031904857150126882 0.03676419185088343
6.977E9 0.0032835079511726486 0.037917312610559195 0.9967164920488276 -0.037917312610559195 0.9967164920488276 -0.037917312610559195 0.0032835079511726486 0.037917312610559195
7.05175E9 0.003378724321463258 0.03906276803179649 0.9966212756785368 -0.03906276803179649 0.9966212756785368 -0.03906276803179649 0.003378724321463258 0.03906276803179649
7.1265E9 0.0034761086763482247 0.040200814412260207 0.9965238913236517 -0.040200814412260207 0.9965238913236517 -0.040200814412260207 0.0034761086763482247 0.040200814412260207
7.20125E9 0.003575636874779753 0.041331698177644365 0.9964243631252202 -0.041331698177644365 0.9964243631252202 -0.041331698177644365 0.003575636874779753 0.041331698177644365
7.276E9 0.003677286694887169 0.04245565642254362 0.9963227133051128 -0.04245565642254362 0.9963227133051128 -0.04245565642254362 0.003677286694887169 0.04245565642254362
7.35075E9 0.0037810377533275476 0.043572917420767826 0.9962189622466726 -0.043572917420767826 0.9962189622466726 -0.043572917420767826 0.0037810377533275476 0.043572917420767826
7.4255E9 0.0038868714327990484 0.044683701107402225 0.9961131285672008 -0.044683701107402225 0.9961131285672008 -0.044683701107402225 0.0038868714327990484 0.044683701107402225
7.50025E9 0.0039947708172820475 0.04578821953474872 0.9960052291827178 -0.04578821953474872 0.9960052291827178 -0.04578821953474872 0.0039947708172820475 0.04578821953474872
7.575E9 0.004104720634633427 0.04688667730413197 0.9958952793653668 -0.04688667730413197 0.9958952793653668 -0.04688667730413197 0.004104720634633427 0.04688667730413197
7.64975E9 0.00421670720621644 0.047979271975417806 0.9957832927937834 -0.047979271975417806 0.9957832927937834 -0.047979271975417806 0.00421670720621644 0.047979271975417806
7.7245E9 0.0043307184033029664 0.04906619445596896 0.995669281596697 -0.04906619445596896 0.995669281596697 -0.04906619445596896 0.0043307184033029664 0.04906619445596896
7.79925E9 0.004446743610037238 0.05014762937065055 0.9955532563899628 -0.05014762937065055 0.9955532563899628 -0.05014762937065055 0.004446743610037238 0.05014762937065055
7.874E9 0.004564773692801403 0.05122375541440103 0.9954352263071985 -0.05122375541440103 0.9954352263071985 -0.05122375541440103 0.004564773692801403 0.05122375541440103
7.94875E9 0.004684800975873526 0.05229474568879368 0.9953151990241266 -0.05229474568879368 0.9953151990241266 -0.05229474568879368 0.004684800975873526 0.05229474568879368
8.0235E9 0.004806819223318969 0.05336076802393595 0.995193180776681 -0.05336076802393595 0.995193180776681 -0.05336076802393595 0.004806819223318969 0.05336076802393595
8.09825E9 0.004930823627107079 0.054421985286984526 0.9950691763728929 -0.054421985286984526 0.9950691763728929 -0.054421985286984526 0.004930823627107079 0.054421985286984526
8.173E9 0.005056810801497211 0.05547855567849253 0.994943189198503 -0.05547855567849253 0.994943189198503 -0.05547855567849253 0.005056810801497211 0.05547855567849253
8.24775E9 0.005184778783792303 0.056530633017753594 0.9948152212162076 -0.056530633017753594 0.9948152212162076 -0.056530633017753594 0.005184778783792303 0.056530633017753594
8.3225E9 0.00531472704161536 0.05757836701826345 0.9946852729583846 -0.05757836701826345 0.9946852729583846 -0.05757836701826345 0.00531472704161536 0.05757836701826345
8.39725E9 0.005446656486924489 0.05862190355438088 0.9945533435130753 -0.05862190355438088 0.9945533435130753 -0.05862190355438088 0.005446656486924489 0.05862190355438088
8.472E9 0.005580569497047725 0.05966138492024353 0.9944194305029522 -0.05966138492024353 0.9944194305029522 -0.05966138492024353 0.005580569497047725 0.05966138492024353
