!Murata Part Number: GJM0225C1E5R2BB01
!These Parameters are Measured in Series Mode Connection
!       o--ll--o
!Port1            Port2
!       o------o
!Operation Temp=25[degC], DC Bias Voltage=0[V]
!Freq. Start=100[MHz] Stop=30[GHz], 401[Steps]
!Data Generated on Feb 1, 2023
# Hz S RI R 50
!Freq.(Hz) S11(Real) S11(Imag) S21(Real) S21(Imag) S12(Real) S12(Imag) S22(Real) S22(Imag)
1.0E8 0.9033760996798792 -0.2952048015492841 0.09662390032012073 0.2952048015492841 0.09662390032012073 0.2952048015492841 0.9033760996798792 -0.2952048015492841
1.7475E8 0.753606410321239 -0.43049046311281347 0.2463935896787611 0.43049046311281347 0.2463935896787611 0.43049046311281347 0.753606410321239 -0.43049046311281347
2.495E8 0.5996939326792339 -0.4893600700687293 0.400306067320766 0.4893600700687293 0.400306067320766 0.4893600700687293 0.5996939326792339 -0.4893600700687293
3.2425E8 0.4695349476763448 -0.49828975397775627 0.5304650523236554 0.49828975397775627 0.5304650523236554 0.49828975397775627 0.4695349476763448 -0.49828975397775627
3.99E8 0.3682948943062186 -0.4813787621884348 0.6317051056937814 0.4813787621884348 0.6317051056937814 0.4813787621884348 0.3682948943062186 -0.4813787621884348
4.7375E8 0.2919040685834234 -0.45349213894584245 0.7080959314165767 0.45349213894584245 0.7080959314165767 0.45349213894584245 0.2919040685834234 -0.45349213894584245
5.485E8 0.23453237574035807 -0.42237549044754397 0.765467624259642 0.42237549044754397 0.765467624259642 0.42237549044754397 0.23453237574035807 -0.42237549044754397
6.2325E8 0.19113020708855688 -0.39167464199802177 0.8088697929114433 0.39167464199802177 0.8088697929114433 0.39167464199802177 0.19113020708855688 -0.39167464199802177
6.98E8 0.15788631213912108 -0.36292981491255216 0.8421136878608789 0.36292981491255216 0.8421136878608789 0.36292981491255216 0.15788631213912108 -0.36292981491255216
7.7275E8 0.13205935009709086 -0.3366608496964445 0.8679406499029092 0.3366608496964445 0.8679406499029092 0.3366608496964445 0.13205935009709086 -0.3366608496964445
8.475E8 0.11170457680340413 -0.3129160550892733 0.8882954231965959 0.3129160550892733 0.8882954231965959 0.3129160550892733 0.11170457680340413 -0.3129160550892733
9.2225E8 0.09544033197053875 -0.2915409168973369 0.9045596680294613 0.2915409168973369 0.9045596680294613 0.2915409168973369 0.09544033197053875 -0.2915409168973369
9.97E8 0.08227654326250977 -0.2723068602277808 0.9177234567374903 0.2723068602277808 0.9177234567374903 0.2723068602277808 0.08227654326250977 -0.2723068602277808
1.07175E9 0.07149532351315356 -0.2549712282714155 0.9285046764868465 0.2549712282714155 0.9285046764868465 0.2549712282714155 0.07149532351315356 -0.2549712282714155
1.1465E9 0.06256930595082275 -0.23930370782155996 0.9374306940491772 0.23930370782155996 0.9374306940491772 0.23930370782155996 0.06256930595082275 -0.23930370782155996
1.22125E9 0.05510590138083469 -0.22509654349448863 0.9448940986191653 0.22509654349448863 0.9448940986191653 0.22509654349448863 0.05510590138083469 -0.22509654349448863
1.296E9 0.04880903214887229 -0.21216708337833637 0.9511909678511279 0.21216708337833637 0.9511909678511279 0.21216708337833637 0.04880903214887229 -0.21216708337833637
1.37075E9 0.043452612760220395 -0.20035686483665635 0.9565473872397796 0.20035686483665635 0.9565473872397796 0.20035686483665635 0.043452612760220395 -0.20035686483665635
1.4455E9 0.038861962200261536 -0.1895293019075665 0.9611380377997384 0.1895293019075665 0.9611380377997384 0.1895293019075665 0.038861962200261536 -0.1895293019075665
1.52025E9 0.03490061789032769 -0.1795669657735421 0.9650993821096723 0.1795669657735421 0.9650993821096723 0.1795669657735421 0.03490061789032769 -0.1795669657735421
1.595E9 0.03146086710279974 -0.17036891547980737 0.9685391328972004 0.17036891547980737 0.9685391328972004 0.17036891547980737 0.03146086710279974 -0.17036891547980737
1.66975E9 0.02845686608063008 -0.16184827056257065 0.9715431339193696 0.16184827056257065 0.9715431339193696 0.16184827056257065 0.02845686608063008 -0.16184827056257065
1.7445E9 0.025819581578218877 -0.15393008750355747 0.9741804184217812 0.15393008750355747 0.9741804184217812 0.15393008750355747 0.025819581578218877 -0.15393008750355747
1.81925E9 0.023493030814709635 -0.14654954092028474 0.9765069691852905 0.14654954092028474 0.9765069691852905 0.14654954092028474 0.023493030814709635 -0.14654954092028474
1.894E9 0.021431457009540425 -0.13965038402764357 0.9785685429904595 0.13965038402764357 0.9785685429904595 0.13965038402764357 0.021431457009540425 -0.13965038402764357
1.96875E9 0.01959718644549208 -0.13318365370424887 0.980402813554508 0.13318365370424887 0.980402813554508 0.13318365370424887 0.01959718644549208 -0.13318365370424887
2.0435E9 0.017958987201973642 -0.12710658451136989 0.9820410127980265 0.12710658451136989 0.9820410127980265 0.12710658451136989 0.017958987201973642 -0.12710658451136989
2.11825E9 0.016490800861634732 -0.12138169867347956 0.9835091991383651 0.12138169867347956 0.9835091991383651 0.12138169867347956 0.016490800861634732 -0.12138169867347956
2.193E9 0.015170754148055361 -0.11597604304171456 0.9848292458519448 0.11597604304171456 0.9848292458519448 0.11597604304171456 0.015170754148055361 -0.11597604304171456
2.26775E9 0.013980382561421657 -0.1108605483090152 0.9860196174385784 0.1108605483090152 0.9860196174385784 0.1108605483090152 0.013980382561421657 -0.1108605483090152
2.3425E9 0.012904015941542288 -0.10600948972165632 0.9870959840584577 0.10600948972165632 0.9870959840584577 0.10600948972165632 0.012904015941542288 -0.10600948972165632
2.41725E9 0.011928288719249192 -0.10140003203924312 0.9880717112807509 0.10140003203924312 0.9880717112807509 0.10140003203924312 0.011928288719249192 -0.10140003203924312
2.492E9 0.011041746921721817 -0.09701184448963572 0.9889582530782781 0.09701184448963572 0.9889582530782781 0.09701184448963572 0.011041746921721817 -0.09701184448963572
2.56675E9 0.010234530804925372 -0.09282677397301094 0.9897654691950745 0.09282677397301094 0.9897654691950745 0.09282677397301094 0.010234530804925372 -0.09282677397301094
2.6415E9 0.009498117010105646 -0.08882856684535125 0.9905018829898944 0.08882856684535125 0.9905018829898944 0.08882856684535125 0.009498117010105646 -0.08882856684535125
2.71625E9 0.008825107879120954 -0.08500263131865952 0.9911748921208791 0.08500263131865952 0.9911748921208791 0.08500263131865952 0.008825107879120954 -0.08500263131865952
2.791E9 0.008209058366337774 -0.08133583391342766 0.9917909416336621 0.08133583391342766 0.9917909416336621 0.08133583391342766 0.008209058366337774 -0.08133583391342766
2.86575E9 0.007644333102485985 -0.07781632454217455 0.9923556668975141 0.07781632454217455 0.9923556668975141 0.07781632454217455 0.007644333102485985 -0.07781632454217455
2.9405E9 0.007125987777276978 -0.07443338573736759 0.9928740122227229 0.07443338573736759 0.9928740122227229 0.07443338573736759 0.007125987777276978 -0.07443338573736759
3.01525E9 0.006649670242162536 -0.07117730230134847 0.9933503297578373 0.07117730230134847 0.9933503297578373 0.07117730230134847 0.006649670242162536 -0.07117730230134847
3.09E9 0.006211537686669756 -0.0680392482818118 0.9937884623133302 0.0680392482818118 0.9937884623133302 0.0680392482818118 0.006211537686669756 -0.0680392482818118
3.16475E9 0.005808186980533748 -0.06501118868991893 0.9941918130194664 0.06501118868991893 0.9941918130194664 0.06501118868991893 0.005808186980533748 -0.06501118868991893
3.2395E9 0.005436595850570942 -0.06208579380034757 0.9945634041494291 0.06208579380034757 0.9945634041494291 0.06208579380034757 0.005436595850570942 -0.06208579380034757
3.31425E9 0.005094073014023901 -0.059256364220559035 0.9949059269859761 0.059256364220559035 0.9949059269859761 0.059256364220559035 0.005094073014023901 -0.059256364220559035
3.389E9 0.004778215747545398 -0.056516765204089964 0.9952217842524547 0.056516765204089964 0.9952217842524547 0.056516765204089964 0.004778215747545398 -0.056516765204089964
3.46375E9 0.004486873654638627 -0.05386136892088795 0.9955131263453614 0.05386136892088795 0.9955131263453614 0.05386136892088795 0.004486873654638627 -0.05386136892088795
3.5385E9 0.004218117620599137 -0.05128500359560847 0.9957818823794007 0.05128500359560847 0.9957818823794007 0.05128500359560847 0.004218117620599137 -0.05128500359560847
3.61325E9 0.003970213125308275 -0.04878290858965114 0.9960297868746917 0.04878290858965114 0.9960297868746917 0.04878290858965114 0.003970213125308275 -0.04878290858965114
3.688E9 0.0037415972302041727 -0.046350694640440004 0.9962584027697958 0.046350694640440004 0.9962584027697958 0.046350694640440004 0.0037415972302041727 -0.046350694640440004
3.76275E9 0.0035308586738121593 -0.04398430858682833 0.9964691413261879 0.04398430858682833 0.9964691413261879 0.04398430858682833 0.0035308586738121593 -0.04398430858682833
3.8375E9 0.0033367206061018177 -0.04168000200642863 0.9966632793938984 0.04168000200642863 0.9966632793938984 0.04168000200642863 0.0033367206061018177 -0.04168000200642863
3.91225E9 0.0031580255701374694 -0.03943430327230889 0.9968419744298624 0.03943430327230889 0.9968419744298624 0.03943430327230889 0.0031580255701374694 -0.03943430327230889
3.987E9 0.002993722403518002 -0.037243992605450985 0.9970062775964823 0.037243992605450985 0.9970062775964823 0.037243992605450985 0.002993722403518002 -0.037243992605450985
4.06175E9 0.002842854784728679 -0.0351060797577593 0.9971571452152713 0.0351060797577593 0.9971571452152713 0.0351060797577593 0.002842854784728679 -0.0351060797577593
4.1365E9 0.002704551192942252 -0.033017784009989684 0.9972954488070577 0.033017784009989684 0.9972954488070577 0.033017784009989684 0.002704551192942252 -0.033017784009989684
4.21125E9 0.002578016085748517 -0.030976516211169768 0.9974219839142514 0.030976516211169768 0.9974219839142514 0.030976516211169768 0.002578016085748517 -0.030976516211169768
4.286E9 0.002462522129149223 -0.028979862622097594 0.9975374778708507 0.028979862622097594 0.9975374778708507 0.028979862622097594 0.002462522129149223 -0.028979862622097594
4.36075E9 0.0023574033390405392 -0.027025570356311878 0.9976425966609593 0.027025570356311878 0.9976425966609593 0.027025570356311878 0.0023574033390405392 -0.027025570356311878
4.4355E9 0.002262049014212677 -0.0251115342383451 0.9977379509857874 0.0251115342383451 0.9977379509857874 0.0251115342383451 0.002262049014212677 -0.0251115342383451
4.51025E9 0.0021758983583475768 -0.023235784921774187 0.9978241016416525 0.023235784921774187 0.9978241016416525 0.023235784921774187 0.0021758983583475768 -0.023235784921774187
4.585E9 0.0020984357031760105 -0.021396478129142724 0.9979015642968242 0.021396478129142724 0.9979015642968242 0.021396478129142724 0.0020984357031760105 -0.021396478129142724
4.65975E9 0.002029186257340383 -0.01959188489271411 0.9979708137426596 0.01959188489271411 0.9979708137426596 0.01959188489271411 0.002029186257340383 -0.01959188489271411
4.7345E9 0.001967712315987322 -0.01782038268962447 0.9980322876840128 0.01782038268962447 0.9980322876840128 0.01782038268962447 0.001967712315987322 -0.01782038268962447
4.80925E9 0.001913609875002354 -0.016080447377672395 0.9980863901249976 0.016080447377672395 0.9980863901249976 0.016080447377672395 0.001913609875002354 -0.016080447377672395
4.884E9 0.00186650560135854 -0.014370645848987092 0.9981334943986415 0.014370645848987092 0.9981334943986415 0.014370645848987092 0.00186650560135854 -0.014370645848987092
4.95875E9 0.0018260541174968776 -0.012689629328399739 0.9981739458825031 0.012689629328399739 0.9981739458825031 0.012689629328399739 0.0018260541174968776 -0.012689629328399739
5.0335E9 0.001791935563166104 -0.011036127251698629 0.9982080644368337 0.011036127251698629 0.9982080644368337 0.011036127251698629 0.001791935563166104 -0.011036127251698629
5.10825E9 0.001763853402870566 -0.009408941666255234 0.9982361465971297 0.009408941666255234 0.9982361465971297 0.009408941666255234 0.001763853402870566 -0.009408941666255234
5.183E9 0.0017415324511292473 -0.007806942102901859 0.9982584675488706 0.007806942102901859 0.9982584675488706 0.007806942102901859 0.0017415324511292473 -0.007806942102901859
5.25775E9 0.001724717091238998 -0.006229060873553493 0.9982752829087611 0.006229060873553493 0.9982752829087611 0.006229060873553493 0.001724717091238998 -0.006229060873553493
5.3325E9 0.001713169666245487 -0.004674288753994996 0.9982868303337546 0.004674288753994996 0.9982868303337546 0.004674288753994996 0.001713169666245487 -0.004674288753994996
5.40725E9 0.0017066690234279717 -0.0031416710155948626 0.998293330976572 0.0031416710155948626 0.998293330976572 0.0031416710155948626 0.0017066690234279717 -0.0031416710155948626
5.482E9 0.0017050091958584813 -0.0016303037735332308 0.9982949908041413 0.0016303037735332308 0.9982949908041413 0.0016303037735332308 0.0017050091958584813 -0.0016303037735332308
5.55675E9 0.0017079982065529283 -1.3933062251054166E-4 0.9982920017934471 1.3933062251054166E-4 0.9982920017934471 1.3933062251054166E-4 0.0017079982065529283 -1.3933062251054166E-4
5.6315E9 0.001715456982433697 0.0013320604661063364 0.9982845430175663 -0.0013320604661063364 0.9982845430175663 -0.0013320604661063364 0.001715456982433697 0.0013320604661063364
5.70625E9 0.0017272183668063576 0.002784640009095937 0.9982727816331938 -0.002784640009095937 0.9982727816331938 -0.002784640009095937 0.0017272183668063576 0.002784640009095937
5.781E9 0.0017431262203479153 0.004219139659196796 0.998256873779652 -0.004219139659196796 0.998256873779652 -0.004219139659196796 0.0017431262203479153 0.004219139659196796
5.85575E9 0.0017630346017364423 0.0056362546548806 0.9982369653982635 -0.0056362546548806 0.9982369653982635 -0.0056362546548806 0.0017630346017364423 0.0056362546548806
5.9305E9 0.0017868070200441222 0.00703664608918176 0.9982131929799559 -0.00703664608918176 0.9982131929799559 -0.00703664608918176 0.0017868070200441222 0.00703664608918176
6.00525E9 0.0018143157518865655 0.00842094301302354 0.9981856842481135 -0.00842094301302354 0.9981856842481135 -0.00842094301302354 0.0018143157518865655 0.00842094301302354
6.08E9 0.0018454412170868803 0.009789744387003656 0.9981545587829133 -0.009789744387003656 0.9981545587829133 -0.009789744387003656 0.0018454412170868803 0.009789744387003656
6.15475E9 0.0018800714072872413 0.011143620894279789 0.9981199285927127 -0.011143620894279789 0.9981199285927127 -0.011143620894279789 0.0018800714072872413 0.011143620894279789
6.2295E9 0.0019181013625354441 0.012483116626013941 0.9980818986374644 -0.012483116626013941 0.9980818986374644 -0.012483116626013941 0.0019181013625354441 0.012483116626013941
6.30425E9 0.001959432691399424 0.013808750649775074 0.9980405673086007 -0.013808750649775074 0.9980405673086007 -0.013808750649775074 0.001959432691399424 0.013808750649775074
6.379E9 0.0020039731306277365 0.015121018470349055 0.9979960268693723 -0.015121018470349055 0.9979960268693723 -0.015121018470349055 0.0020039731306277365 0.015121018470349055
6.45375E9 0.0020516361407861266 0.016420393391551 0.9979483638592139 -0.016420393391551 0.9979483638592139 -0.016420393391551 0.0020516361407861266 0.016420393391551
6.5285E9 0.002102340534666227 0.017707327786868794 0.9978976594653338 -0.017707327786868794 0.9978976594653338 -0.017707327786868794 0.002102340534666227 0.017707327786868794
6.60325E9 0.002156010135587659 0.018982254286073627 0.9978439898644125 -0.018982254286073627 0.9978439898644125 -0.018982254286073627 0.002156010135587659 0.018982254286073627
6.678E9 0.0022125734630045013 0.02024558688431244 0.9977874265369954 -0.02024558688431244 0.9977874265369954 -0.02024558688431244 0.0022125734630045013 0.02024558688431244
6.75275E9 0.0022719634430854187 0.02149772197963433 0.9977280365569144 -0.02149772197963433 0.9977280365569144 -0.02149772197963433 0.0022719634430854187 0.02149772197963433
6.8275E9 0.0023341171421674394 0.022739039344395123 0.9976658828578328 -0.022739039344395123 0.9976658828578328 -0.022739039344395123 0.0023341171421674394 0.022739039344395123
6.90225E9 0.002398975521189889 0.023969903035526634 0.9976010244788102 -0.023969903035526634 0.9976010244788102 -0.023969903035526634 0.002398975521189889 0.023969903035526634
6.977E9 0.0024664832093999156 0.02519066224824095 0.9975335167906 -0.02519066224824095 0.9975335167906 -0.02519066224824095 0.0024664832093999156 0.02519066224824095
7.05175E9 0.0025365882957871545 0.026401652117364525 0.9974634117042128 -0.026401652117364525 0.9974634117042128 -0.026401652117364525 0.0025365882957871545 0.026401652117364525
7.1265E9 0.002609242136854342 0.02760319447015549 0.9973907578631458 -0.02760319447015549 0.9973907578631458 -0.02760319447015549 0.002609242136854342 0.02760319447015549
7.20125E9 0.002684399179465294 0.02879559853414915 0.9973156008205348 -0.02879559853414915 0.9973156008205348 -0.02879559853414915 0.002684399179465294 0.02879559853414915
7.276E9 0.002762016797633012 0.02997916160329495 0.997237983202367 -0.02997916160329495 0.997237983202367 -0.02997916160329495 0.002762016797633012 0.02997916160329495
7.35075E9 0.002842055142220533 0.031154169665393406 0.9971579448577795 -0.031154169665393406 0.9971579448577795 -0.031154169665393406 0.002842055142220533 0.031154169665393406
7.4255E9 0.0029244770026267317 0.032320897993609786 0.9970755229973732 -0.032320897993609786 0.9970755229973732 -0.032320897993609786 0.0029244770026267317 0.032320897993609786
7.50025E9 0.003009247679619744 0.033479611704630166 0.9969907523203799 -0.033479611704630166 0.9969907523203799 -0.033479611704630166 0.003009247679619744 0.033479611704630166
7.575E9 0.0030963348685631806 0.0346305662858336 0.9969036651314368 -0.0346305662858336 0.9969036651314368 -0.0346305662858336 0.0030963348685631806 0.0346305662858336
7.64975E9 0.003185708552355629 0.03577400809367931 0.9968142914476441 -0.03577400809367931 0.9968142914476441 -0.03577400809367931 0.003185708552355629 0.03577400809367931
7.7245E9 0.003277340903473188 0.036910174825349286 0.9967226590965269 -0.036910174825349286 0.9967226590965269 -0.036910174825349286 0.003277340903473188 0.036910174825349286
7.79925E9 0.003371206194568294 0.038039295965540974 0.9966287938054317 -0.038039295965540974 0.9966287938054317 -0.038039295965540974 0.003371206194568294 0.038039295965540974
7.874E9 0.0034672807171371904 0.03916159321017482 0.9965327192828628 -0.03916159321017482 0.9965327192828628 -0.03916159321017482 0.0034672807171371904 0.03916159321017482
7.94875E9 0.003565542707822809 0.04027728086865868 0.9964344572921771 -0.04027728086865868 0.9964344572921771 -0.04027728086865868 0.003565542707822809 0.04027728086865868
8.0235E9 0.0036659722819712987 0.04138656624624596 0.9963340277180285 -0.04138656624624596 0.9963340277180285 -0.04138656624624596 0.0036659722819712987 0.04138656624624596
8.09825E9 0.0037685513741081388 0.04248965000792148 0.996231448625892 -0.04248965000792148 0.996231448625892 -0.04248965000792148 0.0037685513741081388 0.04248965000792148
8.173E9 0.0038732636850456344 0.04358672652516307 0.9961267363149543 -0.04358672652516307 0.9961267363149543 -0.04358672652516307 0.0038732636850456344 0.04358672652516307
8.24775E9 0.003980094635376706 0.04467798420684296 0.9960199053646233 -0.04467798420684296 0.9960199053646233 -0.04467798420684296 0.003980094635376706 0.04467798420684296
8.3225E9 0.0040890313251518325 0.04576360581546143 0.9959109686748484 -0.04576360581546143 0.9959109686748484 -0.04576360581546143 0.0040890313251518325 0.04576360581546143
8.39725E9 0.004200062499576548 0.046843768769838874 0.9957999375004233 -0.046843768769838874 0.9957999375004233 -0.046843768769838874 0.004200062499576548 0.046843768769838874
8.472E9 0.004313178520606602 0.04791864543533376 0.9956868214793932 -0.04791864543533376 0.9956868214793932 -0.04791864543533376 0.004313178520606602 0.04791864543533376
8.54675E9 0.004428371344357415 0.04898840340260107 0.9955716286556426 -0.04898840340260107 0.9955716286556426 -0.04898840340260107 0.004428371344357415 0.04898840340260107
