!Murata Part Number: GJM0225C1E2R7BB01
!These Parameters are Measured in Series Mode Connection
!       o--ll--o
!Port1            Port2
!       o------o
!Operation Temp=25[degC], DC Bias Voltage=0[V]
!Freq. Start=100[MHz] Stop=30[GHz], 401[Steps]
!Data Generated on Feb 1, 2023
# Hz S RI R 50
!Freq.(Hz) S11(Real) S11(Imag) S21(Real) S21(Imag) S12(Real) S12(Imag) S22(Real) S22(Imag)
1.0E8 0.9719585952135159 -0.1649096684223217 0.028041404786484175 0.1649096684223217 0.028041404786484175 0.1649096684223217 0.9719585952135159 -0.1649096684223217
1.7475E8 0.9189834227276258 -0.27254335227130777 0.08101657727237423 0.27254335227130777 0.08101657727237423 0.27254335227130777 0.9189834227276258 -0.27254335227130777
2.495E8 0.8475371537179245 -0.35901575936974867 0.1524628462820756 0.35901575936974867 0.1524628462820756 0.35901575936974867 0.8475371537179245 -0.35901575936974867
3.2425E8 0.7667330534924066 -0.42232124457054404 0.23326694650759328 0.42232124457054404 0.23326694650759328 0.42232124457054404 0.7667330534924066 -0.42232124457054404
3.99E8 0.6842480913133828 -0.4640884639910898 0.31575190868661723 0.4640884639910898 0.31575190868661723 0.4640884639910898 0.6842480913133828 -0.4640884639910898
4.7375E8 0.605366559356355 -0.4879084607568658 0.39463344064364514 0.4879084607568658 0.39463344064364514 0.4879084607568658 0.605366559356355 -0.4879084607568658
5.485E8 0.5330664233686622 -0.4979042760231401 0.466933576631338 0.4979042760231401 0.466933576631338 0.4979042760231401 0.5330664233686622 -0.4979042760231401
6.2325E8 0.46858699870916315 -0.4978726386347934 0.5314130012908368 0.4978726386347934 0.5314130012908368 0.4978726386347934 0.46858699870916315 -0.4978726386347934
6.98E8 0.4120565582757981 -0.49092632516288326 0.587943441724202 0.49092632516288326 0.587943441724202 0.49092632516288326 0.4120565582757981 -0.49092632516288326
7.7275E8 0.3629906318596786 -0.47944316774127155 0.6370093681403215 0.47944316774127155 0.6370093681403215 0.47944316774127155 0.3629906318596786 -0.47944316774127155
8.475E8 0.3206257631231182 -0.4651569989599758 0.6793742368768817 0.4651569989599758 0.6793742368768817 0.4651569989599758 0.3206257631231182 -0.4651569989599758
9.2225E8 0.2841182222550257 -0.4492910665680946 0.7158817777449743 0.4492910665680946 0.7158817777449743 0.4492910665680946 0.2841182222550257 -0.4492910665680946
9.97E8 0.2526502848871996 -0.43268632415238484 0.7473497151128007 0.43268632415238484 0.7473497151128007 0.43268632415238484 0.2526502848871996 -0.43268632415238484
1.07175E9 0.22547971198401115 -0.4159074134392181 0.7745202880159887 0.4159074134392181 0.7745202880159887 0.4159074134392181 0.22547971198401115 -0.4159074134392181
1.1465E9 0.2019570462580228 -0.39932380753376406 0.7980429537419771 0.39932380753376406 0.7980429537419771 0.39932380753376406 0.2019570462580228 -0.39932380753376406
1.22125E9 0.18152606767459942 -0.3831693192470239 0.8184739323254006 0.3831693192470239 0.8184739323254006 0.3831693192470239 0.18152606767459942 -0.3831693192470239
1.296E9 0.1637163348539132 -0.3675846312349685 0.8362836651460867 0.3675846312349685 0.8362836651460867 0.3675846312349685 0.1637163348539132 -0.3675846312349685
1.37075E9 0.1481327176008553 -0.35264721020796025 0.8518672823991447 0.35264721020796025 0.8518672823991447 0.35264721020796025 0.1481327176008553 -0.35264721020796025
1.4455E9 0.134444455065772 -0.33839213386204486 0.8655555449342279 0.33839213386204486 0.8655555449342279 0.33839213386204486 0.134444455065772 -0.33839213386204486
1.52025E9 0.12237493899679057 -0.3248264911116262 0.8776250610032096 0.3248264911116262 0.8776250610032096 0.3248264911116262 0.12237493899679057 -0.3248264911116262
1.595E9 0.11169270086396985 -0.311939286216472 0.8883072991360302 0.311939286216472 0.8883072991360302 0.311939286216472 0.11169270086396985 -0.311939286216472
1.66975E9 0.10220371153133692 -0.2997082172135749 0.897796288468663 0.2997082172135749 0.897796288468663 0.2997082172135749 0.10220371153133692 -0.2997082172135749
1.7445E9 0.09374492577951443 -0.2881042891595527 0.9062550742204857 0.2881042891595527 0.9062550742204857 0.2881042891595527 0.09374492577951443 -0.2881042891595527
1.81925E9 0.08617893119112152 -0.27709493065417046 0.9138210688088785 0.27709493065417046 0.9138210688088785 0.27709493065417046 0.08617893119112152 -0.27709493065417046
1.894E9 0.07938954121437794 -0.26664607721407274 0.9206104587856221 0.26664607721407274 0.9206104587856221 0.26664607721407274 0.07938954121437794 -0.26664607721407274
1.96875E9 0.07327817800644792 -0.25672354251843044 0.926721821993552 0.25672354251843044 0.926721821993552 0.25672354251843044 0.07327817800644792 -0.25672354251843044
2.0435E9 0.0677609072307538 -0.24729389980424474 0.9322390927692463 0.24729389980424474 0.9322390927692463 0.24729389980424474 0.0677609072307538 -0.24729389980424474
2.11825E9 0.06276600680366312 -0.23832502739788103 0.9372339931963367 0.23832502739788103 0.9372339931963367 0.23832502739788103 0.06276600680366312 -0.23832502739788103
2.193E9 0.058231971011521506 -0.22978642513484338 0.9417680289884783 0.22978642513484338 0.9417680289884783 0.22978642513484338 0.058231971011521506 -0.22978642513484338
2.26775E9 0.05410586887455409 -0.22164937571215493 0.945894131125446 0.22164937571215493 0.945894131125446 0.22164937571215493 0.05410586887455409 -0.22164937571215493
2.3425E9 0.05034199060928497 -0.21388700233043273 0.949658009390715 0.21388700233043273 0.949658009390715 0.21388700233043273 0.05034199060928497 -0.21388700233043273
2.41725E9 0.04690072854341909 -0.20647425821528728 0.9530992714565812 0.20647425821528728 0.9530992714565812 0.20647425821528728 0.04690072854341909 -0.20647425821528728
2.492E9 0.043747649101907767 -0.1993878726284903 0.9562523508980921 0.1993878726284903 0.9562523508980921 0.1993878726284903 0.043747649101907767 -0.1993878726284903
2.56675E9 0.04085272082345955 -0.19260627032168812 0.9591472791765403 0.19260627032168812 0.9591472791765403 0.19260627032168812 0.04085272082345955 -0.19260627032168812
2.6415E9 0.03818967010094392 -0.18610947603813036 0.9618103298990561 0.18610947603813036 0.9618103298990561 0.18610947603813036 0.03818967010094392 -0.18610947603813036
2.71625E9 0.03573544175666851 -0.17987901193196604 0.9642645582433313 0.17987901193196604 0.9642645582433313 0.17987901193196604 0.03573544175666851 -0.17987901193196604
2.791E9 0.03346974591423018 -0.1738977931655714 0.96653025408577 0.1738977931655714 0.96653025408577 0.1738977931655714 0.03346974591423018 -0.1738977931655714
2.86575E9 0.03137467612118378 -0.16815002512608757 0.9686253238788163 0.16815002512608757 0.9686253238788163 0.16815002512608757 0.03137467612118378 -0.16815002512608757
2.9405E9 0.029434386481940366 -0.16262110443769448 0.9705656135180597 0.16262110443769448 0.9705656135180597 0.16262110443769448 0.029434386481940366 -0.16262110443769448
3.01525E9 0.02763481781618482 -0.157297525071519 0.9723651821838152 0.157297525071519 0.9723651821838152 0.157297525071519 0.02763481781618482 -0.157297525071519
3.09E9 0.025963464675420694 -0.15216679025490015 0.9740365353245793 0.15216679025490015 0.9740365353245793 0.15216679025490015 0.025963464675420694 -0.15216679025490015
3.16475E9 0.02440917651737887 -0.14721733047466373 0.975590823482621 0.14721733047466373 0.975590823482621 0.14721733047466373 0.02440917651737887 -0.14721733047466373
3.2395E9 0.022961987525272155 -0.14243842759767064 0.9770380124747279 0.14243842759767064 0.9770380124747279 0.14243842759767064 0.022961987525272155 -0.14243842759767064
3.31425E9 0.021612970522120887 -0.1378201449556289 0.9783870294778791 0.1378201449556289 0.9783870294778791 0.1378201449556289 0.021612970522120887 -0.1378201449556289
3.389E9 0.020354111213997623 -0.13335326313125026 0.9796458887860023 0.13335326313125026 0.9796458887860023 0.13335326313125026 0.020354111213997623 -0.13335326313125026
3.46375E9 0.019178199635330406 -0.1290292211189503 0.9808218003646696 0.1290292211189503 0.9808218003646696 0.1290292211189503 0.019178199635330406 -0.1290292211189503
3.5385E9 0.018078736192437134 -0.12484006250099891 0.9819212638075627 0.12484006250099891 0.9819212638075627 0.12484006250099891 0.018078736192437134 -0.12484006250099891
3.61325E9 0.01704985013061997 -0.12077838626914028 0.9829501498693801 0.12077838626914028 0.9829501498693801 0.12077838626914028 0.01704985013061997 -0.12077838626914028
3.688E9 0.016086228603297184 -0.11683730192499264 0.9839137713967029 0.11683730192499264 0.9839137713967029 0.11683730192499264 0.016086228603297184 -0.11683730192499264
3.76275E9 0.015183054813094385 -0.11301038850496137 0.9848169451869055 0.11301038850496137 0.9848169451869055 0.11301038850496137 0.015183054813094385 -0.11301038850496137
3.8375E9 0.014335953936026793 -0.1092916571933845 0.9856640460639733 0.1092916571933845 0.9856640460639733 0.1092916571933845 0.014335953936026793 -0.1092916571933845
3.91225E9 0.01354094574010799 -0.1056755172087353 0.9864590542598919 0.1056755172087353 0.9864590542598919 0.1056755172087353 0.01354094574010799 -0.1056755172087353
3.987E9 0.01279440297635332 -0.10215674467023467 0.9872055970236467 0.10215674467023467 0.9872055970236467 0.10215674467023467 0.01279440297635332 -0.10215674467023467
4.06175E9 0.012093014759221164 -0.09873045417503767 0.9879069852407789 0.09873045417503767 0.9879069852407789 0.09873045417503767 0.012093014759221164 -0.09873045417503767
4.1365E9 0.011433754269925238 -0.09539207283851091 0.9885662457300749 0.09539207283851091 0.9885662457300749 0.09539207283851091 0.011433754269925238 -0.09539207283851091
4.21125E9 0.01081385021371546 -0.09213731657152863 0.9891861497862844 0.09213731657152863 0.9891861497862844 0.09213731657152863 0.01081385021371546 -0.09213731657152863
4.286E9 0.010230761544390968 -0.08896216838890857 0.9897692384556092 0.08896216838890857 0.9897692384556092 0.08896216838890857 0.010230761544390968 -0.08896216838890857
4.36075E9 0.009682155038612944 -0.08586285856193251 0.9903178449613872 0.08586285856193251 0.9903178449613872 0.08586285856193251 0.009682155038612944 -0.08586285856193251
4.4355E9 0.009165885361186489 -0.08283584644529321 0.9908341146388133 0.08283584644529321 0.9908341146388133 0.08283584644529321 0.009165885361186489 -0.08283584644529321
4.51025E9 0.008679977312155016 -0.07987780382478438 0.9913200226878447 0.07987780382478438 0.9913200226878447 0.07987780382478438 0.008679977312155016 -0.07987780382478438
4.585E9 0.008222609988757375 -0.07698559964664443 0.9917773900112425 0.07698559964664443 0.9917773900112425 0.07698559964664443 0.008222609988757375 -0.07698559964664443
4.65975E9 0.007792102631244787 -0.07415628600274787 0.9922078973687551 0.07415628600274787 0.9922078973687551 0.07415628600274787 0.007792102631244787 -0.07415628600274787
4.7345E9 0.007386901952239795 -0.071387085257893 0.9926130980477603 0.071387085257893 0.9926130980477603 0.071387085257893 0.007386901952239795 -0.071387085257893
4.80925E9 0.007005570775571065 -0.06867537821634441 0.992994429224429 0.06867537821634441 0.992994429224429 0.06867537821634441 0.007005570775571065 -0.06867537821634441
4.884E9 0.006646777833027285 -0.06601869323465707 0.9933532221669725 0.06601869323465707 0.9933532221669725 0.06601869323465707 0.006646777833027285 -0.06601869323465707
4.95875E9 0.006309288586813098 -0.06341469619670827 0.9936907114131869 0.06341469619670827 0.9936907114131869 0.06341469619670827 0.006309288586813098 -0.06341469619670827
5.0335E9 0.005991956962142938 -0.06086118127489641 0.9940080430378568 0.06086118127489641 0.9940080430378568 0.06086118127489641 0.005991956962142938 -0.06086118127489641
5.10825E9 0.005693717888775955 -0.05835606240870174 0.9943062821112242 0.05835606240870174 0.9943062821112242 0.05835606240870174 0.005693717888775955 -0.05835606240870174
5.183E9 0.005413580562715914 -0.05589736543832387 0.994586419437284 0.05589736543832387 0.994586419437284 0.05589736543832387 0.005413580562715914 -0.05589736543832387
5.25775E9 0.00515062235005851 -0.05348322083698497 0.9948493776499413 0.05348322083698497 0.9948493776499413 0.05348322083698497 0.00515062235005851 -0.05348322083698497
5.3325E9 0.004903983264304822 -0.051111856990776965 0.9950960167356954 0.051111856990776965 0.9950960167356954 0.051111856990776965 0.004903983264304822 -0.051111856990776965
5.40725E9 0.004672860956577068 -0.04878159397969541 0.9953271390434231 0.04878159397969541 0.9953271390434231 0.04878159397969541 0.004672860956577068 -0.04878159397969541
5.482E9 0.004456506165243071 -0.046490837817798794 0.9955434938347569 0.046490837817798794 0.9955434938347569 0.046490837817798794 0.004456506165243071 -0.046490837817798794
5.55675E9 0.004254218577624719 -0.044238075114298385 0.9957457814223752 0.044238075114298385 0.9957457814223752 0.044238075114298385 0.004254218577624719 -0.044238075114298385
5.6315E9 0.004065343061857978 -0.04202186812087566 0.9959346569381421 0.04202186812087566 0.9959346569381421 0.04202186812087566 0.004065343061857978 -0.04202186812087566
5.70625E9 0.003889266231692697 -0.03984085013366979 0.9961107337683072 0.03984085013366979 0.9961107337683072 0.03984085013366979 0.003889266231692697 -0.03984085013366979
5.781E9 0.0037254133111606766 -0.03769372122121964 0.9962745866888393 0.03769372122121964 0.9962745866888393 0.03769372122121964 0.0037254133111606766 -0.03769372122121964
5.85575E9 0.0035732452696768994 -0.0355792442522088 0.996426754730323 0.0355792442522088 0.996426754730323 0.0355792442522088 0.0035732452696768994 -0.0355792442522088
5.9305E9 0.0034322562013382263 -0.0334962411991799 0.9965677437986618 0.0334962411991799 0.9965677437986618 0.0334962411991799 0.0034322562013382263 -0.0334962411991799
6.00525E9 0.003301970925002917 -0.031443589696481436 0.9966980290749972 0.031443589696481436 0.9966980290749972 0.031443589696481436 0.003301970925002917 -0.031443589696481436
6.08E9 0.003181942784221842 -0.029420219832603692 0.9968180572157782 0.029420219832603692 0.9968180572157782 0.029420219832603692 0.003181942784221842 -0.029420219832603692
6.15475E9 0.0030717516282909693 -0.027425111158780168 0.996928248371709 0.027425111158780168 0.996928248371709 0.027425111158780168 0.0030717516282909693 -0.027425111158780168
6.2295E9 0.0029710019576401413 -0.0254572898972825 0.9970289980423601 0.0254572898972825 0.9970289980423601 0.0254572898972825 0.0029710019576401413 -0.0254572898972825
6.30425E9 0.00287932121849785 -0.02351582633424971 0.9971206787815022 0.02351582633424971 0.9971206787815022 0.02351582633424971 0.00287932121849785 -0.02351582633424971
6.379E9 0.0027963582333020522 -0.021599832383170574 0.997203641766698 0.021599832383170574 0.997203641766698 0.021599832383170574 0.0027963582333020522 -0.021599832383170574
6.45375E9 0.0027217817546871786 -0.019708459306298956 0.9972782182453127 0.019708459306298956 0.9972782182453127 0.019708459306298956 0.0027217817546871786 -0.019708459306298956
6.5285E9 0.0026552791320879014 -0.017840895582338496 0.9973447208679121 0.017840895582338496 0.9973447208679121 0.017840895582338496 0.0026552791320879014 -0.017840895582338496
6.60325E9 0.002596555081078618 -0.015996364909692064 0.9974034449189214 0.015996364909692064 0.9974034449189214 0.015996364909692064 0.002596555081078618 -0.015996364909692064
6.678E9 0.002545330546529796 -0.014174124335444514 0.9974546694534703 0.014174124335444514 0.9974546694534703 0.014174124335444514 0.002545330546529796 -0.014174124335444514
6.75275E9 0.0025013416515217582 -0.012373462501042915 0.9974986583484782 0.012373462501042915 0.9974986583484782 0.012373462501042915 0.0025013416515217582 -0.012373462501042915
6.8275E9 0.002464338724725202 -0.010593697996363529 0.9975356612752747 0.010593697996363529 0.9975356612752747 0.010593697996363529 0.002464338724725202 -0.010593697996363529
6.90225E9 0.0024340853996459677 -0.00883417781451446 0.9975659146003538 0.00883417781451446 0.9975659146003538 0.00883417781451446 0.0024340853996459677 -0.00883417781451446
6.977E9 0.00241035777974867 -0.007094275900328453 0.9975896422202511 0.007094275900328453 0.9975896422202511 0.007094275900328453 0.00241035777974867 -0.007094275900328453
7.05175E9 0.0023929436640275155 -0.005373391786049006 0.9976070563359726 0.005373391786049006 0.9976070563359726 0.005373391786049006 0.0023929436640275155 -0.005373391786049006
7.1265E9 0.0023816418280902477 -0.0036709493082186435 0.9976183581719097 0.0036709493082186435 0.9976183581719097 0.0036709493082186435 0.0023816418280902477 -0.0036709493082186435
7.20125E9 0.002376261356268715 -0.0019863954002375312 0.9976237386437314 0.0019863954002375312 0.9976237386437314 0.0019863954002375312 0.002376261356268715 -0.0019863954002375312
7.276E9 0.0023766210206725494 -3.1919895548362183E-4 0.9976233789793273 3.1919895548362183E-4 0.9976233789793273 3.1919895548362183E-4 0.0023766210206725494 -3.1919895548362183E-4
7.35075E9 0.0023825487034657544 0.0013311502437294712 0.9976174512965343 -0.0013311502437294712 0.9976174512965343 -0.0013311502437294712 0.0023825487034657544 0.0013311502437294712
7.4255E9 0.002393880858973799 0.0029651425357248916 0.9976061191410261 -0.0029651425357248916 0.9976061191410261 -0.0029651425357248916 0.002393880858973799 0.0029651425357248916
7.50025E9 0.002410462012524907 0.004583249331609974 0.997589537987475 -0.004583249331609974 0.997589537987475 -0.004583249331609974 0.002410462012524907 0.004583249331609974
7.575E9 0.0024321442931969613 0.0061859240137435295 0.9975678557068031 -0.0061859240137435295 0.9975678557068031 -0.0061859240137435295 0.0024321442931969613 0.0061859240137435295
7.64975E9 0.0024587869978837658 0.007773602783995514 0.9975412130021162 -0.007773602783995514 0.9975412130021162 -0.007773602783995514 0.0024587869978837658 0.007773602783995514
7.7245E9 0.0024902561843138976 0.009346705465018026 0.9975097438156862 -0.009346705465018026 0.9975097438156862 -0.009346705465018026 0.0024902561843138976 0.009346705465018026
7.79925E9 0.0025264242908544323 0.010905636257515767 0.9974735757091454 -0.010905636257515767 0.9974735757091454 -0.010905636257515767 0.0025264242908544323 0.010905636257515767
7.874E9 0.002567169781112544 0.012450784456291499 0.9974328302188874 -0.012450784456291499 0.9974328302188874 -0.012450784456291499 0.002567169781112544 0.012450784456291499
7.94875E9 0.002612376811512005 0.013982525127643334 0.9973876231884881 -0.013982525127643334 0.9973876231884881 -0.013982525127643334 0.002612376811512005 0.013982525127643334
8.0235E9 0.0026619349201709697 0.015501219750512444 0.997338065079829 -0.015501219750512444 0.997338065079829 -0.015501219750512444 0.0026619349201709697 0.015501219750512444
8.09825E9 0.0027157387355431135 0.017007216823609936 0.9972842612644567 -0.017007216823609936 0.9972842612644567 -0.017007216823609936 0.0027157387355431135 0.017007216823609936
8.173E9 0.0027736877034080284 0.018500852440600124 0.997226312296592 -0.018500852440600124 0.997226312296592 -0.018500852440600124 0.0027736877034080284 0.018500852440600124
8.24775E9 0.002835685830909422 0.019982450835272607 0.9971643141690905 -0.019982450835272607 0.9971643141690905 -0.019982450835272607 0.002835685830909422 0.019982450835272607
8.3225E9 0.002901641446442674 0.021452324898505914 0.9970983585535572 -0.021452324898505914 0.9970983585535572 -0.021452324898505914 0.002901641446442674 0.021452324898505914
8.39725E9 0.002971466974287193 0.022910776668702976 0.9970285330257128 -0.022910776668702976 0.9970285330257128 -0.022910776668702976 0.002971466974287193 0.022910776668702976
8.472E9 0.0030450787229648647 0.02435809779726561 0.9969549212770351 -0.02435809779726561 0.9969549212770351 -0.02435809779726561 0.0030450787229648647 0.02435809779726561
8.54675E9 0.0031223966863845034 0.025794569990572593 0.9968776033136154 -0.025794569990572593 0.9968776033136154 -0.025794569990572593 0.0031223966863845034 0.025794569990572593
